! NanoVNA-App
! Date: 2024-06-25 16:30:08
! Start: 200.00MHz  Stop: 6.00GHz  Points: 801
! S-Parameter data: F S11
# Hz S RI R 50
Frequency           S1_Real           S1_Imag           S11_Real           S11_Imag           S21_Real           S21_Imag
2.00000000E+8      1.07374182E+9      0.00000000E+0      5.28918073E-1      1.17558353E-1      6.50156289E-6      -1.39279291E-5
2.07250000E+8      1.07374182E+9      0.00000000E+0      5.29796212E-1      2.00477189E-2      1.07148662E-5      -7.56606460E-6
2.14500000E+8      1.07374182E+9      0.00000000E+0      5.29263321E-1      -7.65618177E-2      -7.26152211E-6      -5.23878261E-5
2.21750000E+8      1.07374182E+9      0.00000000E+0      5.26577007E-1      -1.82207371E-1      -1.42864883E-5      1.48983672E-5
2.29000000E+8      1.07374182E+9      0.00000000E+0      5.22576845E-1      -3.08391327E-1      1.12606212E-5      -7.51577318E-7
2.36250000E+8      1.07374182E+9      0.00000000E+0      5.12430015E-1      -4.80675745E-1      2.16346234E-5      -9.27504152E-6
2.43500000E+8      1.07374182E+9      0.00000000E+0      4.88657995E-1      -7.54460591E-1      -1.98530033E-5      5.64940274E-6
2.50750000E+8      1.07374182E+9      0.00000000E+0      4.00101826E-1      -1.35115565E+0      -3.58354300E-5      3.87430191E-7
2.58000000E+8      1.07374182E+9      0.00000000E+0      -7.32954834E-1      -4.03238881E+0      -1.24610960E-6      -1.64574012E-5
2.65250000E+8      1.07374182E+9      0.00000000E+0      -4.53958116E-1      3.56348500E+0      -3.69343907E-5      3.47848982E-6
2.72500000E+8      1.07374182E+9      0.00000000E+0      4.02252295E-1      1.25919957E+0      -1.88723207E-5      -6.38747588E-5
2.79750000E+8      1.07374182E+9      0.00000000E+0      4.87539880E-1      7.05451472E-1      -3.45008448E-5      2.70055607E-5
2.87000000E+8      1.07374182E+9      0.00000000E+0      5.08790327E-1      4.36692855E-1      -1.68252736E-5      7.60983676E-6
2.94250000E+8      1.07374182E+9      0.00000000E+0      5.18040721E-1      2.65747115E-1      -7.01099634E-6      3.40873376E-5
3.01500000E+8      1.07374182E+9      0.00000000E+0      5.22660621E-1      1.33876180E-1      3.04095447E-5      4.28967178E-6
3.08750000E+8      1.07374182E+9      0.00000000E+0      5.25088465E-1      1.84355671E-2      -1.08210370E-5      5.67547977E-6
3.16000000E+8      1.07374182E+9      0.00000000E+0      5.25769114E-1      -9.51021317E-2      -4.23435122E-5      1.20727345E-5
3.23250000E+8      1.07374182E+9      0.00000000E+0      5.24684315E-1      -2.21527760E-1      -2.32271850E-6      -9.85059887E-6
3.30500000E+8      1.07374182E+9      0.00000000E+0      5.20429840E-1      -3.81553165E-1      1.79819763E-5      1.61593780E-5
3.37750000E+8      1.07374182E+9      0.00000000E+0      5.04733546E-1      -6.21250609E-1      1.32964924E-5      -3.90876085E-5
3.45000000E+8      1.07374182E+9      0.00000000E+0      4.37273151E-1      -1.09906382E+0      -1.01691112E-5      2.75038183E-5
3.52250000E+8      1.07374182E+9      0.00000000E+0      -2.97703168E-1      -2.72421559E+0      -5.63543290E-6      1.34669244E-5
3.59500000E+8      1.07374182E+9      0.00000000E+0      -1.97315504E+0      3.30192080E+0      1.28205866E-5      -3.82447615E-5
3.66750000E+8      1.07374182E+9      0.00000000E+0      1.66785203E-1      1.22999018E+0      -4.29172069E-5      6.37862831E-6
3.74000000E+8      1.07374182E+9      0.00000000E+0      3.57148045E-1      6.66109590E-1      7.62846321E-6      2.85357237E-5
3.81250000E+8      1.07374182E+9      0.00000000E+0      4.11546335E-1      3.96284650E-1      4.01996076E-5      -5.21168113E-6
3.88500000E+8      1.07374182E+9      0.00000000E+0      4.31379613E-1      2.24446042E-1      -3.13632190E-5      -4.60445881E-6
3.95750000E+8      1.07374182E+9      0.00000000E+0      4.38557043E-1      9.17018655E-2      1.43814832E-5      1.55325979E-5
4.03000000E+8      1.07374182E+9      0.00000000E+0      4.36240585E-1      -2.70974109E-2      -8.24779272E-6      -1.33924186E-6
4.10250000E+8      1.07374182E+9      0.00000000E+0      4.25172909E-1      -1.46308615E-1      1.72927976E-5      -2.07126141E-6
4.17500000E+8      1.07374182E+9      0.00000000E+0      4.01178030E-1      -2.80308018E-1      2.89771706E-5      9.25920904E-6
4.24750000E+8      1.07374182E+9      0.00000000E+0      3.50117935E-1      -4.52489485E-1      1.92262232E-5      -7.09854066E-6
4.32000000E+8      1.07374182E+9      0.00000000E+0      2.29720825E-1      -7.06998733E-1      5.31505793E-6      -4.19812277E-5
4.39250000E+8      1.07374182E+9      0.00000000E+0      -1.41826137E-1      -1.13398675E+0      -2.59634107E-5      -1.58287585E-5
4.46500000E+8      1.07374182E+9      0.00000000E+0      -1.84420712E+0      -1.30145200E+0      2.86754221E-6      -1.74185261E-5
4.53750000E+8      1.07374182E+9      0.00000000E+0      -1.25614372E+0      1.71853305E+0      -5.96884638E-6      2.50255689E-5
4.61000000E+8      1.07374182E+9      0.00000000E+0      9.71177912E-2      1.16420595E+0      2.28052959E-5      2.44379044E-6
4.68250000E+8      1.07374182E+9      0.00000000E+0      3.68249682E-1      7.31488587E-1      5.69196418E-5      -3.50242481E-5
4.75500000E+8      1.07374182E+9      0.00000000E+0      4.52523721E-1      4.81411203E-1      3.27639282E-6      -1.47987157E-5
4.82750000E+8      1.07374182E+9      0.00000000E+0      4.89253488E-1      3.17688517E-1      -1.91628933E-5      -2.79620290E-5
4.90000000E+8      1.07374182E+9      0.00000000E+0      5.07873550E-1      1.92452715E-1      -2.71201134E-6      -1.75107270E-5
4.97250000E+8      1.07374182E+9      0.00000000E+0      5.20568454E-1      8.68086806E-2      2.63256952E-5      -1.14794821E-5
5.04500000E+8      1.07374182E+9      0.00000000E+0      5.29664235E-1      -1.18768368E-2      -1.34371221E-5      8.39866698E-6
5.11750000E+8      1.07374182E+9      0.00000000E+0      5.38544264E-1      -1.12245847E-1      -1.40815973E-6      -9.83383507E-6
5.19000000E+8      1.07374182E+9      0.00000000E+0      5.50156569E-1      -2.23653622E-1      -4.54299152E-6      -1.71260908E-5
5.26250000E+8      1.07374182E+9      0.00000000E+0      5.67906946E-1      -3.61773025E-1      3.55308875E-5      -1.59358606E-5
5.33500000E+8      1.07374182E+9      0.00000000E+0      6.04844140E-1      -5.54365447E-1      -1.67451799E-6      -3.65171582E-5
5.40750000E+8      1.07374182E+9      0.00000000E+0      7.02572968E-1      -8.72755063E-1      1.95326284E-5      -1.54878944E-5
5.48000000E+8      1.07374182E+9      0.00000000E+0      1.11916973E+0      -1.53255137E+0      -2.29598954E-5      3.46358865E-6
5.55250000E+8      1.07374182E+9      0.00000000E+0      4.21892098E+0      -1.47447409E+0      2.78744847E-6      3.04542482E-7
5.62500000E+8      1.07374182E+9      0.00000000E+0      1.82590710E+0      1.77073781E+0      -4.50797379E-5      -2.81380489E-5
5.69750000E+8      1.07374182E+9      0.00000000E+0      9.26795396E-1      1.01166910E+0      -1.60373747E-5      5.89527190E-6
5.77000000E+8      1.07374182E+9      0.00000000E+0      7.32872430E-1      6.35725299E-1      6.41755760E-5      2.06939876E-5
5.84250000E+8      1.07374182E+9      0.00000000E+0      6.62799282E-1      4.19829704E-1      -4.12501395E-5      3.35825607E-5
5.91500000E+8      1.07374182E+9      0.00000000E+0      6.30493828E-1      2.72888413E-1      -2.27475539E-5      -1.13779679E-5
5.98750000E+8      1.07374182E+9      0.00000000E+0      6.13628048E-1      1.56827575E-1      -4.06559557E-5      2.69683078E-5
6.06000000E+8      1.07374182E+9      0.00000000E+0      6.04151138E-1      5.66939439E-2      -2.17510387E-5      8.96491110E-6
6.13250000E+8      1.07374182E+9      0.00000000E+0      5.99348017E-1      -3.89771265E-2      -2.68481672E-5      -7.05290586E-6
6.20500000E+8      1.07374182E+9      0.00000000E+0      5.98167061E-1      -1.39162012E-1      -4.88199294E-5      6.73253089E-6
6.27750000E+8      1.07374182E+9      0.00000000E+0      6.00094643E-1      -2.54998933E-1      2.29645520E-5      2.62632966E-5
6.35000000E+8      1.07374182E+9      0.00000000E+0      6.05833863E-1      -4.01396900E-1      3.27425078E-5      -4.47081402E-5
6.42250000E+8      1.07374182E+9      0.00000000E+0      6.17598929E-1      -6.23302431E-1      2.50507146E-5      2.71676108E-5
6.49500000E+8      1.07374182E+9      0.00000000E+0      6.35978547E-1      -1.04192414E+0      8.52253288E-6      4.54820693E-5
6.56750000E+8      1.07374182E+9      0.00000000E+0      6.09315659E-1      -2.35287292E+0      1.36150047E-5      9.36724246E-6
6.64000000E+8      1.07374182E+9      0.00000000E+0      -6.74866969E+0      8.90074671E+0      3.20458785E-5      -1.17626041E-5
6.71250000E+8      1.07374182E+9      0.00000000E+0      1.53438056E-1      1.65526431E+0      -5.82076609E-7      -2.88058072E-6
6.78500000E+8      1.07374182E+9      0.00000000E+0      3.56297613E-1      8.31691322E-1      -4.25614417E-7      2.18851492E-5
6.85750000E+8      1.07374182E+9      0.00000000E+0      4.11564521E-1      5.00930373E-1      -3.25078145E-5      -1.42036006E-5
6.93000000E+8      1.07374182E+9      0.00000000E+0      4.33732819E-1      3.06851991E-1      7.00168312E-6      1.92131847E-6
7.00250000E+8      1.07374182E+9      0.00000000E+0      4.41188033E-1      1.68046178E-1      4.97223809E-5      1.16415322E-7
7.07500000E+8      1.07374182E+9      0.00000000E+0      4.39634561E-1      5.31625699E-2      -1.46850944E-5      -2.83392146E-5
7.14750000E+8      1.07374182E+9      0.00000000E+0      4.29522592E-1      -5.31334156E-2      -3.39280814E-6      7.80448318E-7
7.22000000E+8      1.07374182E+9      0.00000000E+0      4.07459699E-1      -1.61249027E-1      7.20191747E-6      1.79596245E-5
7.29250000E+8      1.07374182E+9      0.00000000E+0      3.64723989E-1      -2.80773412E-1      2.64933333E-5      3.12346965E-5
7.36500000E+8      1.07374182E+9      0.00000000E+0      2.82467136E-1      -4.19314560E-1      2.20360234E-5      6.60810620E-5
7.43750000E+8      1.07374182E+9      0.00000000E+0      1.08643628E-1      -5.76738198E-1      -3.49991024E-6      2.01016665E-5
7.51000000E+8      1.07374182E+9      0.00000000E+0      -2.65307139E-1      -6.68968228E-1      1.22310594E-5      2.16066837E-6
7.58250000E+8      1.07374182E+9      0.00000000E+0      -7.78284886E-1      -3.14791399E-1      4.52166423E-5      -1.34697184E-5
7.65500000E+8      1.07374182E+9      0.00000000E+0      -6.38591862E-1      3.93431013E-1      -3.54433432E-5      2.26572156E-5
7.72750000E+8      1.07374182E+9      0.00000000E+0      -1.66643921E-1      5.48065773E-1      1.91181898E-5      5.27780503E-5
7.80000000E+8      1.07374182E+9      0.00000000E+0      1.03817391E-1      4.48909411E-1      -1.16536394E-5      1.05714425E-5
7.87250000E+8      1.07374182E+9      0.00000000E+0      2.44789147E-1      3.20253487E-1      -2.04388052E-5      2.31005251E-5
7.94500000E+8      1.07374182E+9      0.00000000E+0      3.16282020E-1      2.06717386E-1      -1.28978863E-5      -2.22120434E-6
8.01750000E+8      1.07374182E+9      0.00000000E+0      3.57035999E-1      1.04564242E-1      1.92215666E-5      2.23917887E-5
8.09000000E+8      1.07374182E+9      0.00000000E+0      3.79320922E-1      8.02644946E-3      1.37938187E-5      1.87586993E-5
8.16250000E+8      1.07374182E+9      0.00000000E+0      3.90317990E-1      -8.99858544E-2      1.43814832E-5      -1.85640529E-5
8.23500000E+8      1.07374182E+9      0.00000000E+0      3.91543930E-1      -1.97061056E-1      2.99569219E-5      -2.56020576E-5
8.30750000E+8      1.07374182E+9      0.00000000E+0      3.81574065E-1      -3.25668869E-1      -5.19491732E-6      -7.69644976E-6
8.38000000E+8      1.07374182E+9      0.00000000E+0      3.53374709E-1      -4.99421720E-1      2.61040404E-5      1.38729811E-5
8.45250000E+8      1.07374182E+9      0.00000000E+0      2.76670753E-1      -7.79842233E-1      1.58632174E-5      1.83684751E-5
8.52500000E+8      1.07374182E+9      0.00000000E+0      1.72024093E-2      -1.37003152E+0      2.81725079E-5      1.41281635E-6
8.59750000E+8      1.07374182E+9      0.00000000E+0      -2.43923918E+0      -3.11144434E+0      -2.41175294E-5      1.25849620E-5
8.67000000E+8      1.07374182E+9      0.00000000E+0      -4.47534963E-1      2.83406223E+0      2.21468508E-5      -4.17223200E-5
8.74250000E+8      1.07374182E+9      0.00000000E+0      4.29022517E-1      1.19043179E+0      -4.11197543E-5      -3.24090943E-5
8.81500000E+8      1.07374182E+9      0.00000000E+0      5.13541664E-1      6.65956818E-1      2.27224082E-5      2.45943666E-5
8.88750000E+8      1.07374182E+9      0.00000000E+0      5.31405116E-1      4.09229106E-1      -5.78723848E-6      4.74015251E-5
8.96000000E+8      1.07374182E+9      0.00000000E+0      5.37709245E-1      2.36385657E-1      3.78396362E-6      3.64119187E-5
9.03250000E+8      1.07374182E+9      0.00000000E+0      5.40067273E-1      1.02154240E-1      2.53496692E-5      1.01067126E-5
9.10500000E+8      1.07374182E+9      0.00000000E+0      5.41831686E-1      -1.99860292E-2      -4.25102189E-5      4.91114333E-5
9.17750000E+8      1.07374182E+9      0.00000000E+0      5.44194101E-1      -1.44227710E-1      -5.47077507E-5      5.19026071E-6
9.25000000E+8      1.07374182E+9      0.00000000E+0      5.47736328E-1      -2.86650208E-1      -5.14462590E-6      1.70404091E-5
9.32250000E+8      1.07374182E+9      0.00000000E+0      5.53690786E-1      -4.82599048E-1      -1.26184896E-5      -1.69901177E-5
9.39500000E+8      1.07374182E+9      0.00000000E+0      5.64268522E-1      -8.04138633E-1      1.01886690E-6      1.92737207E-5
9.46750000E+8      1.07374182E+9      0.00000000E+0      5.85878875E-1      -1.58370427E+0      -1.19963661E-5      1.16676092E-5
9.54000000E+8      1.07374182E+9      0.00000000E+0      2.92118571E-1      -8.39241700E+0      -3.32426280E-5      5.14192507E-5
9.61250000E+8      1.07374182E+9      0.00000000E+0      2.79629366E-1      2.71005612E+0      4.90434468E-6      -1.16685405E-5
9.68500000E+8      1.07374182E+9      0.00000000E+0      4.29307044E-1      1.12323114E+0      -5.37578017E-5      5.36441803E-7
9.75750000E+8      1.07374182E+9      0.00000000E+0      4.58900942E-1      6.70122210E-1      -1.27460808E-5      -3.11061740E-6
9.83000000E+8      1.07374182E+9      0.00000000E+0      4.68137448E-1      4.32070944E-1      -1.14617869E-5      -2.82507390E-5
9.90250000E+8      1.07374182E+9      0.00000000E+0      4.70624855E-1      2.78602693E-1      -1.87288970E-6      -1.90008432E-5
9.97500000E+8      1.07374182E+9      0.00000000E+0      4.68854010E-1      1.61071841E-1      1.37053430E-5      -1.50073320E-5
1.00475000E+9      1.07374182E+9      0.00000000E+0      4.62463372E-1      6.08762937E-2      8.43778253E-6      -2.41929665E-5
1.01200000E+9      1.07374182E+9      0.00000000E+0      4.51651114E-1      -3.20345834E-2      -6.27264380E-5      2.01165676E-6
1.01925000E+9      1.07374182E+9      0.00000000E+0      4.33347448E-1      -1.25125962E-1      2.57529318E-5      -4.45237383E-5
1.02650000E+9      1.07374182E+9      0.00000000E+0      4.04231738E-1      -2.24263167E-1      -2.21822411E-5      4.00189310E-6
1.03375000E+9      1.07374182E+9      0.00000000E+0      3.52639551E-1      -3.38839958E-1      1.60522759E-5      5.66057861E-6
1.04100000E+9      1.07374182E+9      0.00000000E+0      2.59762170E-1      -4.71175666E-1      -2.45273113E-5      -7.72904605E-6
1.04825000E+9      1.07374182E+9      0.00000000E+0      7.27372119E-2      -6.16257989E-1      -4.53311950E-5      2.04471871E-5
1.05550000E+9      1.07374182E+9      0.00000000E+0      -2.93413078E-1      -6.81223940E-1      4.16459516E-5      2.86512077E-5
1.06275000E+9      1.07374182E+9      0.00000000E+0      -7.46828638E-1      -3.49032458E-1      -2.47815624E-5      -2.48160213E-5
1.07000000E+9      1.07374182E+9      0.00000000E+0      -6.82221771E-1      2.63013512E-1      -2.18022615E-6      5.51249832E-6
1.07725000E+9      1.07374182E+9      0.00000000E+0      -2.82595482E-1      4.74417523E-1      1.54636800E-5      1.43153593E-5
1.08450000E+9      1.07374182E+9      0.00000000E+0      -1.06621814E-2      4.23250035E-1      1.32722780E-5      -1.63633376E-6
1.09175000E+9      1.07374182E+9      0.00000000E+0      1.31275185E-1      3.21640836E-1      -1.36457384E-5      -3.54275107E-6
1.09900000E+9      1.07374182E+9      0.00000000E+0      2.04957093E-1      2.21835797E-1      -1.23865902E-7      -2.25584954E-5
1.10625000E+9      1.07374182E+9      0.00000000E+0      2.39775418E-1      1.31530202E-1      -2.58907676E-5      1.19870529E-5
1.11350000E+9      1.07374182E+9      0.00000000E+0      2.51724238E-1      4.80720962E-2      4.85498458E-6      -2.14707106E-5
1.12075000E+9      1.07374182E+9      0.00000000E+0      2.44676462E-1      -2.76905192E-2      8.73394310E-6      -1.95931643E-5
1.12800000E+9      1.07374182E+9      0.00000000E+0      2.19699339E-1      -1.00586338E-1      -2.48821452E-5      -2.08234414E-5
1.13525000E+9      1.07374182E+9      0.00000000E+0      1.72757149E-1      -1.68653294E-1      6.55185431E-6      3.35890800E-5
1.14250000E+9      1.07374182E+9      0.00000000E+0      9.76107925E-2      -2.27213974E-1      2.80579552E-5      3.54088843E-6
1.14975000E+9      1.07374182E+9      0.00000000E+0      -1.46778313E-2      -2.59759953E-1      1.25542283E-6      -2.97417864E-5
1.15700000E+9      1.07374182E+9      0.00000000E+0      -1.57927905E-1      -2.32954479E-1      1.80611387E-5      1.83545053E-5
1.16425000E+9      1.07374182E+9      0.00000000E+0      -2.88172380E-1      -1.06473712E-1      -1.47977844E-5      2.25109980E-5
1.17150000E+9      1.07374182E+9      0.00000000E+0      -3.09824961E-1      1.00233359E-1      -1.72862783E-5      1.58166513E-5
1.17875000E+9      1.07374182E+9      0.00000000E+0      -1.94326878E-1      2.65980884E-1      -2.25007534E-6      -2.64495611E-5
1.18600000E+9      1.07374182E+9      0.00000000E+0      -3.10874017E-2      3.21791250E-1      6.00731000E-5      1.19367614E-5
1.19325000E+9      1.07374182E+9      0.00000000E+0      1.08223191E-1      2.96040769E-1      5.18653542E-6      6.10202551E-6
1.20050000E+9      1.07374182E+9      0.00000000E+0      2.07597379E-1      2.31291515E-1      3.25674191E-5      1.40983611E-5
1.20775000E+9      1.07374182E+9      0.00000000E+0      2.70506433E-1      1.55544668E-1      -5.38676977E-6      -1.18613243E-5
1.21500000E+9      1.07374182E+9      0.00000000E+0      3.11711340E-1      7.08758112E-2      3.22423875E-6      -1.28764659E-5
1.22225000E+9      1.07374182E+9      0.00000000E+0      3.35172846E-1      -1.51793352E-2      -1.23064965E-5      -1.59824267E-5
1.22950000E+9      1.07374182E+9      0.00000000E+0      3.46255301E-1      -1.07811345E-1      -4.44259495E-5      5.23962080E-6
1.23675000E+9      1.07374182E+9      0.00000000E+0      3.44455975E-1      -2.15328323E-1      -3.19024548E-5      3.51388007E-6
1.24400000E+9      1.07374182E+9      0.00000000E+0      3.26700315E-1      -3.45635563E-1      -7.88830221E-6      -9.40635800E-8
1.25125000E+9      1.07374182E+9      0.00000000E+0      2.76249287E-1      -5.29778029E-1      -2.29198486E-6      2.92882323E-5
1.25850000E+9      1.07374182E+9      0.00000000E+0      1.46330509E-1      -8.10863844E-1      2.98889354E-5      2.00411305E-5
1.26575000E+9      1.07374182E+9      0.00000000E+0      -3.02470657E-1      -1.31640943E+0      -1.59731135E-5      3.13445926E-5
1.27300000E+9      1.07374182E+9      0.00000000E+0      -2.50469341E+0      -1.18019685E+0      -1.55158341E-5      2.89641321E-7
1.28025000E+9      1.07374182E+9      0.00000000E+0      -1.00141488E+0      1.72230408E+0      -1.99852511E-5      -3.01487744E-5
1.28750000E+9      1.07374182E+9      0.00000000E+0      4.38665379E-2      1.07330729E+0      1.50837004E-5      1.74101442E-5
1.29475000E+9      1.07374182E+9      0.00000000E+0      2.66746018E-1      6.62136624E-1      -2.93264166E-5      1.91144645E-5
