! R140 Conversion
! Date: 2025-10-23 16:17:36
! Start: 200.00MHz  Stop: 8.50GHz  Points: 167
 ! S-Parameter data: F S11 e
# Hz S RI R 50
!     Frequency           S11_Real           S11_Imag           Perm_Real           Perm_Imag           Dummy1           Dummy2           Dummy3           Dummy4
2.000000000000E+8      9.811680000000E-1      -1.839026666667E-1      7.893663333333E+1      7.556815000000E-1      0.000000000000E+0      0.000000000000E+0      0.000000000000E+0      0.000000000000E+0
2.500000000000E+8      9.704271666667E-1      -2.286161666667E-1      7.894888333333E+1      1.103006666667E+0      0.000000000000E+0      0.000000000000E+0      0.000000000000E+0      0.000000000000E+0
3.000000000000E+8      9.577146666667E-1      -2.726028333333E-1      7.896293333333E+1      1.324825000000E+0      0.000000000000E+0      0.000000000000E+0      0.000000000000E+0      0.000000000000E+0
3.500000000000E+8      9.428123333333E-1      -3.155540000000E-1      7.897188333333E+1      1.519065000000E+0      0.000000000000E+0      0.000000000000E+0      0.000000000000E+0      0.000000000000E+0
4.000000000000E+8      9.261786666667E-1      -3.573103333333E-1      7.897983333333E+1      1.695285000000E+0      0.000000000000E+0      0.000000000000E+0      0.000000000000E+0      0.000000000000E+0
4.500000000000E+8      9.075610000000E-1      -3.978873333333E-1      7.898018333333E+1      1.869565000000E+0      0.000000000000E+0      0.000000000000E+0      0.000000000000E+0      0.000000000000E+0
5.000000000000E+8      8.870205000000E-1      -4.370088333333E-1      7.897875000000E+1      2.030163333333E+0      0.000000000000E+0      0.000000000000E+0      0.000000000000E+0      0.000000000000E+0
5.500000000000E+8      8.649226666667E-1      -4.743386666667E-1      7.897795000000E+1      2.203740000000E+0      0.000000000000E+0      0.000000000000E+0      0.000000000000E+0      0.000000000000E+0
6.000000000000E+8      8.414076666667E-1      -5.107853333333E-1      7.897448333333E+1      2.384366666667E+0      0.000000000000E+0      0.000000000000E+0      0.000000000000E+0      0.000000000000E+0
6.500000000000E+8      8.161840000000E-1      -5.451795000000E-1      7.897016666667E+1      2.586755000000E+0      0.000000000000E+0      0.000000000000E+0      0.000000000000E+0      0.000000000000E+0
7.000000000000E+8      7.901213333333E-1      -5.779658333333E-1      7.895673333333E+1      2.809853333333E+0      0.000000000000E+0      0.000000000000E+0      0.000000000000E+0      0.000000000000E+0
7.500000000000E+8      7.626563333333E-1      -6.089296666667E-1      7.893041666667E+1      3.027748333333E+0      0.000000000000E+0      0.000000000000E+0      0.000000000000E+0      0.000000000000E+0
8.000000000000E+8      7.345360000000E-1      -6.383236666667E-1      7.889976666667E+1      3.228950000000E+0      0.000000000000E+0      0.000000000000E+0      0.000000000000E+0      0.000000000000E+0
8.500000000000E+8      7.053663333333E-1      -6.657941666667E-1      7.887676666667E+1      3.423058333333E+0      0.000000000000E+0      0.000000000000E+0      0.000000000000E+0      0.000000000000E+0
9.000000000000E+8      6.757843333333E-1      -6.924481666667E-1      7.885670000000E+1      3.621298333333E+0      0.000000000000E+0      0.000000000000E+0      0.000000000000E+0      0.000000000000E+0
9.500000000000E+8      6.449838333333E-1      -7.157701666667E-1      7.883678333333E+1      3.814125000000E+0      0.000000000000E+0      0.000000000000E+0      0.000000000000E+0      0.000000000000E+0
1.000000000000E+9      6.142455000000E-1      -7.380271666667E-1      7.882235000000E+1      4.009546666667E+0      0.000000000000E+0      0.000000000000E+0      0.000000000000E+0      0.000000000000E+0
1.050000000000E+9      5.831633333333E-1      -7.586628333333E-1      7.880666666667E+1      4.211425000000E+0      0.000000000000E+0      0.000000000000E+0      0.000000000000E+0      0.000000000000E+0
1.100000000000E+9      5.518835000000E-1      -7.772290000000E-1      7.878806666667E+1      4.410323333333E+0      0.000000000000E+0      0.000000000000E+0      0.000000000000E+0      0.000000000000E+0
1.150000000000E+9      5.199753333333E-1      -7.943313333333E-1      7.876733333333E+1      4.607175000000E+0      0.000000000000E+0      0.000000000000E+0      0.000000000000E+0      0.000000000000E+0
1.200000000000E+9      4.891546666667E-1      -8.091103333333E-1      7.874665000000E+1      4.808630000000E+0      0.000000000000E+0      0.000000000000E+0      0.000000000000E+0      0.000000000000E+0
1.250000000000E+9      4.588021666667E-1      -8.239088333333E-1      7.872316666667E+1      5.009618333333E+0      0.000000000000E+0      0.000000000000E+0      0.000000000000E+0      0.000000000000E+0
1.300000000000E+9      4.275428333333E-1      -8.370093333333E-1      7.869788333333E+1      5.209135000000E+0      0.000000000000E+0      0.000000000000E+0      0.000000000000E+0      0.000000000000E+0
1.350000000000E+9      3.969135000000E-1      -8.489666666667E-1      7.867465000000E+1      5.408371666667E+0      0.000000000000E+0      0.000000000000E+0      0.000000000000E+0      0.000000000000E+0
1.400000000000E+9      3.641680000000E-1      -8.594368333333E-1      7.864558333333E+1      5.607125000000E+0      0.000000000000E+0      0.000000000000E+0      0.000000000000E+0      0.000000000000E+0
1.450000000000E+9      3.330248333333E-1      -8.662163333333E-1      7.861561666667E+1      5.802503333333E+0      0.000000000000E+0      0.000000000000E+0      0.000000000000E+0      0.000000000000E+0
1.500000000000E+9      3.042165000000E-1      -8.721021666667E-1      7.858396666667E+1      5.996446666667E+0      0.000000000000E+0      0.000000000000E+0      0.000000000000E+0      0.000000000000E+0
1.550000000000E+9      2.760330000000E-1      -8.782461666667E-1      7.855160000000E+1      6.186805000000E+0      0.000000000000E+0      0.000000000000E+0      0.000000000000E+0      0.000000000000E+0
1.600000000000E+9      2.470855000000E-1      -8.838926666667E-1      7.852290000000E+1      6.372370000000E+0      0.000000000000E+0      0.000000000000E+0      0.000000000000E+0      0.000000000000E+0
1.650000000000E+9      2.185896666667E-1      -8.872695000000E-1      7.849946666667E+1      6.560138333333E+0      0.000000000000E+0      0.000000000000E+0      0.000000000000E+0      0.000000000000E+0
1.700000000000E+9      1.915246666667E-1      -8.906820000000E-1      7.847266666667E+1      6.758055000000E+0      0.000000000000E+0      0.000000000000E+0      0.000000000000E+0      0.000000000000E+0
1.750000000000E+9      1.635556666667E-1      -8.928505000000E-1      7.844320000000E+1      6.959720000000E+0      0.000000000000E+0      0.000000000000E+0      0.000000000000E+0      0.000000000000E+0
1.800000000000E+9      1.369865000000E-1      -8.932118333333E-1      7.840578333333E+1      7.164176666667E+0      0.000000000000E+0      0.000000000000E+0      0.000000000000E+0      0.000000000000E+0
1.850000000000E+9      1.114486666667E-1      -8.936696666667E-1      7.836273333333E+1      7.367303333333E+0      0.000000000000E+0      0.000000000000E+0      0.000000000000E+0      0.000000000000E+0
1.900000000000E+9      8.612061666667E-2      -8.933531666667E-1      7.831556666667E+1      7.563801666667E+0      0.000000000000E+0      0.000000000000E+0      0.000000000000E+0      0.000000000000E+0
1.950000000000E+9      6.127085000000E-2      -8.916791666667E-1      7.826248333333E+1      7.751910000000E+0      0.000000000000E+0      0.000000000000E+0      0.000000000000E+0      0.000000000000E+0
2.000000000000E+9      3.745993333333E-2      -8.897285000000E-1      7.821811666667E+1      7.937020000000E+0      0.000000000000E+0      0.000000000000E+0      0.000000000000E+0      0.000000000000E+0
2.050000000000E+9      1.372713333333E-2      -8.870055000000E-1      7.818168333333E+1      8.126181666667E+0      0.000000000000E+0      0.000000000000E+0      0.000000000000E+0      0.000000000000E+0
2.100000000000E+9      -9.271640000000E-3      -8.834440000000E-1      7.814883333333E+1      8.319411666667E+0      0.000000000000E+0      0.000000000000E+0      0.000000000000E+0      0.000000000000E+0
2.150000000000E+9      -3.081186666667E-2      -8.794825000000E-1      7.811918333333E+1      8.520785000000E+0      0.000000000000E+0      0.000000000000E+0      0.000000000000E+0      0.000000000000E+0
2.200000000000E+9      -5.203318333333E-2      -8.752681666667E-1      7.807478333333E+1      8.728531666667E+0      0.000000000000E+0      0.000000000000E+0      0.000000000000E+0      0.000000000000E+0
2.250000000000E+9      -7.206038333333E-2      -8.706665000000E-1      7.801858333333E+1      8.933146666667E+0      0.000000000000E+0      0.000000000000E+0      0.000000000000E+0      0.000000000000E+0
2.300000000000E+9      -9.145788333333E-2      -8.656218333333E-1      7.796230000000E+1      9.131995000000E+0      0.000000000000E+0      0.000000000000E+0      0.000000000000E+0      0.000000000000E+0
2.350000000000E+9      -1.109380000000E-1      -8.611851666667E-1      7.790890000000E+1      9.330473333333E+0      0.000000000000E+0      0.000000000000E+0      0.000000000000E+0      0.000000000000E+0
2.400000000000E+9      -1.303798333333E-1      -8.560095000000E-1      7.785308333333E+1      9.524988333333E+0      0.000000000000E+0      0.000000000000E+0      0.000000000000E+0      0.000000000000E+0
2.450000000000E+9      -1.492410000000E-1      -8.500366666667E-1      7.779565000000E+1      9.714843333333E+0      0.000000000000E+0      0.000000000000E+0      0.000000000000E+0      0.000000000000E+0
2.500000000000E+9      -1.672515000000E-1      -8.434998333333E-1      7.774053333333E+1      9.904376666667E+0      0.000000000000E+0      0.000000000000E+0      0.000000000000E+0      0.000000000000E+0
2.550000000000E+9      -1.840453333333E-1      -8.362155000000E-1      7.767988333333E+1      1.009056666667E+1      0.000000000000E+0      0.000000000000E+0      0.000000000000E+0      0.000000000000E+0
2.600000000000E+9      -2.002461666667E-1      -8.290581666667E-1      7.761906666667E+1      1.027153333333E+1      0.000000000000E+0      0.000000000000E+0      0.000000000000E+0      0.000000000000E+0
2.650000000000E+9      -2.155878333333E-1      -8.224531666667E-1      7.755818333333E+1      1.045363333333E+1      0.000000000000E+0      0.000000000000E+0      0.000000000000E+0      0.000000000000E+0
2.700000000000E+9      -2.301680000000E-1      -8.164680000000E-1      7.749573333333E+1      1.064031666667E+1      0.000000000000E+0      0.000000000000E+0      0.000000000000E+0      0.000000000000E+0
2.750000000000E+9      -2.451143333333E-1      -8.098605000000E-1      7.743308333333E+1      1.082853333333E+1      0.000000000000E+0      0.000000000000E+0      0.000000000000E+0      0.000000000000E+0
2.800000000000E+9      -2.599543333333E-1      -8.026413333333E-1      7.737260000000E+1      1.101893333333E+1      0.000000000000E+0      0.000000000000E+0      0.000000000000E+0      0.000000000000E+0
2.850000000000E+9      -2.742361666667E-1      -7.953786666667E-1      7.731125000000E+1      1.121191666667E+1      0.000000000000E+0      0.000000000000E+0      0.000000000000E+0      0.000000000000E+0
2.900000000000E+9      -2.879761666667E-1      -7.880120000000E-1      7.724626666667E+1      1.140450000000E+1      0.000000000000E+0      0.000000000000E+0      0.000000000000E+0      0.000000000000E+0
2.950000000000E+9      -3.009266666667E-1      -7.805653333333E-1      7.718150000000E+1      1.159436666667E+1      0.000000000000E+0      0.000000000000E+0      0.000000000000E+0      0.000000000000E+0
3.000000000000E+9      -3.130288333333E-1      -7.731795000000E-1      7.711340000000E+1      1.178078333333E+1      0.000000000000E+0      0.000000000000E+0      0.000000000000E+0      0.000000000000E+0
3.050000000000E+9      -3.252296666667E-1      -7.654048333333E-1      7.704303333333E+1      1.196266666667E+1      0.000000000000E+0      0.000000000000E+0      0.000000000000E+0      0.000000000000E+0
3.100000000000E+9      -3.368058333333E-1      -7.573175000000E-1      7.697598333333E+1      1.214266666667E+1      0.000000000000E+0      0.000000000000E+0      0.000000000000E+0      0.000000000000E+0
3.150000000000E+9      -3.482761666667E-1      -7.498346666667E-1      7.691096666667E+1      1.232546666667E+1      0.000000000000E+0      0.000000000000E+0      0.000000000000E+0      0.000000000000E+0
3.200000000000E+9      -3.592110000000E-1      -7.421165000000E-1      7.684493333333E+1      1.251421666667E+1      0.000000000000E+0      0.000000000000E+0      0.000000000000E+0      0.000000000000E+0
3.250000000000E+9      -3.697863333333E-1      -7.344170000000E-1      7.677701666667E+1      1.270430000000E+1      0.000000000000E+0      0.000000000000E+0      0.000000000000E+0      0.000000000000E+0
3.300000000000E+9      -3.799366666667E-1      -7.269160000000E-1      7.670603333333E+1      1.289900000000E+1      0.000000000000E+0      0.000000000000E+0      0.000000000000E+0      0.000000000000E+0
3.350000000000E+9      -3.900783333333E-1      -7.196141666667E-1      7.663163333333E+1      1.308981666667E+1      0.000000000000E+0      0.000000000000E+0      0.000000000000E+0      0.000000000000E+0
3.400000000000E+9      -3.996283333333E-1      -7.122935000000E-1      7.655348333333E+1      1.327393333333E+1      0.000000000000E+0      0.000000000000E+0      0.000000000000E+0      0.000000000000E+0
3.450000000000E+9      -4.084336666667E-1      -7.049883333333E-1      7.647300000000E+1      1.344993333333E+1      0.000000000000E+0      0.000000000000E+0      0.000000000000E+0      0.000000000000E+0
3.500000000000E+9      -4.170826666667E-1      -6.977261666667E-1      7.639448333333E+1      1.362331666667E+1      0.000000000000E+0      0.000000000000E+0      0.000000000000E+0      0.000000000000E+0
3.550000000000E+9      -4.256905000000E-1      -6.900513333333E-1      7.631466666667E+1      1.379615000000E+1      0.000000000000E+0      0.000000000000E+0      0.000000000000E+0      0.000000000000E+0
3.600000000000E+9      -4.339691666667E-1      -6.823710000000E-1      7.623390000000E+1      1.396948333333E+1      0.000000000000E+0      0.000000000000E+0      0.000000000000E+0      0.000000000000E+0
3.650000000000E+9      -4.419376666667E-1      -6.748215000000E-1      7.615490000000E+1      1.414303333333E+1      0.000000000000E+0      0.000000000000E+0      0.000000000000E+0      0.000000000000E+0
3.700000000000E+9      -4.499366666667E-1      -6.674860000000E-1      7.607331666667E+1      1.431828333333E+1      0.000000000000E+0      0.000000000000E+0      0.000000000000E+0      0.000000000000E+0
3.750000000000E+9      -4.577161666667E-1      -6.604015000000E-1      7.599543333333E+1      1.449575000000E+1      0.000000000000E+0      0.000000000000E+0      0.000000000000E+0      0.000000000000E+0
3.800000000000E+9      -4.650386666667E-1      -6.533501666667E-1      7.592130000000E+1      1.467200000000E+1      0.000000000000E+0      0.000000000000E+0      0.000000000000E+0      0.000000000000E+0
3.850000000000E+9      -4.720925000000E-1      -6.463016666667E-1      7.584635000000E+1      1.484721666667E+1      0.000000000000E+0      0.000000000000E+0      0.000000000000E+0      0.000000000000E+0
3.900000000000E+9      -4.787776666667E-1      -6.395330000000E-1      7.577015000000E+1      1.501808333333E+1      0.000000000000E+0      0.000000000000E+0      0.000000000000E+0      0.000000000000E+0
3.950000000000E+9      -4.849881666667E-1      -6.326256666667E-1      7.568916666667E+1      1.518818333333E+1      0.000000000000E+0      0.000000000000E+0      0.000000000000E+0      0.000000000000E+0
4.000000000000E+9      -4.913530000000E-1      -6.261440000000E-1      7.560460000000E+1      1.535621666667E+1      0.000000000000E+0      0.000000000000E+0      0.000000000000E+0      0.000000000000E+0
4.050000000000E+9      -4.975895000000E-1      -6.185316666667E-1      7.552648333333E+1      1.552403333333E+1      0.000000000000E+0      0.000000000000E+0      0.000000000000E+0      0.000000000000E+0
4.100000000000E+9      -5.035720000000E-1      -6.114413333333E-1      7.544151666667E+1      1.569471666667E+1      0.000000000000E+0      0.000000000000E+0      0.000000000000E+0      0.000000000000E+0
4.150000000000E+9      -5.095063333333E-1      -6.044828333333E-1      7.534126666667E+1      1.587685000000E+1      0.000000000000E+0      0.000000000000E+0      0.000000000000E+0      0.000000000000E+0
4.200000000000E+9      -5.153080000000E-1      -5.980478333333E-1      7.525513333333E+1      1.604658333333E+1      0.000000000000E+0      0.000000000000E+0      0.000000000000E+0      0.000000000000E+0
4.250000000000E+9      -5.208091666667E-1      -5.918246666667E-1      7.515766666667E+1      1.621010000000E+1      0.000000000000E+0      0.000000000000E+0      0.000000000000E+0      0.000000000000E+0
4.300000000000E+9      -5.257583333333E-1      -5.853621666667E-1      7.506868333333E+1      1.636866666667E+1      0.000000000000E+0      0.000000000000E+0      0.000000000000E+0      0.000000000000E+0
4.350000000000E+9      -5.304418333333E-1      -5.789961666667E-1      7.498223333333E+1      1.653928333333E+1      0.000000000000E+0      0.000000000000E+0      0.000000000000E+0      0.000000000000E+0
4.400000000000E+9      -5.353713333333E-1      -5.726873333333E-1      7.490353333333E+1      1.671440000000E+1      0.000000000000E+0      0.000000000000E+0      0.000000000000E+0      0.000000000000E+0
4.450000000000E+9      -5.396241666667E-1      -5.665745000000E-1      7.482118333333E+1      1.688553333333E+1      0.000000000000E+0      0.000000000000E+0      0.000000000000E+0      0.000000000000E+0
4.500000000000E+9      -5.444371666667E-1      -5.599855000000E-1      7.473935000000E+1      1.704478333333E+1      0.000000000000E+0      0.000000000000E+0      0.000000000000E+0      0.000000000000E+0
4.550000000000E+9      -5.492151666667E-1      -5.534091666667E-1      7.467506666667E+1      1.720563333333E+1      0.000000000000E+0      0.000000000000E+0      0.000000000000E+0      0.000000000000E+0
4.600000000000E+9      -5.537790000000E-1      -5.470866666667E-1      7.458818333333E+1      1.735525000000E+1      0.000000000000E+0      0.000000000000E+0      0.000000000000E+0      0.000000000000E+0
4.650000000000E+9      -5.582793333333E-1      -5.411163333333E-1      7.451265000000E+1      1.749846666667E+1      0.000000000000E+0      0.000000000000E+0      0.000000000000E+0      0.000000000000E+0
4.700000000000E+9      -5.623035000000E-1      -5.355166666667E-1      7.444328333333E+1      1.768506666667E+1      0.000000000000E+0      0.000000000000E+0      0.000000000000E+0      0.000000000000E+0
4.750000000000E+9      -5.661833333333E-1      -5.302743333333E-1      7.438320000000E+1      1.785195000000E+1      0.000000000000E+0      0.000000000000E+0      0.000000000000E+0      0.000000000000E+0
4.800000000000E+9      -5.714568333333E-1      -5.238203333333E-1      7.431563333333E+1      1.801333333333E+1      0.000000000000E+0      0.000000000000E+0      0.000000000000E+0      0.000000000000E+0
4.850000000000E+9      -5.751411666667E-1      -5.178346666667E-1      7.424968333333E+1      1.817653333333E+1      0.000000000000E+0      0.000000000000E+0      0.000000000000E+0      0.000000000000E+0
4.900000000000E+9      -5.764433333333E-1      -5.113105000000E-1      7.416988333333E+1      1.833796666667E+1      0.000000000000E+0      0.000000000000E+0      0.000000000000E+0      0.000000000000E+0
4.950000000000E+9      -5.820106666667E-1      -5.053181666667E-1      7.409578333333E+1      1.847908333333E+1      0.000000000000E+0      0.000000000000E+0      0.000000000000E+0      0.000000000000E+0
