! NanoVNA-App by OneOfEleven et al v1.1.209 (+OD15) 
! Date: 2024-07-30 15:09:35
! Start: 200MHz Stop: 6GHz Points: 801
! S-Parameter data: F S11 S21 S12 S22
# Hz S RI R 50
!     Frequency           S11_Real           S11_Imag           S21_Real           S21_Imag           S12_Real           S12_Imag           S22_Real           S22_Imag
      200000000   -9.633453488e-01   -2.876277566e-01    3.882311285e-05   -4.425644875e-06    0.000000000e+00    0.000000000e+00    0.000000000e+00    0.000000000e+00
      207250000   -9.908720255e-01   -1.995990127e-01   -2.584420145e-06   -3.061164171e-05    0.000000000e+00    0.000000000e+00    0.000000000e+00    0.000000000e+00
      214500000   -1.009832978e+00   -1.082119346e-01   -1.536402851e-05    1.009739935e-05    0.000000000e+00    0.000000000e+00    0.000000000e+00    0.000000000e+00
      221750000   -1.020591855e+00   -1.344658807e-02    2.859160304e-06   -3.165565431e-06    0.000000000e+00    0.000000000e+00    0.000000000e+00    0.000000000e+00
      229000000   -1.022966146e+00    8.301970363e-02   -8.592382073e-06    3.015063703e-05    0.000000000e+00    0.000000000e+00    0.000000000e+00    0.000000000e+00
      236250000   -1.015499830e+00    1.807517409e-01    4.952121526e-05   -9.020790458e-06    0.000000000e+00    0.000000000e+00    0.000000000e+00    0.000000000e+00
      243500000   -9.973334074e-01    2.793716192e-01    5.520880222e-06    6.104819477e-06    0.000000000e+00    0.000000000e+00    0.000000000e+00    0.000000000e+00
      250750000   -9.679750800e-01    3.776317239e-01    3.871973604e-05    1.594331115e-05    0.000000000e+00    0.000000000e+00    0.000000000e+00    0.000000000e+00
      258000000   -9.298334718e-01    4.740076363e-01    1.067295671e-06   -1.131743193e-05    0.000000000e+00    0.000000000e+00    0.000000000e+00    0.000000000e+00
      265250000   -8.789528012e-01    5.671465397e-01   -1.473817974e-05    4.122126848e-05    0.000000000e+00    0.000000000e+00    0.000000000e+00    0.000000000e+00
      272500000   -8.178033233e-01    6.562950015e-01   -2.398341894e-05    9.233132005e-06    0.000000000e+00    0.000000000e+00    0.000000000e+00    0.000000000e+00
      279750000   -7.456550598e-01    7.391940951e-01    9.522773325e-06   -8.951872587e-06    0.000000000e+00    0.000000000e+00    0.000000000e+00    0.000000000e+00
      287000000   -6.627977490e-01    8.146238923e-01   -3.197975457e-05   -2.156943083e-06    0.000000000e+00    0.000000000e+00    0.000000000e+00    0.000000000e+00
      294250000   -5.713413358e-01    8.816590309e-01    3.122910857e-05   -9.444542229e-06    0.000000000e+00    0.000000000e+00    0.000000000e+00    0.000000000e+00
      301500000   -4.702329636e-01    9.377802610e-01    8.856877685e-06    4.901271313e-05    0.000000000e+00    0.000000000e+00    0.000000000e+00    0.000000000e+00
      308750000   -3.617843986e-01    9.814507365e-01    7.647089660e-06    2.272520214e-05    0.000000000e+00    0.000000000e+00    0.000000000e+00    0.000000000e+00
      316000000   -2.482118756e-01    1.013210893e+00   -1.786928624e-05    2.937670797e-05    0.000000000e+00    0.000000000e+00    0.000000000e+00    0.000000000e+00
      323250000   -1.299346685e-01    1.030430913e+00    3.096647561e-06    4.392676055e-05    0.000000000e+00    0.000000000e+00    0.000000000e+00    0.000000000e+00
      330500000   -1.032404508e-02    1.033839226e+00   -2.205371857e-06   -1.530908048e-05    0.000000000e+00    0.000000000e+00    0.000000000e+00    0.000000000e+00
      337750000    1.091490835e-01    1.023136020e+00   -3.083702177e-05   -2.041459084e-05    0.000000000e+00    0.000000000e+00    0.000000000e+00    0.000000000e+00
      345000000    2.270493358e-01    9.967344403e-01    1.410115510e-05   -2.336315811e-05    0.000000000e+00    0.000000000e+00    0.000000000e+00    0.000000000e+00
      352250000    3.411113024e-01    9.567273259e-01    1.590605825e-05   -2.251006663e-05    0.000000000e+00    0.000000000e+00    0.000000000e+00    0.000000000e+00
      359500000    4.484864175e-01    9.035423994e-01    4.139728844e-06   -9.493902326e-06    0.000000000e+00    0.000000000e+00    0.000000000e+00    0.000000000e+00
      366750000    5.487645864e-01    8.393501043e-01    1.549534500e-05    2.139434218e-05    0.000000000e+00    0.000000000e+00    0.000000000e+00    0.000000000e+00
      374000000    6.403598785e-01    7.624142766e-01    1.018308103e-05   -5.977600813e-05    0.000000000e+00    0.000000000e+00    0.000000000e+00    0.000000000e+00
      381250000    7.221238017e-01    6.757808924e-01   -3.658886999e-05   -1.350883394e-05    0.000000000e+00    0.000000000e+00    0.000000000e+00    0.000000000e+00
      388500000    7.924634218e-01    5.820636153e-01    3.725290298e-09    3.088265657e-05    0.000000000e+00    0.000000000e+00    0.000000000e+00    0.000000000e+00
      395750000    8.509678841e-01    4.821778834e-01   -6.525777280e-06    3.574602306e-05    0.000000000e+00    0.000000000e+00    0.000000000e+00    0.000000000e+00
      403000000    8.977593780e-01    3.768348396e-01    3.396347165e-05    2.073589712e-05    0.000000000e+00    0.000000000e+00    0.000000000e+00    0.000000000e+00
      410250000    9.325125813e-01    2.683642507e-01    1.223478466e-05   -8.237548172e-06    0.000000000e+00    0.000000000e+00    0.000000000e+00    0.000000000e+00
      417500000    9.552625418e-01    1.575616151e-01    1.724995673e-05    2.280157059e-05    0.000000000e+00    0.000000000e+00    0.000000000e+00    0.000000000e+00
      424750000    9.655818343e-01    4.696673155e-02   -2.261064947e-05   -1.265481114e-05    0.000000000e+00    0.000000000e+00    0.000000000e+00    0.000000000e+00
      432000000    9.647952318e-01   -6.350517273e-02    6.112270057e-06    3.914348781e-06    0.000000000e+00    0.000000000e+00    0.000000000e+00    0.000000000e+00
      439250000    9.528364539e-01   -1.723425835e-01   -1.048017293e-05   -3.471504897e-05    0.000000000e+00    0.000000000e+00    0.000000000e+00    0.000000000e+00
      446500000    9.291723967e-01   -2.781888843e-01    1.681968570e-05   -8.919276297e-06    0.000000000e+00    0.000000000e+00    0.000000000e+00    0.000000000e+00
      453750000    8.960493207e-01   -3.820011616e-01   -3.026518971e-05   -2.625398338e-06    0.000000000e+00    0.000000000e+00    0.000000000e+00    0.000000000e+00
      461000000    8.533017635e-01   -4.789353609e-01   -1.273676753e-05   -1.216121018e-05    0.000000000e+00    0.000000000e+00    0.000000000e+00    0.000000000e+00
      468250000    8.012882471e-01   -5.718473196e-01    9.058043361e-06   -1.492910087e-06    0.000000000e+00    0.000000000e+00    0.000000000e+00    0.000000000e+00
      475500000    7.403264046e-01   -6.587062478e-01    1.984089613e-05    1.341104507e-06    0.000000000e+00    0.000000000e+00    0.000000000e+00    0.000000000e+00
      482750000    6.717629433e-01   -7.393172979e-01   -2.834945917e-05    9.248964489e-06    0.000000000e+00    0.000000000e+00    0.000000000e+00    0.000000000e+00
      490000000    5.958184600e-01   -8.119587898e-01    2.790894359e-05    3.391783684e-05    0.000000000e+00    0.000000000e+00    0.000000000e+00    0.000000000e+00
      497250000    5.117786527e-01   -8.768843412e-01    2.194195986e-06    6.954185665e-06    0.000000000e+00    0.000000000e+00    0.000000000e+00    0.000000000e+00
      504500000    4.231514335e-01   -9.340232015e-01    2.242438495e-05    4.067085683e-06    0.000000000e+00    0.000000000e+00    0.000000000e+00    0.000000000e+00
      511750000    3.277986050e-01   -9.823703766e-01    4.254281521e-06   -9.285286069e-07    0.000000000e+00    0.000000000e+00    0.000000000e+00    0.000000000e+00
      519000000    2.286964208e-01   -1.021525741e+00    3.975257277e-05   -1.073535532e-05    0.000000000e+00    0.000000000e+00    0.000000000e+00    0.000000000e+00
      526250000    1.248439774e-01   -1.049423456e+00    1.188460737e-05   -4.655681551e-06    0.000000000e+00    0.000000000e+00    0.000000000e+00    0.000000000e+00
      533500000    1.854488067e-02   -1.067828655e+00    4.068017006e-06    2.220459282e-05    0.000000000e+00    0.000000000e+00    0.000000000e+00    0.000000000e+00
      540750000   -8.916015923e-02   -1.074984312e+00   -1.612771302e-05    1.328624785e-05    0.000000000e+00    0.000000000e+00    0.000000000e+00    0.000000000e+00
      548000000   -1.993471682e-01   -1.071323276e+00   -1.295469701e-05    2.138502896e-05    0.000000000e+00    0.000000000e+00    0.000000000e+00    0.000000000e+00
      555250000   -3.074944019e-01   -1.055943370e+00   -5.506910384e-05   -2.292916179e-06    0.000000000e+00    0.000000000e+00    0.000000000e+00    0.000000000e+00
      562500000   -4.163633287e-01   -1.028635263e+00   -2.614222467e-06    1.881271601e-06    0.000000000e+00    0.000000000e+00    0.000000000e+00    0.000000000e+00
      569750000   -5.209367275e-01   -9.898187518e-01   -1.059193164e-05   -7.646158338e-07    0.000000000e+00    0.000000000e+00    0.000000000e+00    0.000000000e+00
      577000000   -6.222105026e-01   -9.387198091e-01   -3.597233444e-05   -1.361314207e-05    0.000000000e+00    0.000000000e+00    0.000000000e+00    0.000000000e+00
      584250000   -7.190147638e-01   -8.760585189e-01    1.116003841e-05   -2.897996455e-05    0.000000000e+00    0.000000000e+00    0.000000000e+00    0.000000000e+00
      591500000   -8.076106310e-01   -8.039627075e-01   -3.362074494e-07   -2.506189048e-05    0.000000000e+00    0.000000000e+00    0.000000000e+00    0.000000000e+00
      598750000   -8.883308768e-01   -7.197817564e-01    2.243835479e-05   -1.501385123e-05    0.000000000e+00    0.000000000e+00    0.000000000e+00    0.000000000e+00
      606000000   -9.590020776e-01   -6.285611987e-01   -2.001412213e-05    2.965331078e-06    0.000000000e+00    0.000000000e+00    0.000000000e+00    0.000000000e+00
      613250000   -1.018326402e+00   -5.278872848e-01   -3.474764526e-06    8.012168109e-06    0.000000000e+00    0.000000000e+00    0.000000000e+00    0.000000000e+00
      620500000   -1.067864895e+00   -4.200571775e-01    1.882202923e-06   -2.344138920e-05    0.000000000e+00    0.000000000e+00    0.000000000e+00    0.000000000e+00
      627750000   -1.102357507e+00   -3.063166738e-01   -4.590954632e-05    4.842877388e-07    0.000000000e+00    0.000000000e+00    0.000000000e+00    0.000000000e+00
      635000000   -1.124554276e+00   -1.916926503e-01   -1.281406730e-05    2.934597433e-05    0.000000000e+00    0.000000000e+00    0.000000000e+00    0.000000000e+00
      642250000   -1.133570910e+00   -7.307557017e-02    2.932734787e-06    1.874566078e-05    0.000000000e+00    0.000000000e+00    0.000000000e+00    0.000000000e+00
      649500000   -1.128055930e+00    4.275328666e-02    2.155825496e-05    1.466926187e-05    0.000000000e+00    0.000000000e+00    0.000000000e+00    0.000000000e+00
      656750000   -1.109643817e+00    1.578425765e-01    3.743916750e-07   -1.373793930e-05    0.000000000e+00    0.000000000e+00    0.000000000e+00    0.000000000e+00
      664000000   -1.077224135e+00    2.696071267e-01   -3.875233233e-06   -9.220093489e-07    0.000000000e+00    0.000000000e+00    0.000000000e+00    0.000000000e+00
      671250000   -1.034145117e+00    3.749479055e-01   -7.253140211e-06   -1.028832048e-05    0.000000000e+00    0.000000000e+00    0.000000000e+00    0.000000000e+00
      678500000   -9.776811600e-01    4.755808115e-01   -2.785958350e-05   -1.996755600e-06    0.000000000e+00    0.000000000e+00    0.000000000e+00    0.000000000e+00
      685750000   -9.125793576e-01    5.669642091e-01    1.153908670e-05   -1.960434020e-06    0.000000000e+00    0.000000000e+00    0.000000000e+00    0.000000000e+00
      693000000   -8.381603956e-01    6.495357156e-01   -2.104975283e-05    2.904888242e-05    0.000000000e+00    0.000000000e+00    0.000000000e+00    0.000000000e+00
      700250000   -7.549754977e-01    7.233489156e-01    1.779291779e-05    3.456696868e-05    0.000000000e+00    0.000000000e+00    0.000000000e+00    0.000000000e+00
      707500000   -6.660434008e-01    7.868437767e-01   -1.666788012e-05   -5.691312253e-06    0.000000000e+00    0.000000000e+00    0.000000000e+00    0.000000000e+00
      714750000   -5.719428062e-01    8.397763968e-01    8.139759302e-07   -1.465342939e-05    0.000000000e+00    0.000000000e+00    0.000000000e+00    0.000000000e+00
      722000000   -4.727682471e-01    8.816782236e-01   -2.104602754e-05    2.329237759e-06    0.000000000e+00    0.000000000e+00    0.000000000e+00    0.000000000e+00
      729250000   -3.732207119e-01    9.126673341e-01    7.747672498e-06   -2.301577479e-05    0.000000000e+00    0.000000000e+00    0.000000000e+00    0.000000000e+00
      736500000   -2.710500658e-01    9.333976507e-01   -2.944935113e-05   -3.290269524e-05    0.000000000e+00    0.000000000e+00    0.000000000e+00    0.000000000e+00
      743750000   -1.695935577e-01    9.436904192e-01   -4.276260734e-05    1.920666546e-05    0.000000000e+00    0.000000000e+00    0.000000000e+00    0.000000000e+00
      751000000   -6.720317155e-02    9.427151084e-01   -3.363844007e-05   -8.016824722e-06    0.000000000e+00    0.000000000e+00    0.000000000e+00    0.000000000e+00
      758250000    3.262655437e-02    9.323682785e-01   -2.730917186e-05   -3.575719893e-05    0.000000000e+00    0.000000000e+00    0.000000000e+00    0.000000000e+00
      765500000    1.299018115e-01    9.134564996e-01   -3.906711936e-05   -4.451349378e-05    0.000000000e+00    0.000000000e+00    0.000000000e+00    0.000000000e+00
      772750000    2.236310691e-01    8.854663968e-01   -4.441849887e-05    1.620594412e-05    0.000000000e+00    0.000000000e+00    0.000000000e+00    0.000000000e+00
      780000000    3.131655753e-01    8.506023288e-01   -4.863087088e-05    1.884158701e-05    0.000000000e+00    0.000000000e+00    0.000000000e+00    0.000000000e+00
      787250000    4.009741247e-01    8.048415184e-01   -2.298690379e-05    5.629844964e-06    0.000000000e+00    0.000000000e+00    0.000000000e+00    0.000000000e+00
      794500000    4.816249311e-01    7.533934116e-01    4.446506500e-05    2.316199243e-06    0.000000000e+00    0.000000000e+00    0.000000000e+00    0.000000000e+00
      801750000    5.570410490e-01    6.947356462e-01    1.199729741e-05    2.515688539e-05    0.000000000e+00    0.000000000e+00    0.000000000e+00    0.000000000e+00
      809000000    6.278025508e-01    6.292489171e-01    3.615021706e-05   -9.592622519e-06    0.000000000e+00    0.000000000e+00    0.000000000e+00    0.000000000e+00
      816250000    6.922407746e-01    5.571887493e-01   -4.808139056e-05   -3.066845238e-06    0.000000000e+00    0.000000000e+00    0.000000000e+00    0.000000000e+00
      823500000    7.492827773e-01    4.803345501e-01   -4.949979484e-06    2.232939005e-05    0.000000000e+00    0.000000000e+00    0.000000000e+00    0.000000000e+00
      830750000    7.991707325e-01    3.972142339e-01    9.215436876e-06    2.098828554e-05    0.000000000e+00    0.000000000e+00    0.000000000e+00    0.000000000e+00
      838000000    8.428077698e-01    3.094578385e-01    1.884065568e-05    2.462044358e-05    0.000000000e+00    0.000000000e+00    0.000000000e+00    0.000000000e+00
      845250000    8.775472641e-01    2.165655196e-01    7.243826985e-06    1.346413046e-05    0.000000000e+00    0.000000000e+00    0.000000000e+00    0.000000000e+00
      852500000    9.042378068e-01    1.218705252e-01   -6.319954991e-06   -3.121700138e-05    0.000000000e+00    0.000000000e+00    0.000000000e+00    0.000000000e+00
      859750000    9.211667776e-01    2.385488525e-02   -3.807526082e-05   -5.241483450e-06    0.000000000e+00    0.000000000e+00    0.000000000e+00    0.000000000e+00
      867000000    9.291927814e-01   -7.820348442e-02   -1.087598503e-05    1.846253872e-05    0.000000000e+00    0.000000000e+00    0.000000000e+00    0.000000000e+00
      874250000    9.267389774e-01   -1.812764108e-01   -4.388391972e-06    3.334600478e-05    0.000000000e+00    0.000000000e+00    0.000000000e+00    0.000000000e+00
      881500000    9.139477611e-01   -2.849048674e-01    2.333335578e-05    8.904375136e-06    0.000000000e+00    0.000000000e+00    0.000000000e+00    0.000000000e+00
      888750000    8.897874355e-01   -3.887417912e-01   -1.172721386e-05    4.890188575e-05    0.000000000e+00    0.000000000e+00    0.000000000e+00    0.000000000e+00
      896000000    8.553485274e-01   -4.906862676e-01    1.503899693e-05    1.690350473e-05    0.000000000e+00    0.000000000e+00    0.000000000e+00    0.000000000e+00
      903250000    8.081542253e-01   -5.903787017e-01    1.066364348e-06   -1.417193562e-05    0.000000000e+00    0.000000000e+00    0.000000000e+00    0.000000000e+00
      910500000    7.479548454e-01   -6.872001886e-01   -1.579336822e-05   -6.904825568e-06    0.000000000e+00    0.000000000e+00    0.000000000e+00    0.000000000e+00
      917750000    6.768143773e-01   -7.764499784e-01    3.242865205e-06   -1.772306859e-06    0.000000000e+00    0.000000000e+00    0.000000000e+00    0.000000000e+00
      925000000    5.941471457e-01   -8.589003682e-01    2.778135240e-05   -7.103197277e-06    0.000000000e+00    0.000000000e+00    0.000000000e+00    0.000000000e+00
      932250000    5.000975132e-01   -9.326286316e-01    4.528090358e-06    7.131136954e-06    0.000000000e+00    0.000000000e+00    0.000000000e+00    0.000000000e+00
      939500000    3.951269984e-01   -9.944420457e-01    2.656225115e-05    1.052208245e-05    0.000000000e+00    0.000000000e+00    0.000000000e+00    0.000000000e+00
      946750000    2.851070464e-01   -1.043415308e+00   -3.877934068e-05    4.617497325e-06    0.000000000e+00    0.000000000e+00    0.000000000e+00    0.000000000e+00
      954000000    1.652358472e-01   -1.077624321e+00    6.991438568e-06   -2.246163785e-05    0.000000000e+00    0.000000000e+00    0.000000000e+00    0.000000000e+00
      961250000    4.305906966e-02   -1.095915079e+00   -4.295445979e-05    7.575377822e-06    0.000000000e+00    0.000000000e+00    0.000000000e+00    0.000000000e+00
      968500000   -8.421125263e-02   -1.098718405e+00   -1.059100032e-05    1.364108175e-05    0.000000000e+00    0.000000000e+00    0.000000000e+00    0.000000000e+00
      975750000   -2.071627975e-01   -1.084806919e+00    3.847293556e-06   -1.663994044e-05    0.000000000e+00    0.000000000e+00    0.000000000e+00    0.000000000e+00
      983000000   -3.278456330e-01   -1.053792000e+00   -1.145526767e-06   -8.656643331e-06    0.000000000e+00    0.000000000e+00    0.000000000e+00    0.000000000e+00
      990250000   -4.440093338e-01   -1.007583857e+00    1.792050898e-05    1.389626414e-05    0.000000000e+00    0.000000000e+00    0.000000000e+00    0.000000000e+00
      997500000   -5.511848927e-01   -9.476594329e-01   -2.218410373e-05   -1.854076982e-05    0.000000000e+00    0.000000000e+00    0.000000000e+00    0.000000000e+00
     1004750000   -6.483525634e-01   -8.721589446e-01    8.029863238e-06    1.766625792e-05    0.000000000e+00    0.000000000e+00    0.000000000e+00    0.000000000e+00
     1012000000   -7.337800860e-01   -7.884138823e-01    4.970468581e-06   -7.155351341e-06    0.000000000e+00    0.000000000e+00    0.000000000e+00    0.000000000e+00
     1019250000   -8.066689968e-01   -6.939707994e-01   -1.907069236e-05    6.381422281e-06    0.000000000e+00    0.000000000e+00    0.000000000e+00    0.000000000e+00
     1026500000   -8.652675152e-01   -5.967540145e-01   -4.126690328e-06   -1.049228013e-05    0.000000000e+00    0.000000000e+00    0.000000000e+00    0.000000000e+00
     1033750000   -9.109562635e-01   -4.898556173e-01   -1.206994057e-06   -3.557465971e-05    0.000000000e+00    0.000000000e+00    0.000000000e+00    0.000000000e+00
     1041000000   -9.420196414e-01   -3.865489960e-01    2.631731331e-05   -1.206062734e-05    0.000000000e+00    0.000000000e+00    0.000000000e+00    0.000000000e+00
