! NanoVNA-App by OneOfEleven et al v1.1.209 (+OD15) 
! Date: 2024-07-30 15:09:43
! Start: 200MHz Stop: 6GHz Points: 801
! S-Parameter data: F S11 S21 S12 S22
# Hz S RI R 50
!     Frequency           S11_Real           S11_Imag           S21_Real           S21_Imag           S12_Real           S12_Imag           S22_Real           S22_Imag
      200000000   -9.635404944e-01   -2.876956165e-01   -6.592832506e-06    2.367515117e-05    0.000000000e+00    0.000000000e+00    0.000000000e+00    0.000000000e+00
      207250000   -9.905070066e-01   -1.995006353e-01    1.849606633e-05    3.724358976e-06    0.000000000e+00    0.000000000e+00    0.000000000e+00    0.000000000e+00
      214500000   -1.010447502e+00   -1.086134613e-01    4.000216722e-05   -1.893099397e-05    0.000000000e+00    0.000000000e+00    0.000000000e+00    0.000000000e+00
      221750000   -1.020750523e+00   -1.380677707e-02   -1.925230026e-05   -1.782085747e-05    0.000000000e+00    0.000000000e+00    0.000000000e+00    0.000000000e+00
      229000000   -1.022615433e+00    8.262099326e-02    1.031626016e-05    4.281289876e-06    0.000000000e+00    0.000000000e+00    0.000000000e+00    0.000000000e+00
      236250000   -1.014478445e+00    1.813533604e-01   -1.368392259e-05   -6.428919733e-06    0.000000000e+00    0.000000000e+00    0.000000000e+00    0.000000000e+00
      243500000   -9.975534678e-01    2.791895568e-01    2.637691796e-05    8.844770491e-06    0.000000000e+00    0.000000000e+00    0.000000000e+00    0.000000000e+00
      250750000   -9.688311815e-01    3.778713942e-01    1.569930464e-05   -2.736505121e-05    0.000000000e+00    0.000000000e+00    0.000000000e+00    0.000000000e+00
      258000000   -9.294084311e-01    4.741957486e-01   -1.664273441e-06    2.385117114e-05    0.000000000e+00    0.000000000e+00    0.000000000e+00    0.000000000e+00
      265250000   -8.790766001e-01    5.669276118e-01   -2.248957753e-05   -2.897251397e-05    0.000000000e+00    0.000000000e+00    0.000000000e+00    0.000000000e+00
      272500000   -8.176733851e-01    6.562035680e-01   -2.846121788e-06    1.534447074e-05    0.000000000e+00    0.000000000e+00    0.000000000e+00    0.000000000e+00
      279750000   -7.460756302e-01    7.389793396e-01    3.277231008e-05    2.879835665e-05    0.000000000e+00    0.000000000e+00    0.000000000e+00    0.000000000e+00
      287000000   -6.632768512e-01    8.150746822e-01    2.444535494e-05    1.919455826e-06    0.000000000e+00    0.000000000e+00    0.000000000e+00    0.000000000e+00
      294250000   -5.704631805e-01    8.810802102e-01    6.915070117e-06    6.228778511e-05    0.000000000e+00    0.000000000e+00    0.000000000e+00    0.000000000e+00
      301500000   -4.701152146e-01    9.374772906e-01    4.441477358e-06    2.877786756e-06    0.000000000e+00    0.000000000e+00    0.000000000e+00    0.000000000e+00
      308750000   -3.623422682e-01    9.817934036e-01    1.404434443e-06    5.818903446e-06    0.000000000e+00    0.000000000e+00    0.000000000e+00    0.000000000e+00
      316000000   -2.477260530e-01    1.013093352e+00    7.729046047e-06   -2.207700163e-05    0.000000000e+00    0.000000000e+00    0.000000000e+00    0.000000000e+00
      323250000   -1.297582388e-01    1.030525446e+00    1.010298729e-05   -1.895520836e-05    0.000000000e+00    0.000000000e+00    0.000000000e+00    0.000000000e+00
      330500000   -1.045287214e-02    1.034699321e+00    1.705531031e-05   -1.897290349e-05    0.000000000e+00    0.000000000e+00    0.000000000e+00    0.000000000e+00
      337750000    1.094354764e-01    1.022865653e+00    2.351123840e-05    3.219768405e-05    0.000000000e+00    0.000000000e+00    0.000000000e+00    0.000000000e+00
      345000000    2.273733169e-01    9.969918132e-01   -1.428928226e-05   -2.231542021e-05    0.000000000e+00    0.000000000e+00    0.000000000e+00    0.000000000e+00
      352250000    3.406462371e-01    9.563773870e-01    5.959533155e-06    6.481073797e-06    0.000000000e+00    0.000000000e+00    0.000000000e+00    0.000000000e+00
      359500000    4.488046765e-01    9.040705562e-01    1.936592162e-05   -3.195740283e-05    0.000000000e+00    0.000000000e+00    0.000000000e+00    0.000000000e+00
      366750000    5.489810705e-01    8.387933373e-01   -1.899898052e-06    2.999883145e-05    0.000000000e+00    0.000000000e+00    0.000000000e+00    0.000000000e+00
      374000000    6.401009560e-01    7.626638412e-01    1.220777631e-05   -7.734633982e-06    0.000000000e+00    0.000000000e+00    0.000000000e+00    0.000000000e+00
      381250000    7.223334908e-01    6.753040552e-01   -6.355810910e-05   -6.233155727e-05    0.000000000e+00    0.000000000e+00    0.000000000e+00    0.000000000e+00
      388500000    7.920778990e-01    5.819883943e-01   -5.495734513e-06   -1.001544297e-05    0.000000000e+00    0.000000000e+00    0.000000000e+00    0.000000000e+00
      395750000    8.509094119e-01    4.830084145e-01    1.932401210e-05   -3.264285624e-05    0.000000000e+00    0.000000000e+00    0.000000000e+00    0.000000000e+00
      403000000    8.974499702e-01    3.764900863e-01    4.354864359e-06   -4.342105240e-05    0.000000000e+00    0.000000000e+00    0.000000000e+00    0.000000000e+00
      410250000    9.323248863e-01    2.676170766e-01   -1.210626215e-05    3.176275641e-05    0.000000000e+00    0.000000000e+00    0.000000000e+00    0.000000000e+00
      417500000    9.547566175e-01    1.575773656e-01    3.966502845e-06   -1.057796180e-05    0.000000000e+00    0.000000000e+00    0.000000000e+00    0.000000000e+00
      424750000    9.660911560e-01    4.689973965e-02    2.472475171e-05   -1.608859748e-05    0.000000000e+00    0.000000000e+00    0.000000000e+00    0.000000000e+00
      432000000    9.645959139e-01   -6.326138228e-02    2.226978540e-05   -1.643132418e-05    0.000000000e+00    0.000000000e+00    0.000000000e+00    0.000000000e+00
      439250000    9.525333643e-01   -1.719895899e-01   -2.505071461e-05    3.123655915e-06    0.000000000e+00    0.000000000e+00    0.000000000e+00    0.000000000e+00
      446500000    9.298014641e-01   -2.782573998e-01    2.077221870e-05   -7.940456271e-06    0.000000000e+00    0.000000000e+00    0.000000000e+00    0.000000000e+00
      453750000    8.962164521e-01   -3.817126751e-01   -7.723458111e-06   -8.477829397e-06    0.000000000e+00    0.000000000e+00    0.000000000e+00    0.000000000e+00
      461000000    8.533009291e-01   -4.792018235e-01    2.448447049e-06    2.238713205e-05    0.000000000e+00    0.000000000e+00    0.000000000e+00    0.000000000e+00
      468250000    8.017345071e-01   -5.711315870e-01   -3.102235496e-06   -7.729046047e-06    0.000000000e+00    0.000000000e+00    0.000000000e+00    0.000000000e+00
      475500000    7.399154305e-01   -6.587108374e-01    2.206210047e-05    5.823560059e-06    0.000000000e+00    0.000000000e+00    0.000000000e+00    0.000000000e+00
      482750000    6.716917753e-01   -7.387350202e-01    4.350300878e-05    1.883786172e-05    0.000000000e+00    0.000000000e+00    0.000000000e+00    0.000000000e+00
      490000000    5.953440070e-01   -8.116532564e-01   -1.999456435e-05    1.434702426e-05    0.000000000e+00    0.000000000e+00    0.000000000e+00    0.000000000e+00
      497250000    5.118422508e-01   -8.781437874e-01   -1.095794141e-05    2.752244473e-05    0.000000000e+00    0.000000000e+00    0.000000000e+00    0.000000000e+00
      504500000    4.231735170e-01   -9.340261817e-01    3.434997052e-05   -4.961155355e-06    0.000000000e+00    0.000000000e+00    0.000000000e+00    0.000000000e+00
      511750000    3.282777369e-01   -9.823452234e-01    2.196524292e-05   -1.664739102e-05    0.000000000e+00    0.000000000e+00    0.000000000e+00    0.000000000e+00
      519000000    2.278272063e-01   -1.020953655e+00   -2.859067172e-05    3.719795495e-05    0.000000000e+00    0.000000000e+00    0.000000000e+00    0.000000000e+00
      526250000    1.250492930e-01   -1.049571157e+00   -1.275073737e-05   -2.363324165e-05    0.000000000e+00    0.000000000e+00    0.000000000e+00    0.000000000e+00
      533500000    1.930196397e-02   -1.068215251e+00   -1.322478056e-07   -4.824995995e-05    0.000000000e+00    0.000000000e+00    0.000000000e+00    0.000000000e+00
      540750000   -8.915171772e-02   -1.075238943e+00   -9.705312550e-06    6.359070539e-06    0.000000000e+00    0.000000000e+00    0.000000000e+00    0.000000000e+00
      548000000   -1.993400753e-01   -1.071320057e+00   -4.901457578e-05    1.049600542e-05    0.000000000e+00    0.000000000e+00    0.000000000e+00    0.000000000e+00
      555250000   -3.075020611e-01   -1.056196213e+00    9.667128325e-07    3.688037395e-06    0.000000000e+00    0.000000000e+00    0.000000000e+00    0.000000000e+00
      562500000   -4.160857201e-01   -1.028385878e+00    3.711320460e-06   -3.036111593e-07    0.000000000e+00    0.000000000e+00    0.000000000e+00    0.000000000e+00
      569750000   -5.211791992e-01   -9.893266559e-01    4.536472261e-06    2.458598465e-05    0.000000000e+00    0.000000000e+00    0.000000000e+00    0.000000000e+00
      577000000   -6.225898862e-01   -9.385802746e-01   -1.408252865e-05   -4.248507321e-05    0.000000000e+00    0.000000000e+00    0.000000000e+00    0.000000000e+00
      584250000   -7.189826965e-01   -8.768297434e-01    1.117214561e-05   -1.568719745e-05    0.000000000e+00    0.000000000e+00    0.000000000e+00    0.000000000e+00
      591500000   -8.073836565e-01   -8.033349514e-01    1.899059862e-05    1.893565059e-05    0.000000000e+00    0.000000000e+00    0.000000000e+00    0.000000000e+00
      598750000   -8.882969618e-01   -7.196244597e-01   -1.392047852e-05   -1.330301166e-05    0.000000000e+00    0.000000000e+00    0.000000000e+00    0.000000000e+00
      606000000   -9.585005045e-01   -6.279457808e-01    1.266319305e-05   -2.277549356e-05    0.000000000e+00    0.000000000e+00    0.000000000e+00    0.000000000e+00
      613250000   -1.018520117e+00   -5.283093452e-01   -2.059619874e-05   -1.707579941e-05    0.000000000e+00    0.000000000e+00    0.000000000e+00    0.000000000e+00
      620500000   -1.067157030e+00   -4.199365675e-01    4.705041647e-06   -3.969855607e-05    0.000000000e+00    0.000000000e+00    0.000000000e+00    0.000000000e+00
      627750000   -1.103744745e+00   -3.069212437e-01    2.317503095e-05    5.362089723e-05    0.000000000e+00    0.000000000e+00    0.000000000e+00    0.000000000e+00
      635000000   -1.124729991e+00   -1.926158518e-01   -3.506056964e-05    2.808310091e-05    0.000000000e+00    0.000000000e+00    0.000000000e+00    0.000000000e+00
      642250000   -1.133353949e+00   -7.337783277e-02    5.326233804e-06   -2.369098365e-05    0.000000000e+00    0.000000000e+00    0.000000000e+00    0.000000000e+00
      649500000   -1.128519297e+00    4.232533649e-02   -1.208856702e-06    1.194514334e-05    0.000000000e+00    0.000000000e+00    0.000000000e+00    0.000000000e+00
      656750000   -1.109675527e+00    1.581761986e-01   -3.077089787e-06   -1.703109592e-05    0.000000000e+00    0.000000000e+00    0.000000000e+00    0.000000000e+00
      664000000   -1.078293324e+00    2.687909007e-01   -3.778561950e-05   -1.106783748e-05    0.000000000e+00    0.000000000e+00    0.000000000e+00    0.000000000e+00
      671250000   -1.033411980e+00    3.755211532e-01   -5.125533789e-05   -1.107249409e-05    0.000000000e+00    0.000000000e+00    0.000000000e+00    0.000000000e+00
      678500000   -9.782338142e-01    4.742670059e-01    2.899765968e-05    3.213062882e-06    0.000000000e+00    0.000000000e+00    0.000000000e+00    0.000000000e+00
      685750000   -9.126226902e-01    5.668916106e-01    3.135018051e-05   -1.405272633e-05    0.000000000e+00    0.000000000e+00    0.000000000e+00    0.000000000e+00
      693000000   -8.369446993e-01    6.505690813e-01    1.458823681e-05    1.745484769e-05    0.000000000e+00    0.000000000e+00    0.000000000e+00    0.000000000e+00
      700250000   -7.552435398e-01    7.236025929e-01    2.079363912e-05    1.151580364e-05    0.000000000e+00    0.000000000e+00    0.000000000e+00    0.000000000e+00
      707500000   -6.659332514e-01    7.872738838e-01    3.077089787e-05    2.578832209e-06    0.000000000e+00    0.000000000e+00    0.000000000e+00    0.000000000e+00
      714750000   -5.722553134e-01    8.401584029e-01    6.384216249e-06    1.100543886e-05    0.000000000e+00    0.000000000e+00    0.000000000e+00    0.000000000e+00
      722000000   -4.725067019e-01    8.818106651e-01   -9.565614164e-06    1.112557948e-05    0.000000000e+00    0.000000000e+00    0.000000000e+00    0.000000000e+00
      729250000   -3.736747503e-01    9.126057625e-01    8.011236787e-06    4.349742085e-05    0.000000000e+00    0.000000000e+00    0.000000000e+00    0.000000000e+00
      736500000   -2.706423402e-01    9.335836172e-01    4.254281521e-06    1.984648407e-05    0.000000000e+00    0.000000000e+00    0.000000000e+00    0.000000000e+00
      743750000   -1.692271233e-01    9.435104728e-01   -8.286908269e-06   -2.054031938e-05    0.000000000e+00    0.000000000e+00    0.000000000e+00    0.000000000e+00
      751000000   -6.807403266e-02    9.431483150e-01    7.999129593e-06    6.651505828e-05    0.000000000e+00    0.000000000e+00    0.000000000e+00    0.000000000e+00
      758250000    3.119833022e-02    9.335840344e-01   -1.347623765e-06    1.206528395e-05    0.000000000e+00    0.000000000e+00    0.000000000e+00    0.000000000e+00
      765500000    1.302036941e-01    9.138039351e-01    1.894123852e-05    4.159007221e-05    0.000000000e+00    0.000000000e+00    0.000000000e+00    0.000000000e+00
      772750000    2.240489423e-01    8.854516149e-01   -2.074707299e-05   -2.954155207e-06    0.000000000e+00    0.000000000e+00    0.000000000e+00    0.000000000e+00
      780000000    3.137491047e-01    8.492364287e-01    3.089196980e-05    1.155957580e-05    0.000000000e+00    0.000000000e+00    0.000000000e+00    0.000000000e+00
      787250000    4.007711112e-01    8.043239713e-01    2.895016223e-05    2.181064337e-05    0.000000000e+00    0.000000000e+00    0.000000000e+00    0.000000000e+00
      794500000    4.811552465e-01    7.528691888e-01   -1.230183989e-05   -1.396890730e-05    0.000000000e+00    0.000000000e+00    0.000000000e+00    0.000000000e+00
      801750000    5.578124523e-01    6.943497062e-01   -1.751817763e-06    7.309019566e-06    0.000000000e+00    0.000000000e+00    0.000000000e+00    0.000000000e+00
      809000000    6.279621124e-01    6.285708547e-01   -7.392838597e-06    2.324394882e-05    0.000000000e+00    0.000000000e+00    0.000000000e+00    0.000000000e+00
      816250000    6.917119622e-01    5.574282408e-01   -1.727882773e-05   -1.307018101e-05    0.000000000e+00    0.000000000e+00    0.000000000e+00    0.000000000e+00
      823500000    7.494537234e-01    4.805853665e-01   -4.400406033e-05   -2.970453352e-05    0.000000000e+00    0.000000000e+00    0.000000000e+00    0.000000000e+00
      830750000    8.000755310e-01    3.970223963e-01    3.756117076e-05    3.753229976e-06    0.000000000e+00    0.000000000e+00    0.000000000e+00    0.000000000e+00
      838000000    8.434202075e-01    3.093829155e-01    9.508803487e-07    8.448027074e-06    0.000000000e+00    0.000000000e+00    0.000000000e+00    0.000000000e+00
      845250000    8.774032593e-01    2.176500708e-01   -1.437962055e-06    3.785733134e-05    0.000000000e+00    0.000000000e+00    0.000000000e+00    0.000000000e+00
      852500000    9.044087529e-01    1.218738034e-01    1.458730549e-05    1.007970423e-05    0.000000000e+00    0.000000000e+00    0.000000000e+00    0.000000000e+00
      859750000    9.212455153e-01    2.325393818e-02   -1.785811037e-05    1.400522888e-05    0.000000000e+00    0.000000000e+00    0.000000000e+00    0.000000000e+00
      867000000    9.290271997e-01   -7.923502475e-02   -1.617800444e-05    2.658367157e-05    0.000000000e+00    0.000000000e+00    0.000000000e+00    0.000000000e+00
      874250000    9.272386432e-01   -1.804807335e-01   -3.459677100e-05    2.463441342e-05    0.000000000e+00    0.000000000e+00    0.000000000e+00    0.000000000e+00
      881500000    9.143139124e-01   -2.843572497e-01   -1.689139754e-05   -1.975242049e-05    0.000000000e+00    0.000000000e+00    0.000000000e+00    0.000000000e+00
      888750000    8.902636766e-01   -3.886845112e-01   -3.323052078e-05    2.006907016e-05    0.000000000e+00    0.000000000e+00    0.000000000e+00    0.000000000e+00
      896000000    8.554265499e-01   -4.911953807e-01   -3.519374877e-05    1.137889922e-05    0.000000000e+00    0.000000000e+00    0.000000000e+00    0.000000000e+00
      903250000    8.078634739e-01   -5.908972621e-01   -4.803761840e-06   -3.744848073e-05    0.000000000e+00    0.000000000e+00    0.000000000e+00    0.000000000e+00
      910500000    7.475755811e-01   -6.884083152e-01   -8.880160749e-06    4.766881466e-05    0.000000000e+00    0.000000000e+00    0.000000000e+00    0.000000000e+00
      917750000    6.779683828e-01   -7.763020992e-01   -4.050321877e-06    4.751607776e-05    0.000000000e+00    0.000000000e+00    0.000000000e+00    0.000000000e+00
      925000000    5.958923697e-01   -8.584074378e-01   -3.358814865e-05    1.398753375e-05    0.000000000e+00    0.000000000e+00    0.000000000e+00    0.000000000e+00
      932250000    5.008240938e-01   -9.326657057e-01    2.526026219e-05    7.193349302e-05    0.000000000e+00    0.000000000e+00    0.000000000e+00    0.000000000e+00
      939500000    3.967208862e-01   -9.944419265e-01    1.139380038e-05    2.511031926e-05    0.000000000e+00    0.000000000e+00    0.000000000e+00    0.000000000e+00
      946750000    2.854670584e-01   -1.042918682e+00    1.489557326e-05    2.350471914e-05    0.000000000e+00    0.000000000e+00    0.000000000e+00    0.000000000e+00
      954000000    1.648530215e-01   -1.077554584e+00   -1.509767026e-05   -4.578381777e-06    0.000000000e+00    0.000000000e+00    0.000000000e+00    0.000000000e+00
      961250000    4.412660375e-02   -1.097100735e+00    2.350378782e-05   -4.031322896e-05    0.000000000e+00    0.000000000e+00    0.000000000e+00    0.000000000e+00
      968500000   -8.425325155e-02   -1.098834991e+00   -5.889777094e-05    4.039704800e-05    0.000000000e+00    0.000000000e+00    0.000000000e+00    0.000000000e+00
      975750000   -2.065802813e-01   -1.084742188e+00    8.492730558e-06    2.794247121e-05    0.000000000e+00    0.000000000e+00    0.000000000e+00    0.000000000e+00
      983000000   -3.284244537e-01   -1.053911090e+00   -3.682170063e-05   -3.489758819e-05    0.000000000e+00    0.000000000e+00    0.000000000e+00    0.000000000e+00
      990250000   -4.449783862e-01   -1.006206989e+00   -9.829178452e-06    3.924034536e-05    0.000000000e+00    0.000000000e+00    0.000000000e+00    0.000000000e+00
      997500000   -5.512028933e-01   -9.468299747e-01   -1.814030111e-05    2.776179463e-05    0.000000000e+00    0.000000000e+00    0.000000000e+00    0.000000000e+00
     1004750000   -6.485247612e-01   -8.721761703e-01    2.048816532e-05   -3.997236490e-06    0.000000000e+00    0.000000000e+00    0.000000000e+00    0.000000000e+00
     1012000000   -7.336347103e-01   -7.884932160e-01   -2.279970795e-05   -2.600252628e-06    0.000000000e+00    0.000000000e+00    0.000000000e+00    0.000000000e+00
     1019250000   -8.056038022e-01   -6.957975030e-01    1.143105328e-05   -7.539056242e-06    0.000000000e+00    0.000000000e+00    0.000000000e+00    0.000000000e+00
     1026500000   -8.649882674e-01   -5.970605612e-01    3.939308226e-05   -1.788046211e-05    0.000000000e+00    0.000000000e+00    0.000000000e+00    0.000000000e+00
     1033750000   -9.108623862e-01   -4.905383587e-01    1.660734415e-05    1.275166869e-05    0.000000000e+00    0.000000000e+00    0.000000000e+00    0.000000000e+00
     1041000000   -9.425879121e-01   -3.839055002e-01    4.344806075e-05   -4.916451871e-06    0.000000000e+00    0.000000000e+00    0.000000000e+00    0.000000000e+00
