! NanoVNA-App by OneOfEleven et al v1.1.209 (+OD15) 
! Date: 2024-07-30 15:09:45
! Start: 200MHz Stop: 6GHz Points: 801
! S-Parameter data: F S11 S21 S12 S22
# Hz S RI R 50
!     Frequency           S11_Real           S11_Imag           S21_Real           S21_Imag           S12_Real           S12_Imag           S22_Real           S22_Imag
      200000000   -9.638432860e-01   -2.882589698e-01    4.295259714e-06   -3.003235906e-05    0.000000000e+00    0.000000000e+00    0.000000000e+00    0.000000000e+00
      207250000   -9.905105829e-01   -1.995614916e-01   -2.823770046e-06   -1.216400415e-05    0.000000000e+00    0.000000000e+00    0.000000000e+00    0.000000000e+00
      214500000   -1.009982109e+00   -1.083200946e-01   -5.881302059e-06   -5.330983549e-05    0.000000000e+00    0.000000000e+00    0.000000000e+00    0.000000000e+00
      221750000   -1.020845413e+00   -1.388255041e-02    3.494042903e-05    2.401880920e-06    0.000000000e+00    0.000000000e+00    0.000000000e+00    0.000000000e+00
      229000000   -1.022813916e+00    8.307287097e-02   -2.392288297e-05    1.949723810e-05    0.000000000e+00    0.000000000e+00    0.000000000e+00    0.000000000e+00
      236250000   -1.015169978e+00    1.804891825e-01   -1.577567309e-05    3.687106073e-06    0.000000000e+00    0.000000000e+00    0.000000000e+00    0.000000000e+00
      243500000   -9.972756505e-01    2.797572911e-01    6.768852472e-06    6.626360118e-06    0.000000000e+00    0.000000000e+00    0.000000000e+00    0.000000000e+00
      250750000   -9.679059982e-01    3.777111769e-01    9.869225323e-06   -2.112891525e-05    0.000000000e+00    0.000000000e+00    0.000000000e+00    0.000000000e+00
      258000000   -9.291205406e-01    4.740575552e-01    1.488439739e-05   -2.426374704e-05    0.000000000e+00    0.000000000e+00    0.000000000e+00    0.000000000e+00
      265250000   -8.789263964e-01    5.672691464e-01   -2.184510231e-05    1.282524318e-05    0.000000000e+00    0.000000000e+00    0.000000000e+00    0.000000000e+00
      272500000   -8.179662228e-01    6.563904881e-01    2.773478627e-06    1.973565668e-05    0.000000000e+00    0.000000000e+00    0.000000000e+00    0.000000000e+00
      279750000   -7.456347346e-01    7.389271259e-01    2.215616405e-06    1.842156053e-05    0.000000000e+00    0.000000000e+00    0.000000000e+00    0.000000000e+00
      287000000   -6.625283360e-01    8.147961497e-01    3.116205335e-06    1.231860369e-05    0.000000000e+00    0.000000000e+00    0.000000000e+00    0.000000000e+00
      294250000   -5.701777339e-01    8.811061382e-01   -5.551613867e-06   -2.848915756e-05    0.000000000e+00    0.000000000e+00    0.000000000e+00    0.000000000e+00
      301500000   -4.696652293e-01    9.379529953e-01   -1.038517803e-05   -3.031454980e-06    0.000000000e+00    0.000000000e+00    0.000000000e+00    0.000000000e+00
      308750000   -3.622060418e-01    9.817065597e-01   -6.023794413e-06   -9.783543646e-06    0.000000000e+00    0.000000000e+00    0.000000000e+00    0.000000000e+00
      316000000   -2.482704967e-01    1.012837172e+00   -1.716054976e-05   -4.746951163e-06    0.000000000e+00    0.000000000e+00    0.000000000e+00    0.000000000e+00
      323250000   -1.305607557e-01    1.030996442e+00    1.219566911e-05   -3.934837878e-06    0.000000000e+00    0.000000000e+00    0.000000000e+00    0.000000000e+00
      330500000   -1.042161230e-02    1.034420252e+00   -1.209136099e-05   -2.547167242e-06    0.000000000e+00    0.000000000e+00    0.000000000e+00    0.000000000e+00
      337750000    1.096191183e-01    1.022886992e+00   -3.578327596e-05    1.951865852e-05    0.000000000e+00    0.000000000e+00    0.000000000e+00    0.000000000e+00
      345000000    2.269156128e-01    9.969704747e-01    1.823902130e-05   -2.417434007e-05    0.000000000e+00    0.000000000e+00    0.000000000e+00    0.000000000e+00
      352250000    3.407300413e-01    9.570422769e-01    2.941675484e-05   -1.047831029e-05    0.000000000e+00    0.000000000e+00    0.000000000e+00    0.000000000e+00
      359500000    4.489879906e-01    9.040402174e-01    1.581758261e-05   -9.818002582e-06    0.000000000e+00    0.000000000e+00    0.000000000e+00    0.000000000e+00
      366750000    5.491001010e-01    8.388032317e-01   -2.268701792e-05    4.446599633e-05    0.000000000e+00    0.000000000e+00    0.000000000e+00    0.000000000e+00
      374000000    6.404348016e-01    7.618200183e-01   -7.126480341e-06   -1.233536750e-05    0.000000000e+00    0.000000000e+00    0.000000000e+00    0.000000000e+00
      381250000    7.218242288e-01    6.759745479e-01    1.457799226e-05   -1.633353531e-05    0.000000000e+00    0.000000000e+00    0.000000000e+00    0.000000000e+00
      388500000    7.918879986e-01    5.821566582e-01   -5.202926695e-05    1.373980194e-05    0.000000000e+00    0.000000000e+00    0.000000000e+00    0.000000000e+00
      395750000    8.509044647e-01    4.818754196e-01   -1.703575253e-05    2.088211477e-05    0.000000000e+00    0.000000000e+00    0.000000000e+00    0.000000000e+00
      403000000    8.973643780e-01    3.770128489e-01   -1.647509634e-05    2.534221858e-05    0.000000000e+00    0.000000000e+00    0.000000000e+00    0.000000000e+00
      410250000    9.326002598e-01    2.678206563e-01   -4.837382585e-05    2.018641680e-05    0.000000000e+00    0.000000000e+00    0.000000000e+00    0.000000000e+00
      417500000    9.552283883e-01    1.577665210e-01   -1.859292388e-05    2.967566252e-05    0.000000000e+00    0.000000000e+00    0.000000000e+00    0.000000000e+00
      424750000    9.656150937e-01    4.705280066e-02   -3.563240170e-06    4.053115845e-06    0.000000000e+00    0.000000000e+00    0.000000000e+00    0.000000000e+00
      432000000    9.645429850e-01   -6.358478963e-02   -4.808977246e-05    4.780106246e-05    0.000000000e+00    0.000000000e+00    0.000000000e+00    0.000000000e+00
      439250000    9.523140788e-01   -1.723278910e-01   -1.286435872e-05    1.925323159e-05    0.000000000e+00    0.000000000e+00    0.000000000e+00    0.000000000e+00
      446500000    9.294505119e-01   -2.780405581e-01   -2.578832209e-06    2.766679972e-05    0.000000000e+00    0.000000000e+00    0.000000000e+00    0.000000000e+00
      453750000    8.961862922e-01   -3.812197149e-01   -2.658553421e-05   -2.108607441e-05    0.000000000e+00    0.000000000e+00    0.000000000e+00    0.000000000e+00
      461000000    8.534351587e-01   -4.792783558e-01   -1.965090632e-07    2.123042941e-05    0.000000000e+00    0.000000000e+00    0.000000000e+00    0.000000000e+00
      468250000    8.019956350e-01   -5.711855888e-01    8.705072105e-06   -6.966292858e-06    0.000000000e+00    0.000000000e+00    0.000000000e+00    0.000000000e+00
      475500000    7.404779792e-01   -6.585943699e-01    1.352000982e-05   -2.357829362e-05    0.000000000e+00    0.000000000e+00    0.000000000e+00    0.000000000e+00
      482750000    6.719724536e-01   -7.393980026e-01   -1.261383295e-05    2.107303590e-05    0.000000000e+00    0.000000000e+00    0.000000000e+00    0.000000000e+00
      490000000    5.952558517e-01   -8.117042184e-01   -4.851259291e-06   -3.256835043e-05    0.000000000e+00    0.000000000e+00    0.000000000e+00    0.000000000e+00
      497250000    5.117637515e-01   -8.769184351e-01    1.336168498e-05    4.008412361e-06    0.000000000e+00    0.000000000e+00    0.000000000e+00    0.000000000e+00
      504500000    4.234642684e-01   -9.339206219e-01   -3.632809967e-05   -8.597038686e-06    0.000000000e+00    0.000000000e+00    0.000000000e+00    0.000000000e+00
      511750000    3.284416795e-01   -9.824995995e-01    3.594346344e-05    7.594004273e-06    0.000000000e+00    0.000000000e+00    0.000000000e+00    0.000000000e+00
      519000000    2.286967784e-01   -1.021185756e+00    4.992820323e-06    4.877056926e-05    0.000000000e+00    0.000000000e+00    0.000000000e+00    0.000000000e+00
      526250000    1.251669824e-01   -1.049309015e+00    3.753229976e-06   -7.950700819e-06    0.000000000e+00    0.000000000e+00    0.000000000e+00    0.000000000e+00
      533500000    1.960905269e-02   -1.067635536e+00    3.224238753e-05   -1.752283424e-05    0.000000000e+00    0.000000000e+00    0.000000000e+00    0.000000000e+00
      540750000   -8.940630406e-02   -1.075751066e+00    6.569176912e-05   -5.642883480e-06    0.000000000e+00    0.000000000e+00    0.000000000e+00    0.000000000e+00
      548000000   -1.992628723e-01   -1.071742773e+00    9.626150131e-06    8.928589523e-06    0.000000000e+00    0.000000000e+00    0.000000000e+00    0.000000000e+00
      555250000   -3.078693151e-01   -1.055759668e+00    7.434748113e-06   -1.931283623e-05    0.000000000e+00    0.000000000e+00    0.000000000e+00    0.000000000e+00
      562500000   -4.160875976e-01   -1.028663874e+00    1.230556518e-05   -2.424232662e-06    0.000000000e+00    0.000000000e+00    0.000000000e+00    0.000000000e+00
      569750000   -5.213375688e-01   -9.887417555e-01    1.262407750e-05   -2.876389772e-05    0.000000000e+00    0.000000000e+00    0.000000000e+00    0.000000000e+00
      577000000   -6.224296093e-01   -9.382180572e-01    7.168389857e-06    1.540780067e-05    0.000000000e+00    0.000000000e+00    0.000000000e+00    0.000000000e+00
      584250000   -7.187552452e-01   -8.769016862e-01   -2.811290324e-05    2.523139119e-05    0.000000000e+00    0.000000000e+00    0.000000000e+00    0.000000000e+00
      591500000   -8.066487908e-01   -8.041137457e-01    1.003965735e-06    5.792826414e-06    0.000000000e+00    0.000000000e+00    0.000000000e+00    0.000000000e+00
      598750000   -8.888486028e-01   -7.193659544e-01    1.245550811e-05   -1.129508018e-05    0.000000000e+00    0.000000000e+00    0.000000000e+00    0.000000000e+00
      606000000   -9.582880139e-01   -6.282401085e-01    4.068110138e-05    9.881332517e-06    0.000000000e+00    0.000000000e+00    0.000000000e+00    0.000000000e+00
      613250000   -1.018247724e+00   -5.276978016e-01   -4.927255213e-05    2.368353307e-05    0.000000000e+00    0.000000000e+00    0.000000000e+00    0.000000000e+00
      620500000   -1.067068696e+00   -4.202104509e-01    5.129724741e-06   -1.964252442e-05    0.000000000e+00    0.000000000e+00    0.000000000e+00    0.000000000e+00
      627750000   -1.102272391e+00   -3.066467941e-01    5.148351192e-06   -2.845097333e-05    0.000000000e+00    0.000000000e+00    0.000000000e+00    0.000000000e+00
      635000000   -1.124715090e+00   -1.920230538e-01   -1.787208021e-06   -1.308228821e-05    0.000000000e+00    0.000000000e+00    0.000000000e+00    0.000000000e+00
      642250000   -1.133466363e+00   -7.436034083e-02   -1.595821232e-05    5.348585546e-06    0.000000000e+00    0.000000000e+00    0.000000000e+00    0.000000000e+00
      649500000   -1.127941966e+00    4.369357228e-02   -2.851616591e-05    7.794238627e-06    0.000000000e+00    0.000000000e+00    0.000000000e+00    0.000000000e+00
      656750000   -1.109185100e+00    1.576102674e-01   -4.148110747e-06    1.975148916e-05    0.000000000e+00    0.000000000e+00    0.000000000e+00    0.000000000e+00
      664000000   -1.078012586e+00    2.696135938e-01   -2.290215343e-05   -2.220552415e-05    0.000000000e+00    0.000000000e+00    0.000000000e+00    0.000000000e+00
      671250000   -1.033833742e+00    3.758931756e-01    2.556107938e-05    1.740176231e-05    0.000000000e+00    0.000000000e+00    0.000000000e+00    0.000000000e+00
      678500000   -9.776905179e-01    4.753071368e-01   -1.395866275e-05   -5.161389709e-05    0.000000000e+00    0.000000000e+00    0.000000000e+00    0.000000000e+00
      685750000   -9.123094678e-01    5.670037270e-01   -2.376735210e-05   -3.963988274e-05    0.000000000e+00    0.000000000e+00    0.000000000e+00    0.000000000e+00
      693000000   -8.381461501e-01    6.499046087e-01   -1.421757042e-05    3.752298653e-06    0.000000000e+00    0.000000000e+00    0.000000000e+00    0.000000000e+00
      700250000   -7.546213865e-01    7.237601876e-01    1.133885235e-05   -4.107132554e-07    0.000000000e+00    0.000000000e+00    0.000000000e+00    0.000000000e+00
      707500000   -6.654757857e-01    7.871088386e-01    2.709031105e-05   -2.389308065e-05    0.000000000e+00    0.000000000e+00    0.000000000e+00    0.000000000e+00
      714750000   -5.719803572e-01    8.399617672e-01   -3.114715219e-05    1.631211489e-05    0.000000000e+00    0.000000000e+00    0.000000000e+00    0.000000000e+00
      722000000   -4.732230902e-01    8.825699091e-01   -3.166776150e-05    4.632398486e-06    0.000000000e+00    0.000000000e+00    0.000000000e+00    0.000000000e+00
      729250000   -3.730239272e-01    9.132633805e-01   -1.305993646e-05    2.685934305e-06    0.000000000e+00    0.000000000e+00    0.000000000e+00    0.000000000e+00
      736500000   -2.715535760e-01    9.335523248e-01    5.157291889e-05   -2.071261406e-06    0.000000000e+00    0.000000000e+00    0.000000000e+00    0.000000000e+00
      743750000   -1.687354147e-01    9.430958629e-01   -4.217959940e-06   -2.436339855e-05    0.000000000e+00    0.000000000e+00    0.000000000e+00    0.000000000e+00
      751000000   -6.837327033e-02    9.432179332e-01   -6.585381925e-06   -1.139473170e-05    0.000000000e+00    0.000000000e+00    0.000000000e+00    0.000000000e+00
      758250000    3.149358928e-02    9.328039289e-01   -1.883320510e-05   -3.961380571e-05    0.000000000e+00    0.000000000e+00    0.000000000e+00    0.000000000e+00
      765500000    1.295675039e-01    9.135212898e-01   -1.380126923e-05   -3.122817725e-05    0.000000000e+00    0.000000000e+00    0.000000000e+00    0.000000000e+00
      772750000    2.236147076e-01    8.852062225e-01    2.984888852e-06    2.516340464e-05    0.000000000e+00    0.000000000e+00    0.000000000e+00    0.000000000e+00
      780000000    3.134337664e-01    8.498862982e-01    2.401787788e-05    1.321081072e-05    0.000000000e+00    0.000000000e+00    0.000000000e+00    0.000000000e+00
      787250000    4.001222253e-01    8.046922088e-01    3.515742719e-06    8.728355169e-06    0.000000000e+00    0.000000000e+00    0.000000000e+00    0.000000000e+00
      794500000    4.813580215e-01    7.534474730e-01    3.423448652e-05    4.858896136e-05    0.000000000e+00    0.000000000e+00    0.000000000e+00    0.000000000e+00
      801750000    5.572008491e-01    6.945454478e-01   -1.453235745e-05   -2.109445632e-05    0.000000000e+00    0.000000000e+00    0.000000000e+00    0.000000000e+00
      809000000    6.275378466e-01    6.293783784e-01    1.450255513e-05    4.901550710e-06    0.000000000e+00    0.000000000e+00    0.000000000e+00    0.000000000e+00
      816250000    6.921246052e-01    5.567682385e-01   -2.920720726e-05    7.351860404e-06    0.000000000e+00    0.000000000e+00    0.000000000e+00    0.000000000e+00
      823500000    7.497718930e-01    4.794521630e-01    2.698972821e-06   -4.720129073e-05    0.000000000e+00    0.000000000e+00    0.000000000e+00    0.000000000e+00
      830750000    7.999674082e-01    3.975991309e-01   -1.456215978e-05    2.550706267e-05    0.000000000e+00    0.000000000e+00    0.000000000e+00    0.000000000e+00
      838000000    8.433999419e-01    3.095522523e-01   -2.628937364e-05    2.805795521e-05    0.000000000e+00    0.000000000e+00    0.000000000e+00    0.000000000e+00
      845250000    8.772523403e-01    2.175591439e-01    7.197260857e-06    1.407973468e-05    0.000000000e+00    0.000000000e+00    0.000000000e+00    0.000000000e+00
      852500000    9.043192863e-01    1.214147583e-01    1.854822040e-05    4.873797297e-05    0.000000000e+00    0.000000000e+00    0.000000000e+00    0.000000000e+00
      859750000    9.213306308e-01    2.377966233e-02    1.537334174e-05   -2.562068403e-06    0.000000000e+00    0.000000000e+00    0.000000000e+00    0.000000000e+00
      867000000    9.295616746e-01   -7.899436355e-02   -1.417007297e-05   -2.633966506e-05    0.000000000e+00    0.000000000e+00    0.000000000e+00    0.000000000e+00
      874250000    9.274042249e-01   -1.807018518e-01    3.497116268e-06    3.226101398e-05    0.000000000e+00    0.000000000e+00    0.000000000e+00    0.000000000e+00
      881500000    9.145019650e-01   -2.852047384e-01   -6.092712283e-06   -4.494562745e-06    0.000000000e+00    0.000000000e+00    0.000000000e+00    0.000000000e+00
      888750000    8.907351494e-01   -3.879660964e-01    2.372730523e-05   -1.625064760e-05    0.000000000e+00    0.000000000e+00    0.000000000e+00    0.000000000e+00
      896000000    8.545157909e-01   -4.916151762e-01   -3.822520375e-05   -1.590978354e-05    0.000000000e+00    0.000000000e+00    0.000000000e+00    0.000000000e+00
      903250000    8.085123897e-01   -5.901941657e-01    2.556666732e-05    1.449417323e-05    0.000000000e+00    0.000000000e+00    0.000000000e+00    0.000000000e+00
      910500000    7.474231720e-01   -6.876199841e-01   -2.124533057e-05    4.740431905e-07    0.000000000e+00    0.000000000e+00    0.000000000e+00    0.000000000e+00
      917750000    6.769096255e-01   -7.762111425e-01    1.100450754e-05    3.095995635e-05    0.000000000e+00    0.000000000e+00    0.000000000e+00    0.000000000e+00
      925000000    5.949745774e-01   -8.590339422e-01    4.884973168e-05    4.738848656e-05    0.000000000e+00    0.000000000e+00    0.000000000e+00    0.000000000e+00
      932250000    4.994722605e-01   -9.326292276e-01   -2.354662865e-05    5.010515451e-07    0.000000000e+00    0.000000000e+00    0.000000000e+00    0.000000000e+00
      939500000    3.960647285e-01   -9.944798350e-01    6.705522537e-07    1.304317266e-05    0.000000000e+00    0.000000000e+00    0.000000000e+00    0.000000000e+00
      946750000    2.861185074e-01   -1.042958736e+00    1.613702625e-05    1.232046634e-05    0.000000000e+00    0.000000000e+00    0.000000000e+00    0.000000000e+00
      954000000    1.646707952e-01   -1.077206969e+00   -1.452304423e-05    1.765042543e-05    0.000000000e+00    0.000000000e+00    0.000000000e+00    0.000000000e+00
      961250000    4.380282760e-02   -1.096756220e+00   -1.983530819e-05    8.230097592e-06    0.000000000e+00    0.000000000e+00    0.000000000e+00    0.000000000e+00
      968500000   -8.385078609e-02   -1.099253416e+00   -9.393319488e-06   -7.005408406e-06    0.000000000e+00    0.000000000e+00    0.000000000e+00    0.000000000e+00
      975750000   -2.055341005e-01   -1.085353613e+00   -9.839423001e-06    3.716908395e-06    0.000000000e+00    0.000000000e+00    0.000000000e+00    0.000000000e+00
      983000000   -3.288492560e-01   -1.053792357e+00   -2.655945718e-05   -6.690621376e-06    0.000000000e+00    0.000000000e+00    0.000000000e+00    0.000000000e+00
      990250000   -4.438711703e-01   -1.006783366e+00   -5.420297384e-07   -1.727417111e-05    0.000000000e+00    0.000000000e+00    0.000000000e+00    0.000000000e+00
      997500000   -5.512822270e-01   -9.475578070e-01   -5.000270903e-06    3.134924918e-05    0.000000000e+00    0.000000000e+00    0.000000000e+00    0.000000000e+00
     1004750000   -6.481809616e-01   -8.733609915e-01    3.008358181e-05    3.890134394e-06    0.000000000e+00    0.000000000e+00    0.000000000e+00    0.000000000e+00
     1012000000   -7.334973812e-01   -7.881530523e-01    1.094210893e-05    2.704467624e-05    0.000000000e+00    0.000000000e+00    0.000000000e+00    0.000000000e+00
     1019250000   -8.058431149e-01   -6.955426335e-01    1.229904592e-05   -1.773145050e-05    0.000000000e+00    0.000000000e+00    0.000000000e+00    0.000000000e+00
     1026500000   -8.646014929e-01   -5.967730880e-01   -1.301988959e-06   -2.419576049e-06    0.000000000e+00    0.000000000e+00    0.000000000e+00    0.000000000e+00
     1033750000   -9.107003212e-01   -4.910145998e-01   -3.906898201e-06    2.038665116e-06    0.000000000e+00    0.000000000e+00    0.000000000e+00    0.000000000e+00
     1041000000   -9.425513148e-01   -3.839868307e-01    3.381352872e-05    3.203749657e-06    0.000000000e+00    0.000000000e+00    0.000000000e+00    0.000000000e+00
