! NanoVNA-App by OneOfEleven et al v1.1.209 (+OD15) 
! Date: 2024-07-30 15:09:48
! Start: 200MHz Stop: 6GHz Points: 801
! S-Parameter data: F S11 S21 S12 S22
# Hz S RI R 50
!     Frequency           S11_Real           S11_Imag           S21_Real           S21_Imag           S12_Real           S12_Imag           S22_Real           S22_Imag
      200000000   -9.638348222e-01   -2.878218889e-01    2.199038863e-05   -2.901069820e-06    0.000000000e+00    0.000000000e+00    0.000000000e+00    0.000000000e+00
      207250000   -9.913008809e-01   -1.999484897e-01   -8.436851203e-06   -1.347064972e-05    0.000000000e+00    0.000000000e+00    0.000000000e+00    0.000000000e+00
      214500000   -1.010340333e+00   -1.083737761e-01   -2.454593778e-05   -3.354623914e-06    0.000000000e+00    0.000000000e+00    0.000000000e+00    0.000000000e+00
      221750000   -1.020489812e+00   -1.358870510e-02   -2.774503082e-05    4.404224455e-05    0.000000000e+00    0.000000000e+00    0.000000000e+00    0.000000000e+00
      229000000   -1.022838354e+00    8.280139416e-02    1.132860780e-05    1.042149961e-06    0.000000000e+00    0.000000000e+00    0.000000000e+00    0.000000000e+00
      236250000   -1.014661789e+00    1.811209768e-01    1.334585249e-05    2.993270755e-06    0.000000000e+00    0.000000000e+00    0.000000000e+00    0.000000000e+00
      243500000   -9.973755479e-01    2.793124914e-01    2.334546298e-05    1.959130168e-05    0.000000000e+00    0.000000000e+00    0.000000000e+00    0.000000000e+00
      250750000   -9.688021541e-01    3.775330484e-01    2.664793283e-05    9.079463780e-06    0.000000000e+00    0.000000000e+00    0.000000000e+00    0.000000000e+00
      258000000   -9.296058416e-01    4.743166268e-01   -3.102887422e-05   -9.527429938e-07    0.000000000e+00    0.000000000e+00    0.000000000e+00    0.000000000e+00
      265250000   -8.791400194e-01    5.672976971e-01    1.456681639e-05    2.768822014e-05    0.000000000e+00    0.000000000e+00    0.000000000e+00    0.000000000e+00
      272500000   -8.179426789e-01    6.563025713e-01    2.374220639e-05   -1.558195800e-05    0.000000000e+00    0.000000000e+00    0.000000000e+00    0.000000000e+00
      279750000   -7.462130189e-01    7.396441102e-01    2.084858716e-05   -1.365318894e-06    0.000000000e+00    0.000000000e+00    0.000000000e+00    0.000000000e+00
      287000000   -6.634190083e-01    8.149982691e-01   -7.176771760e-06    2.357177436e-05    0.000000000e+00    0.000000000e+00    0.000000000e+00    0.000000000e+00
      294250000   -5.712540150e-01    8.814013600e-01    1.832563430e-05   -1.368299127e-05    0.000000000e+00    0.000000000e+00    0.000000000e+00    0.000000000e+00
      301500000   -4.704475403e-01    9.372733235e-01   -5.608424544e-06    5.460344255e-06    0.000000000e+00    0.000000000e+00    0.000000000e+00    0.000000000e+00
      308750000   -3.613222837e-01    9.820584059e-01   -2.716574818e-05   -2.278480679e-05    0.000000000e+00    0.000000000e+00    0.000000000e+00    0.000000000e+00
      316000000   -2.480570227e-01    1.013342619e+00    1.486297697e-05    1.771748066e-05    0.000000000e+00    0.000000000e+00    0.000000000e+00    0.000000000e+00
      323250000   -1.302808821e-01    1.030513406e+00   -2.467911690e-05    4.370696843e-06    0.000000000e+00    0.000000000e+00    0.000000000e+00    0.000000000e+00
      330500000   -1.059964765e-02    1.034150124e+00    2.442859113e-06    7.098540664e-06    0.000000000e+00    0.000000000e+00    0.000000000e+00    0.000000000e+00
      337750000    1.094309017e-01    1.023241162e+00    1.340359449e-05   -1.933425665e-05    0.000000000e+00    0.000000000e+00    0.000000000e+00    0.000000000e+00
      345000000    2.270437479e-01    9.968158007e-01   -2.674385905e-05    6.129033864e-06    0.000000000e+00    0.000000000e+00    0.000000000e+00    0.000000000e+00
      352250000    3.409230411e-01    9.571508765e-01   -2.034753561e-05   -3.006029874e-05    0.000000000e+00    0.000000000e+00    0.000000000e+00    0.000000000e+00
      359500000    4.490420818e-01    9.032793641e-01    1.215189695e-05   -9.140931070e-06    0.000000000e+00    0.000000000e+00    0.000000000e+00    0.000000000e+00
      366750000    5.494021177e-01    8.384953141e-01    3.596767783e-06    6.021931767e-06    0.000000000e+00    0.000000000e+00    0.000000000e+00    0.000000000e+00
      374000000    6.403865218e-01    7.627968788e-01   -4.225596786e-05    1.626368612e-05    0.000000000e+00    0.000000000e+00    0.000000000e+00    0.000000000e+00
      381250000    7.219644189e-01    6.758770347e-01    1.816265285e-05    2.771988511e-05    0.000000000e+00    0.000000000e+00    0.000000000e+00    0.000000000e+00
      388500000    7.920160294e-01    5.820029378e-01    1.019425690e-05   -2.778973430e-05    0.000000000e+00    0.000000000e+00    0.000000000e+00    0.000000000e+00
      395750000    8.509720564e-01    4.827438295e-01   -1.212116331e-05    1.066736877e-05    0.000000000e+00    0.000000000e+00    0.000000000e+00    0.000000000e+00
      403000000    8.977084756e-01    3.765735626e-01    1.085270196e-05    7.662922144e-06    0.000000000e+00    0.000000000e+00    0.000000000e+00    0.000000000e+00
      410250000    9.324591160e-01    2.686866522e-01   -8.764676750e-06   -3.794208169e-06    0.000000000e+00    0.000000000e+00    0.000000000e+00    0.000000000e+00
      417500000    9.552005529e-01    1.580880284e-01    5.780719221e-06   -3.864057362e-06    0.000000000e+00    0.000000000e+00    0.000000000e+00    0.000000000e+00
      424750000    9.658095241e-01    4.656707868e-02   -4.371628165e-06   -1.107621938e-05    0.000000000e+00    0.000000000e+00    0.000000000e+00    0.000000000e+00
      432000000    9.647837877e-01   -6.340513378e-02    1.109298319e-05    7.916241884e-08    0.000000000e+00    0.000000000e+00    0.000000000e+00    0.000000000e+00
      439250000    9.522169232e-01   -1.727062017e-01   -2.853758633e-05   -3.363005817e-05    0.000000000e+00    0.000000000e+00    0.000000000e+00    0.000000000e+00
      446500000    9.300185442e-01   -2.782858312e-01    1.503434032e-05   -3.687199205e-05    0.000000000e+00    0.000000000e+00    0.000000000e+00    0.000000000e+00
      453750000    8.965664506e-01   -3.813153505e-01   -1.913681626e-05   -1.050904393e-05    0.000000000e+00    0.000000000e+00    0.000000000e+00    0.000000000e+00
      461000000    8.530291915e-01   -4.791993201e-01    6.053596735e-07    1.605134457e-05    0.000000000e+00    0.000000000e+00    0.000000000e+00    0.000000000e+00
      468250000    8.014905453e-01   -5.717064142e-01    1.353118569e-05   -2.174172550e-05    0.000000000e+00    0.000000000e+00    0.000000000e+00    0.000000000e+00
      475500000    7.404431701e-01   -6.588558555e-01   -1.839175820e-05   -4.401430488e-05    0.000000000e+00    0.000000000e+00    0.000000000e+00    0.000000000e+00
      482750000    6.718378067e-01   -7.391122580e-01    1.125968993e-05    2.719182521e-05    0.000000000e+00    0.000000000e+00    0.000000000e+00    0.000000000e+00
      490000000    5.952542424e-01   -8.117604852e-01    1.547858119e-05    1.954473555e-05    0.000000000e+00    0.000000000e+00    0.000000000e+00    0.000000000e+00
      497250000    5.117902756e-01   -8.771666884e-01   -1.861341298e-05   -1.576822251e-05    0.000000000e+00    0.000000000e+00    0.000000000e+00    0.000000000e+00
      504500000    4.232017398e-01   -9.348117113e-01    1.155585051e-05    8.085742593e-06    0.000000000e+00    0.000000000e+00    0.000000000e+00    0.000000000e+00
      511750000    3.281954229e-01   -9.824443460e-01   -4.378799349e-05   -2.871267498e-06    0.000000000e+00    0.000000000e+00    0.000000000e+00    0.000000000e+00
      519000000    2.287371159e-01   -1.020863771e+00    1.535005867e-05    6.211921573e-06    0.000000000e+00    0.000000000e+00    0.000000000e+00    0.000000000e+00
      526250000    1.253144443e-01   -1.049853206e+00   -1.223944128e-05   -2.299994230e-05    0.000000000e+00    0.000000000e+00    0.000000000e+00    0.000000000e+00
      533500000    1.894339733e-02   -1.068264604e+00   -1.190509647e-05    4.099961370e-05    0.000000000e+00    0.000000000e+00    0.000000000e+00    0.000000000e+00
      540750000   -8.918894082e-02   -1.074942350e+00    9.707175195e-06   -1.401361078e-05    0.000000000e+00    0.000000000e+00    0.000000000e+00    0.000000000e+00
      548000000   -1.991354227e-01   -1.071237087e+00    3.461632878e-05    3.320630640e-05    0.000000000e+00    0.000000000e+00    0.000000000e+00    0.000000000e+00
      555250000   -3.089936972e-01   -1.055417657e+00    1.783762127e-05    4.543922842e-06    0.000000000e+00    0.000000000e+00    0.000000000e+00    0.000000000e+00
      562500000   -4.159002304e-01   -1.027900934e+00    5.375035107e-05    4.880223423e-05    0.000000000e+00    0.000000000e+00    0.000000000e+00    0.000000000e+00
      569750000   -5.217136145e-01   -9.894512296e-01   -4.516076297e-05    5.499459803e-06    0.000000000e+00    0.000000000e+00    0.000000000e+00    0.000000000e+00
      577000000   -6.221604347e-01   -9.385424256e-01   -1.376029104e-05    4.025176167e-06    0.000000000e+00    0.000000000e+00    0.000000000e+00    0.000000000e+00
      584250000   -7.197644711e-01   -8.760076165e-01    2.359040082e-05    2.495385706e-05    0.000000000e+00    0.000000000e+00    0.000000000e+00    0.000000000e+00
      591500000   -8.077216148e-01   -8.036711812e-01    2.256315202e-05    5.185883492e-05    0.000000000e+00    0.000000000e+00    0.000000000e+00    0.000000000e+00
      598750000   -8.875828981e-01   -7.199921012e-01    2.347957343e-05    2.468004823e-07    0.000000000e+00    0.000000000e+00    0.000000000e+00    0.000000000e+00
      606000000   -9.589258432e-01   -6.282358170e-01   -2.585537732e-05    1.150555909e-05    0.000000000e+00    0.000000000e+00    0.000000000e+00    0.000000000e+00
      613250000   -1.018446445e+00   -5.279886723e-01    1.836661249e-05   -3.837700933e-05    0.000000000e+00    0.000000000e+00    0.000000000e+00    0.000000000e+00
      620500000   -1.067135096e+00   -4.198235869e-01   -3.487057984e-05   -1.767463982e-05    0.000000000e+00    0.000000000e+00    0.000000000e+00    0.000000000e+00
      627750000   -1.102233648e+00   -3.080128431e-01   -1.125130802e-05    4.208646715e-06    0.000000000e+00    0.000000000e+00    0.000000000e+00    0.000000000e+00
      635000000   -1.124960423e+00   -1.926276982e-01    1.219660044e-05   -3.590621054e-05    0.000000000e+00    0.000000000e+00    0.000000000e+00    0.000000000e+00
      642250000   -1.133472204e+00   -7.295201719e-02    2.761464566e-05   -7.953494787e-06    0.000000000e+00    0.000000000e+00    0.000000000e+00    0.000000000e+00
      649500000   -1.128234386e+00    4.293229803e-02   -1.520756632e-05    7.076188922e-06    0.000000000e+00    0.000000000e+00    0.000000000e+00    0.000000000e+00
      656750000   -1.108862281e+00    1.580966562e-01   -4.923902452e-06   -4.125759006e-07    0.000000000e+00    0.000000000e+00    0.000000000e+00    0.000000000e+00
      664000000   -1.077694416e+00    2.701138854e-01    9.858049452e-06    1.338776201e-05    0.000000000e+00    0.000000000e+00    0.000000000e+00    0.000000000e+00
      671250000   -1.033573985e+00    3.749552071e-01   -3.894977272e-05    3.641471267e-07    0.000000000e+00    0.000000000e+00    0.000000000e+00    0.000000000e+00
      678500000   -9.785628915e-01    4.746470451e-01   -8.401460946e-06   -1.738965511e-05    0.000000000e+00    0.000000000e+00    0.000000000e+00    0.000000000e+00
      685750000   -9.121383429e-01    5.679480433e-01   -1.220405102e-05   -3.158766776e-05    0.000000000e+00    0.000000000e+00    0.000000000e+00    0.000000000e+00
      693000000   -8.375160694e-01    6.499805450e-01    8.653849363e-06    9.390525520e-06    0.000000000e+00    0.000000000e+00    0.000000000e+00    0.000000000e+00
      700250000   -7.551467419e-01    7.235386372e-01    5.811452866e-07    4.408694804e-05    0.000000000e+00    0.000000000e+00    0.000000000e+00    0.000000000e+00
      707500000   -6.653375030e-01    7.870782614e-01    1.367460936e-05   -1.272466034e-05    0.000000000e+00    0.000000000e+00    0.000000000e+00    0.000000000e+00
      714750000   -5.721515417e-01    8.398598433e-01   -4.176795483e-05    2.204068005e-05    0.000000000e+00    0.000000000e+00    0.000000000e+00    0.000000000e+00
      722000000   -4.725777805e-01    8.824194074e-01   -3.057438880e-05    5.123205483e-06    0.000000000e+00    0.000000000e+00    0.000000000e+00    0.000000000e+00
      729250000   -3.731932044e-01    9.125549793e-01   -2.430751920e-06   -4.242360592e-05    0.000000000e+00    0.000000000e+00    0.000000000e+00    0.000000000e+00
      736500000   -2.715428174e-01    9.335849881e-01    1.364666969e-05   -9.298324585e-06    0.000000000e+00    0.000000000e+00    0.000000000e+00    0.000000000e+00
      743750000   -1.694567651e-01    9.433411360e-01    1.996848732e-05   -1.617521048e-05    0.000000000e+00    0.000000000e+00    0.000000000e+00    0.000000000e+00
      751000000   -6.773044169e-02    9.431636930e-01   -6.097368896e-06    1.895986497e-05    0.000000000e+00    0.000000000e+00    0.000000000e+00    0.000000000e+00
      758250000    3.223696724e-02    9.334583282e-01   -3.293156624e-05    7.162801921e-06    0.000000000e+00    0.000000000e+00    0.000000000e+00    0.000000000e+00
      765500000    1.295094341e-01    9.132577181e-01    2.252776176e-05   -2.297386527e-05    0.000000000e+00    0.000000000e+00    0.000000000e+00    0.000000000e+00
      772750000    2.236012220e-01    8.856244683e-01    8.962117136e-06   -2.126209438e-05    0.000000000e+00    0.000000000e+00    0.000000000e+00    0.000000000e+00
      780000000    3.124646544e-01    8.496191502e-01    8.496455848e-06    3.949739039e-05    0.000000000e+00    0.000000000e+00    0.000000000e+00    0.000000000e+00
      787250000    4.007844329e-01    8.035874963e-01   -2.818182111e-06   -5.458854139e-05    0.000000000e+00    0.000000000e+00    0.000000000e+00    0.000000000e+00
      794500000    4.815276861e-01    7.524409294e-01   -2.685002983e-06   -1.876149327e-05    0.000000000e+00    0.000000000e+00    0.000000000e+00    0.000000000e+00
      801750000    5.566795468e-01    6.944025159e-01   -2.177245915e-05    9.619630873e-06    0.000000000e+00    0.000000000e+00    0.000000000e+00    0.000000000e+00
      809000000    6.287989020e-01    6.286229491e-01   -6.868503988e-06    1.691188663e-05    0.000000000e+00    0.000000000e+00    0.000000000e+00    0.000000000e+00
      816250000    6.913747191e-01    5.578753352e-01   -5.747564137e-05   -3.152992576e-05    0.000000000e+00    0.000000000e+00    0.000000000e+00    0.000000000e+00
      823500000    7.497670650e-01    4.792957604e-01    3.166496754e-06    1.923553646e-05    0.000000000e+00    0.000000000e+00    0.000000000e+00    0.000000000e+00
      830750000    7.999274731e-01    3.965952694e-01   -3.593694419e-05    1.471303403e-05    0.000000000e+00    0.000000000e+00    0.000000000e+00    0.000000000e+00
      838000000    8.426352143e-01    3.091019988e-01    4.083570093e-05    7.773749530e-06    0.000000000e+00    0.000000000e+00    0.000000000e+00    0.000000000e+00
      845250000    8.781334758e-01    2.184939086e-01    1.798849553e-05    1.166295260e-05    0.000000000e+00    0.000000000e+00    0.000000000e+00    0.000000000e+00
      852500000    9.044035077e-01    1.213143319e-01   -1.112092286e-05   -3.010500222e-05    0.000000000e+00    0.000000000e+00    0.000000000e+00    0.000000000e+00
      859750000    9.216915369e-01    2.437483147e-02   -1.005548984e-05    2.723559737e-05    0.000000000e+00    0.000000000e+00    0.000000000e+00    0.000000000e+00
      867000000    9.288353324e-01   -7.931874692e-02   -5.778577179e-05   -1.295842230e-05    0.000000000e+00    0.000000000e+00    0.000000000e+00    0.000000000e+00
      874250000    9.267822504e-01   -1.805501431e-01   -2.415850759e-06   -8.065253496e-06    0.000000000e+00    0.000000000e+00    0.000000000e+00    0.000000000e+00
      881500000    9.139118195e-01   -2.852612138e-01    9.161420166e-06   -1.326017082e-05    0.000000000e+00    0.000000000e+00    0.000000000e+00    0.000000000e+00
      888750000    8.904988766e-01   -3.882072568e-01    2.603046596e-06    1.597683877e-05    0.000000000e+00    0.000000000e+00    0.000000000e+00    0.000000000e+00
      896000000    8.543074131e-01   -4.917031825e-01   -3.018323332e-05   -1.006200910e-05    0.000000000e+00    0.000000000e+00    0.000000000e+00    0.000000000e+00
      903250000    8.079062700e-01   -5.906121731e-01    4.631560296e-05    2.459064126e-05    0.000000000e+00    0.000000000e+00    0.000000000e+00    0.000000000e+00
      910500000    7.476658821e-01   -6.869938970e-01    2.597458661e-06    1.333095133e-05    0.000000000e+00    0.000000000e+00    0.000000000e+00    0.000000000e+00
      917750000    6.762921214e-01   -7.770121694e-01    5.511473864e-05   -5.146488547e-06    0.000000000e+00    0.000000000e+00    0.000000000e+00    0.000000000e+00
      925000000    5.955502987e-01   -8.582939506e-01   -4.070159048e-05   -8.081085980e-06    0.000000000e+00    0.000000000e+00    0.000000000e+00    0.000000000e+00
      932250000    4.994277954e-01   -9.329242110e-01   -3.552995622e-06   -3.559421748e-05    0.000000000e+00    0.000000000e+00    0.000000000e+00    0.000000000e+00
      939500000    3.971419036e-01   -9.942295551e-01   -2.779997885e-05    2.672895789e-07    0.000000000e+00    0.000000000e+00    0.000000000e+00    0.000000000e+00
      946750000    2.855765820e-01   -1.042994857e+00    6.527639925e-06    7.391907275e-06    0.000000000e+00    0.000000000e+00    0.000000000e+00    0.000000000e+00
      954000000    1.649447083e-01   -1.077722192e+00   -4.867650568e-05    2.310611308e-06    0.000000000e+00    0.000000000e+00    0.000000000e+00    0.000000000e+00
      961250000    4.459349066e-02   -1.096903920e+00    2.223625779e-05    3.510992974e-05    0.000000000e+00    0.000000000e+00    0.000000000e+00    0.000000000e+00
      968500000   -8.388252556e-02   -1.098235965e+00   -2.259295434e-05   -1.298636198e-05    0.000000000e+00    0.000000000e+00    0.000000000e+00    0.000000000e+00
      975750000   -2.075883448e-01   -1.084450603e+00   -1.223292202e-05    3.476068377e-05    0.000000000e+00    0.000000000e+00    0.000000000e+00    0.000000000e+00
      983000000   -3.279441595e-01   -1.053920150e+00    2.178736031e-05    1.975893974e-05    0.000000000e+00    0.000000000e+00    0.000000000e+00    0.000000000e+00
      990250000   -4.441030920e-01   -1.007168651e+00    2.832710743e-05    3.973860294e-05    0.000000000e+00    0.000000000e+00    0.000000000e+00    0.000000000e+00
      997500000   -5.507189035e-01   -9.471684694e-01   -1.540686935e-05    5.336478353e-07    0.000000000e+00    0.000000000e+00    0.000000000e+00    0.000000000e+00
     1004750000   -6.484602690e-01   -8.730396032e-01   -1.993589103e-05    4.784204066e-06    0.000000000e+00    0.000000000e+00    0.000000000e+00    0.000000000e+00
     1012000000   -7.331331372e-01   -7.895240188e-01   -5.624257028e-06   -2.750568092e-05    0.000000000e+00    0.000000000e+00    0.000000000e+00    0.000000000e+00
     1019250000   -8.070035577e-01   -6.940004230e-01   -2.684351057e-05    1.798197627e-05    0.000000000e+00    0.000000000e+00    0.000000000e+00    0.000000000e+00
     1026500000   -8.647865057e-01   -5.969122648e-01   -7.204432040e-05   -3.754161298e-05    0.000000000e+00    0.000000000e+00    0.000000000e+00    0.000000000e+00
     1033750000   -9.109240770e-01   -4.902854264e-01    5.064997822e-05   -2.272427082e-07    0.000000000e+00    0.000000000e+00    0.000000000e+00    0.000000000e+00
     1041000000   -9.420659542e-01   -3.862865865e-01   -2.234987915e-05    8.026137948e-06    0.000000000e+00    0.000000000e+00    0.000000000e+00    0.000000000e+00
