! NanoVNA-App by OneOfEleven et al v1.1.209 (+OD15) 
! Date: 2024-07-30 15:09:51
! Start: 200MHz Stop: 6GHz Points: 801
! S-Parameter data: F S11 S21 S12 S22
# Hz S RI R 50
!     Frequency           S11_Real           S11_Imag           S21_Real           S21_Imag           S12_Real           S12_Imag           S22_Real           S22_Imag
      200000000   -9.636595845e-01   -2.879545093e-01   -4.740431905e-06    5.133450031e-06    0.000000000e+00    0.000000000e+00    0.000000000e+00    0.000000000e+00
      207250000   -9.911887050e-01   -1.997850537e-01    2.665072680e-05   -5.106441677e-06    0.000000000e+00    0.000000000e+00    0.000000000e+00    0.000000000e+00
      214500000   -1.010011554e+00   -1.084010825e-01    7.106922567e-06   -9.293667972e-06    0.000000000e+00    0.000000000e+00    0.000000000e+00    0.000000000e+00
      221750000   -1.020612597e+00   -1.361373253e-02    9.425915778e-06    1.933425665e-06    0.000000000e+00    0.000000000e+00    0.000000000e+00    0.000000000e+00
      229000000   -1.022837758e+00    8.291529119e-02   -6.660819054e-06    1.535378397e-05    0.000000000e+00    0.000000000e+00    0.000000000e+00    0.000000000e+00
      236250000   -1.014779091e+00    1.808389872e-01   -7.134862244e-06    4.469417036e-06    0.000000000e+00    0.000000000e+00    0.000000000e+00    0.000000000e+00
      243500000   -9.965774417e-01    2.794406712e-01   -8.860602975e-06   -1.087225974e-05    0.000000000e+00    0.000000000e+00    0.000000000e+00    0.000000000e+00
      250750000   -9.676081538e-01    3.777119517e-01   -2.168212086e-05    1.777708530e-05    0.000000000e+00    0.000000000e+00    0.000000000e+00    0.000000000e+00
      258000000   -9.294396043e-01    4.737690687e-01   -2.468749881e-05    1.747254282e-05    0.000000000e+00    0.000000000e+00    0.000000000e+00    0.000000000e+00
      265250000   -8.792006969e-01    5.674205422e-01    1.053977758e-05   -2.756714821e-07    0.000000000e+00    0.000000000e+00    0.000000000e+00    0.000000000e+00
      272500000   -8.178939223e-01    6.560969353e-01    2.247653902e-05   -2.209749073e-05    0.000000000e+00    0.000000000e+00    0.000000000e+00    0.000000000e+00
      279750000   -7.455403805e-01    7.397848368e-01    1.328159124e-05   -7.378868759e-06    0.000000000e+00    0.000000000e+00    0.000000000e+00    0.000000000e+00
      287000000   -6.631797552e-01    8.150721788e-01   -3.102514893e-05   -2.706982195e-05    0.000000000e+00    0.000000000e+00    0.000000000e+00    0.000000000e+00
      294250000   -5.700261593e-01    8.811843395e-01    2.412125468e-05    5.210284144e-05    0.000000000e+00    0.000000000e+00    0.000000000e+00    0.000000000e+00
      301500000   -4.701812267e-01    9.378422499e-01   -2.437178046e-05   -1.206435263e-05    0.000000000e+00    0.000000000e+00    0.000000000e+00    0.000000000e+00
      308750000   -3.617675304e-01    9.820936918e-01   -2.916716039e-05   -1.970678568e-05    0.000000000e+00    0.000000000e+00    0.000000000e+00    0.000000000e+00
      316000000   -2.479518056e-01    1.012905002e+00    1.710746437e-05   -3.223586828e-05    0.000000000e+00    0.000000000e+00    0.000000000e+00    0.000000000e+00
      323250000   -1.297238618e-01    1.030512810e+00    3.135483712e-05    4.640966654e-05    0.000000000e+00    0.000000000e+00    0.000000000e+00    0.000000000e+00
      330500000   -1.028374583e-02    1.033494592e+00   -6.645917892e-06    2.341996878e-05    0.000000000e+00    0.000000000e+00    0.000000000e+00    0.000000000e+00
      337750000    1.088004038e-01    1.022848010e+00   -5.112029612e-06   -1.187715679e-05    0.000000000e+00    0.000000000e+00    0.000000000e+00    0.000000000e+00
      345000000    2.275329083e-01    9.967100620e-01    4.652142525e-05    7.793307304e-06    0.000000000e+00    0.000000000e+00    0.000000000e+00    0.000000000e+00
      352250000    3.407291472e-01    9.568554163e-01    2.314336598e-06   -4.919245839e-06    0.000000000e+00    0.000000000e+00    0.000000000e+00    0.000000000e+00
      359500000    4.488932788e-01    9.039120674e-01    1.430511475e-05   -1.249834895e-06    0.000000000e+00    0.000000000e+00    0.000000000e+00    0.000000000e+00
      366750000    5.492568016e-01    8.387160897e-01    9.242445230e-06    8.309260011e-06    0.000000000e+00    0.000000000e+00    0.000000000e+00    0.000000000e+00
      374000000    6.405108571e-01    7.623208761e-01   -2.502929419e-05    3.501772881e-07    0.000000000e+00    0.000000000e+00    0.000000000e+00    0.000000000e+00
      381250000    7.220163345e-01    6.759088635e-01    1.602806151e-06   -1.351907849e-05    0.000000000e+00    0.000000000e+00    0.000000000e+00    0.000000000e+00
      388500000    7.920461893e-01    5.819951892e-01   -2.126861364e-05   -9.207054973e-06    0.000000000e+00    0.000000000e+00    0.000000000e+00    0.000000000e+00
      395750000    8.509267569e-01    4.822660089e-01   -2.600252628e-06   -6.704591215e-06    0.000000000e+00    0.000000000e+00    0.000000000e+00    0.000000000e+00
      403000000    8.975053430e-01    3.767447174e-01    2.892687917e-06    2.339109778e-05    0.000000000e+00    0.000000000e+00    0.000000000e+00    0.000000000e+00
      410250000    9.321740270e-01    2.674054801e-01    6.727874279e-06    9.945593774e-06    0.000000000e+00    0.000000000e+00    0.000000000e+00    0.000000000e+00
      417500000    9.548427463e-01    1.586824656e-01    1.844298095e-05   -1.062639058e-05    0.000000000e+00    0.000000000e+00    0.000000000e+00    0.000000000e+00
      424750000    9.657180905e-01    4.646436125e-02    2.546515316e-05    8.491799235e-06    0.000000000e+00    0.000000000e+00    0.000000000e+00    0.000000000e+00
      432000000    9.646753669e-01   -6.380181015e-02    1.633167267e-05   -6.900168955e-06    0.000000000e+00    0.000000000e+00    0.000000000e+00    0.000000000e+00
      439250000    9.527830482e-01   -1.728434116e-01    5.777925253e-06    4.636589438e-05    0.000000000e+00    0.000000000e+00    0.000000000e+00    0.000000000e+00
      446500000    9.299048781e-01   -2.781977355e-01   -4.454795271e-05    6.321817636e-06    0.000000000e+00    0.000000000e+00    0.000000000e+00    0.000000000e+00
      453750000    8.961178660e-01   -3.812544942e-01    1.304596663e-05    9.553506970e-06    0.000000000e+00    0.000000000e+00    0.000000000e+00    0.000000000e+00
      461000000    8.535037637e-01   -4.792321622e-01   -4.014931619e-06    3.493297845e-05    0.000000000e+00    0.000000000e+00    0.000000000e+00    0.000000000e+00
      468250000    8.014309406e-01   -5.713419914e-01   -2.158898860e-05   -7.996335626e-06    0.000000000e+00    0.000000000e+00    0.000000000e+00    0.000000000e+00
      475500000    7.400293946e-01   -6.588782668e-01   -1.929886639e-05   -8.163042367e-06    0.000000000e+00    0.000000000e+00    0.000000000e+00    0.000000000e+00
      482750000    6.715958118e-01   -7.390229702e-01    1.849606633e-05   -1.379754394e-05    0.000000000e+00    0.000000000e+00    0.000000000e+00    0.000000000e+00
      490000000    5.954602361e-01   -8.119012713e-01    1.752469689e-05    1.117493957e-05    0.000000000e+00    0.000000000e+00    0.000000000e+00    0.000000000e+00
      497250000    5.127648711e-01   -8.774838448e-01    6.536021829e-06    5.658715963e-06    0.000000000e+00    0.000000000e+00    0.000000000e+00    0.000000000e+00
      504500000    4.228824079e-01   -9.343300462e-01    8.043833077e-06    2.330169082e-05    0.000000000e+00    0.000000000e+00    0.000000000e+00    0.000000000e+00
      511750000    3.284377754e-01   -9.823771715e-01    1.453422010e-05   -2.912431955e-05    0.000000000e+00    0.000000000e+00    0.000000000e+00    0.000000000e+00
      519000000    2.281531096e-01   -1.020808458e+00    1.035630703e-05   -3.011897206e-06    0.000000000e+00    0.000000000e+00    0.000000000e+00    0.000000000e+00
      526250000    1.253139824e-01   -1.049472690e+00   -1.810491085e-05   -1.286435872e-05    0.000000000e+00    0.000000000e+00    0.000000000e+00    0.000000000e+00
      533500000    1.914477162e-02   -1.067697644e+00    8.519738913e-06    7.539987564e-06    0.000000000e+00    0.000000000e+00    0.000000000e+00    0.000000000e+00
      540750000   -8.985307813e-02   -1.074885726e+00   -3.209616989e-05   -2.724118531e-06    0.000000000e+00    0.000000000e+00    0.000000000e+00    0.000000000e+00
      548000000   -1.996046454e-01   -1.071293473e+00   -2.399086952e-05   -1.511629671e-05    0.000000000e+00    0.000000000e+00    0.000000000e+00    0.000000000e+00
      555250000   -3.082087338e-01   -1.055448651e+00   -3.888364881e-05    1.215375960e-06    0.000000000e+00    0.000000000e+00    0.000000000e+00    0.000000000e+00
      562500000   -4.160268307e-01   -1.028354883e+00    1.113489270e-05    2.040527761e-06    0.000000000e+00    0.000000000e+00    0.000000000e+00    0.000000000e+00
      569750000   -5.216334462e-01   -9.890794754e-01   -3.817491233e-05    4.990026355e-06    0.000000000e+00    0.000000000e+00    0.000000000e+00    0.000000000e+00
      577000000   -6.218889952e-01   -9.388643503e-01   -5.005858839e-06   -5.744304508e-05    0.000000000e+00    0.000000000e+00    0.000000000e+00    0.000000000e+00
      584250000   -7.187301517e-01   -8.763917089e-01    8.264556527e-06    3.758724779e-05    0.000000000e+00    0.000000000e+00    0.000000000e+00    0.000000000e+00
      591500000   -8.081888556e-01   -8.031390309e-01    2.731569111e-05    4.536472261e-06    0.000000000e+00    0.000000000e+00    0.000000000e+00    0.000000000e+00
      598750000   -8.876392245e-01   -7.196695805e-01   -2.916995436e-05   -1.570768654e-05    0.000000000e+00    0.000000000e+00    0.000000000e+00    0.000000000e+00
      606000000   -9.591820240e-01   -6.279366016e-01    2.630427480e-05   -2.315733582e-05    0.000000000e+00    0.000000000e+00    0.000000000e+00    0.000000000e+00
      613250000   -1.018502831e+00   -5.279151201e-01   -1.271255314e-06    3.892928362e-07    0.000000000e+00    0.000000000e+00    0.000000000e+00    0.000000000e+00
      620500000   -1.067132711e+00   -4.199108481e-01   -2.232193947e-05   -1.778360456e-05    0.000000000e+00    0.000000000e+00    0.000000000e+00    0.000000000e+00
      627750000   -1.102521181e+00   -3.075950444e-01   -2.928078175e-06    4.755333066e-06    0.000000000e+00    0.000000000e+00    0.000000000e+00    0.000000000e+00
      635000000   -1.124771118e+00   -1.918195784e-01    3.314856440e-05    3.945454955e-05    0.000000000e+00    0.000000000e+00    0.000000000e+00    0.000000000e+00
      642250000   -1.133585930e+00   -7.427265495e-02    8.556060493e-06    4.890467972e-05    0.000000000e+00    0.000000000e+00    0.000000000e+00    0.000000000e+00
      649500000   -1.128398895e+00    4.248781502e-02   -4.118401557e-05    2.842210233e-05    0.000000000e+00    0.000000000e+00    0.000000000e+00    0.000000000e+00
      656750000   -1.109749794e+00    1.582753658e-01   -2.697389573e-05   -5.813967437e-05    0.000000000e+00    0.000000000e+00    0.000000000e+00    0.000000000e+00
      664000000   -1.078177333e+00    2.694382370e-01    1.061707735e-06    2.220552415e-05    0.000000000e+00    0.000000000e+00    0.000000000e+00    0.000000000e+00
      671250000   -1.034182906e+00    3.747394681e-01    1.408159733e-05   -1.557637006e-05    0.000000000e+00    0.000000000e+00    0.000000000e+00    0.000000000e+00
      678500000   -9.783346653e-01    4.745461345e-01   -9.103678167e-06   -1.117959619e-05    0.000000000e+00    0.000000000e+00    0.000000000e+00    0.000000000e+00
      685750000   -9.121897221e-01    5.672858357e-01    3.164168447e-05   -4.125852138e-05    0.000000000e+00    0.000000000e+00    0.000000000e+00    0.000000000e+00
      693000000   -8.380337358e-01    6.492632627e-01    5.951803178e-05    6.210431457e-05    0.000000000e+00    0.000000000e+00    0.000000000e+00    0.000000000e+00
      700250000   -7.544502020e-01    7.241229415e-01   -6.532296538e-06   -2.010539174e-05    0.000000000e+00    0.000000000e+00    0.000000000e+00    0.000000000e+00
      707500000   -6.650652289e-01    7.873499990e-01   -3.454368562e-05    2.823304385e-05    0.000000000e+00    0.000000000e+00    0.000000000e+00    0.000000000e+00
      714750000   -5.712020993e-01    8.397300243e-01    1.615565270e-05    2.691708505e-05    0.000000000e+00    0.000000000e+00    0.000000000e+00    0.000000000e+00
      722000000   -4.728367925e-01    8.817179203e-01   -3.960914910e-05   -2.491287887e-05    0.000000000e+00    0.000000000e+00    0.000000000e+00    0.000000000e+00
      729250000   -3.727481067e-01    9.124307632e-01   -4.323199391e-06    2.073496580e-05    0.000000000e+00    0.000000000e+00    0.000000000e+00    0.000000000e+00
      736500000   -2.709041834e-01    9.329883456e-01    3.849156201e-06   -2.962816507e-05    0.000000000e+00    0.000000000e+00    0.000000000e+00    0.000000000e+00
      743750000   -1.696679145e-01    9.429364800e-01    4.464108497e-05    5.220994353e-06    0.000000000e+00    0.000000000e+00    0.000000000e+00    0.000000000e+00
      751000000   -6.778690219e-02    9.429897666e-01   -8.279457688e-06   -1.627858728e-05    0.000000000e+00    0.000000000e+00    0.000000000e+00    0.000000000e+00
      758250000    3.119160235e-02    9.331969023e-01   -2.879556268e-05    5.740672350e-06    0.000000000e+00    0.000000000e+00    0.000000000e+00    0.000000000e+00
      765500000    1.303440630e-01    9.133176804e-01   -3.537070006e-05    7.903203368e-06    0.000000000e+00    0.000000000e+00    0.000000000e+00    0.000000000e+00
      772750000    2.234360278e-01    8.857493401e-01   -2.449844033e-05   -5.218200386e-06    0.000000000e+00    0.000000000e+00    0.000000000e+00    0.000000000e+00
      780000000    3.137243688e-01    8.498265743e-01    1.826044172e-05   -4.266016185e-05    0.000000000e+00    0.000000000e+00    0.000000000e+00    0.000000000e+00
      787250000    4.004159570e-01    8.046290278e-01   -5.113892257e-06    1.983437687e-05    0.000000000e+00    0.000000000e+00    0.000000000e+00    0.000000000e+00
      794500000    4.815874398e-01    7.530476451e-01   -2.769753337e-05   -3.989785910e-06    0.000000000e+00    0.000000000e+00    0.000000000e+00    0.000000000e+00
      801750000    5.574288964e-01    6.946879625e-01   -1.193210483e-05   -8.746050298e-06    0.000000000e+00    0.000000000e+00    0.000000000e+00    0.000000000e+00
      809000000    6.279063225e-01    6.292501092e-01    1.434236765e-05    1.471210271e-05    0.000000000e+00    0.000000000e+00    0.000000000e+00    0.000000000e+00
      816250000    6.915497184e-01    5.575433373e-01   -7.336027920e-06   -7.025897503e-06    0.000000000e+00    0.000000000e+00    0.000000000e+00    0.000000000e+00
      823500000    7.498710752e-01    4.792740345e-01    3.498699516e-05   -3.037229180e-05    0.000000000e+00    0.000000000e+00    0.000000000e+00    0.000000000e+00
      830750000    8.004158735e-01    3.966543078e-01   -2.722162753e-05   -1.386553049e-05    0.000000000e+00    0.000000000e+00    0.000000000e+00    0.000000000e+00
      838000000    8.424270749e-01    3.088045716e-01    1.630559564e-05   -1.171324402e-05    0.000000000e+00    0.000000000e+00    0.000000000e+00    0.000000000e+00
      845250000    8.776149750e-01    2.174536586e-01    1.151580364e-05    6.992369890e-06    0.000000000e+00    0.000000000e+00    0.000000000e+00    0.000000000e+00
      852500000    9.038560987e-01    1.220361516e-01    3.038533032e-05   -3.455579281e-05    0.000000000e+00    0.000000000e+00    0.000000000e+00    0.000000000e+00
      859750000    9.212479591e-01    2.386011928e-02   -1.920200884e-05   -2.467073500e-06    0.000000000e+00    0.000000000e+00    0.000000000e+00    0.000000000e+00
      867000000    9.291163683e-01   -7.839567214e-02   -3.493390977e-05   -1.203920692e-05    0.000000000e+00    0.000000000e+00    0.000000000e+00    0.000000000e+00
      874250000    9.271203876e-01   -1.815607995e-01   -1.087132841e-05   -1.882668585e-05    0.000000000e+00    0.000000000e+00    0.000000000e+00    0.000000000e+00
      881500000    9.136890173e-01   -2.857212126e-01    2.174638212e-05   -6.245449185e-06    0.000000000e+00    0.000000000e+00    0.000000000e+00    0.000000000e+00
      888750000    8.906257749e-01   -3.877662718e-01    1.388974488e-05    4.777684808e-06    0.000000000e+00    0.000000000e+00    0.000000000e+00    0.000000000e+00
      896000000    8.547572494e-01   -4.915032685e-01   -6.685033441e-06    7.767230272e-06    0.000000000e+00    0.000000000e+00    0.000000000e+00    0.000000000e+00
      903250000    8.086037040e-01   -5.897480845e-01   -1.608207822e-05   -8.456408978e-06    0.000000000e+00    0.000000000e+00    0.000000000e+00    0.000000000e+00
      910500000    7.477330565e-01   -6.872531772e-01   -1.558102667e-05   -1.989118755e-05    0.000000000e+00    0.000000000e+00    0.000000000e+00    0.000000000e+00
      917750000    6.770899296e-01   -7.769415975e-01   -4.092231393e-06   -9.523704648e-06    0.000000000e+00    0.000000000e+00    0.000000000e+00    0.000000000e+00
      925000000    5.948439240e-01   -8.587728739e-01    2.650730312e-05    9.043142200e-06    0.000000000e+00    0.000000000e+00    0.000000000e+00    0.000000000e+00
      932250000    4.999906719e-01   -9.330043197e-01    1.849699765e-05    8.339993656e-06    0.000000000e+00    0.000000000e+00    0.000000000e+00    0.000000000e+00
      939500000    3.970369995e-01   -9.946934581e-01   -5.106441677e-06   -1.477170736e-05    0.000000000e+00    0.000000000e+00    0.000000000e+00    0.000000000e+00
      946750000    2.856705189e-01   -1.042984962e+00   -7.217749953e-07   -1.127459109e-05    0.000000000e+00    0.000000000e+00    0.000000000e+00    0.000000000e+00
      954000000    1.650640815e-01   -1.078405976e+00   -1.833867282e-05    2.366490662e-05    0.000000000e+00    0.000000000e+00    0.000000000e+00    0.000000000e+00
      961250000    4.456497729e-02   -1.096197128e+00    9.585171938e-06    6.454065442e-06    0.000000000e+00    0.000000000e+00    0.000000000e+00    0.000000000e+00
      968500000   -8.256772906e-02   -1.098962903e+00   -5.631707609e-06   -1.709815115e-05    0.000000000e+00    0.000000000e+00    0.000000000e+00    0.000000000e+00
      975750000   -2.066320926e-01   -1.084610105e+00   -1.398194581e-05    3.056880087e-05    0.000000000e+00    0.000000000e+00    0.000000000e+00    0.000000000e+00
      983000000   -3.287509084e-01   -1.054220557e+00   -1.057796180e-05   -1.729652286e-05    0.000000000e+00    0.000000000e+00    0.000000000e+00    0.000000000e+00
      990250000   -4.433187842e-01   -1.007901907e+00    1.355540007e-05    2.855155617e-05    0.000000000e+00    0.000000000e+00    0.000000000e+00    0.000000000e+00
      997500000   -5.517246127e-01   -9.459210038e-01   -2.668611705e-05    2.363231033e-05    0.000000000e+00    0.000000000e+00    0.000000000e+00    0.000000000e+00
     1004750000   -6.489969492e-01   -8.733572960e-01   -5.265884101e-05   -2.069398761e-06    0.000000000e+00    0.000000000e+00    0.000000000e+00    0.000000000e+00
     1012000000   -7.336909175e-01   -7.888844013e-01    1.180637628e-05    2.746656537e-05    0.000000000e+00    0.000000000e+00    0.000000000e+00    0.000000000e+00
     1019250000   -8.064919114e-01   -6.950218678e-01    5.675293505e-05   -3.029499203e-05    0.000000000e+00    0.000000000e+00    0.000000000e+00    0.000000000e+00
     1026500000   -8.646832705e-01   -5.964117646e-01    3.134366125e-05    3.390852362e-05    0.000000000e+00    0.000000000e+00    0.000000000e+00    0.000000000e+00
     1033750000   -9.106642604e-01   -4.911103249e-01    5.342997611e-06   -5.344860256e-06    0.000000000e+00    0.000000000e+00    0.000000000e+00    0.000000000e+00
     1041000000   -9.427074790e-01   -3.849095404e-01   -1.501105726e-05    1.333560795e-05    0.000000000e+00    0.000000000e+00    0.000000000e+00    0.000000000e+00
