! NanoVNA-App by OneOfEleven et al v1.1.209 (+OD15) 
! Date: 2024-07-30 15:09:53
! Start: 200MHz Stop: 6GHz Points: 801
! S-Parameter data: F S11 S21 S12 S22
# Hz S RI R 50
!     Frequency           S11_Real           S11_Imag           S21_Real           S21_Imag           S12_Real           S12_Imag           S22_Real           S22_Imag
      200000000   -9.632307887e-01   -2.877570987e-01    6.413087249e-06    3.722868860e-05    0.000000000e+00    0.000000000e+00    0.000000000e+00    0.000000000e+00
      207250000   -9.908387065e-01   -1.996521354e-01    8.627772331e-06    4.612840712e-06    0.000000000e+00    0.000000000e+00    0.000000000e+00    0.000000000e+00
      214500000   -1.010122180e+00   -1.083728522e-01    8.648261428e-06    3.552623093e-05    0.000000000e+00    0.000000000e+00    0.000000000e+00    0.000000000e+00
      221750000   -1.020894051e+00   -1.350652520e-02    6.741844118e-06    2.574175596e-05    0.000000000e+00    0.000000000e+00    0.000000000e+00    0.000000000e+00
      229000000   -1.023002744e+00    8.274265379e-02    1.407228410e-05    1.527741551e-05    0.000000000e+00    0.000000000e+00    0.000000000e+00    0.000000000e+00
      236250000   -1.015101075e+00    1.804502159e-01   -9.201467037e-06    4.818663001e-06    0.000000000e+00    0.000000000e+00    0.000000000e+00    0.000000000e+00
      243500000   -9.975392222e-01    2.793497741e-01   -1.182407141e-05    7.582828403e-06    0.000000000e+00    0.000000000e+00    0.000000000e+00    0.000000000e+00
      250750000   -9.683351517e-01    3.780207038e-01   -4.680361599e-05    6.276182830e-06    0.000000000e+00    0.000000000e+00    0.000000000e+00    0.000000000e+00
      258000000   -9.294326901e-01    4.737537801e-01    1.469999552e-05   -2.041924745e-05    0.000000000e+00    0.000000000e+00    0.000000000e+00    0.000000000e+00
      265250000   -8.790569305e-01    5.672300458e-01   -4.318542778e-06    3.292411566e-05    0.000000000e+00    0.000000000e+00    0.000000000e+00    0.000000000e+00
      272500000   -8.174403906e-01    6.560266614e-01   -4.347320646e-05   -6.055459380e-06    0.000000000e+00    0.000000000e+00    0.000000000e+00    0.000000000e+00
      279750000   -7.459380627e-01    7.399311066e-01   -2.668891102e-05   -8.108094335e-06    0.000000000e+00    0.000000000e+00    0.000000000e+00    0.000000000e+00
      287000000   -6.622917056e-01    8.146941662e-01    1.976918429e-05   -3.614556044e-05    0.000000000e+00    0.000000000e+00    0.000000000e+00    0.000000000e+00
      294250000   -5.708702207e-01    8.816407323e-01   -3.151595592e-06    1.044478267e-05    0.000000000e+00    0.000000000e+00    0.000000000e+00    0.000000000e+00
      301500000   -4.700472355e-01    9.379361868e-01   -6.605871022e-06   -6.230175495e-05    0.000000000e+00    0.000000000e+00    0.000000000e+00    0.000000000e+00
      308750000   -3.625427186e-01    9.816500545e-01   -1.529790461e-05    2.735666931e-05    0.000000000e+00    0.000000000e+00    0.000000000e+00    0.000000000e+00
      316000000   -2.483420968e-01    1.013549447e+00   -1.953728497e-05   -1.535192132e-05    0.000000000e+00    0.000000000e+00    0.000000000e+00    0.000000000e+00
      323250000   -1.306717396e-01    1.030829072e+00   -5.298666656e-05   -3.268197179e-05    0.000000000e+00    0.000000000e+00    0.000000000e+00    0.000000000e+00
      330500000   -1.060726400e-02    1.034129262e+00    1.491885632e-05    3.224238753e-06    0.000000000e+00    0.000000000e+00    0.000000000e+00    0.000000000e+00
      337750000    1.092696562e-01    1.022638679e+00    1.158658415e-05   -2.022273839e-05    0.000000000e+00    0.000000000e+00    0.000000000e+00    0.000000000e+00
      345000000    2.273161262e-01    9.968182445e-01   -1.435633749e-05   -7.743947208e-06    0.000000000e+00    0.000000000e+00    0.000000000e+00    0.000000000e+00
      352250000    3.410427272e-01    9.570164084e-01   -2.052169293e-05    1.593027264e-05    0.000000000e+00    0.000000000e+00    0.000000000e+00    0.000000000e+00
      359500000    4.489045441e-01    9.033216834e-01    2.420041710e-05   -4.000030458e-06    0.000000000e+00    0.000000000e+00    0.000000000e+00    0.000000000e+00
      366750000    5.488613248e-01    8.389047980e-01   -2.240389585e-05    1.475401223e-05    0.000000000e+00    0.000000000e+00    0.000000000e+00    0.000000000e+00
      374000000    6.400504708e-01    7.627273798e-01    5.823560059e-06   -2.235174179e-05    0.000000000e+00    0.000000000e+00    0.000000000e+00    0.000000000e+00
      381250000    7.223908901e-01    6.755651236e-01    6.541609764e-06   -1.236330718e-05    0.000000000e+00    0.000000000e+00    0.000000000e+00    0.000000000e+00
      388500000    7.919578552e-01    5.824189782e-01   -2.175010741e-05   -1.693051308e-05    0.000000000e+00    0.000000000e+00    0.000000000e+00    0.000000000e+00
      395750000    8.511382341e-01    4.822934270e-01   -1.661758870e-05   -1.895241439e-06    0.000000000e+00    0.000000000e+00    0.000000000e+00    0.000000000e+00
      403000000    8.978048563e-01    3.771667182e-01    3.148615360e-05   -1.447275281e-05    0.000000000e+00    0.000000000e+00    0.000000000e+00    0.000000000e+00
      410250000    9.326736927e-01    2.682639062e-01    3.085657954e-05   -1.513399184e-06    0.000000000e+00    0.000000000e+00    0.000000000e+00    0.000000000e+00
      417500000    9.552004337e-01    1.580551565e-01   -1.789908856e-05   -2.205371857e-06    0.000000000e+00    0.000000000e+00    0.000000000e+00    0.000000000e+00
      424750000    9.655284286e-01    4.617471620e-02   -2.980045974e-05    1.915451139e-05    0.000000000e+00    0.000000000e+00    0.000000000e+00    0.000000000e+00
      432000000    9.647876024e-01   -6.370963156e-02   -3.537163138e-05    1.668930054e-06    0.000000000e+00    0.000000000e+00    0.000000000e+00    0.000000000e+00
      439250000    9.529861212e-01   -1.722202599e-01   -4.124455154e-05    3.115274012e-06    0.000000000e+00    0.000000000e+00    0.000000000e+00    0.000000000e+00
      446500000    9.298752546e-01   -2.783323526e-01   -2.059433609e-05    2.144649625e-05    0.000000000e+00    0.000000000e+00    0.000000000e+00    0.000000000e+00
      453750000    8.963239193e-01   -3.809100986e-01    8.697621524e-06   -6.588175893e-06    0.000000000e+00    0.000000000e+00    0.000000000e+00    0.000000000e+00
      461000000    8.536312580e-01   -4.793699086e-01    6.526708603e-06    9.161420166e-06    0.000000000e+00    0.000000000e+00    0.000000000e+00    0.000000000e+00
      468250000    8.017844558e-01   -5.711470246e-01    6.901100278e-07   -2.345256507e-05    0.000000000e+00    0.000000000e+00    0.000000000e+00    0.000000000e+00
      475500000    7.402839065e-01   -6.589256525e-01    2.079177648e-05    2.124160528e-05    0.000000000e+00    0.000000000e+00    0.000000000e+00    0.000000000e+00
      482750000    6.718791127e-01   -7.392672300e-01    1.117121428e-05    5.543138832e-05    0.000000000e+00    0.000000000e+00    0.000000000e+00    0.000000000e+00
      490000000    5.951754451e-01   -8.117002845e-01   -3.476627171e-06    8.294358850e-06    0.000000000e+00    0.000000000e+00    0.000000000e+00    0.000000000e+00
      497250000    5.122000575e-01   -8.768349886e-01   -7.539056242e-05   -3.394484520e-05    0.000000000e+00    0.000000000e+00    0.000000000e+00    0.000000000e+00
      504500000    4.224573076e-01   -9.338308573e-01   -6.551854312e-06   -3.685336560e-05    0.000000000e+00    0.000000000e+00    0.000000000e+00    0.000000000e+00
      511750000    3.280393779e-01   -9.825784564e-01   -7.217749953e-06   -1.870095730e-05    0.000000000e+00    0.000000000e+00    0.000000000e+00    0.000000000e+00
      519000000    2.284387350e-01   -1.020913243e+00   -2.849847078e-06   -2.647750080e-06    0.000000000e+00    0.000000000e+00    0.000000000e+00    0.000000000e+00
      526250000    1.252964586e-01   -1.049743772e+00   -1.284293830e-05    1.408439130e-05    0.000000000e+00    0.000000000e+00    0.000000000e+00    0.000000000e+00
      533500000    1.934900880e-02   -1.067590833e+00   -3.352761269e-06   -5.034450442e-05    0.000000000e+00    0.000000000e+00    0.000000000e+00    0.000000000e+00
      540750000   -8.950676024e-02   -1.074875832e+00   -1.765601337e-05    3.419537097e-05    0.000000000e+00    0.000000000e+00    0.000000000e+00    0.000000000e+00
      548000000   -1.987256855e-01   -1.071771383e+00   -2.694595605e-05   -2.168118954e-05    0.000000000e+00    0.000000000e+00    0.000000000e+00    0.000000000e+00
      555250000   -3.079213202e-01   -1.055781722e+00    2.456549555e-05   -5.509890616e-05    0.000000000e+00    0.000000000e+00    0.000000000e+00    0.000000000e+00
      562500000   -4.158937037e-01   -1.028420448e+00   -3.220234066e-05    2.116989344e-05    0.000000000e+00    0.000000000e+00    0.000000000e+00    0.000000000e+00
      569750000   -5.210051537e-01   -9.896352291e-01   -7.121823728e-06   -1.568812877e-05    0.000000000e+00    0.000000000e+00    0.000000000e+00    0.000000000e+00
      577000000   -6.229716539e-01   -9.384720325e-01   -9.058974683e-06   -2.740882337e-06    0.000000000e+00    0.000000000e+00    0.000000000e+00    0.000000000e+00
      584250000   -7.178420424e-01   -8.761363029e-01    7.205642760e-06   -2.749264240e-06    0.000000000e+00    0.000000000e+00    0.000000000e+00    0.000000000e+00
      591500000   -8.084273338e-01   -8.024330735e-01   -1.808349043e-05   -1.228787005e-05    0.000000000e+00    0.000000000e+00    0.000000000e+00    0.000000000e+00
      598750000   -8.877124190e-01   -7.206670046e-01    2.601370215e-05   -2.558343112e-06    0.000000000e+00    0.000000000e+00    0.000000000e+00    0.000000000e+00
      606000000   -9.590715170e-01   -6.277649999e-01    5.316361785e-05    1.011323184e-05    0.000000000e+00    0.000000000e+00    0.000000000e+00    0.000000000e+00
      613250000   -1.018376470e+00   -5.283386707e-01    2.749543637e-05   -5.063600838e-06    0.000000000e+00    0.000000000e+00    0.000000000e+00    0.000000000e+00
      620500000   -1.066960454e+00   -4.195745289e-01   -1.071486622e-05    5.289912224e-07    0.000000000e+00    0.000000000e+00    0.000000000e+00    0.000000000e+00
      627750000   -1.102618098e+00   -3.073476851e-01    1.229066402e-05    6.805174053e-06    0.000000000e+00    0.000000000e+00    0.000000000e+00    0.000000000e+00
      635000000   -1.125051141e+00   -1.924701482e-01   -4.922971129e-05   -2.466887236e-05    0.000000000e+00    0.000000000e+00    0.000000000e+00    0.000000000e+00
      642250000   -1.133493662e+00   -7.326444983e-02    1.506414264e-05   -3.214925528e-06    0.000000000e+00    0.000000000e+00    0.000000000e+00    0.000000000e+00
      649500000   -1.127981305e+00    4.287358373e-02    9.490177035e-06    6.221327931e-05    0.000000000e+00    0.000000000e+00    0.000000000e+00    0.000000000e+00
      656750000   -1.109608173e+00    1.586730331e-01   -2.864096314e-05    1.738034189e-05    0.000000000e+00    0.000000000e+00    0.000000000e+00    0.000000000e+00
      664000000   -1.077981114e+00    2.694319487e-01   -2.097710967e-05    9.192153811e-07    0.000000000e+00    0.000000000e+00    0.000000000e+00    0.000000000e+00
      671250000   -1.033587337e+00    3.750036061e-01    1.882016659e-05    1.007039100e-05    0.000000000e+00    0.000000000e+00    0.000000000e+00    0.000000000e+00
      678500000   -9.777709246e-01    4.752012491e-01   -4.196912050e-05    1.041498035e-05    0.000000000e+00    0.000000000e+00    0.000000000e+00    0.000000000e+00
      685750000   -9.123805761e-01    5.672966242e-01   -1.351069659e-05    4.056841135e-06    0.000000000e+00    0.000000000e+00    0.000000000e+00    0.000000000e+00
      693000000   -8.374401927e-01    6.497689486e-01   -3.121141344e-05    7.763504982e-06    0.000000000e+00    0.000000000e+00    0.000000000e+00    0.000000000e+00
      700250000   -7.551464438e-01    7.235402465e-01    1.387763768e-05   -3.339722753e-06    0.000000000e+00    0.000000000e+00    0.000000000e+00    0.000000000e+00
      707500000   -6.655620337e-01    7.865798473e-01    1.832284033e-05   -1.363549381e-05    0.000000000e+00    0.000000000e+00    0.000000000e+00    0.000000000e+00
      714750000   -5.721455812e-01    8.398811817e-01    8.057802916e-06    1.119356602e-05    0.000000000e+00    0.000000000e+00    0.000000000e+00    0.000000000e+00
      722000000   -4.724601209e-01    8.820561767e-01   -1.344084740e-05   -3.110151738e-05    0.000000000e+00    0.000000000e+00    0.000000000e+00    0.000000000e+00
      729250000   -3.721825778e-01    9.127299786e-01   -5.151890218e-05   -7.034279406e-06    0.000000000e+00    0.000000000e+00    0.000000000e+00    0.000000000e+00
      736500000   -2.716024220e-01    9.330334663e-01    1.970026642e-05    4.363059998e-05    0.000000000e+00    0.000000000e+00    0.000000000e+00    0.000000000e+00
      743750000   -1.695059687e-01    9.433095455e-01    2.064555883e-05    1.815427095e-05    0.000000000e+00    0.000000000e+00    0.000000000e+00    0.000000000e+00
      751000000   -6.852936000e-02    9.434348941e-01   -1.497659832e-05   -1.899711788e-05    0.000000000e+00    0.000000000e+00    0.000000000e+00    0.000000000e+00
      758250000    3.196572512e-02    9.334138036e-01    1.076795161e-05   -5.097128451e-06    0.000000000e+00    0.000000000e+00    0.000000000e+00    0.000000000e+00
      765500000    1.294303536e-01    9.136800766e-01    6.571412086e-06   -1.233071089e-06    0.000000000e+00    0.000000000e+00    0.000000000e+00    0.000000000e+00
      772750000    2.236762494e-01    8.852804303e-01    3.324821591e-07    1.038890332e-05    0.000000000e+00    0.000000000e+00    0.000000000e+00    0.000000000e+00
      780000000    3.135537803e-01    8.496113420e-01    3.334321082e-05   -5.946122110e-05    0.000000000e+00    0.000000000e+00    0.000000000e+00    0.000000000e+00
      787250000    4.000771046e-01    8.058192134e-01    1.727230847e-05   -5.152262747e-05    0.000000000e+00    0.000000000e+00    0.000000000e+00    0.000000000e+00
      794500000    4.814045429e-01    7.527750134e-01   -3.112573177e-05    3.071408719e-05    0.000000000e+00    0.000000000e+00    0.000000000e+00    0.000000000e+00
      801750000    5.571125746e-01    6.938624978e-01    2.371799201e-05   -2.572406083e-05    0.000000000e+00    0.000000000e+00    0.000000000e+00    0.000000000e+00
      809000000    6.275086999e-01    6.297591329e-01   -6.750226021e-06   -1.514982432e-05    0.000000000e+00    0.000000000e+00    0.000000000e+00    0.000000000e+00
      816250000    6.918025613e-01    5.570502281e-01    2.866704017e-05   -1.333840191e-05    0.000000000e+00    0.000000000e+00    0.000000000e+00    0.000000000e+00
      823500000    7.495243549e-01    4.796826243e-01   -3.538373858e-05    4.042312503e-05    0.000000000e+00    0.000000000e+00    0.000000000e+00    0.000000000e+00
      830750000    7.996569276e-01    3.976568282e-01    1.518521458e-05   -2.628099173e-05    0.000000000e+00    0.000000000e+00    0.000000000e+00    0.000000000e+00
      838000000    8.427810669e-01    3.096691668e-01    3.405846655e-06   -1.526996493e-05    0.000000000e+00    0.000000000e+00    0.000000000e+00    0.000000000e+00
      845250000    8.782293200e-01    2.175366282e-01   -2.006161958e-05   -4.081614316e-05    0.000000000e+00    0.000000000e+00    0.000000000e+00    0.000000000e+00
      852500000    9.042952657e-01    1.215227917e-01   -4.246830940e-06    2.781581134e-05    0.000000000e+00    0.000000000e+00    0.000000000e+00    0.000000000e+00
      859750000    9.213981032e-01    2.366257459e-02    2.390146255e-05   -1.881644130e-05    0.000000000e+00    0.000000000e+00    0.000000000e+00    0.000000000e+00
      867000000    9.291650057e-01   -7.892348617e-02    1.849513501e-05   -1.977104694e-05    0.000000000e+00    0.000000000e+00    0.000000000e+00    0.000000000e+00
      874250000    9.272201657e-01   -1.805378050e-01    5.306676030e-06    1.571048051e-05    0.000000000e+00    0.000000000e+00    0.000000000e+00    0.000000000e+00
      881500000    9.135878682e-01   -2.860330045e-01   -2.049468458e-05    7.976405323e-05    0.000000000e+00    0.000000000e+00    0.000000000e+00    0.000000000e+00
      888750000    8.907710910e-01   -3.878472149e-01    2.464279532e-06    1.526344568e-05    0.000000000e+00    0.000000000e+00    0.000000000e+00    0.000000000e+00
      896000000    8.546023369e-01   -4.912710488e-01   -3.038533032e-05   -3.793649375e-05    0.000000000e+00    0.000000000e+00    0.000000000e+00    0.000000000e+00
      903250000    8.076611161e-01   -5.907598138e-01    3.729946911e-06    3.019906580e-05    0.000000000e+00    0.000000000e+00    0.000000000e+00    0.000000000e+00
      910500000    7.478269935e-01   -6.871282458e-01    1.330859959e-06   -1.522339880e-05    0.000000000e+00    0.000000000e+00    0.000000000e+00    0.000000000e+00
      917750000    6.771636009e-01   -7.761448026e-01   -6.033107638e-06    1.459848136e-05    0.000000000e+00    0.000000000e+00    0.000000000e+00    0.000000000e+00
      925000000    5.931133032e-01   -8.598155379e-01    3.734882921e-05    1.918524504e-06    0.000000000e+00    0.000000000e+00    0.000000000e+00    0.000000000e+00
      932250000    5.006014705e-01   -9.320968390e-01   -2.303067595e-05   -1.656357199e-05    0.000000000e+00    0.000000000e+00    0.000000000e+00    0.000000000e+00
      939500000    3.972927630e-01   -9.940184951e-01    4.966557026e-05   -1.756474376e-06    0.000000000e+00    0.000000000e+00    0.000000000e+00    0.000000000e+00
      946750000    2.860880494e-01   -1.042855144e+00   -1.240894198e-05    4.628859460e-05    0.000000000e+00    0.000000000e+00    0.000000000e+00    0.000000000e+00
      954000000    1.650382131e-01   -1.078963518e+00    7.842667401e-06   -2.124998719e-05    0.000000000e+00    0.000000000e+00    0.000000000e+00    0.000000000e+00
      961250000    4.448747262e-02   -1.097264171e+00    3.383122385e-05    1.585204154e-05    0.000000000e+00    0.000000000e+00    0.000000000e+00    0.000000000e+00
      968500000   -8.359307796e-02   -1.098430872e+00   -6.892718375e-06   -3.824755549e-05    0.000000000e+00    0.000000000e+00    0.000000000e+00    0.000000000e+00
      975750000   -2.065646499e-01   -1.084444642e+00    2.113543451e-05    3.305543214e-05    0.000000000e+00    0.000000000e+00    0.000000000e+00    0.000000000e+00
      983000000   -3.280968666e-01   -1.053927779e+00   -3.913883120e-05    5.825422704e-06    0.000000000e+00    0.000000000e+00    0.000000000e+00    0.000000000e+00
      990250000   -4.434659779e-01   -1.007103801e+00   -1.533515751e-05    9.997747838e-06    0.000000000e+00    0.000000000e+00    0.000000000e+00    0.000000000e+00
      997500000   -5.520816445e-01   -9.462391138e-01    2.118013799e-05    2.896413207e-05    0.000000000e+00    0.000000000e+00    0.000000000e+00    0.000000000e+00
     1004750000   -6.474122405e-01   -8.723737597e-01   -2.139434218e-05   -3.911741078e-05    0.000000000e+00    0.000000000e+00    0.000000000e+00    0.000000000e+00
     1012000000   -7.338666916e-01   -7.876238227e-01   -9.461306036e-06    9.381212294e-06    0.000000000e+00    0.000000000e+00    0.000000000e+00    0.000000000e+00
     1019250000   -8.065271974e-01   -6.949375272e-01   -2.008862793e-06   -8.727423847e-06    0.000000000e+00    0.000000000e+00    0.000000000e+00    0.000000000e+00
     1026500000   -8.660755157e-01   -5.945382714e-01    3.719609231e-05    1.511070877e-05    0.000000000e+00    0.000000000e+00    0.000000000e+00    0.000000000e+00
     1033750000   -9.103710651e-01   -4.910249710e-01   -1.242663711e-05   -2.001877874e-05    0.000000000e+00    0.000000000e+00    0.000000000e+00    0.000000000e+00
     1041000000   -9.419179559e-01   -3.861929178e-01   -1.885928214e-05   -3.262236714e-05    0.000000000e+00    0.000000000e+00    0.000000000e+00    0.000000000e+00
