! NanoVNA-App by OneOfEleven et al v1.1.209 (+OD15) 
! Date: 2024-07-30 15:09:56
! Start: 200MHz Stop: 6GHz Points: 801
! S-Parameter data: F S11 S21 S12 S22
# Hz S RI R 50
!     Frequency           S11_Real           S11_Imag           S21_Real           S21_Imag           S12_Real           S12_Imag           S22_Real           S22_Imag
      200000000   -9.637975693e-01   -2.880046666e-01   -8.555129170e-06   -3.511738032e-05    0.000000000e+00    0.000000000e+00    0.000000000e+00    0.000000000e+00
      207250000   -9.914415479e-01   -1.996926367e-01    4.115514457e-06   -1.429952681e-05    0.000000000e+00    0.000000000e+00    0.000000000e+00    0.000000000e+00
      214500000   -1.010029435e+00   -1.083761528e-01    4.365108907e-06    4.526227713e-06    0.000000000e+00    0.000000000e+00    0.000000000e+00    0.000000000e+00
      221750000   -1.020745158e+00   -1.368053444e-02   -1.006945968e-05   -5.533266813e-05    0.000000000e+00    0.000000000e+00    0.000000000e+00    0.000000000e+00
      229000000   -1.022380948e+00    8.290401846e-02    2.213660628e-05    5.567446351e-06    0.000000000e+00    0.000000000e+00    0.000000000e+00    0.000000000e+00
      236250000   -1.014578819e+00    1.810588688e-01    2.279132605e-05    7.795169950e-06    0.000000000e+00    0.000000000e+00    0.000000000e+00    0.000000000e+00
      243500000   -9.962876439e-01    2.791827917e-01    1.771934330e-05    2.479180694e-06    0.000000000e+00    0.000000000e+00    0.000000000e+00    0.000000000e+00
      250750000   -9.686095119e-01    3.777088225e-01    2.847984433e-06   -4.864297807e-06    0.000000000e+00    0.000000000e+00    0.000000000e+00    0.000000000e+00
      258000000   -9.288382530e-01    4.741340876e-01   -1.034885645e-05   -5.755573511e-06    0.000000000e+00    0.000000000e+00    0.000000000e+00    0.000000000e+00
      265250000   -8.791548610e-01    5.668998957e-01    1.051742584e-05    5.195848644e-06    0.000000000e+00    0.000000000e+00    0.000000000e+00    0.000000000e+00
      272500000   -8.175857067e-01    6.564598083e-01   -2.413149923e-05    1.140683889e-05    0.000000000e+00    0.000000000e+00    0.000000000e+00    0.000000000e+00
      279750000   -7.451802492e-01    7.393898368e-01    1.184176654e-05    1.156888902e-05    0.000000000e+00    0.000000000e+00    0.000000000e+00    0.000000000e+00
      287000000   -6.627712250e-01    8.144011497e-01    1.803971827e-05   -3.789737821e-05    0.000000000e+00    0.000000000e+00    0.000000000e+00    0.000000000e+00
      294250000   -5.712474585e-01    8.816090822e-01   -3.645103425e-05    4.819594324e-05    0.000000000e+00    0.000000000e+00    0.000000000e+00    0.000000000e+00
      301500000   -4.699154496e-01    9.376046658e-01   -1.300126314e-06    2.711173147e-05    0.000000000e+00    0.000000000e+00    0.000000000e+00    0.000000000e+00
      308750000   -3.622495234e-01    9.815368056e-01    1.252535731e-05    1.547019929e-05    0.000000000e+00    0.000000000e+00    0.000000000e+00    0.000000000e+00
      316000000   -2.489946485e-01    1.013200879e+00    2.108234912e-05   -1.471396536e-05    0.000000000e+00    0.000000000e+00    0.000000000e+00    0.000000000e+00
      323250000   -1.307014376e-01    1.030961394e+00    4.825182259e-06    2.274848521e-05    0.000000000e+00    0.000000000e+00    0.000000000e+00    0.000000000e+00
      330500000   -1.026850101e-02    1.033547044e+00   -1.150183380e-06    1.627206802e-05    0.000000000e+00    0.000000000e+00    0.000000000e+00    0.000000000e+00
      337750000    1.089120954e-01    1.022430301e+00   -3.656931221e-05    2.799462527e-05    0.000000000e+00    0.000000000e+00    0.000000000e+00    0.000000000e+00
      345000000    2.275186032e-01    9.971445203e-01   -5.270354450e-06   -3.868713975e-06    0.000000000e+00    0.000000000e+00    0.000000000e+00    0.000000000e+00
      352250000    3.406369984e-01    9.572995305e-01   -1.634005457e-05    3.234297037e-05    0.000000000e+00    0.000000000e+00    0.000000000e+00    0.000000000e+00
      359500000    4.482941329e-01    9.043284059e-01    1.454446465e-05   -1.728348434e-05    0.000000000e+00    0.000000000e+00    0.000000000e+00    0.000000000e+00
      366750000    5.490242243e-01    8.389566541e-01    2.186745405e-06   -3.864988685e-06    0.000000000e+00    0.000000000e+00    0.000000000e+00    0.000000000e+00
      374000000    6.399847269e-01    7.618420124e-01    4.960224032e-06    3.214925528e-05    0.000000000e+00    0.000000000e+00    0.000000000e+00    0.000000000e+00
      381250000    7.222466469e-01    6.756465435e-01    8.409842849e-07   -1.792889088e-05    0.000000000e+00    0.000000000e+00    0.000000000e+00    0.000000000e+00
      388500000    7.921024561e-01    5.819889903e-01    4.042126238e-05    2.194941044e-05    0.000000000e+00    0.000000000e+00    0.000000000e+00    0.000000000e+00
      395750000    8.508298993e-01    4.818220437e-01    1.249276102e-05   -1.710467041e-05    0.000000000e+00    0.000000000e+00    0.000000000e+00    0.000000000e+00
      403000000    8.978298903e-01    3.774358630e-01   -1.389347017e-05    4.176050425e-06    0.000000000e+00    0.000000000e+00    0.000000000e+00    0.000000000e+00
      410250000    9.322875142e-01    2.681946456e-01    4.530698061e-05   -1.195725054e-05    0.000000000e+00    0.000000000e+00    0.000000000e+00    0.000000000e+00
      417500000    9.547257423e-01    1.581192613e-01    1.212675124e-05   -1.486390829e-05    0.000000000e+00    0.000000000e+00    0.000000000e+00    0.000000000e+00
      424750000    9.655993581e-01    4.669636860e-02   -1.750793308e-05   -8.646398783e-06    0.000000000e+00    0.000000000e+00    0.000000000e+00    0.000000000e+00
      432000000    9.647861123e-01   -6.364825368e-02   -7.348135114e-07    5.265697837e-06    0.000000000e+00    0.000000000e+00    0.000000000e+00    0.000000000e+00
      439250000    9.525288343e-01   -1.720180959e-01    2.126861364e-05    9.263865650e-06    0.000000000e+00    0.000000000e+00    0.000000000e+00    0.000000000e+00
      446500000    9.291979671e-01   -2.780331671e-01   -3.677513450e-05    3.181304783e-05    0.000000000e+00    0.000000000e+00    0.000000000e+00    0.000000000e+00
      453750000    8.960934877e-01   -3.817715645e-01    5.839392543e-07    5.637295544e-06    0.000000000e+00    0.000000000e+00    0.000000000e+00    0.000000000e+00
      461000000    8.536084890e-01   -4.792945981e-01   -2.900324762e-05    4.598312080e-05    0.000000000e+00    0.000000000e+00    0.000000000e+00    0.000000000e+00
      468250000    8.015038371e-01   -5.715644360e-01    1.051649451e-05    1.663342118e-06    0.000000000e+00    0.000000000e+00    0.000000000e+00    0.000000000e+00
      475500000    7.398989797e-01   -6.593500972e-01    1.890584826e-07   -1.143943518e-05    0.000000000e+00    0.000000000e+00    0.000000000e+00    0.000000000e+00
      482750000    6.721851826e-01   -7.390385270e-01    3.185030073e-05    3.034900874e-05    0.000000000e+00    0.000000000e+00    0.000000000e+00    0.000000000e+00
      490000000    5.959160328e-01   -8.122059107e-01    1.745112240e-05   -3.984104842e-05    0.000000000e+00    0.000000000e+00    0.000000000e+00    0.000000000e+00
      497250000    5.124422908e-01   -8.773988485e-01   -3.207568079e-05   -2.246536314e-05    0.000000000e+00    0.000000000e+00    0.000000000e+00    0.000000000e+00
      504500000    4.226602912e-01   -9.344496131e-01    1.518800855e-05   -1.745298505e-05    0.000000000e+00    0.000000000e+00    0.000000000e+00    0.000000000e+00
      511750000    3.279874325e-01   -9.823521972e-01   -1.077540219e-05   -3.571622074e-06    0.000000000e+00    0.000000000e+00    0.000000000e+00    0.000000000e+00
      519000000    2.294083089e-01   -1.021328926e+00   -1.684762537e-06   -5.300156772e-06    0.000000000e+00    0.000000000e+00    0.000000000e+00    0.000000000e+00
      526250000    1.253242940e-01   -1.049325466e+00   -2.242624760e-06   -5.764886737e-06    0.000000000e+00    0.000000000e+00    0.000000000e+00    0.000000000e+00
      533500000    1.973616518e-02   -1.067905545e+00   -2.423673868e-05   -5.836598575e-06    0.000000000e+00    0.000000000e+00    0.000000000e+00    0.000000000e+00
      540750000   -8.914515376e-02   -1.075296521e+00   -1.113303006e-05   -9.835697711e-06    0.000000000e+00    0.000000000e+00    0.000000000e+00    0.000000000e+00
      548000000   -1.996721625e-01   -1.071556449e+00    1.372769475e-05    1.058354974e-05    0.000000000e+00    0.000000000e+00    0.000000000e+00    0.000000000e+00
      555250000   -3.079787195e-01   -1.056020498e+00   -3.709457815e-05    1.619197428e-05    0.000000000e+00    0.000000000e+00    0.000000000e+00    0.000000000e+00
      562500000   -4.160628319e-01   -1.028329492e+00   -2.775341272e-07   -3.562308848e-06    0.000000000e+00    0.000000000e+00    0.000000000e+00    0.000000000e+00
      569750000   -5.210517645e-01   -9.899417162e-01   -1.611094922e-05   -1.988373697e-06    0.000000000e+00    0.000000000e+00    0.000000000e+00    0.000000000e+00
      577000000   -6.232212186e-01   -9.391838312e-01    1.726672053e-06    7.458962500e-06    0.000000000e+00    0.000000000e+00    0.000000000e+00    0.000000000e+00
      584250000   -7.185330391e-01   -8.776521683e-01    1.951120794e-06   -2.797786146e-05    0.000000000e+00    0.000000000e+00    0.000000000e+00    0.000000000e+00
      591500000   -8.073520064e-01   -8.033853173e-01   -1.727603376e-06   -1.834705472e-07    0.000000000e+00    0.000000000e+00    0.000000000e+00    0.000000000e+00
      598750000   -8.879008889e-01   -7.198261023e-01    1.463852823e-05    7.161311805e-05    0.000000000e+00    0.000000000e+00    0.000000000e+00    0.000000000e+00
      606000000   -9.586720467e-01   -6.279679537e-01   -1.786369830e-05   -5.126930773e-06    0.000000000e+00    0.000000000e+00    0.000000000e+00    0.000000000e+00
      613250000   -1.018295646e+00   -5.279854536e-01    1.565553248e-06    2.397224307e-06    0.000000000e+00    0.000000000e+00    0.000000000e+00    0.000000000e+00
      620500000   -1.067649007e+00   -4.206930399e-01   -2.211332321e-05   -4.827696830e-05    0.000000000e+00    0.000000000e+00    0.000000000e+00    0.000000000e+00
      627750000   -1.103749752e+00   -3.070779145e-01   -2.702325583e-05   -1.967884600e-05    0.000000000e+00    0.000000000e+00    0.000000000e+00    0.000000000e+00
      635000000   -1.124634504e+00   -1.918269545e-01    1.360662282e-06    2.964586020e-05    0.000000000e+00    0.000000000e+00    0.000000000e+00    0.000000000e+00
      642250000   -1.133391023e+00   -7.330574840e-02    1.848582178e-05   -3.418698907e-05    0.000000000e+00    0.000000000e+00    0.000000000e+00    0.000000000e+00
      649500000   -1.128381133e+00    4.333871603e-02    3.597326577e-05   -6.482936442e-06    0.000000000e+00    0.000000000e+00    0.000000000e+00    0.000000000e+00
      656750000   -1.109803677e+00    1.582400054e-01    1.299846917e-05   -3.772694618e-05    0.000000000e+00    0.000000000e+00    0.000000000e+00    0.000000000e+00
      664000000   -1.078200221e+00    2.689015567e-01   -1.270230860e-05    1.103058457e-05    0.000000000e+00    0.000000000e+00    0.000000000e+00    0.000000000e+00
      671250000   -1.033943653e+00    3.752407134e-01   -2.902001143e-06    5.869194865e-06    0.000000000e+00    0.000000000e+00    0.000000000e+00    0.000000000e+00
      678500000   -9.785584211e-01    4.749067724e-01    4.003290087e-05   -2.065487206e-05    0.000000000e+00    0.000000000e+00    0.000000000e+00    0.000000000e+00
      685750000   -9.118122458e-01    5.676534772e-01   -8.170492947e-06   -4.600360990e-05    0.000000000e+00    0.000000000e+00    0.000000000e+00    0.000000000e+00
      693000000   -8.380566835e-01    6.496050358e-01   -2.014264464e-05   -2.928823233e-05    0.000000000e+00    0.000000000e+00    0.000000000e+00    0.000000000e+00
      700250000   -7.550237179e-01    7.236011624e-01   -3.288593143e-05   -1.957640052e-06    0.000000000e+00    0.000000000e+00    0.000000000e+00    0.000000000e+00
      707500000   -6.660060287e-01    7.867914438e-01    4.245992750e-05    6.137415767e-06    0.000000000e+00    0.000000000e+00    0.000000000e+00    0.000000000e+00
      714750000   -5.713985562e-01    8.396489024e-01   -1.031346619e-05    2.365559340e-07    0.000000000e+00    0.000000000e+00    0.000000000e+00    0.000000000e+00
      722000000   -4.726831019e-01    8.822391033e-01    2.864282578e-05   -2.625584602e-05    0.000000000e+00    0.000000000e+00    0.000000000e+00    0.000000000e+00
      729250000   -3.733381927e-01    9.127762318e-01    6.172806025e-06   -3.585498780e-05    0.000000000e+00    0.000000000e+00    0.000000000e+00    0.000000000e+00
      736500000   -2.719075978e-01    9.327281713e-01   -1.321360469e-05    1.573376358e-05    0.000000000e+00    0.000000000e+00    0.000000000e+00    0.000000000e+00
      743750000   -1.687255949e-01    9.432141185e-01    1.164618880e-05   -1.526437700e-06    0.000000000e+00    0.000000000e+00    0.000000000e+00    0.000000000e+00
      751000000   -6.762385368e-02    9.438096881e-01   -7.714144886e-06    3.688968718e-06    0.000000000e+00    0.000000000e+00    0.000000000e+00    0.000000000e+00
      758250000    3.179525957e-02    9.329132438e-01   -6.195157766e-05    2.065580338e-05    0.000000000e+00    0.000000000e+00    0.000000000e+00    0.000000000e+00
      765500000    1.283245683e-01    9.132487774e-01    2.694781870e-05   -3.544054925e-05    0.000000000e+00    0.000000000e+00    0.000000000e+00    0.000000000e+00
      772750000    2.238703817e-01    8.851775527e-01    1.436658204e-05   -5.975458771e-05    0.000000000e+00    0.000000000e+00    0.000000000e+00    0.000000000e+00
      780000000    3.139154613e-01    8.502151966e-01    1.391489059e-05    1.295935363e-05    0.000000000e+00    0.000000000e+00    0.000000000e+00    0.000000000e+00
      787250000    4.008206129e-01    8.045045733e-01   -9.922310710e-06    2.223532647e-05    0.000000000e+00    0.000000000e+00    0.000000000e+00    0.000000000e+00
      794500000    4.817300737e-01    7.532921433e-01   -1.445412636e-06   -8.994713426e-06    0.000000000e+00    0.000000000e+00    0.000000000e+00    0.000000000e+00
      801750000    5.574354529e-01    6.947791576e-01   -1.672562212e-05   -7.781013846e-05    0.000000000e+00    0.000000000e+00    0.000000000e+00    0.000000000e+00
      809000000    6.277353168e-01    6.290777326e-01    4.674308002e-06   -3.356300294e-05    0.000000000e+00    0.000000000e+00    0.000000000e+00    0.000000000e+00
      816250000    6.919128895e-01    5.571873784e-01   -4.177074879e-05   -3.974884748e-06    0.000000000e+00    0.000000000e+00    0.000000000e+00    0.000000000e+00
      823500000    7.492470741e-01    4.807380140e-01    3.171991557e-05   -1.518335193e-05    0.000000000e+00    0.000000000e+00    0.000000000e+00    0.000000000e+00
      830750000    8.003652692e-01    3.972476721e-01   -1.102872193e-05    4.737637937e-06    0.000000000e+00    0.000000000e+00    0.000000000e+00    0.000000000e+00
      838000000    8.433690667e-01    3.098425567e-01   -3.389921039e-05   -5.955807865e-06    0.000000000e+00    0.000000000e+00    0.000000000e+00    0.000000000e+00
      845250000    8.774204850e-01    2.169278115e-01   -1.153815538e-05    1.775566489e-05    0.000000000e+00    0.000000000e+00    0.000000000e+00    0.000000000e+00
      852500000    9.043595791e-01    1.217962578e-01    7.655471563e-06   -4.217959940e-06    0.000000000e+00    0.000000000e+00    0.000000000e+00    0.000000000e+00
      859750000    9.214217067e-01    2.460618876e-02   -3.003980964e-05    8.470378816e-06    0.000000000e+00    0.000000000e+00    0.000000000e+00    0.000000000e+00
      867000000    9.289480448e-01   -7.998425514e-02    4.443991929e-05   -2.793967724e-07    0.000000000e+00    0.000000000e+00    0.000000000e+00    0.000000000e+00
      874250000    9.265829325e-01   -1.811395735e-01    1.954101026e-05    7.046759129e-05    0.000000000e+00    0.000000000e+00    0.000000000e+00    0.000000000e+00
      881500000    9.146301150e-01   -2.851245999e-01   -3.663823009e-05    3.754626960e-05    0.000000000e+00    0.000000000e+00    0.000000000e+00    0.000000000e+00
      888750000    8.902056217e-01   -3.889117241e-01    3.442447633e-05   -1.194048673e-05    0.000000000e+00    0.000000000e+00    0.000000000e+00    0.000000000e+00
      896000000    8.549748063e-01   -4.910664558e-01    1.184083521e-05   -4.147551954e-05    0.000000000e+00    0.000000000e+00    0.000000000e+00    0.000000000e+00
      903250000    8.081709743e-01   -5.904828906e-01    1.761596650e-05    1.015141606e-07    0.000000000e+00    0.000000000e+00    0.000000000e+00    0.000000000e+00
      910500000    7.473285794e-01   -6.881127357e-01    4.522409290e-05   -1.471024007e-05    0.000000000e+00    0.000000000e+00    0.000000000e+00    0.000000000e+00
      917750000    6.767992377e-01   -7.766874433e-01    2.691335976e-05    6.305985153e-06    0.000000000e+00    0.000000000e+00    0.000000000e+00    0.000000000e+00
      925000000    5.954823494e-01   -8.582232594e-01    2.924352884e-07    2.110190690e-05    0.000000000e+00    0.000000000e+00    0.000000000e+00    0.000000000e+00
      932250000    4.990094602e-01   -9.329428673e-01    3.493111581e-05    2.647284418e-05    0.000000000e+00    0.000000000e+00    0.000000000e+00    0.000000000e+00
      939500000    3.965782523e-01   -9.942253828e-01   -1.038331538e-05    2.817530185e-05    0.000000000e+00    0.000000000e+00    0.000000000e+00    0.000000000e+00
      946750000    2.840289474e-01   -1.043649673e+00   -4.947744310e-05    2.299714833e-05    0.000000000e+00    0.000000000e+00    0.000000000e+00    0.000000000e+00
      954000000    1.663126349e-01   -1.077168226e+00    2.620927989e-05    1.101754606e-06    0.000000000e+00    0.000000000e+00    0.000000000e+00    0.000000000e+00
      961250000    4.330049455e-02   -1.096495032e+00   -1.570768654e-05   -9.613111615e-06    0.000000000e+00    0.000000000e+00    0.000000000e+00    0.000000000e+00
      968500000   -8.356818557e-02   -1.098249912e+00   -2.250354737e-05   -7.594935596e-06    0.000000000e+00    0.000000000e+00    0.000000000e+00    0.000000000e+00
      975750000   -2.080226690e-01   -1.084104776e+00    4.465971142e-05    2.237968147e-06    0.000000000e+00    0.000000000e+00    0.000000000e+00    0.000000000e+00
      983000000   -3.282181919e-01   -1.054180384e+00   -1.244898885e-05   -1.045409590e-05    0.000000000e+00    0.000000000e+00    0.000000000e+00    0.000000000e+00
      990250000   -4.441426396e-01   -1.007299900e+00    2.991687506e-05   -1.541338861e-05    0.000000000e+00    0.000000000e+00    0.000000000e+00    0.000000000e+00
      997500000   -5.513488054e-01   -9.461801052e-01    2.506747842e-05   -1.269020140e-05    0.000000000e+00    0.000000000e+00    0.000000000e+00    0.000000000e+00
     1004750000   -6.469603181e-01   -8.727719188e-01   -1.201871783e-05   -2.176221460e-05    0.000000000e+00    0.000000000e+00    0.000000000e+00    0.000000000e+00
     1012000000   -7.331101298e-01   -7.887938023e-01    1.863949001e-05    1.477357000e-05    0.000000000e+00    0.000000000e+00    0.000000000e+00    0.000000000e+00
     1019250000   -8.071706295e-01   -6.938914657e-01    1.326855272e-05   -2.793502063e-05    0.000000000e+00    0.000000000e+00    0.000000000e+00    0.000000000e+00
     1026500000   -8.656476736e-01   -5.958679318e-01    4.081521183e-05    1.600664109e-05    0.000000000e+00    0.000000000e+00    0.000000000e+00    0.000000000e+00
     1033750000   -9.107752442e-01   -4.909959733e-01    2.594385296e-05   -9.475275874e-06    0.000000000e+00    0.000000000e+00    0.000000000e+00    0.000000000e+00
     1041000000   -9.417567849e-01   -3.861120343e-01    1.095142215e-05    1.276191324e-05    0.000000000e+00    0.000000000e+00    0.000000000e+00    0.000000000e+00
