! NanoVNA-App by OneOfEleven et al v1.1.209 (+OD15) 
! Date: 2024-07-30 15:14:46
! Start: 200MHz Stop: 6GHz Points: 801
! S-Parameter data: F S11 S21 S12 S22
# Hz S RI R 50
!     Frequency           S11_Real           S11_Imag           S21_Real           S21_Imag           S12_Real           S12_Imag           S22_Real           S22_Imag
      200000000    1.052584339e-04    3.847364496e-05    2.156214396e-05   -7.739485227e-06    0.000000000e+00    0.000000000e+00    0.000000000e+00    0.000000000e+00
      207250000   -1.456458471e-03    7.072066655e-04    9.831655007e-06    1.579371565e-05    0.000000000e+00    0.000000000e+00    0.000000000e+00    0.000000000e+00
      214500000   -2.344666049e-03    8.325486560e-04   -5.873669215e-05    4.159913442e-05    0.000000000e+00    0.000000000e+00    0.000000000e+00    0.000000000e+00
      221750000    4.348030780e-04   -1.136567676e-03    1.454005178e-05   -1.615577639e-05    0.000000000e+00    0.000000000e+00    0.000000000e+00    0.000000000e+00
      229000000   -6.022024318e-04    1.262628066e-04    2.732072971e-05   -1.677135879e-05    0.000000000e+00    0.000000000e+00    0.000000000e+00    0.000000000e+00
      236250000   -1.623048156e-04    8.021937538e-05    2.603485700e-05   -2.541346112e-05    0.000000000e+00    0.000000000e+00    0.000000000e+00    0.000000000e+00
      243500000   -4.018362379e-04   -3.100609756e-04   -5.589971153e-08    7.425812328e-06    0.000000000e+00    0.000000000e+00    0.000000000e+00    0.000000000e+00
      250750000   -3.596004681e-04    6.407809906e-06   -4.228178295e-05   -3.415671745e-05    0.000000000e+00    0.000000000e+00    0.000000000e+00    0.000000000e+00
      258000000   -7.773740799e-04    1.052297375e-04   -1.115085433e-05    1.913983215e-05    0.000000000e+00    0.000000000e+00    0.000000000e+00    0.000000000e+00
      265250000   -3.258695651e-04    1.302670280e-04    1.721188164e-05    1.888746056e-06    0.000000000e+00    0.000000000e+00    0.000000000e+00    0.000000000e+00
      272500000   -1.243425533e-03    1.478936872e-03    3.063921758e-05    3.648175698e-05    0.000000000e+00    0.000000000e+00    0.000000000e+00    0.000000000e+00
      279750000   -1.535096555e-03    9.828989860e-04   -6.775966995e-06   -6.933043551e-06    0.000000000e+00    0.000000000e+00    0.000000000e+00    0.000000000e+00
      287000000   -1.514303265e-03   -2.285066003e-04    1.191052797e-05   -2.007309376e-05    0.000000000e+00    0.000000000e+00    0.000000000e+00    0.000000000e+00
      294250000   -8.100235718e-04   -3.429963253e-04    4.119283119e-07    1.157061160e-05    0.000000000e+00    0.000000000e+00    0.000000000e+00    0.000000000e+00
      301500000    4.978225479e-05   -8.240257739e-05   -3.066373893e-06   -8.187727872e-06    0.000000000e+00    0.000000000e+00    0.000000000e+00    0.000000000e+00
      308750000   -4.586879804e-04   -1.369262027e-04   -3.319351526e-05    3.250387181e-06    0.000000000e+00    0.000000000e+00    0.000000000e+00    0.000000000e+00
      316000000   -1.200068044e-03    3.403355367e-04   -1.491636340e-05   -5.523679192e-06    0.000000000e+00    0.000000000e+00    0.000000000e+00    0.000000000e+00
      323250000   -5.107881152e-04    5.189996446e-04    2.220559327e-05   -1.862162935e-05    0.000000000e+00    0.000000000e+00    0.000000000e+00    0.000000000e+00
      330500000   -4.975236952e-04   -2.017988299e-04   -9.575383956e-06    7.907600775e-06    0.000000000e+00    0.000000000e+00    0.000000000e+00    0.000000000e+00
      337750000   -9.475848638e-04   -6.137907621e-04    5.452663117e-06    2.853841033e-05    0.000000000e+00    0.000000000e+00    0.000000000e+00    0.000000000e+00
      345000000   -7.766415365e-04   -3.238719364e-04   -2.365348701e-05   -1.750425440e-07    0.000000000e+00    0.000000000e+00    0.000000000e+00    0.000000000e+00
      352250000   -6.404370070e-04    5.394109758e-05   -1.890492786e-05    4.137174074e-06    0.000000000e+00    0.000000000e+00    0.000000000e+00    0.000000000e+00
      359500000   -5.349677522e-04   -4.182262346e-04    8.437857105e-06   -9.451016012e-06    0.000000000e+00    0.000000000e+00    0.000000000e+00    0.000000000e+00
      366750000   -1.068840036e-03   -7.515963807e-05   -2.212067557e-05    1.358899681e-05    0.000000000e+00    0.000000000e+00    0.000000000e+00    0.000000000e+00
      374000000   -1.325769001e-03   -4.961483064e-04   -3.432144877e-05    2.297721221e-05    0.000000000e+00    0.000000000e+00    0.000000000e+00    0.000000000e+00
      381250000    3.795735247e-04    3.731846518e-04    1.080442962e-05   -3.962793562e-05    0.000000000e+00    0.000000000e+00    0.000000000e+00    0.000000000e+00
      388500000    3.192830627e-05    6.119877216e-04    1.273580892e-05    2.166693230e-05    0.000000000e+00    0.000000000e+00    0.000000000e+00    0.000000000e+00
      395750000   -1.167172915e-03    3.683441537e-05   -3.428939453e-05    1.965043703e-05    0.000000000e+00    0.000000000e+00    0.000000000e+00    0.000000000e+00
      403000000   -1.059235539e-03    1.004929363e-04   -2.313986442e-05   -7.649971849e-06    0.000000000e+00    0.000000000e+00    0.000000000e+00    0.000000000e+00
      410250000   -5.991191720e-04    6.102359112e-05   -4.290572178e-05    1.748669092e-05    0.000000000e+00    0.000000000e+00    0.000000000e+00    0.000000000e+00
      417500000   -8.611608646e-04   -1.288967615e-04   -1.524003892e-05   -9.379157746e-06    0.000000000e+00    0.000000000e+00    0.000000000e+00    0.000000000e+00
      424750000   -2.508236794e-04   -7.008264656e-04   -8.329181583e-06   -8.448570043e-06    0.000000000e+00    0.000000000e+00    0.000000000e+00    0.000000000e+00
      432000000   -5.522075808e-04    8.479370736e-04   -4.426047326e-06    3.791073686e-05    0.000000000e+00    0.000000000e+00    0.000000000e+00    0.000000000e+00
      439250000   -9.975240100e-04    1.932042360e-04    2.073305222e-05   -6.448552199e-07    0.000000000e+00    0.000000000e+00    0.000000000e+00    0.000000000e+00
      446500000   -5.633342080e-04    1.740473963e-04    9.829442206e-06    9.552472875e-06    0.000000000e+00    0.000000000e+00    0.000000000e+00    0.000000000e+00
      453750000   -1.237629214e-03    6.564214709e-04   -2.274852523e-05    3.931183528e-06    0.000000000e+00    0.000000000e+00    0.000000000e+00    0.000000000e+00
      461000000   -9.616563912e-04   -2.137629199e-04    4.082110900e-05    9.805315131e-06    0.000000000e+00    0.000000000e+00    0.000000000e+00    0.000000000e+00
      468250000   -1.582079683e-03    3.461043816e-04    4.607989831e-05   -3.986349475e-05    0.000000000e+00    0.000000000e+00    0.000000000e+00    0.000000000e+00
      475500000   -6.353600766e-04    3.777239181e-04   -2.331182804e-05   -3.192178337e-05    0.000000000e+00    0.000000000e+00    0.000000000e+00    0.000000000e+00
      482750000   -4.161029356e-04    5.934842629e-04   -5.470926681e-06    2.065497029e-05    0.000000000e+00    0.000000000e+00    0.000000000e+00    0.000000000e+00
      490000000   -3.962816263e-04    3.977223241e-04   -6.988109362e-06    1.296831033e-05    0.000000000e+00    0.000000000e+00    0.000000000e+00    0.000000000e+00
      497250000    7.382257081e-06   -2.241423208e-04    2.479513626e-07    3.881522571e-05    0.000000000e+00    0.000000000e+00    0.000000000e+00    0.000000000e+00
      504500000   -1.076841960e-03   -4.025129019e-04    2.020899228e-05    5.154069640e-06    0.000000000e+00    0.000000000e+00    0.000000000e+00    0.000000000e+00
      511750000   -8.293812862e-04   -1.825685176e-04   -1.347094076e-05   -4.171228738e-06    0.000000000e+00    0.000000000e+00    0.000000000e+00    0.000000000e+00
      519000000   -7.388362428e-04    1.781601713e-05    4.434959919e-06   -4.705936135e-06    0.000000000e+00    0.000000000e+00    0.000000000e+00    0.000000000e+00
      526250000   -1.068390557e-03    3.198224003e-04   -2.238932757e-05    3.675838525e-05    0.000000000e+00    0.000000000e+00    0.000000000e+00    0.000000000e+00
      533500000   -2.205054916e-04   -7.053207810e-05   -2.495030685e-06    1.110935500e-06    0.000000000e+00    0.000000000e+00    0.000000000e+00    0.000000000e+00
      540750000   -1.401060959e-03    2.748548286e-04    1.226595214e-05    1.028002998e-06    0.000000000e+00    0.000000000e+00    0.000000000e+00    0.000000000e+00
      548000000   -1.262766542e-03    8.516528178e-04   -1.741057531e-05    5.398930080e-05    0.000000000e+00    0.000000000e+00    0.000000000e+00    0.000000000e+00
      555250000   -6.531904219e-04    3.242277307e-04    8.780076314e-06    1.256712676e-05    0.000000000e+00    0.000000000e+00    0.000000000e+00    0.000000000e+00
      562500000   -1.110055833e-03   -1.332380780e-04   -1.963195973e-05   -1.549396802e-05    0.000000000e+00    0.000000000e+00    0.000000000e+00    0.000000000e+00
      569750000   -1.196980360e-03    5.544043379e-04    1.608402818e-05    1.371814392e-06    0.000000000e+00    0.000000000e+00    0.000000000e+00    0.000000000e+00
      577000000   -7.035750314e-04    4.877729807e-04   -6.652545380e-06    1.994457671e-05    0.000000000e+00    0.000000000e+00    0.000000000e+00    0.000000000e+00
      584250000   -1.588499174e-03    6.445692852e-04   -2.879732892e-05    1.038757000e-05    0.000000000e+00    0.000000000e+00    0.000000000e+00    0.000000000e+00
      591500000   -6.509710802e-04    1.434052829e-04    1.485653684e-05   -1.385960422e-05    0.000000000e+00    0.000000000e+00    0.000000000e+00    0.000000000e+00
      598750000   -7.778947474e-04    7.442826609e-05   -1.787124802e-06   -1.437518949e-05    0.000000000e+00    0.000000000e+00    0.000000000e+00    0.000000000e+00
      606000000   -1.345528290e-03    4.487399710e-04   -2.323973604e-05   -1.742663585e-06    0.000000000e+00    0.000000000e+00    0.000000000e+00    0.000000000e+00
      613250000   -8.415931370e-04    4.722753947e-04    6.104469321e-06    2.236071168e-06    0.000000000e+00    0.000000000e+00    0.000000000e+00    0.000000000e+00
      620500000   -1.556382747e-03    3.669754660e-04    1.905723366e-05    1.313431039e-05    0.000000000e+00    0.000000000e+00    0.000000000e+00    0.000000000e+00
      627750000   -4.274050298e-04    3.214187745e-05   -2.633507393e-05    3.047625069e-05    0.000000000e+00    0.000000000e+00    0.000000000e+00    0.000000000e+00
      635000000   -8.270115359e-04    6.284071133e-04   -1.811006996e-06    5.956084351e-06    0.000000000e+00    0.000000000e+00    0.000000000e+00    0.000000000e+00
      642250000   -7.276671822e-04    5.155023246e-05   -2.284686707e-05    1.518722729e-05    0.000000000e+00    0.000000000e+00    0.000000000e+00    0.000000000e+00
      649500000   -1.639488735e-03    3.401497670e-04    4.652571533e-06   -4.178895324e-06    0.000000000e+00    0.000000000e+00    0.000000000e+00    0.000000000e+00
      656750000   -1.087861136e-03    4.027776886e-04    1.063882974e-05    1.165641424e-05    0.000000000e+00    0.000000000e+00    0.000000000e+00    0.000000000e+00
      664000000   -1.068454701e-03   -7.398620801e-05    9.267271707e-06   -2.055468030e-06    0.000000000e+00    0.000000000e+00    0.000000000e+00    0.000000000e+00
      671250000   -7.947525592e-04    1.496643963e-04    1.042848271e-05    1.494567550e-05    0.000000000e+00    0.000000000e+00    0.000000000e+00    0.000000000e+00
      678500000   -7.743130554e-04   -9.885738837e-05   -1.384002189e-05   -1.122992103e-06    0.000000000e+00    0.000000000e+00    0.000000000e+00    0.000000000e+00
      685750000   -6.905459450e-04    2.443167801e-08    4.560184607e-06    3.621268115e-05    0.000000000e+00    0.000000000e+00    0.000000000e+00    0.000000000e+00
      693000000   -7.331617526e-04   -2.059583494e-04   -2.049668728e-05    2.860228597e-05    0.000000000e+00    0.000000000e+00    0.000000000e+00    0.000000000e+00
      700250000   -9.685928817e-04   -1.299371215e-04   -2.405130545e-05    1.100756037e-07    0.000000000e+00    0.000000000e+00    0.000000000e+00    0.000000000e+00
      707500000   -3.554299474e-04    7.624900172e-05    4.820973481e-05   -7.025033028e-06    0.000000000e+00    0.000000000e+00    0.000000000e+00    0.000000000e+00
      714750000   -2.283711219e-03    3.052939719e-04    1.343412896e-05    8.871390492e-06    0.000000000e+00    0.000000000e+00    0.000000000e+00    0.000000000e+00
      722000000   -9.137449524e-05    1.231830684e-04   -2.376077646e-06   -4.981783059e-05    0.000000000e+00    0.000000000e+00    0.000000000e+00    0.000000000e+00
      729250000   -1.264510909e-03   -1.240352285e-04    2.453338129e-05   -1.286144015e-05    0.000000000e+00    0.000000000e+00    0.000000000e+00    0.000000000e+00
      736500000   -3.439853026e-04   -2.847273718e-04   -1.344583688e-05    1.465528567e-05    0.000000000e+00    0.000000000e+00    0.000000000e+00    0.000000000e+00
      743750000   -2.722695936e-04    1.602694683e-04   -1.174949284e-05   -1.665500167e-05    0.000000000e+00    0.000000000e+00    0.000000000e+00    0.000000000e+00
      751000000   -9.763792041e-04   -1.509249996e-04   -1.434326532e-05   -1.101980070e-05    0.000000000e+00    0.000000000e+00    0.000000000e+00    0.000000000e+00
      758250000   -1.356157125e-03   -3.458565625e-04    2.897689910e-06   -1.617992530e-05    0.000000000e+00    0.000000000e+00    0.000000000e+00    0.000000000e+00
      765500000   -7.416110020e-04   -7.620783435e-05    3.970006946e-05   -3.136119403e-06    0.000000000e+00    0.000000000e+00    0.000000000e+00    0.000000000e+00
      772750000   -1.199653489e-03    7.309125795e-05   -1.073273870e-05   -2.201990355e-05    0.000000000e+00    0.000000000e+00    0.000000000e+00    0.000000000e+00
      780000000    6.618796760e-05   -8.465739666e-05    6.105737702e-05   -8.208048712e-06    0.000000000e+00    0.000000000e+00    0.000000000e+00    0.000000000e+00
      787250000   -8.108090260e-04    1.519834914e-04    3.319217649e-05   -1.020970331e-06    0.000000000e+00    0.000000000e+00    0.000000000e+00    0.000000000e+00
      794500000   -6.588181714e-04   -6.637538900e-04    9.315523130e-06    1.155252994e-05    0.000000000e+00    0.000000000e+00    0.000000000e+00    0.000000000e+00
      801750000   -1.471856260e-03    1.936924673e-04   -1.811340371e-05    1.504643387e-05    0.000000000e+00    0.000000000e+00    0.000000000e+00    0.000000000e+00
      809000000   -7.604456623e-04    4.355963320e-04    2.172165068e-06   -1.260734007e-05    0.000000000e+00    0.000000000e+00    0.000000000e+00    0.000000000e+00
      816250000    1.160989486e-04    2.630104718e-04    2.708687248e-07    6.113698873e-06    0.000000000e+00    0.000000000e+00    0.000000000e+00    0.000000000e+00
      823500000   -1.533168368e-03    2.671945549e-04    9.523714652e-06   -6.672208838e-05    0.000000000e+00    0.000000000e+00    0.000000000e+00    0.000000000e+00
      830750000   -1.311939792e-03    6.812117645e-04   -1.107352182e-05   -7.053457011e-06    0.000000000e+00    0.000000000e+00    0.000000000e+00    0.000000000e+00
      838000000   -8.863478433e-04    3.701940295e-04    3.587968536e-07   -5.450711615e-05    0.000000000e+00    0.000000000e+00    0.000000000e+00    0.000000000e+00
      845250000   -8.781552315e-04    8.056926890e-04   -2.474946450e-05    4.644675755e-06    0.000000000e+00    0.000000000e+00    0.000000000e+00    0.000000000e+00
      852500000   -8.932600031e-04    2.527041943e-04    4.188661842e-05    1.086473458e-05    0.000000000e+00    0.000000000e+00    0.000000000e+00    0.000000000e+00
      859750000   -9.602591163e-04    5.552890361e-04    1.805871761e-05    1.974291627e-05    0.000000000e+00    0.000000000e+00    0.000000000e+00    0.000000000e+00
      867000000   -7.882875507e-04    1.852907008e-04   -2.289394433e-05    5.631714157e-05    0.000000000e+00    0.000000000e+00    0.000000000e+00    0.000000000e+00
      874250000   -9.847470210e-05    2.670233662e-04    8.772157344e-06   -4.837866436e-05    0.000000000e+00    0.000000000e+00    0.000000000e+00    0.000000000e+00
      881500000   -7.500651409e-04    2.964195446e-04    4.919244384e-05   -2.437658259e-05    0.000000000e+00    0.000000000e+00    0.000000000e+00    0.000000000e+00
      888750000   -2.044910434e-05   -8.614845865e-05    1.661061469e-05    6.954296168e-06    0.000000000e+00    0.000000000e+00    0.000000000e+00    0.000000000e+00
      896000000   -9.644179372e-04    3.746123693e-04   -1.673922634e-05    9.490450793e-06    0.000000000e+00    0.000000000e+00    0.000000000e+00    0.000000000e+00
      903250000   -9.952298133e-04    2.245494397e-04   -2.959385165e-05   -3.088339872e-05    0.000000000e+00    0.000000000e+00    0.000000000e+00    0.000000000e+00
      910500000   -4.870859266e-04   -1.146167560e-04   -2.491895430e-06   -1.696465006e-05    0.000000000e+00    0.000000000e+00    0.000000000e+00    0.000000000e+00
      917750000   -4.024442387e-05    9.865009633e-05    1.723905189e-05    4.658396392e-06    0.000000000e+00    0.000000000e+00    0.000000000e+00    0.000000000e+00
      925000000   -1.317816554e-03    2.235239372e-04    1.379864443e-05   -5.172418241e-06    0.000000000e+00    0.000000000e+00    0.000000000e+00    0.000000000e+00
      932250000    8.264331700e-05    2.846979187e-04    1.583729863e-05    7.073144388e-06    0.000000000e+00    0.000000000e+00    0.000000000e+00    0.000000000e+00
      939500000   -5.470632459e-04   -3.490443341e-04    3.540628677e-05    7.300428024e-06    0.000000000e+00    0.000000000e+00    0.000000000e+00    0.000000000e+00
      946750000   -8.491385379e-04    2.310939599e-04   -3.301087418e-05   -2.622786269e-06    0.000000000e+00    0.000000000e+00    0.000000000e+00    0.000000000e+00
      954000000   -1.364370974e-06   -5.127895856e-04   -2.942130232e-05   -4.466139580e-05    0.000000000e+00    0.000000000e+00    0.000000000e+00    0.000000000e+00
      961250000   -7.150191814e-04   -1.022727956e-04   -1.217607860e-05   -3.144332368e-06    0.000000000e+00    0.000000000e+00    0.000000000e+00    0.000000000e+00
      968500000   -1.252405113e-03    3.710901656e-04    2.961396967e-05    1.225547635e-06    0.000000000e+00    0.000000000e+00    0.000000000e+00    0.000000000e+00
      975750000   -1.832326874e-03    1.466553804e-04    2.261273039e-05   -3.179925625e-05    0.000000000e+00    0.000000000e+00    0.000000000e+00    0.000000000e+00
      983000000   -5.279980833e-04    2.836503263e-04    6.942189430e-06   -3.343814387e-05    0.000000000e+00    0.000000000e+00    0.000000000e+00    0.000000000e+00
      990250000   -1.156950486e-03    4.134905466e-04   -6.583665254e-06    2.527134711e-06    0.000000000e+00    0.000000000e+00    0.000000000e+00    0.000000000e+00
      997500000   -1.214586315e-03    1.349718514e-04    6.101125473e-05   -1.048234390e-05    0.000000000e+00    0.000000000e+00    0.000000000e+00    0.000000000e+00
     1004750000   -1.620838419e-03    2.966419561e-04    2.431155372e-05    6.038684660e-05    0.000000000e+00    0.000000000e+00    0.000000000e+00    0.000000000e+00
     1012000000   -1.494935714e-03    1.663036091e-04   -4.256333705e-05   -3.669099897e-05    0.000000000e+00    0.000000000e+00    0.000000000e+00    0.000000000e+00
     1019250000   -1.856651856e-03    5.538469486e-05   -1.117232205e-05   -5.929347935e-06    0.000000000e+00    0.000000000e+00    0.000000000e+00    0.000000000e+00
     1026500000   -4.794893903e-04    4.836801963e-04   -2.266726005e-05    1.853783397e-05    0.000000000e+00    0.000000000e+00    0.000000000e+00    0.000000000e+00
     1033750000   -1.133805490e-03    1.370334357e-04   -2.788275924e-05    1.898287223e-06    0.000000000e+00    0.000000000e+00    0.000000000e+00    0.000000000e+00
     1041000000   -6.966370274e-04    1.709303324e-04    2.999250137e-05   -1.420296758e-05    0.000000000e+00    0.000000000e+00    0.000000000e+00    0.000000000e+00
