! NanoVNA-App by OneOfEleven et al v1.1.209 (+OD15) 
! Date: 2024-07-30 15:14:26
! Start: 200MHz Stop: 6GHz Points: 801
! S-Parameter data: F S11 S21 S12 S22
# Hz S RI R 50
!     Frequency           S11_Real           S11_Imag           S21_Real           S21_Imag           S12_Real           S12_Imag           S22_Real           S22_Imag
      200000000    1.267659973e-04   -4.901345819e-04    4.209792223e-06   -1.031390070e-06    0.000000000e+00    0.000000000e+00    0.000000000e+00    0.000000000e+00
      207250000   -1.152685611e-03    5.665415083e-04    7.389774964e-06    2.333833800e-05    0.000000000e+00    0.000000000e+00    0.000000000e+00    0.000000000e+00
      214500000   -1.611093176e-03    2.879357198e-04   -1.136959690e-05   -1.853861977e-05    0.000000000e+00    0.000000000e+00    0.000000000e+00    0.000000000e+00
      221750000   -8.156195399e-04    6.759645767e-04    7.101823030e-06    3.615303740e-06    0.000000000e+00    0.000000000e+00    0.000000000e+00    0.000000000e+00
      229000000   -1.055759727e-03    1.282548299e-03    9.399360351e-06    1.016151055e-05    0.000000000e+00    0.000000000e+00    0.000000000e+00    0.000000000e+00
      236250000   -4.387502267e-04   -9.193000151e-04   -6.820030194e-06   -1.258485554e-05    0.000000000e+00    0.000000000e+00    0.000000000e+00    0.000000000e+00
      243500000   -1.219101134e-03    1.503697829e-03   -1.629539111e-05   -8.311780221e-06    0.000000000e+00    0.000000000e+00    0.000000000e+00    0.000000000e+00
      250750000   -1.883523422e-03    5.529245245e-04   -3.187889524e-05    1.316658199e-05    0.000000000e+00    0.000000000e+00    0.000000000e+00    0.000000000e+00
      258000000   -1.092429273e-03    5.398812355e-04    9.731478485e-07    5.132560091e-06    0.000000000e+00    0.000000000e+00    0.000000000e+00    0.000000000e+00
      265250000   -3.460938169e-04   -5.363651144e-05    6.270429731e-05   -7.665328667e-06    0.000000000e+00    0.000000000e+00    0.000000000e+00    0.000000000e+00
      272500000   -2.988313790e-04   -1.003449317e-03    3.736093959e-06    2.866340037e-05    0.000000000e+00    0.000000000e+00    0.000000000e+00    0.000000000e+00
      279750000   -1.669825870e-03    1.230047084e-03    2.814402797e-05    3.456322520e-05    0.000000000e+00    0.000000000e+00    0.000000000e+00    0.000000000e+00
      287000000   -1.086494187e-03    3.744941787e-04   -3.861406731e-05   -1.224405787e-05    0.000000000e+00    0.000000000e+00    0.000000000e+00    0.000000000e+00
      294250000   -1.121781068e-03    6.866842741e-04    8.856249224e-06    1.935827822e-05    0.000000000e+00    0.000000000e+00    0.000000000e+00    0.000000000e+00
      301500000    2.946773602e-04   -7.342881872e-04   -2.688602399e-05   -3.769067553e-05    0.000000000e+00    0.000000000e+00    0.000000000e+00    0.000000000e+00
      308750000   -1.390510937e-03    6.941462052e-04    3.059276787e-05   -1.529052679e-05    0.000000000e+00    0.000000000e+00    0.000000000e+00    0.000000000e+00
      316000000   -8.114065859e-04    4.835890431e-04   -2.077960016e-05    3.410821955e-05    0.000000000e+00    0.000000000e+00    0.000000000e+00    0.000000000e+00
      323250000   -5.013091723e-04   -2.653360425e-04    1.799961638e-06    3.262448081e-05    0.000000000e+00    0.000000000e+00    0.000000000e+00    0.000000000e+00
      330500000   -1.007853891e-03    3.476736601e-04    2.802761628e-05    1.556217103e-05    0.000000000e+00    0.000000000e+00    0.000000000e+00    0.000000000e+00
      337750000   -6.028519711e-04    4.269847122e-04    1.241355312e-05   -1.055345638e-05    0.000000000e+00    0.000000000e+00    0.000000000e+00    0.000000000e+00
      345000000   -5.357459304e-04    4.764644109e-05   -2.252283412e-05    1.082206109e-05    0.000000000e+00    0.000000000e+00    0.000000000e+00    0.000000000e+00
      352250000   -8.569529746e-04    3.557242162e-04   -7.935658687e-06    1.786864777e-05    0.000000000e+00    0.000000000e+00    0.000000000e+00    0.000000000e+00
      359500000   -5.006385036e-04   -5.308350665e-04    4.067170812e-05    2.528062578e-05    0.000000000e+00    0.000000000e+00    0.000000000e+00    0.000000000e+00
      366750000   -5.321571371e-04   -2.844674746e-04   -2.087862640e-06   -2.363777821e-05    0.000000000e+00    0.000000000e+00    0.000000000e+00    0.000000000e+00
      374000000   -9.556001751e-04    7.410077524e-05   -2.214053893e-05   -2.824301737e-05    0.000000000e+00    0.000000000e+00    0.000000000e+00    0.000000000e+00
      381250000    4.094387114e-04   -2.658728627e-04   -1.609270657e-05   -7.465815725e-05    0.000000000e+00    0.000000000e+00    0.000000000e+00    0.000000000e+00
      388500000   -6.028308999e-04    1.149187665e-04   -1.764403532e-05   -3.508451528e-06    0.000000000e+00    0.000000000e+00    0.000000000e+00    0.000000000e+00
      395750000   -8.687083609e-04   -3.504062479e-04    1.875986891e-05    2.248253622e-05    0.000000000e+00    0.000000000e+00    0.000000000e+00    0.000000000e+00
      403000000   -1.247807988e-03   -1.105785268e-04   -4.363576863e-06   -9.107568530e-07    0.000000000e+00    0.000000000e+00    0.000000000e+00    0.000000000e+00
      410250000   -8.624811744e-05   -2.472035703e-04    1.401743975e-05    9.959012459e-06    0.000000000e+00    0.000000000e+00    0.000000000e+00    0.000000000e+00
      417500000   -7.335278206e-04   -6.372154457e-04   -1.882198376e-05    2.558643791e-05    0.000000000e+00    0.000000000e+00    0.000000000e+00    0.000000000e+00
      424750000    2.124362072e-04    3.383510339e-04    3.102820119e-05   -1.392455124e-05    0.000000000e+00    0.000000000e+00    0.000000000e+00    0.000000000e+00
      432000000   -1.073685242e-03    5.195568083e-04   -6.346843747e-06    6.956916877e-06    0.000000000e+00    0.000000000e+00    0.000000000e+00    0.000000000e+00
      439250000   -1.421959372e-03    1.034819215e-04    1.518992758e-05   -2.346408473e-05    0.000000000e+00    0.000000000e+00    0.000000000e+00    0.000000000e+00
      446500000   -3.817436809e-04    9.010567737e-05   -2.464907993e-05    4.325818736e-05    0.000000000e+00    0.000000000e+00    0.000000000e+00    0.000000000e+00
      453750000   -1.359382761e-03    9.696369489e-06    2.069725633e-05   -9.232334378e-06    0.000000000e+00    0.000000000e+00    0.000000000e+00    0.000000000e+00
      461000000   -5.872371257e-04    5.328375846e-04   -1.037151037e-06   -1.851491288e-05    0.000000000e+00    0.000000000e+00    0.000000000e+00    0.000000000e+00
      468250000   -6.705785636e-04   -1.916383626e-04    4.964498658e-05   -1.697530388e-05    0.000000000e+00    0.000000000e+00    0.000000000e+00    0.000000000e+00
      475500000   -1.064028591e-03    8.502526907e-04    7.379836461e-06   -2.205802502e-06    0.000000000e+00    0.000000000e+00    0.000000000e+00    0.000000000e+00
      482750000   -1.972993341e-04    7.988629513e-04   -1.803644773e-05   -1.656919994e-05    0.000000000e+00    0.000000000e+00    0.000000000e+00    0.000000000e+00
      490000000   -4.667325120e-04    6.013032980e-04    7.132468909e-07   -3.051017484e-05    0.000000000e+00    0.000000000e+00    0.000000000e+00    0.000000000e+00
      497250000    3.094245403e-05    6.032223464e-04    1.451215667e-06    4.402875857e-05    0.000000000e+00    0.000000000e+00    0.000000000e+00    0.000000000e+00
      504500000   -6.441400619e-04   -3.011133813e-04    2.552422666e-05   -1.021627395e-05    0.000000000e+00    0.000000000e+00    0.000000000e+00    0.000000000e+00
      511750000    1.433049765e-04   -3.622370423e-04    3.339580144e-05    9.804962247e-06    0.000000000e+00    0.000000000e+00    0.000000000e+00    0.000000000e+00
      519000000   -3.892483655e-04    1.255829193e-05    2.094539195e-05   -7.267925866e-06    0.000000000e+00    0.000000000e+00    0.000000000e+00    0.000000000e+00
      526250000   -8.948923205e-04    3.369495680e-04    6.190731710e-06    1.202128715e-05    0.000000000e+00    0.000000000e+00    0.000000000e+00    0.000000000e+00
      533500000   -3.749128664e-04   -2.353746459e-05    1.934077227e-05    8.989192793e-06    0.000000000e+00    0.000000000e+00    0.000000000e+00    0.000000000e+00
      540750000   -1.120306086e-03   -1.461415959e-04    1.963562136e-05   -3.516552533e-05    0.000000000e+00    0.000000000e+00    0.000000000e+00    0.000000000e+00
      548000000   -9.817705723e-04    4.016802704e-04    2.796001809e-06   -1.141704888e-05    0.000000000e+00    0.000000000e+00    0.000000000e+00    0.000000000e+00
      555250000   -5.617135903e-04   -1.396481530e-04    6.493189176e-06   -1.818789315e-05    0.000000000e+00    0.000000000e+00    0.000000000e+00    0.000000000e+00
      562500000   -9.187299875e-04    4.261425638e-04   -1.843211066e-05    4.075038669e-05    0.000000000e+00    0.000000000e+00    0.000000000e+00    0.000000000e+00
      569750000   -1.138402033e-03    4.240601265e-04   -2.047767703e-05    2.530263737e-05    0.000000000e+00    0.000000000e+00    0.000000000e+00    0.000000000e+00
      577000000   -1.534607261e-03    3.265504201e-04    2.014911115e-05    6.940410913e-07    0.000000000e+00    0.000000000e+00    0.000000000e+00    0.000000000e+00
      584250000   -9.677928174e-04   -3.602001743e-05   -6.699200640e-06    7.131906386e-06    0.000000000e+00    0.000000000e+00    0.000000000e+00    0.000000000e+00
      591500000   -4.871260899e-04    6.401728024e-04    6.462820693e-06    8.955802514e-06    0.000000000e+00    0.000000000e+00    0.000000000e+00    0.000000000e+00
      598750000   -7.791527896e-04   -1.030543717e-04    2.917468373e-05    1.902433178e-05    0.000000000e+00    0.000000000e+00    0.000000000e+00    0.000000000e+00
      606000000   -1.053893473e-03    4.378358426e-05    2.120114550e-05    2.515842061e-05    0.000000000e+00    0.000000000e+00    0.000000000e+00    0.000000000e+00
      613250000   -2.158697695e-03    1.611726329e-04    2.125143692e-05   -4.329814601e-06    0.000000000e+00    0.000000000e+00    0.000000000e+00    0.000000000e+00
      620500000   -8.700065082e-04    3.610772546e-04   -7.541330433e-06   -3.481664316e-05    0.000000000e+00    0.000000000e+00    0.000000000e+00    0.000000000e+00
      627750000   -6.618967163e-04    2.173293760e-04   -6.595944797e-06   -1.839542347e-05    0.000000000e+00    0.000000000e+00    0.000000000e+00    0.000000000e+00
      635000000   -3.678590001e-04    2.214253909e-04    3.137699969e-05    1.686120186e-06    0.000000000e+00    0.000000000e+00    0.000000000e+00    0.000000000e+00
      642250000   -1.012536464e-03   -1.468427490e-05   -2.515195047e-05   -7.002613074e-06    0.000000000e+00    0.000000000e+00    0.000000000e+00    0.000000000e+00
      649500000   -2.418896183e-04   -2.106487082e-04    1.626613448e-05   -2.623767614e-06    0.000000000e+00    0.000000000e+00    0.000000000e+00    0.000000000e+00
      656750000   -8.206825005e-04   -6.493084220e-05    5.532095020e-05    2.609514377e-05    0.000000000e+00    0.000000000e+00    0.000000000e+00    0.000000000e+00
      664000000   -7.788318908e-04   -1.481416402e-04   -1.555810923e-05    1.356481880e-05    0.000000000e+00    0.000000000e+00    0.000000000e+00    0.000000000e+00
      671250000   -3.448510834e-04   -7.779034786e-05    1.411936955e-05   -1.849165710e-05    0.000000000e+00    0.000000000e+00    0.000000000e+00    0.000000000e+00
      678500000   -8.189409855e-04   -1.684624585e-04   -4.188461753e-05   -1.685207826e-05    0.000000000e+00    0.000000000e+00    0.000000000e+00    0.000000000e+00
      685750000   -7.469292614e-04    1.317959395e-04   -2.227241566e-05    1.705945760e-05    0.000000000e+00    0.000000000e+00    0.000000000e+00    0.000000000e+00
      693000000   -1.042980584e-03   -2.086672903e-04    2.324496563e-05   -1.263751710e-05    0.000000000e+00    0.000000000e+00    0.000000000e+00    0.000000000e+00
      700250000   -8.442500257e-04   -1.454181911e-04   -1.197582389e-08    4.835825894e-05    0.000000000e+00    0.000000000e+00    0.000000000e+00    0.000000000e+00
      707500000   -3.682854876e-04    5.118540721e-04   -3.581727697e-06    4.251197936e-07    0.000000000e+00    0.000000000e+00    0.000000000e+00    0.000000000e+00
      714750000   -6.892184610e-04    1.306577178e-04    2.351365947e-05   -6.145294265e-06    0.000000000e+00    0.000000000e+00    0.000000000e+00    0.000000000e+00
      722000000   -1.384402160e-03    2.953326621e-04   -2.654057425e-05    2.330051939e-05    0.000000000e+00    0.000000000e+00    0.000000000e+00    0.000000000e+00
      729250000    7.475943858e-05    1.384262141e-04    7.248984275e-06    4.842769613e-06    0.000000000e+00    0.000000000e+00    0.000000000e+00    0.000000000e+00
      736500000   -1.013446366e-03    3.225166074e-05    1.376288992e-06    2.637628677e-05    0.000000000e+00    0.000000000e+00    0.000000000e+00    0.000000000e+00
      743750000   -6.780449767e-04   -4.102400562e-04   -2.637255420e-06    1.649887599e-05    0.000000000e+00    0.000000000e+00    0.000000000e+00    0.000000000e+00
      751000000   -4.885741509e-04    4.980767262e-04    3.480050145e-05   -9.533076991e-06    0.000000000e+00    0.000000000e+00    0.000000000e+00    0.000000000e+00
      758250000   -9.710380109e-04    3.766055670e-05    8.383093700e-06   -1.350323964e-05    0.000000000e+00    0.000000000e+00    0.000000000e+00    0.000000000e+00
      765500000    1.230567432e-04   -2.728994004e-04   -4.066952897e-06   -2.201717325e-05    0.000000000e+00    0.000000000e+00    0.000000000e+00    0.000000000e+00
      772750000   -1.494437805e-03    7.516246114e-06   -5.090173545e-06   -3.849800578e-06    0.000000000e+00    0.000000000e+00    0.000000000e+00    0.000000000e+00
      780000000   -8.123826119e-04    6.327832234e-04   -2.217391557e-05   -9.096900612e-06    0.000000000e+00    0.000000000e+00    0.000000000e+00    0.000000000e+00
      787250000   -9.954167763e-04    1.157230290e-04    1.270869689e-05    2.040918116e-05    0.000000000e+00    0.000000000e+00    0.000000000e+00    0.000000000e+00
      794500000   -1.046719495e-03    6.882423622e-05    2.060926079e-07    2.763711791e-06    0.000000000e+00    0.000000000e+00    0.000000000e+00    0.000000000e+00
      801750000   -1.216160133e-03   -2.110333444e-04   -2.655039862e-05   -1.980744491e-05    0.000000000e+00    0.000000000e+00    0.000000000e+00    0.000000000e+00
      809000000   -6.293958868e-04    1.732646924e-04    7.984232070e-06    4.071733565e-05    0.000000000e+00    0.000000000e+00    0.000000000e+00    0.000000000e+00
      816250000   -2.093759686e-04    9.039969154e-05   -1.225635970e-05   -4.497907412e-06    0.000000000e+00    0.000000000e+00    0.000000000e+00    0.000000000e+00
      823500000   -1.129109878e-03    1.174515273e-04    3.970504167e-06   -8.064061063e-08    0.000000000e+00    0.000000000e+00    0.000000000e+00    0.000000000e+00
      830750000   -4.853659775e-04    2.141855803e-04   -6.127684173e-05    2.008106094e-05    0.000000000e+00    0.000000000e+00    0.000000000e+00    0.000000000e+00
      838000000   -5.372639280e-04    2.080066479e-04    6.660301096e-06    2.254746505e-05    0.000000000e+00    0.000000000e+00    0.000000000e+00    0.000000000e+00
      845250000   -2.394334297e-04   -9.489001968e-05    1.863047601e-06   -3.575528171e-05    0.000000000e+00    0.000000000e+00    0.000000000e+00    0.000000000e+00
      852500000   -6.313850172e-04    1.235063428e-05    2.418358008e-06   -3.493294571e-05    0.000000000e+00    0.000000000e+00    0.000000000e+00    0.000000000e+00
      859750000   -3.564779547e-07   -1.239238190e-04    5.837087883e-05    2.974719609e-05    0.000000000e+00    0.000000000e+00    0.000000000e+00    0.000000000e+00
      867000000   -3.347717211e-05   -1.391607952e-06    2.816142114e-06    1.576711657e-05    0.000000000e+00    0.000000000e+00    0.000000000e+00    0.000000000e+00
      874250000   -4.050119605e-04    1.933094609e-04   -1.080532184e-05   -1.935205728e-05    0.000000000e+00    0.000000000e+00    0.000000000e+00    0.000000000e+00
      881500000   -5.177835701e-04    1.026669925e-04    3.440411456e-05   -1.659741611e-05    0.000000000e+00    0.000000000e+00    0.000000000e+00    0.000000000e+00
      888750000   -1.679749985e-04   -1.757934456e-06   -2.591052726e-05   -8.746229469e-06    0.000000000e+00    0.000000000e+00    0.000000000e+00    0.000000000e+00
      896000000   -2.044419962e-04    1.764066983e-04   -4.129275840e-05    2.483330172e-05    0.000000000e+00    0.000000000e+00    0.000000000e+00    0.000000000e+00
      903250000    5.321594654e-05    1.658490946e-04   -2.727275205e-05    5.134149433e-06    0.000000000e+00    0.000000000e+00    0.000000000e+00    0.000000000e+00
      910500000    1.776775462e-04    5.681255716e-04    4.127023567e-05    2.645397763e-05    0.000000000e+00    0.000000000e+00    0.000000000e+00    0.000000000e+00
      917750000   -8.288025856e-04    4.798409936e-04   -2.860320092e-05   -1.081872506e-05    0.000000000e+00    0.000000000e+00    0.000000000e+00    0.000000000e+00
      925000000   -1.464934321e-04   -2.295712038e-04   -1.375209195e-05    7.573624771e-06    0.000000000e+00    0.000000000e+00    0.000000000e+00    0.000000000e+00
      932250000   -9.671636508e-04   -1.526998385e-04   -1.286587394e-05    4.514040938e-06    0.000000000e+00    0.000000000e+00    0.000000000e+00    0.000000000e+00
      939500000    1.416315499e-04   -1.369023084e-04    2.951634087e-05   -3.965128417e-05    0.000000000e+00    0.000000000e+00    0.000000000e+00    0.000000000e+00
      946750000   -3.904677578e-04    3.368168545e-04   -8.759085176e-06   -8.923088899e-06    0.000000000e+00    0.000000000e+00    0.000000000e+00    0.000000000e+00
      954000000   -1.181301661e-03   -3.686926211e-04   -3.642255979e-05   -1.453923687e-05    0.000000000e+00    0.000000000e+00    0.000000000e+00    0.000000000e+00
      961250000   -9.754414205e-04   -3.130724363e-04   -4.167482984e-06   -1.263346894e-05    0.000000000e+00    0.000000000e+00    0.000000000e+00    0.000000000e+00
      968500000   -1.575626316e-03   -1.375716529e-04    1.554365190e-05    4.434302900e-05    0.000000000e+00    0.000000000e+00    0.000000000e+00    0.000000000e+00
      975750000   -6.860848516e-04   -4.354057819e-05   -9.863470950e-06   -4.539560905e-05    0.000000000e+00    0.000000000e+00    0.000000000e+00    0.000000000e+00
      983000000   -7.995739579e-04    4.955503391e-04    2.584458571e-06    2.647290785e-05    0.000000000e+00    0.000000000e+00    0.000000000e+00    0.000000000e+00
      990250000   -8.496606024e-04    2.158280404e-04    2.629684059e-05   -1.523036553e-05    0.000000000e+00    0.000000000e+00    0.000000000e+00    0.000000000e+00
      997500000   -9.822207503e-04   -5.295278243e-05    1.616598274e-05   -1.039513677e-06    0.000000000e+00    0.000000000e+00    0.000000000e+00    0.000000000e+00
     1004750000   -1.242530183e-03    1.308924548e-04    1.817956945e-05    3.648567144e-05    0.000000000e+00    0.000000000e+00    0.000000000e+00    0.000000000e+00
     1012000000   -3.401110880e-04    1.991364697e-04   -8.207017345e-06    2.379574426e-06    0.000000000e+00    0.000000000e+00    0.000000000e+00    0.000000000e+00
     1019250000   -1.037037116e-03   -3.241110244e-05    2.767155092e-05   -2.636029194e-06    0.000000000e+00    0.000000000e+00    0.000000000e+00    0.000000000e+00
     1026500000   -1.566471299e-03   -6.226152618e-05   -1.394013998e-05   -1.177305148e-05    0.000000000e+00    0.000000000e+00    0.000000000e+00    0.000000000e+00
     1033750000   -1.441479311e-03   -1.375530428e-05   -1.209402762e-05    2.302999383e-05    0.000000000e+00    0.000000000e+00    0.000000000e+00    0.000000000e+00
     1041000000   -1.801087987e-03   -6.399130216e-04    4.543372415e-05   -2.792974192e-05    0.000000000e+00    0.000000000e+00    0.000000000e+00    0.000000000e+00
