! NanoVNA-App by OneOfEleven et al v1.1.209 (+OD15) 
! Date: 2024-07-30 15:15:31
! Start: 200MHz Stop: 6GHz Points: 801
! S-Parameter data: F S11 S21 S12 S22
# Hz S RI R 50
!     Frequency           S11_Real           S11_Imag           S21_Real           S21_Imag           S12_Real           S12_Imag           S22_Real           S22_Imag
      200000000   -2.600515145e-04   -1.065862234e-04    4.017658739e-06    2.690623114e-05    0.000000000e+00    0.000000000e+00    0.000000000e+00    0.000000000e+00
      207250000   -1.149752876e-03   -2.640673774e-04   -9.382629287e-06   -3.696351632e-05    0.000000000e+00    0.000000000e+00    0.000000000e+00    0.000000000e+00
      214500000   -1.316417824e-03   -3.817977995e-05    2.281284424e-07    7.248221209e-06    0.000000000e+00    0.000000000e+00    0.000000000e+00    0.000000000e+00
      221750000   -1.063734293e-03   -7.608296000e-04   -1.244421583e-05    4.825183714e-05    0.000000000e+00    0.000000000e+00    0.000000000e+00    0.000000000e+00
      229000000   -1.000198186e-03    1.153676421e-03   -5.886422514e-06   -1.285512462e-05    0.000000000e+00    0.000000000e+00    0.000000000e+00    0.000000000e+00
      236250000   -1.939773676e-03   -5.452714395e-04   -5.194229743e-06    2.968179433e-05    0.000000000e+00    0.000000000e+00    0.000000000e+00    0.000000000e+00
      243500000   -6.755700451e-04    1.208514150e-04   -5.355036774e-05    1.766652895e-05    0.000000000e+00    0.000000000e+00    0.000000000e+00    0.000000000e+00
      250750000   -1.132104779e-03    8.738079923e-04    2.000557060e-06   -9.884887731e-06    0.000000000e+00    0.000000000e+00    0.000000000e+00    0.000000000e+00
      258000000   -1.309177605e-03   -2.444184793e-04   -2.421595127e-06   -4.030789114e-06    0.000000000e+00    0.000000000e+00    0.000000000e+00    0.000000000e+00
      265250000   -1.245878520e-03    6.665416877e-04    2.011395190e-05   -6.368340564e-06    0.000000000e+00    0.000000000e+00    0.000000000e+00    0.000000000e+00
      272500000   -3.898749419e-04    8.950733463e-04   -1.779393074e-06   -3.057797221e-05    0.000000000e+00    0.000000000e+00    0.000000000e+00    0.000000000e+00
      279750000   -8.866123389e-04    1.005371567e-03    5.589257398e-06   -7.477840882e-06    0.000000000e+00    0.000000000e+00    0.000000000e+00    0.000000000e+00
      287000000   -1.076762681e-03   -2.839117042e-05    2.932737743e-06   -3.634907989e-05    0.000000000e+00    0.000000000e+00    0.000000000e+00    0.000000000e+00
      294250000   -6.451965892e-04   -1.079153008e-04   -2.903470340e-05   -1.752558092e-05    0.000000000e+00    0.000000000e+00    0.000000000e+00    0.000000000e+00
      301500000   -1.693274244e-03   -5.218871520e-04   -6.868880519e-06   -3.223387466e-05    0.000000000e+00    0.000000000e+00    0.000000000e+00    0.000000000e+00
      308750000   -1.466102898e-03    2.565766335e-04    1.811034599e-05    3.291105895e-05    0.000000000e+00    0.000000000e+00    0.000000000e+00    0.000000000e+00
      316000000   -8.761404897e-04    4.302610760e-04   -3.251366707e-06    2.304960844e-06    0.000000000e+00    0.000000000e+00    0.000000000e+00    0.000000000e+00
      323250000   -8.593559614e-04    2.886394504e-04    8.464666479e-08   -2.306778015e-06    0.000000000e+00    0.000000000e+00    0.000000000e+00    0.000000000e+00
      330500000   -8.713623974e-04    4.972344614e-04    2.623084811e-06   -1.688507655e-05    0.000000000e+00    0.000000000e+00    0.000000000e+00    0.000000000e+00
      337750000   -1.989851473e-03   -4.037377585e-05    1.735918886e-06    7.985215234e-06    0.000000000e+00    0.000000000e+00    0.000000000e+00    0.000000000e+00
      345000000   -2.238917477e-05   -6.919319276e-04   -1.633514694e-05   -1.347067700e-05    0.000000000e+00    0.000000000e+00    0.000000000e+00    0.000000000e+00
      352250000   -9.331668261e-04   -3.008752537e-04   -2.407205466e-05   -1.856769086e-05    0.000000000e+00    0.000000000e+00    0.000000000e+00    0.000000000e+00
      359500000   -7.240589475e-04    2.045326837e-04    1.330399300e-05   -2.495559784e-05    0.000000000e+00    0.000000000e+00    0.000000000e+00    0.000000000e+00
      366750000   -8.616506821e-04    3.774455981e-04   -1.146817885e-05   -3.646963478e-06    0.000000000e+00    0.000000000e+00    0.000000000e+00    0.000000000e+00
      374000000   -1.260290039e-03   -3.455336264e-04    3.685129059e-06    1.447610157e-05    0.000000000e+00    0.000000000e+00    0.000000000e+00    0.000000000e+00
      381250000    1.249161869e-04    5.007776199e-04   -1.361778413e-05   -3.113176717e-05    0.000000000e+00    0.000000000e+00    0.000000000e+00    0.000000000e+00
      388500000   -6.842749426e-04   -2.821214730e-04    3.076348730e-05    3.815685341e-05    0.000000000e+00    0.000000000e+00    0.000000000e+00    0.000000000e+00
      395750000   -1.149520045e-03   -7.468724652e-05    1.614860594e-06    9.407983271e-06    0.000000000e+00    0.000000000e+00    0.000000000e+00    0.000000000e+00
      403000000   -6.373300566e-04    6.504544581e-05    5.658233476e-06    1.254040035e-05    0.000000000e+00    0.000000000e+00    0.000000000e+00    0.000000000e+00
      410250000   -1.012297813e-03    6.573923747e-05   -7.404880307e-06    3.933646440e-06    0.000000000e+00    0.000000000e+00    0.000000000e+00    0.000000000e+00
      417500000   -1.320851152e-03   -9.096525173e-05   -2.258316954e-06   -1.189370232e-05    0.000000000e+00    0.000000000e+00    0.000000000e+00    0.000000000e+00
      424750000   -7.819897146e-04    1.274547249e-04    9.862084880e-06    1.928605343e-05    0.000000000e+00    0.000000000e+00    0.000000000e+00    0.000000000e+00
      432000000   -6.581119960e-04    4.248991900e-04   -5.665815024e-06    2.494005093e-05    0.000000000e+00    0.000000000e+00    0.000000000e+00    0.000000000e+00
      439250000   -1.245136140e-03   -1.479701041e-05    2.503463293e-05    4.559148510e-05    0.000000000e+00    0.000000000e+00    0.000000000e+00    0.000000000e+00
      446500000   -7.038412732e-04    6.066380301e-04   -3.511460454e-05   -9.131098523e-06    0.000000000e+00    0.000000000e+00    0.000000000e+00    0.000000000e+00
      453750000   -1.018551411e-03    2.517277899e-04    3.111838623e-06    1.896754293e-05    0.000000000e+00    0.000000000e+00    0.000000000e+00    0.000000000e+00
      461000000   -1.009184751e-03   -1.116695421e-04    2.463979945e-05   -1.100102872e-05    0.000000000e+00    0.000000000e+00    0.000000000e+00    0.000000000e+00
      468250000   -1.043660915e-03   -1.905773388e-05   -2.335893441e-06    2.907205453e-05    0.000000000e+00    0.000000000e+00    0.000000000e+00    0.000000000e+00
      475500000   -1.104197581e-03    6.327425363e-04   -8.991943105e-06   -8.806196092e-07    0.000000000e+00    0.000000000e+00    0.000000000e+00    0.000000000e+00
      482750000   -5.490224576e-04    6.562247872e-04   -2.363183739e-05   -4.716197509e-06    0.000000000e+00    0.000000000e+00    0.000000000e+00    0.000000000e+00
      490000000   -2.932109346e-04   -1.261732978e-04   -3.434843529e-05    2.678700730e-05    0.000000000e+00    0.000000000e+00    0.000000000e+00    0.000000000e+00
      497250000   -3.149575205e-04   -2.213845873e-04    1.204128148e-05   -2.044562279e-05    0.000000000e+00    0.000000000e+00    0.000000000e+00    0.000000000e+00
      504500000   -5.633808905e-04    1.601319382e-04   -1.585514292e-05   -1.825720915e-06    0.000000000e+00    0.000000000e+00    0.000000000e+00    0.000000000e+00
      511750000   -4.957457422e-04   -4.691770300e-04    2.126257641e-05    2.058284508e-06    0.000000000e+00    0.000000000e+00    0.000000000e+00    0.000000000e+00
      519000000   -9.080818854e-04    5.973104271e-04   -1.512734980e-05   -1.519080524e-05    0.000000000e+00    0.000000000e+00    0.000000000e+00    0.000000000e+00
      526250000   -5.923283752e-04    4.032887591e-05   -8.023687769e-06    3.993123028e-05    0.000000000e+00    0.000000000e+00    0.000000000e+00    0.000000000e+00
      533500000   -6.438266719e-04    2.092448849e-04    1.198810696e-05   -1.030141630e-05    0.000000000e+00    0.000000000e+00    0.000000000e+00    0.000000000e+00
      540750000   -9.237729828e-04    3.280266246e-04   -9.726932149e-06   -6.624707112e-06    0.000000000e+00    0.000000000e+00    0.000000000e+00    0.000000000e+00
      548000000   -8.966132300e-04    8.134227392e-05    1.845644692e-05    1.395407526e-05    0.000000000e+00    0.000000000e+00    0.000000000e+00    0.000000000e+00
      555250000   -4.131043970e-04    6.266537239e-04   -2.016894541e-05    2.978775228e-06    0.000000000e+00    0.000000000e+00    0.000000000e+00    0.000000000e+00
      562500000   -1.039650291e-03    2.656355791e-04   -3.900638330e-05    1.904196142e-05    0.000000000e+00    0.000000000e+00    0.000000000e+00    0.000000000e+00
      569750000   -1.093920786e-03    4.395694996e-04    3.911602835e-05    5.426132338e-05    0.000000000e+00    0.000000000e+00    0.000000000e+00    0.000000000e+00
      577000000   -9.533335106e-04    9.202367073e-05   -1.739636173e-05   -1.118123510e-05    0.000000000e+00    0.000000000e+00    0.000000000e+00    0.000000000e+00
      584250000   -1.015960821e-03    1.789953239e-04   -3.912497561e-07   -1.525577682e-05    0.000000000e+00    0.000000000e+00    0.000000000e+00    0.000000000e+00
      591500000   -5.335618625e-04    5.698814130e-05   -2.314289668e-05   -1.012746998e-05    0.000000000e+00    0.000000000e+00    0.000000000e+00    0.000000000e+00
      598750000   -4.523989337e-04    4.017130777e-06   -1.687595250e-05    4.120269296e-05    0.000000000e+00    0.000000000e+00    0.000000000e+00    0.000000000e+00
      606000000   -7.214429788e-04    1.633684296e-04    2.201709140e-05    6.053932157e-05    0.000000000e+00    0.000000000e+00    0.000000000e+00    0.000000000e+00
      613250000   -1.871511224e-03    4.145915736e-04    1.229598183e-05    2.099470294e-05    0.000000000e+00    0.000000000e+00    0.000000000e+00    0.000000000e+00
      620500000    5.342073928e-05    2.520888229e-04   -2.905000110e-05    1.647928730e-05    0.000000000e+00    0.000000000e+00    0.000000000e+00    0.000000000e+00
      627750000   -9.770019678e-04   -2.136121038e-04    3.404471499e-05   -3.804062726e-05    0.000000000e+00    0.000000000e+00    0.000000000e+00    0.000000000e+00
      635000000   -9.855488315e-04    3.043476900e-04   -2.444598613e-05   -9.877602679e-06    0.000000000e+00    0.000000000e+00    0.000000000e+00    0.000000000e+00
      642250000   -5.957747926e-04    2.204974880e-04   -2.712730202e-05   -8.036384315e-06    0.000000000e+00    0.000000000e+00    0.000000000e+00    0.000000000e+00
      649500000   -1.489358139e-03    6.801550044e-04   -4.019885637e-06   -5.514275927e-06    0.000000000e+00    0.000000000e+00    0.000000000e+00    0.000000000e+00
      656750000   -1.004331862e-03    1.292618545e-04   -3.458153151e-05    3.041239324e-06    0.000000000e+00    0.000000000e+00    0.000000000e+00    0.000000000e+00
      664000000   -1.262435457e-03    3.973535204e-04   -1.092486218e-05   -1.671168138e-05    0.000000000e+00    0.000000000e+00    0.000000000e+00    0.000000000e+00
      671250000   -7.923686644e-04   -3.503286280e-04    6.313039194e-06   -3.894075780e-05    0.000000000e+00    0.000000000e+00    0.000000000e+00    0.000000000e+00
      678500000   -1.358835259e-03    1.406618394e-04    2.453305206e-05   -3.280706369e-05    0.000000000e+00    0.000000000e+00    0.000000000e+00    0.000000000e+00
      685750000   -1.152084093e-03    1.113066901e-04   -1.154512120e-05    2.238244633e-06    0.000000000e+00    0.000000000e+00    0.000000000e+00    0.000000000e+00
      693000000   -1.001534984e-03    7.813727279e-05   -5.193883226e-06   -3.022102101e-05    0.000000000e+00    0.000000000e+00    0.000000000e+00    0.000000000e+00
      700250000   -9.477111162e-04    3.411556827e-04    2.321853572e-05    3.799074329e-05    0.000000000e+00    0.000000000e+00    0.000000000e+00    0.000000000e+00
      707500000   -1.334136468e-03   -1.421550696e-04   -1.981435162e-05   -2.897757258e-05    0.000000000e+00    0.000000000e+00    0.000000000e+00    0.000000000e+00
      714750000   -8.147380431e-04   -4.439725308e-04    3.711007230e-05    3.053220325e-06    0.000000000e+00    0.000000000e+00    0.000000000e+00    0.000000000e+00
      722000000    2.132590816e-05    3.530961694e-04    2.961744940e-05    3.265685518e-05    0.000000000e+00    0.000000000e+00    0.000000000e+00    0.000000000e+00
      729250000   -1.240584184e-03    3.764416761e-05   -2.648495138e-05   -2.621588646e-05    0.000000000e+00    0.000000000e+00    0.000000000e+00    0.000000000e+00
      736500000   -1.092431601e-03    1.135926577e-04    1.792087096e-05   -1.004349906e-05    0.000000000e+00    0.000000000e+00    0.000000000e+00    0.000000000e+00
      743750000   -1.202131971e-03    2.407838474e-04   -9.208560186e-06    2.575620965e-05    0.000000000e+00    0.000000000e+00    0.000000000e+00    0.000000000e+00
      751000000   -6.853964878e-04    2.125903702e-04    2.596312697e-05    4.963754691e-06    0.000000000e+00    0.000000000e+00    0.000000000e+00    0.000000000e+00
      758250000   -1.357453992e-03    2.028473973e-04    3.348721657e-05   -4.702087608e-05    0.000000000e+00    0.000000000e+00    0.000000000e+00    0.000000000e+00
      765500000   -1.134676510e-03   -2.353725176e-05    4.976287983e-06    9.626793144e-06    0.000000000e+00    0.000000000e+00    0.000000000e+00    0.000000000e+00
      772750000   -8.462627884e-04    4.087860725e-05    5.126204633e-05   -6.430447684e-05    0.000000000e+00    0.000000000e+00    0.000000000e+00    0.000000000e+00
      780000000   -8.441059617e-04    3.831476497e-04    6.051831861e-06   -4.927864939e-05    0.000000000e+00    0.000000000e+00    0.000000000e+00    0.000000000e+00
      787250000   -1.232060022e-03    1.072374434e-04   -1.634630462e-05   -3.861012829e-06    0.000000000e+00    0.000000000e+00    0.000000000e+00    0.000000000e+00
      794500000   -6.419062265e-04   -4.308243806e-04    3.794828672e-06    2.789740211e-05    0.000000000e+00    0.000000000e+00    0.000000000e+00    0.000000000e+00
      801750000   -1.657877234e-03   -1.703922171e-04    3.319785901e-05   -1.073282147e-05    0.000000000e+00    0.000000000e+00    0.000000000e+00    0.000000000e+00
      809000000   -8.617537096e-04    2.823576797e-04    3.130920959e-05    4.092475137e-05    0.000000000e+00    0.000000000e+00    0.000000000e+00    0.000000000e+00
      816250000   -1.006632927e-03    2.220471797e-04   -4.635331152e-06   -2.240077634e-07    0.000000000e+00    0.000000000e+00    0.000000000e+00    0.000000000e+00
      823500000   -4.079954524e-04    1.457407197e-04    5.158317435e-05   -1.725304901e-05    0.000000000e+00    0.000000000e+00    0.000000000e+00    0.000000000e+00
      830750000   -4.582302645e-04    5.806435365e-04   -2.641569154e-05    4.802085459e-05    0.000000000e+00    0.000000000e+00    0.000000000e+00    0.000000000e+00
      838000000   -5.688205711e-04    3.720437962e-05    2.641112769e-05    5.390219940e-06    0.000000000e+00    0.000000000e+00    0.000000000e+00    0.000000000e+00
      845250000   -1.021897420e-03    4.694223753e-04    4.673858712e-06    4.638101927e-06    0.000000000e+00    0.000000000e+00    0.000000000e+00    0.000000000e+00
      852500000   -1.337638241e-03    3.694651241e-04   -1.757522841e-05   -1.749590592e-05    0.000000000e+00    0.000000000e+00    0.000000000e+00    0.000000000e+00
      859750000   -7.854378782e-04   -3.715209459e-05   -1.266540585e-05    1.728301868e-05    0.000000000e+00    0.000000000e+00    0.000000000e+00    0.000000000e+00
      867000000   -6.673798198e-04    1.291318185e-04    1.431286137e-06    2.535792009e-05    0.000000000e+00    0.000000000e+00    0.000000000e+00    0.000000000e+00
      874250000   -3.791320487e-04    2.159698633e-04   -3.769079558e-05   -4.552798055e-05    0.000000000e+00    0.000000000e+00    0.000000000e+00    0.000000000e+00
      881500000   -1.196542638e-03    2.830511366e-04   -1.087623878e-05   -1.518205590e-05    0.000000000e+00    0.000000000e+00    0.000000000e+00    0.000000000e+00
      888750000   -1.284849714e-03    5.322900251e-04   -2.865962233e-05   -2.887300252e-05    0.000000000e+00    0.000000000e+00    0.000000000e+00    0.000000000e+00
      896000000   -4.517778289e-04    8.606850315e-05    1.005700506e-05    6.979462341e-06    0.000000000e+00    0.000000000e+00    0.000000000e+00    0.000000000e+00
      903250000   -4.380483588e-04    3.729903256e-04    4.280000576e-05   -2.221020395e-06    0.000000000e+00    0.000000000e+00    0.000000000e+00    0.000000000e+00
      910500000   -9.674485191e-04   -2.035418038e-05   -5.544596661e-06    1.173744181e-06    0.000000000e+00    0.000000000e+00    0.000000000e+00    0.000000000e+00
      917750000   -1.024028868e-03    4.513863241e-04    4.341869044e-06    3.136203304e-05    0.000000000e+00    0.000000000e+00    0.000000000e+00    0.000000000e+00
      925000000   -6.362585700e-04    5.827139103e-05   -2.523898002e-05   -1.901503856e-05    0.000000000e+00    0.000000000e+00    0.000000000e+00    0.000000000e+00
      932250000   -8.716281154e-04    1.208412505e-04    3.419258792e-05    3.362683401e-06    0.000000000e+00    0.000000000e+00    0.000000000e+00    0.000000000e+00
      939500000   -8.083496359e-04    2.474420471e-04    3.189060953e-05    3.076836492e-06    0.000000000e+00    0.000000000e+00    0.000000000e+00    0.000000000e+00
      946750000   -4.608925665e-04    5.918898387e-04   -8.624962902e-06   -1.105117099e-05    0.000000000e+00    0.000000000e+00    0.000000000e+00    0.000000000e+00
      954000000   -3.194166929e-04   -5.823119427e-04   -5.112727013e-05   -2.817886707e-05    0.000000000e+00    0.000000000e+00    0.000000000e+00    0.000000000e+00
      961250000   -1.442407491e-03   -8.994026575e-05    4.065577286e-06   -2.314705671e-05    0.000000000e+00    0.000000000e+00    0.000000000e+00    0.000000000e+00
      968500000   -1.352060935e-03    6.425930223e-06    1.274777242e-05    2.434008638e-05    0.000000000e+00    0.000000000e+00    0.000000000e+00    0.000000000e+00
      975750000   -1.864159014e-03   -7.099445065e-05    2.716321433e-05   -1.671875566e-06    0.000000000e+00    0.000000000e+00    0.000000000e+00    0.000000000e+00
      983000000   -6.090849638e-04    4.797921865e-04   -4.524715041e-05   -4.939612950e-07    0.000000000e+00    0.000000000e+00    0.000000000e+00    0.000000000e+00
      990250000   -1.823557541e-03    1.345497731e-04   -1.529429574e-05   -1.956952474e-05    0.000000000e+00    0.000000000e+00    0.000000000e+00    0.000000000e+00
      997500000   -1.457751030e-03    6.848839257e-05   -6.829461199e-06   -1.599658572e-05    0.000000000e+00    0.000000000e+00    0.000000000e+00    0.000000000e+00
     1004750000   -1.421223627e-03    2.204125194e-04    8.320481356e-06    1.403365513e-05    0.000000000e+00    0.000000000e+00    0.000000000e+00    0.000000000e+00
     1012000000   -1.719277585e-03    3.716378997e-04   -4.434149014e-05   -1.403363513e-05    0.000000000e+00    0.000000000e+00    0.000000000e+00    0.000000000e+00
     1019250000   -1.023814082e-03    1.313040411e-04   -3.319289362e-06   -2.381643208e-05    0.000000000e+00    0.000000000e+00    0.000000000e+00    0.000000000e+00
     1026500000   -9.058866999e-04   -1.331903331e-04    3.966647000e-06    1.505163436e-05    0.000000000e+00    0.000000000e+00    0.000000000e+00    0.000000000e+00
     1033750000   -7.122323732e-04    6.838684931e-05    1.780809271e-06    5.261274964e-06    0.000000000e+00    0.000000000e+00    0.000000000e+00    0.000000000e+00
     1041000000   -1.486336230e-03   -1.693737431e-05   -8.845381672e-06   -1.570503628e-05    0.000000000e+00    0.000000000e+00    0.000000000e+00    0.000000000e+00
