! NanoVNA-App by OneOfEleven et al v1.1.209 (+OD15) 
! Date: 2024-07-30 15:15:25
! Start: 200MHz Stop: 6GHz Points: 801
! S-Parameter data: F S11 S21 S12 S22
# Hz S RI R 50
!     Frequency           S11_Real           S11_Imag           S21_Real           S21_Imag           S12_Real           S12_Imag           S22_Real           S22_Imag
      200000000   -5.672980333e-04    1.843121834e-03    2.735506496e-05   -2.104234773e-05    0.000000000e+00    0.000000000e+00    0.000000000e+00    0.000000000e+00
      207250000   -1.037686132e-03    4.972531460e-04    4.574309514e-06    4.693356914e-06    0.000000000e+00    0.000000000e+00    0.000000000e+00    0.000000000e+00
      214500000   -1.225211076e-03   -5.695350774e-05   -1.553478069e-05    2.052706986e-05    0.000000000e+00    0.000000000e+00    0.000000000e+00    0.000000000e+00
      221750000   -2.099668141e-03    7.417689776e-04    1.869371408e-05    6.341616972e-05    0.000000000e+00    0.000000000e+00    0.000000000e+00    0.000000000e+00
      229000000   -1.210325863e-03   -2.769664861e-04    3.791903055e-06    3.325360376e-05    0.000000000e+00    0.000000000e+00    0.000000000e+00    0.000000000e+00
      236250000   -2.013579651e-04   -8.467844455e-04   -1.029106443e-05   -6.864762327e-06    0.000000000e+00    0.000000000e+00    0.000000000e+00    0.000000000e+00
      243500000   -1.024674275e-03    1.616174937e-03    5.995809715e-06    2.509215483e-05    0.000000000e+00    0.000000000e+00    0.000000000e+00    0.000000000e+00
      250750000   -1.423764043e-03    1.037537702e-03   -8.715544027e-06    1.609387436e-05    0.000000000e+00    0.000000000e+00    0.000000000e+00    0.000000000e+00
      258000000   -9.745033458e-04    8.176986594e-04   -1.044791588e-05   -2.837760439e-05    0.000000000e+00    0.000000000e+00    0.000000000e+00    0.000000000e+00
      265250000   -1.640693867e-03    1.109081670e-03    4.132378308e-05    8.253602573e-06    0.000000000e+00    0.000000000e+00    0.000000000e+00    0.000000000e+00
      272500000   -6.915167323e-04    2.891391050e-04    1.998023254e-05    3.466198905e-05    0.000000000e+00    0.000000000e+00    0.000000000e+00    0.000000000e+00
      279750000   -8.368813433e-04    3.481332969e-04    1.397371193e-06   -1.393939419e-05    0.000000000e+00    0.000000000e+00    0.000000000e+00    0.000000000e+00
      287000000   -8.068747120e-04    3.695676060e-05    3.485914203e-05   -2.756641834e-06    0.000000000e+00    0.000000000e+00    0.000000000e+00    0.000000000e+00
      294250000   -1.231092378e-03    3.931420797e-04    7.996503882e-06   -1.113968028e-05    0.000000000e+00    0.000000000e+00    0.000000000e+00    0.000000000e+00
      301500000   -5.761563079e-04    3.103176423e-04   -3.355187073e-05    1.432711724e-05    0.000000000e+00    0.000000000e+00    0.000000000e+00    0.000000000e+00
      308750000   -8.556300891e-04   -2.306510432e-04    5.047517789e-06   -9.863653759e-06    0.000000000e+00    0.000000000e+00    0.000000000e+00    0.000000000e+00
      316000000   -1.089908998e-03   -3.049318730e-05    7.628667390e-06    2.419483644e-05    0.000000000e+00    0.000000000e+00    0.000000000e+00    0.000000000e+00
      323250000   -9.810755728e-04   -3.223509702e-04   -2.204370685e-05    6.004257557e-06    0.000000000e+00    0.000000000e+00    0.000000000e+00    0.000000000e+00
      330500000   -1.094693085e-03    3.996480955e-04    5.201946806e-06   -4.656347301e-05    0.000000000e+00    0.000000000e+00    0.000000000e+00    0.000000000e+00
      337750000   -1.817182987e-03    4.776365240e-04   -2.315657548e-05    5.992723891e-05    0.000000000e+00    0.000000000e+00    0.000000000e+00    0.000000000e+00
      345000000   -5.290129338e-04    1.959591609e-04   -2.684887659e-05   -4.268216799e-06    0.000000000e+00    0.000000000e+00    0.000000000e+00    0.000000000e+00
      352250000   -3.975877189e-04    2.485359146e-04   -1.249158413e-05    4.712453301e-05    0.000000000e+00    0.000000000e+00    0.000000000e+00    0.000000000e+00
      359500000   -5.015247734e-04    2.600906882e-04    2.364069223e-05   -1.879586125e-05    0.000000000e+00    0.000000000e+00    0.000000000e+00    0.000000000e+00
      366750000   -1.165829250e-03    3.656925110e-04    1.260364934e-05    2.641802712e-05    0.000000000e+00    0.000000000e+00    0.000000000e+00    0.000000000e+00
      374000000   -7.579266676e-04    3.402234288e-04   -1.731165321e-05    8.345141396e-06    0.000000000e+00    0.000000000e+00    0.000000000e+00    0.000000000e+00
      381250000   -1.464283443e-03    3.351363703e-04   -7.862236089e-06   -2.839267472e-05    0.000000000e+00    0.000000000e+00    0.000000000e+00    0.000000000e+00
      388500000   -7.343253237e-04   -2.369984431e-04    4.310852091e-06   -2.975507414e-05    0.000000000e+00    0.000000000e+00    0.000000000e+00    0.000000000e+00
      395750000   -1.487156842e-03    1.582020341e-04    1.344303018e-05    2.763658995e-05    0.000000000e+00    0.000000000e+00    0.000000000e+00    0.000000000e+00
      403000000   -7.881372003e-04    7.521481166e-05   -4.402012564e-05   -1.785646873e-06    0.000000000e+00    0.000000000e+00    0.000000000e+00    0.000000000e+00
      410250000   -2.865282295e-04   -1.661456481e-04   -1.099952806e-05    2.308444346e-05    0.000000000e+00    0.000000000e+00    0.000000000e+00    0.000000000e+00
      417500000   -1.460269676e-03   -2.495106310e-04    2.475578412e-06   -2.125972969e-06    0.000000000e+00    0.000000000e+00    0.000000000e+00    0.000000000e+00
      424750000   -2.160164004e-04   -4.644010914e-04    2.645440327e-05    1.543513099e-05    0.000000000e+00    0.000000000e+00    0.000000000e+00    0.000000000e+00
      432000000   -2.274480357e-04   -5.575394025e-04    4.604559308e-06   -6.142442999e-06    0.000000000e+00    0.000000000e+00    0.000000000e+00    0.000000000e+00
      439250000   -1.398032880e-03    7.175408246e-05   -5.653147582e-06    8.380461622e-06    0.000000000e+00    0.000000000e+00    0.000000000e+00    0.000000000e+00
      446500000   -1.150756027e-03    5.839275400e-05    3.890811058e-05   -1.524528852e-05    0.000000000e+00    0.000000000e+00    0.000000000e+00    0.000000000e+00
      453750000   -9.193298756e-04    4.578629523e-05   -3.957023182e-06   -1.809488276e-05    0.000000000e+00    0.000000000e+00    0.000000000e+00    0.000000000e+00
      461000000   -9.201286011e-04    5.401526578e-04    2.369462891e-05   -3.232603558e-05    0.000000000e+00    0.000000000e+00    0.000000000e+00    0.000000000e+00
      468250000   -7.577369106e-04   -2.485616133e-04    3.706533789e-06    2.152461821e-05    0.000000000e+00    0.000000000e+00    0.000000000e+00    0.000000000e+00
      475500000   -5.430931924e-04    2.970608475e-04   -2.943286563e-05    3.217200720e-05    0.000000000e+00    0.000000000e+00    0.000000000e+00    0.000000000e+00
      482750000   -5.394702312e-04    6.801363779e-04   -3.384279989e-05    5.644962221e-05    0.000000000e+00    0.000000000e+00    0.000000000e+00    0.000000000e+00
      490000000   -7.522550295e-04    8.724944782e-04    1.537755270e-05    9.125623706e-07    0.000000000e+00    0.000000000e+00    0.000000000e+00    0.000000000e+00
      497250000   -7.160277455e-04   -1.218050238e-04    4.116681339e-06   -3.726340947e-05    0.000000000e+00    0.000000000e+00    0.000000000e+00    0.000000000e+00
      504500000   -5.907829618e-04   -5.846580025e-04    2.717417374e-06   -2.134953866e-05    0.000000000e+00    0.000000000e+00    0.000000000e+00    0.000000000e+00
      511750000   -9.697147179e-04   -6.958930317e-05    1.148001502e-05    3.515817752e-06    0.000000000e+00    0.000000000e+00    0.000000000e+00    0.000000000e+00
      519000000   -1.072015380e-03    2.502171847e-04    2.203217809e-05    8.153788258e-06    0.000000000e+00    0.000000000e+00    0.000000000e+00    0.000000000e+00
      526250000   -1.092757215e-03    7.230691845e-04   -2.131091060e-05    3.211015792e-05    0.000000000e+00    0.000000000e+00    0.000000000e+00    0.000000000e+00
      533500000   -1.222052611e-03    1.149403179e-04   -2.552670776e-05   -5.340358911e-08    0.000000000e+00    0.000000000e+00    0.000000000e+00    0.000000000e+00
      540750000   -1.182329725e-03   -3.445284674e-04   -2.739326646e-06   -1.883360255e-06    0.000000000e+00    0.000000000e+00    0.000000000e+00    0.000000000e+00
      548000000   -5.601730663e-04   -4.204494762e-04   -1.410491132e-05   -2.776918700e-05    0.000000000e+00    0.000000000e+00    0.000000000e+00    0.000000000e+00
      555250000   -1.556279603e-03    9.357320960e-04    4.475549940e-05   -1.448162948e-05    0.000000000e+00    0.000000000e+00    0.000000000e+00    0.000000000e+00
      562500000   -9.904234903e-04    1.907488913e-04   -4.465215170e-05    1.774277553e-05    0.000000000e+00    0.000000000e+00    0.000000000e+00    0.000000000e+00
      569750000   -8.376679616e-04    1.576871000e-04    4.173064735e-05   -1.080495804e-05    0.000000000e+00    0.000000000e+00    0.000000000e+00    0.000000000e+00
      577000000   -1.719733700e-03   -2.172077802e-05    4.020340202e-05    4.303206879e-05    0.000000000e+00    0.000000000e+00    0.000000000e+00    0.000000000e+00
      584250000   -4.082522646e-04    4.623020068e-04    3.001313598e-05   -8.330297533e-06    0.000000000e+00    0.000000000e+00    0.000000000e+00    0.000000000e+00
      591500000   -1.020116732e-03   -3.588464460e-04   -2.147276064e-05    2.052857235e-05    0.000000000e+00    0.000000000e+00    0.000000000e+00    0.000000000e+00
      598750000   -1.961092930e-03    6.122901104e-04   -1.736101331e-05    1.686334144e-05    0.000000000e+00    0.000000000e+00    0.000000000e+00    0.000000000e+00
      606000000   -1.202944550e-03    3.477081191e-04   -3.397846058e-06    2.601438064e-05    0.000000000e+00    0.000000000e+00    0.000000000e+00    0.000000000e+00
      613250000   -1.674816478e-03   -1.062259689e-04    2.839822264e-05   -3.886229024e-05    0.000000000e+00    0.000000000e+00    0.000000000e+00    0.000000000e+00
      620500000   -2.822385868e-04    5.155822146e-04    3.520779046e-06    2.366085937e-06    0.000000000e+00    0.000000000e+00    0.000000000e+00    0.000000000e+00
      627750000   -1.497934223e-03    8.684620261e-04   -1.805665488e-05    9.391284038e-06    0.000000000e+00    0.000000000e+00    0.000000000e+00    0.000000000e+00
      635000000   -6.251920713e-04    1.883176592e-04    2.476566078e-05   -3.018592724e-05    0.000000000e+00    0.000000000e+00    0.000000000e+00    0.000000000e+00
      642250000    8.898456144e-06    3.083606425e-04   -1.076283934e-05    3.278838994e-05    0.000000000e+00    0.000000000e+00    0.000000000e+00    0.000000000e+00
      649500000   -9.805106092e-04    2.734937007e-04    3.055834532e-05    1.054672339e-05    0.000000000e+00    0.000000000e+00    0.000000000e+00    0.000000000e+00
      656750000   -1.640220056e-03    1.095903208e-04   -1.266490017e-05   -9.913659596e-06    0.000000000e+00    0.000000000e+00    0.000000000e+00    0.000000000e+00
      664000000   -1.422218163e-03   -2.487698803e-04    1.971218262e-05    2.405329724e-05    0.000000000e+00    0.000000000e+00    0.000000000e+00    0.000000000e+00
      671250000   -8.323451621e-04    1.871587592e-04    1.118196906e-05   -1.564646482e-05    0.000000000e+00    0.000000000e+00    0.000000000e+00    0.000000000e+00
      678500000   -9.823484579e-04   -2.023925917e-04   -1.446987199e-06   -9.698478607e-06    0.000000000e+00    0.000000000e+00    0.000000000e+00    0.000000000e+00
      685750000   -5.753198056e-04    1.577143412e-04   -4.698013981e-06    1.169139159e-05    0.000000000e+00    0.000000000e+00    0.000000000e+00    0.000000000e+00
      693000000   -6.810464547e-04   -4.204866709e-04   -1.685975803e-05   -6.450042065e-07    0.000000000e+00    0.000000000e+00    0.000000000e+00    0.000000000e+00
      700250000   -2.279502805e-03   -1.662449358e-04    5.220420280e-05   -1.738235733e-05    0.000000000e+00    0.000000000e+00    0.000000000e+00    0.000000000e+00
      707500000   -9.651030996e-05    1.176092192e-04   -1.652572973e-05   -4.909769632e-05    0.000000000e+00    0.000000000e+00    0.000000000e+00    0.000000000e+00
      714750000   -2.282084664e-03   -2.063473221e-04   -1.100026907e-06    1.017257728e-05    0.000000000e+00    0.000000000e+00    0.000000000e+00    0.000000000e+00
      722000000    8.765781531e-04    1.505120454e-04    1.046207581e-05   -4.587905096e-06    0.000000000e+00    0.000000000e+00    0.000000000e+00    0.000000000e+00
      729250000   -1.180713996e-03    2.317962499e-04    1.577253556e-06    7.668348189e-06    0.000000000e+00    0.000000000e+00    0.000000000e+00    0.000000000e+00
      736500000   -1.254139468e-03   -3.203346932e-05   -6.384626886e-06   -7.191242184e-05    0.000000000e+00    0.000000000e+00    0.000000000e+00    0.000000000e+00
      743750000   -7.739312132e-04    1.505102432e-06    9.983755263e-06   -1.074781449e-05    0.000000000e+00    0.000000000e+00    0.000000000e+00    0.000000000e+00
      751000000   -7.154451450e-04    1.362950279e-04   -6.021994068e-06   -3.343821845e-06    0.000000000e+00    0.000000000e+00    0.000000000e+00    0.000000000e+00
      758250000   -1.091273851e-03    1.306289050e-04    1.908774721e-05   -2.109049638e-05    0.000000000e+00    0.000000000e+00    0.000000000e+00    0.000000000e+00
      765500000   -5.928002065e-04    1.189743416e-04    3.469612057e-05   -6.212198514e-06    0.000000000e+00    0.000000000e+00    0.000000000e+00    0.000000000e+00
      772750000   -7.519643405e-04   -1.709762291e-04    4.580272071e-05   -9.713498002e-06    0.000000000e+00    0.000000000e+00    0.000000000e+00    0.000000000e+00
      780000000   -9.901315207e-04    7.550975424e-04    2.232267798e-05    1.271299061e-05    0.000000000e+00    0.000000000e+00    0.000000000e+00    0.000000000e+00
      787250000   -1.809661277e-03    2.310662676e-04    1.020926902e-05    4.579171582e-05    0.000000000e+00    0.000000000e+00    0.000000000e+00    0.000000000e+00
      794500000   -9.733626503e-04   -5.014048656e-04    3.282614671e-06   -4.161781180e-05    0.000000000e+00    0.000000000e+00    0.000000000e+00    0.000000000e+00
      801750000   -7.588285371e-04   -1.984974951e-04   -2.119899546e-05   -1.714852988e-05    0.000000000e+00    0.000000000e+00    0.000000000e+00    0.000000000e+00
      809000000    2.191598614e-04    2.118298144e-04    2.310905802e-05   -2.766241232e-05    0.000000000e+00    0.000000000e+00    0.000000000e+00    0.000000000e+00
      816250000   -5.436924985e-04    3.072801628e-04    7.328541415e-06   -8.620793778e-06    0.000000000e+00    0.000000000e+00    0.000000000e+00    0.000000000e+00
      823500000   -8.585744654e-04    5.339781637e-04   -3.306938743e-05   -1.495994638e-05    0.000000000e+00    0.000000000e+00    0.000000000e+00    0.000000000e+00
      830750000   -4.220578412e-04    1.417519816e-04   -4.050393545e-05    8.327202522e-06    0.000000000e+00    0.000000000e+00    0.000000000e+00    0.000000000e+00
      838000000   -4.536423658e-04    5.491025513e-04    1.532925126e-05    1.123958918e-05    0.000000000e+00    0.000000000e+00    0.000000000e+00    0.000000000e+00
      845250000   -1.011805609e-03    2.505212906e-04    8.238057490e-06    1.603843339e-05    0.000000000e+00    0.000000000e+00    0.000000000e+00    0.000000000e+00
      852500000   -9.055195260e-04    6.685935659e-05   -1.597805021e-05   -7.861826248e-07    0.000000000e+00    0.000000000e+00    0.000000000e+00    0.000000000e+00
      859750000   -1.260993420e-03    4.485457612e-05    5.590989986e-06    9.258433238e-06    0.000000000e+00    0.000000000e+00    0.000000000e+00    0.000000000e+00
      867000000   -4.904543166e-04    1.667298930e-04   -2.602148197e-05    4.505596735e-06    0.000000000e+00    0.000000000e+00    0.000000000e+00    0.000000000e+00
      874250000   -8.791363216e-04    3.343034768e-04   -9.727838005e-06    7.389121947e-06    0.000000000e+00    0.000000000e+00    0.000000000e+00    0.000000000e+00
      881500000   -6.400903803e-04   -6.418850535e-05    4.159378659e-05   -7.123152500e-06    0.000000000e+00    0.000000000e+00    0.000000000e+00    0.000000000e+00
      888750000   -7.174820057e-04    3.511462710e-04    1.234069532e-05   -1.591522596e-05    0.000000000e+00    0.000000000e+00    0.000000000e+00    0.000000000e+00
      896000000   -9.945743950e-04    2.198823058e-04    3.735176051e-06    1.654891275e-05    0.000000000e+00    0.000000000e+00    0.000000000e+00    0.000000000e+00
      903250000    1.544684528e-05    5.108517362e-04   -2.400399717e-05   -3.525512147e-05    0.000000000e+00    0.000000000e+00    0.000000000e+00    0.000000000e+00
      910500000   -5.412225146e-04    5.567803164e-04    5.434570630e-05   -1.131805220e-06    0.000000000e+00    0.000000000e+00    0.000000000e+00    0.000000000e+00
      917750000   -7.624835707e-04    4.837257729e-04   -3.010851833e-05    2.123266131e-05    0.000000000e+00    0.000000000e+00    0.000000000e+00    0.000000000e+00
      925000000   -3.366101300e-04    3.546089647e-05   -1.645851808e-05    3.597752766e-06    0.000000000e+00    0.000000000e+00    0.000000000e+00    0.000000000e+00
      932250000   -2.828769502e-04    1.869577391e-04    1.933104068e-05    7.741915033e-05    0.000000000e+00    0.000000000e+00    0.000000000e+00    0.000000000e+00
      939500000   -1.005088678e-03   -2.995543400e-05   -1.871268614e-05   -1.853639446e-07    0.000000000e+00    0.000000000e+00    0.000000000e+00    0.000000000e+00
      946750000   -9.066265775e-04   -3.568285319e-04   -2.831888378e-05    4.501889634e-06    0.000000000e+00    0.000000000e+00    0.000000000e+00    0.000000000e+00
      954000000    8.740483900e-04   -1.564885461e-04    7.442201877e-06    8.918935237e-06    0.000000000e+00    0.000000000e+00    0.000000000e+00    0.000000000e+00
      961250000   -2.359841019e-03   -8.289827383e-05   -4.663112850e-05   -1.644415534e-05    0.000000000e+00    0.000000000e+00    0.000000000e+00    0.000000000e+00
      968500000   -3.264511179e-04    3.477792779e-04    2.127031257e-05    2.730819142e-05    0.000000000e+00    0.000000000e+00    0.000000000e+00    0.000000000e+00
      975750000   -1.574638998e-03    1.309315849e-04    4.865451501e-06   -1.289429747e-05    0.000000000e+00    0.000000000e+00    0.000000000e+00    0.000000000e+00
      983000000   -8.086181479e-04    5.570206558e-04    2.599360414e-06    2.015564860e-05    0.000000000e+00    0.000000000e+00    0.000000000e+00    0.000000000e+00
      990250000   -7.690046332e-04    1.129008597e-04   -2.348953558e-06    1.240478741e-05    0.000000000e+00    0.000000000e+00    0.000000000e+00    0.000000000e+00
      997500000   -1.402137103e-03   -3.055076013e-05    5.528328984e-06   -1.450183208e-05    0.000000000e+00    0.000000000e+00    0.000000000e+00    0.000000000e+00
     1004750000   -2.617101418e-04   -3.644427488e-05    2.083018444e-05    4.718085256e-05    0.000000000e+00    0.000000000e+00    0.000000000e+00    0.000000000e+00
     1012000000   -9.626795654e-04    1.326882921e-04   -1.957269706e-05   -2.212755135e-05    0.000000000e+00    0.000000000e+00    0.000000000e+00    0.000000000e+00
     1019250000   -9.854346281e-04    4.665348679e-04   -2.070343544e-05   -3.739620661e-05    0.000000000e+00    0.000000000e+00    0.000000000e+00    0.000000000e+00
     1026500000   -1.426792005e-03   -4.175706999e-05    2.116254655e-05    1.236832759e-05    0.000000000e+00    0.000000000e+00    0.000000000e+00    0.000000000e+00
     1033750000   -9.524733759e-04    2.181584277e-04   -4.323096618e-06   -1.824158608e-05    0.000000000e+00    0.000000000e+00    0.000000000e+00    0.000000000e+00
     1041000000   -1.268695341e-03    1.599527750e-04   -4.054197416e-05   -3.458462015e-05    0.000000000e+00    0.000000000e+00    0.000000000e+00    0.000000000e+00
