! NanoVNA-App
! Date: 2024-06-25 16:33:40
! Start: 200.00MHz  Stop: 6.00GHz  Points: 801
! S-Parameter data: F S11
# Hz S RI R 50
Frequency           S1_Real           S1_Imag           S11_Real           S11_Imag           S21_Real           S21_Imag
2.00000000E+8      1.07374182E+9      0.00000000E+0      4.80642965E-1      1.20765497E-1      -1.02389604E-5      -6.00330532E-6
2.07250000E+8      1.07374182E+9      0.00000000E+0      4.84070308E-1      2.43023440E-2      1.57300383E-6      8.06152821E-6
2.14500000E+8      1.07374182E+9      0.00000000E+0      4.81990672E-1      -7.10600073E-2      1.79689378E-5      -2.85869464E-5
2.21750000E+8      1.07374182E+9      0.00000000E+0      4.73799886E-1      -1.74066963E-1      1.17393211E-5      3.21492553E-6
2.29000000E+8      1.07374182E+9      0.00000000E+0      4.57582783E-1      -2.95920426E-1      1.28606334E-5      -6.61248341E-5
2.36250000E+8      1.07374182E+9      0.00000000E+0      4.21473942E-1      -4.57420957E-1      3.04775313E-5      -4.55444679E-5
2.43500000E+8      1.07374182E+9      0.00000000E+0      3.35093333E-1      -6.99033567E-1      -9.59075987E-6      -1.25719234E-5
2.50750000E+8      1.07374182E+9      0.00000000E+0      5.42649400E-2      -1.13657729E+0      3.02400440E-6      -1.34268776E-5
2.58000000E+8      1.07374182E+9      0.00000000E+0      -1.45977137E+0      -1.70451127E+0      -1.00145116E-5      1.38320029E-5
2.65250000E+8      1.07374182E+9      0.00000000E+0      -1.58568185E+0      1.65726817E+0      -4.94765118E-5      -2.14977190E-5
2.72500000E+8      1.07374182E+9      0.00000000E+0      2.99065576E-2      1.12861372E+0      2.24448740E-6      7.48317689E-6
2.79750000E+8      1.07374182E+9      0.00000000E+0      3.24263671E-1      6.84446443E-1      1.51805580E-7      1.51405111E-5
2.87000000E+8      1.07374182E+9      0.00000000E+0      4.13207110E-1      4.32979373E-1      -8.30646604E-6      -2.50469893E-5
2.94250000E+8      1.07374182E+9      0.00000000E+0      4.49314081E-1      2.66340884E-1      3.08733433E-5      -3.21818516E-5
3.01500000E+8      1.07374182E+9      0.00000000E+0      4.65532074E-1      1.36760553E-1      5.67082316E-6      -3.64119187E-5
3.08750000E+8      1.07374182E+9      0.00000000E+0      4.72430380E-1      2.25062228E-2      -1.08266249E-5      -1.53891742E-5
3.16000000E+8      1.07374182E+9      0.00000000E+0      4.71622347E-1      -8.95770755E-2      1.10343099E-5      -1.73877925E-6
3.23250000E+8      1.07374182E+9      0.00000000E+0      4.62431551E-1      -2.12838412E-1      -1.97570771E-5      4.74173576E-5
3.30500000E+8      1.07374182E+9      0.00000000E+0      4.38078851E-1      -3.65474731E-1      -1.78134069E-5      -4.86522913E-5
3.37750000E+8      1.07374182E+9      0.00000000E+0      3.75795307E-1      -5.82248312E-1      -1.20867044E-5      8.59890133E-6
3.45000000E+8      1.07374182E+9      0.00000000E+0      1.76005564E-1      -9.50356504E-1      1.99982896E-5      -3.70666385E-7
3.52250000E+8      1.07374182E+9      0.00000000E+0      -8.05222833E-1      -1.49769347E+0      -6.34975731E-6      -1.22701749E-5
3.59500000E+8      1.07374182E+9      0.00000000E+0      -1.85869846E+0      8.88461718E-1      5.31878322E-6      -1.90911815E-5
3.66750000E+8      1.07374182E+9      0.00000000E+0      -1.87847709E-1      1.01800701E+0      -4.26443294E-5      -1.84774399E-5
3.74000000E+8      1.07374182E+9      0.00000000E+0      1.97065105E-1      6.26348632E-1      3.84179875E-5      6.35068864E-6
3.81250000E+8      1.07374182E+9      0.00000000E+0      3.16105640E-1      3.87797084E-1      1.99396163E-6      -2.37980857E-5
3.88500000E+8      1.07374182E+9      0.00000000E+0      3.62122203E-1      2.24986671E-1      5.18970191E-5      -3.50717455E-5
3.95750000E+8      1.07374182E+9      0.00000000E+0      3.80151237E-1      9.73627534E-2      -1.77202746E-5      -4.80376184E-6
4.03000000E+8      1.07374182E+9      0.00000000E+0      3.81660635E-1      -1.79111201E-2      1.58511102E-6      5.99110499E-5
4.10250000E+8      1.07374182E+9      0.00000000E+0      3.68864332E-1      -1.30949445E-1      -4.46382910E-6      -1.83470547E-7
4.17500000E+8      1.07374182E+9      0.00000000E+0      3.36501487E-1      -2.55563516E-1      -9.37562436E-6      4.62587923E-6
4.24750000E+8      1.07374182E+9      0.00000000E+0      2.68337792E-1      -4.06078144E-1      1.24042854E-5      -2.76584178E-5
4.32000000E+8      1.07374182E+9      0.00000000E+0      1.20520161E-1      -6.00783930E-1      7.80634582E-6      8.16769898E-6
4.39250000E+8      1.07374182E+9      0.00000000E+0      -2.61350898E-1      -8.29131532E-1      -5.05242497E-6      -1.46683306E-5
4.46500000E+8      1.07374182E+9      0.00000000E+0      -1.18906842E+0      -6.08508080E-1      1.82474032E-5      1.03702769E-5
4.53750000E+8      1.07374182E+9      0.00000000E+0      -1.09791451E+0      8.58966517E-1      2.41212547E-7      6.54719770E-6
4.61000000E+8      1.07374182E+9      0.00000000E+0      -1.31934716E-1      9.60126694E-1      -4.19812277E-5      -2.61012465E-5
4.68250000E+8      1.07374182E+9      0.00000000E+0      2.29630842E-1      6.84632567E-1      -3.69660556E-5      -2.27224082E-5
4.75500000E+8      1.07374182E+9      0.00000000E+0      3.64874864E-1      4.70907321E-1      -1.75051391E-5      3.11061740E-6
4.82750000E+8      1.07374182E+9      0.00000000E+0      4.25380280E-1      3.17650753E-1      -1.30673870E-5      1.39512122E-5
4.90000000E+8      1.07374182E+9      0.00000000E+0      4.56384603E-1      1.95807544E-1      1.49169937E-5      -1.72220170E-5
4.97250000E+8      1.07374182E+9      0.00000000E+0      4.74713462E-1      9.14684236E-2      1.99694186E-5      3.85381281E-6
5.04500000E+8      1.07374182E+9      0.00000000E+0      4.85371748E-1      -6.53258952E-3      9.97539610E-6      -1.08042732E-5
5.11750000E+8      1.07374182E+9      0.00000000E+0      4.92282290E-1      -1.06636509E-1      -1.50222331E-6      -3.16780061E-5
5.19000000E+8      1.07374182E+9      0.00000000E+0      4.96868841E-1      -2.18350518E-1      3.30815092E-5      -1.47745013E-5
5.26250000E+8      1.07374182E+9      0.00000000E+0      4.99511041E-1      -3.55669894E-1      1.38357282E-5      2.08290294E-5
5.33500000E+8      1.07374182E+9      0.00000000E+0      5.02114291E-1      -5.49489302E-1      6.41588122E-6      -2.97753140E-5
5.40750000E+8      1.07374182E+9      0.00000000E+0      5.13321836E-1      -8.80356241E-1      5.58700413E-6      -7.28853047E-6
5.48000000E+8      1.07374182E+9      0.00000000E+0      5.87153325E-1      -1.67415410E+0      -1.55093148E-5      -2.55675986E-5
5.55250000E+8      1.07374182E+9      0.00000000E+0      3.62499833E+0      -7.17359616E+0      2.17650086E-6      -1.96825713E-5
5.62500000E+8      1.07374182E+9      0.00000000E+0      1.19814620E+0      2.72720342E+0      7.73370266E-6      -2.06427649E-5
5.69750000E+8      1.07374182E+9      0.00000000E+0      7.10016500E-1      1.16671876E+0      -3.34903598E-6      7.32019544E-7
5.77000000E+8      1.07374182E+9      0.00000000E+0      6.26305461E-1      6.92855452E-1      -1.00415200E-5      1.87093392E-5
5.84250000E+8      1.07374182E+9      0.00000000E+0      5.95724045E-1      4.49977541E-1      -7.63218850E-6      -1.33281574E-5
5.91500000E+8      1.07374182E+9      0.00000000E+0      5.81080263E-1      2.91494371E-1      -1.77323818E-6      -3.26940790E-5
5.98750000E+8      1.07374182E+9      0.00000000E+0      5.72159901E-1      1.70807797E-1      1.47372484E-5      -4.42098826E-6
6.06000000E+8      1.07374182E+9      0.00000000E+0      5.66058301E-1      6.81650500E-2      -4.64394689E-5      1.01933256E-5
6.13250000E+8      1.07374182E+9      0.00000000E+0      5.61208912E-1      -2.88126276E-2      -1.44168735E-5      -1.99675560E-6
6.20500000E+8      1.07374182E+9      0.00000000E+0      5.56526367E-1      -1.28975327E-1      -1.92252919E-5      1.66231766E-5
6.27750000E+8      1.07374182E+9      0.00000000E+0      5.50546277E-1      -2.43119054E-1      -2.44937837E-5      8.74698162E-6
6.35000000E+8      1.07374182E+9      0.00000000E+0      5.39295532E-1      -3.85373632E-1      -3.15476209E-5      1.81682408E-5
6.42250000E+8      1.07374182E+9      0.00000000E+0      5.11749363E-1      -5.93507393E-1      2.88784504E-5      -3.24705616E-5
6.49500000E+8      1.07374182E+9      0.00000000E+0      4.19733540E-1      -9.63642307E-1      -1.38301402E-5      -1.46655366E-5
6.56750000E+8      1.07374182E+9      0.00000000E+0      -1.12668673E-1      -1.82174085E+0      1.07130036E-5      -4.23472375E-6
6.64000000E+8      1.07374182E+9      0.00000000E+0      -3.74930156E+0      3.73042733E-3      -1.32620335E-5      9.07108188E-7
6.71250000E+8      1.07374182E+9      0.00000000E+0      -4.00402133E-1      1.43172736E+0      1.13006681E-5      -1.49272382E-5
6.78500000E+8      1.07374182E+9      0.00000000E+0      1.69253665E-1      8.07460118E-1      1.09346583E-5      -1.53016299E-6
6.85750000E+8      1.07374182E+9      0.00000000E+0      3.14810074E-1      5.00496101E-1      2.10637227E-5      1.96658075E-5
6.93000000E+8      1.07374182E+9      0.00000000E+0      3.69820783E-1      3.13219135E-1      -2.13133171E-5      1.77789479E-6
7.00250000E+8      1.07374182E+9      0.00000000E+0      3.91886328E-1      1.77236004E-1      -1.11768022E-5      1.50129199E-6
7.07500000E+8      1.07374182E+9      0.00000000E+0      3.97221862E-1      6.46010923E-2      -1.29193068E-5      2.02683732E-5
7.14750000E+8      1.07374182E+9      0.00000000E+0      3.89126998E-1      -3.91430091E-2      5.28823584E-5      -1.74343586E-5
7.22000000E+8      1.07374182E+9      0.00000000E+0      3.66513457E-1      -1.40664895E-1      1.24303624E-5      -2.91001052E-5
7.29250000E+8      1.07374182E+9      0.00000000E+0      3.21236223E-1      -2.49446081E-1      6.56023622E-6      -3.82959843E-6
7.36500000E+8      1.07374182E+9      0.00000000E+0      2.37914125E-1      -3.65076045E-1      -1.86553225E-5      1.47521496E-5
7.43750000E+8      1.07374182E+9      0.00000000E+0      7.75158397E-2      -4.79622403E-1      -2.01379880E-5      -5.05819917E-5
7.51000000E+8      1.07374182E+9      0.00000000E+0      -2.12481677E-1      -5.14695692E-1      6.81839883E-5      -2.29058787E-5
7.58250000E+8      1.07374182E+9      0.00000000E+0      -5.50544083E-1      -2.62030663E-1      -9.06828791E-6      -2.13887542E-5
7.65500000E+8      1.07374182E+9      0.00000000E+0      -5.21777167E-1      2.18550277E-1      1.28177926E-5      1.21826306E-5
7.72750000E+8      1.07374182E+9      0.00000000E+0      -2.01763208E-1      4.19007732E-1      -7.63498247E-6      -3.08919698E-6
7.80000000E+8      1.07374182E+9      0.00000000E+0      4.31435782E-2      3.88605479E-1      4.98555601E-5      1.09449029E-5
7.87250000E+8      1.07374182E+9      0.00000000E+0      1.90103003E-1      2.94550734E-1      1.88145787E-5      -4.32338566E-5
7.94500000E+8      1.07374182E+9      0.00000000E+0      2.68790721E-1      1.97024213E-1      1.20922923E-5      3.36393714E-6
8.01750000E+8      1.07374182E+9      0.00000000E+0      3.14521743E-1      1.02265494E-1      -6.31995499E-6      3.46973538E-5
8.09000000E+8      1.07374182E+9      0.00000000E+0      3.39280689E-1      1.13602204E-2      1.71568245E-5      4.59607691E-6
8.16250000E+8      1.07374182E+9      0.00000000E+0      3.49700408E-1      -8.19291735E-2      2.94037163E-5      3.22833657E-5
8.23500000E+8      1.07374182E+9      0.00000000E+0      3.46860788E-1      -1.84030497E-1      -1.54096633E-5      1.89421698E-5
8.30750000E+8      1.07374182E+9      0.00000000E+0      3.29189260E-1      -3.02901306E-1      -1.50660053E-5      -2.79424712E-5
8.38000000E+8      1.07374182E+9      0.00000000E+0      2.81832784E-1      -4.61392855E-1      -1.21630728E-6      1.97272748E-5
8.45250000E+8      1.07374182E+9      0.00000000E+0      1.66733858E-1      -6.92640127E-1      -6.98771328E-6      1.48359686E-5
8.52500000E+8      1.07374182E+9      0.00000000E+0      -1.84313431E-1      -1.08638198E+0      4.22531739E-5      -1.49328262E-5
8.59750000E+8      1.07374182E+9      0.00000000E+0      -1.73841558E+0      -1.31694272E+0      -3.00351530E-5      1.60532072E-5
8.67000000E+8      1.07374182E+9      0.00000000E+0      -1.27550382E+0      1.76204370E+0      4.47565690E-5      -3.22982669E-5
8.74250000E+8      1.07374182E+9      0.00000000E+0      1.31094240E-1      1.14977299E+0      1.60103664E-5      2.60062516E-5
8.81500000E+8      1.07374182E+9      0.00000000E+0      3.85882720E-1      6.79299283E-1      -6.12717122E-6      -1.48825347E-6
8.88750000E+8      1.07374182E+9      0.00000000E+0      4.55529992E-1      4.24602239E-1      3.04719433E-5      2.03624368E-5
8.96000000E+8      1.07374182E+9      0.00000000E+0      4.82771476E-1      2.50719879E-1      1.67349353E-5      2.39321962E-5
9.03250000E+8      1.07374182E+9      0.00000000E+0      4.93873112E-1      1.14784602E-1      -7.32298940E-6      -8.17701221E-6
9.10500000E+8      1.07374182E+9      0.00000000E+0      4.98572784E-1      -6.96153005E-3      5.72837889E-5      -2.10152939E-5
9.17750000E+8      1.07374182E+9      0.00000000E+0      4.97022978E-1      -1.29018420E-1      1.55568123E-5      -1.35200098E-5
9.25000000E+8      1.07374182E+9      0.00000000E+0      4.90988686E-1      -2.69790130E-1      1.46217644E-7      -7.70855695E-6
9.32250000E+8      1.07374182E+9      0.00000000E+0      4.72000489E-1      -4.56598185E-1      -1.80974603E-5      -2.51680613E-5
9.39500000E+8      1.07374182E+9      0.00000000E+0      4.19666497E-1      -7.52868208E-1      2.62670219E-5      -8.39121640E-6
9.46750000E+8      1.07374182E+9      0.00000000E+0      2.01004889E-1      -1.37866197E+0      9.98564065E-6      -1.46869570E-6
9.54000000E+8      1.07374182E+9      0.00000000E+0      -2.42519017E+0      -2.98963268E+0      1.14599243E-5      -1.95074826E-5
9.61250000E+8      1.07374182E+9      0.00000000E+0      -9.41109081E-1      2.35959578E+0      -1.45565718E-5      -2.94828787E-5
9.68500000E+8      1.07374182E+9      0.00000000E+0      1.85228822E-1      1.13472687E+0      1.10724941E-5      2.73035839E-5
9.75750000E+8      1.07374182E+9      0.00000000E+0      3.53481066E-1      6.83650343E-1      -2.68686563E-5      1.22021884E-5
9.83000000E+8      1.07374182E+9      0.00000000E+0      4.06180357E-1      4.46354333E-1      -3.88352200E-5      2.06008554E-5
9.90250000E+8      1.07374182E+9      0.00000000E+0      4.26638626E-1      2.91969152E-1      1.53044239E-5      -3.63560393E-5
9.97500000E+8      1.07374182E+9      0.00000000E+0      4.33590606E-1      1.73378555E-1      1.41654164E-6      1.16387382E-5
1.00475000E+9      1.07374182E+9      0.00000000E+0      4.31587158E-1      7.32012870E-2      -1.36913732E-5      2.04052776E-6
1.01200000E+9      1.07374182E+9      0.00000000E+0      4.22587428E-1      -1.79423452E-2      1.57840550E-5      -2.85571441E-5
1.01925000E+9      1.07374182E+9      0.00000000E+0      4.04532729E-1      -1.07614480E-1      1.07288361E-5      4.40143049E-6
1.02650000E+9      1.07374182E+9      0.00000000E+0      3.73688798E-1      -2.01478985E-1      1.35488808E-5      1.02194026E-5
1.03375000E+9      1.07374182E+9      0.00000000E+0      3.21063063E-1      -3.05009557E-1      3.74251977E-5      -4.63537872E-5
1.04100000E+9      1.07374182E+9      0.00000000E+0      2.29317868E-1      -4.17165859E-1      -4.32161614E-5      -2.03363597E-5
1.04825000E+9      1.07374182E+9      0.00000000E+0      6.09645366E-2      -5.25904815E-1      -1.56527385E-5      -1.51898712E-6
1.05550000E+9      1.07374182E+9      0.00000000E+0      -2.28199476E-1      -5.55362835E-1      -1.39772892E-5      -5.67361712E-6
1.06275000E+9      1.07374182E+9      0.00000000E+0      -5.59650656E-1      -3.16063904E-1      -4.49120998E-5      1.19861215E-5
1.07000000E+9      1.07374182E+9      0.00000000E+0      -5.73993381E-1      1.33270575E-1      -8.91927630E-6      -8.95932317E-6
1.07725000E+9      1.07374182E+9      0.00000000E+0      -2.98504765E-1      3.65378679E-1      1.63819641E-5      1.48126855E-5
1.08450000E+9      1.07374182E+9      0.00000000E+0      -5.42689585E-2      3.69604964E-1      2.23331153E-6      2.73045152E-5
1.09175000E+9      1.07374182E+9      0.00000000E+0      8.90037475E-2      2.98579001E-1      -3.70154157E-5      -3.99434939E-5
1.09900000E+9      1.07374182E+9      0.00000000E+0      1.69038972E-1      2.13444954E-1      -8.55512917E-6      -4.52697277E-5
1.10625000E+9      1.07374182E+9      0.00000000E+0      2.09902874E-1      1.32484087E-1      1.51880085E-5      -3.29790637E-5
1.11350000E+9      1.07374182E+9      0.00000000E+0      2.25897049E-1      5.53169839E-2      1.29509717E-5      7.65547156E-7
1.12075000E+9      1.07374182E+9      0.00000000E+0      2.22539472E-1      -1.58098449E-2      4.35104594E-5      -4.16096300E-5
1.12800000E+9      1.07374182E+9      0.00000000E+0      2.00732477E-1      -8.30597970E-2      1.62301585E-5      -1.95214525E-5
1.13525000E+9      1.07374182E+9      0.00000000E+0      1.57916811E-1      -1.45430237E-1      1.26697123E-5      -1.21071935E-8
1.14250000E+9      1.07374182E+9      0.00000000E+0      9.16389354E-2      -1.96284439E-1      -3.45539302E-5      -4.09781933E-7
1.14975000E+9      1.07374182E+9      0.00000000E+0      -4.73498996E-3      -2.22481038E-1      -4.14652750E-5      -5.37158921E-5
1.15700000E+9      1.07374182E+9      0.00000000E+0      -1.22501488E-1      -2.00584391E-1      -8.35675746E-6      -1.20131299E-5
1.16425000E+9      1.07374182E+9      0.00000000E+0      -2.30457476E-1      -9.93380593E-2      3.16184014E-5      -2.00457871E-5
1.17150000E+9      1.07374182E+9      0.00000000E+0      -2.59273727E-1      6.06647550E-2      -1.93789601E-5      4.32869419E-5
1.17875000E+9      1.07374182E+9      0.00000000E+0      -1.79416616E-1      2.08298231E-1      -7.10040331E-6      7.63125718E-6
1.18600000E+9      1.07374182E+9      0.00000000E+0      -4.63996924E-2      2.72980348E-1      -3.68608162E-5      -2.53180042E-5
1.19325000E+9      1.07374182E+9      0.00000000E+0      7.94454079E-2      2.65067429E-1      -1.37221068E-5      2.10255384E-5
1.20050000E+9      1.07374182E+9      0.00000000E+0      1.74807915E-1      2.14819452E-1      1.11917034E-5      -1.64834782E-5
1.20775000E+9      1.07374182E+9      0.00000000E+0      2.38835307E-1      1.48728183E-1      -2.52816826E-5      9.94000584E-6
1.21500000E+9      1.07374182E+9      0.00000000E+0      2.81474709E-1      7.08359013E-2      -1.61025673E-5      1.05584040E-5
1.22225000E+9      1.07374182E+9      0.00000000E+0      3.05484786E-1      -9.89586247E-3      -2.81780958E-5      4.52306122E-5
1.22950000E+9      1.07374182E+9      0.00000000E+0      3.15898018E-1      -9.87947023E-2      2.14688480E-5      2.71452591E-5
1.23675000E+9      1.07374182E+9      0.00000000E+0      3.11361295E-1      -1.99205422E-1      6.26780093E-6      -1.59861520E-5
1.24400000E+9      1.07374182E+9      0.00000000E+0      2.87486075E-1      -3.19519567E-1      -1.88406557E-6      -6.88340515E-6
1.25125000E+9      1.07374182E+9      0.00000000E+0      2.26681678E-1      -4.82060178E-1      -5.16604632E-6      -4.24766913E-5
1.25850000E+9      1.07374182E+9      0.00000000E+0      8.16242806E-2      -7.07817086E-1      -2.49929726E-5      -6.06421381E-5
1.26575000E+9      1.07374182E+9      0.00000000E+0      -3.39390686E-1      -1.02091069E+0      -6.38887286E-6      -2.65156850E-5
1.27300000E+9      1.07374182E+9      0.00000000E+0      -1.61355990E+0      -7.89325185E-1      4.11123037E-5      -1.21127814E-5
1.28025000E+9      1.07374182E+9      0.00000000E+0      -1.20891340E+0      1.10951008E+0      9.24430788E-6      -7.80448318E-7
1.28750000E+9      1.07374182E+9      0.00000000E+0      -1.59957100E-1      9.96656831E-1      6.11972064E-6      -2.55182385E-7
1.29475000E+9      1.07374182E+9      0.00000000E+0      1.63762598E-1      6.59488099E-1      2.95015052E-5      1.53165311E-5
