! NanoVNA-App
! Date: 2024-06-25 16:33:45
! Start: 200.00MHz  Stop: 6.00GHz  Points: 801
! S-Parameter data: F S11
# Hz S RI R 50
Frequency           S1_Real           S1_Imag           S11_Real           S11_Imag           S21_Real           S21_Imag
2.00000000E+8      1.07374182E+9      0.00000000E+0      4.80438932E-1      1.20609939E-1      1.32303685E-5      -2.02208757E-5
2.07250000E+8      1.07374182E+9      0.00000000E+0      4.83967557E-1      2.43968379E-2      -2.52760947E-6      2.18488276E-6
2.14500000E+8      1.07374182E+9      0.00000000E+0      4.82118789E-1      -7.09795180E-2      2.60518864E-5      1.58688053E-5
2.21750000E+8      1.07374182E+9      0.00000000E+0      4.73689613E-1      -1.74426351E-1      -6.27152622E-6      -1.03097409E-6
2.29000000E+8      1.07374182E+9      0.00000000E+0      4.56946582E-1      -2.95874509E-1      8.34278762E-6      1.08731911E-5
2.36250000E+8      1.07374182E+9      0.00000000E+0      4.20850239E-1      -4.56883394E-1      -1.63260847E-5      1.09924003E-5
2.43500000E+8      1.07374182E+9      0.00000000E+0      3.35238617E-1      -6.99187764E-1      4.61218879E-5      -1.42222270E-5
2.50750000E+8      1.07374182E+9      0.00000000E+0      5.48246687E-2      -1.13760164E+0      2.37226486E-5      2.08290294E-5
2.58000000E+8      1.07374182E+9      0.00000000E+0      -1.45668033E+0      -1.70455543E+0      1.68289989E-6      9.24430788E-6
2.65250000E+8      1.07374182E+9      0.00000000E+0      -1.58563766E+0      1.65714268E+0      2.45450065E-5      2.27512792E-5
2.72500000E+8      1.07374182E+9      0.00000000E+0      2.90563230E-2      1.12922022E+0      -4.80376184E-6      1.54525042E-5
2.79750000E+8      1.07374182E+9      0.00000000E+0      3.23691782E-1      6.84101869E-1      -4.94532287E-6      2.18059868E-5
2.87000000E+8      1.07374182E+9      0.00000000E+0      4.12706545E-1      4.33492017E-1      1.59777701E-5      -1.44420192E-5
2.94250000E+8      1.07374182E+9      0.00000000E+0      4.49342137E-1      2.66749131E-1      -5.81266358E-5      3.24286520E-6
3.01500000E+8      1.07374182E+9      0.00000000E+0      4.65610824E-1      1.36720628E-1      2.51345336E-5      9.27783549E-6
3.08750000E+8      1.07374182E+9      0.00000000E+0      4.72134563E-1      2.24704618E-2      3.18633392E-5      -1.66557729E-5
3.16000000E+8      1.07374182E+9      0.00000000E+0      4.71654918E-1      -8.95722079E-2      -2.32737511E-5      -5.60376793E-6
3.23250000E+8      1.07374182E+9      0.00000000E+0      4.62629606E-1      -2.13007159E-1      3.24575230E-5      -8.25151801E-6
3.30500000E+8      1.07374182E+9      0.00000000E+0      4.38536714E-1      -3.65102245E-1      -2.94921920E-5      1.19209290E-7
3.37750000E+8      1.07374182E+9      0.00000000E+0      3.76288196E-1      -5.82185903E-1      -7.15721399E-6      1.16480514E-5
3.45000000E+8      1.07374182E+9      0.00000000E+0      1.75514055E-1      -9.51191040E-1      -1.43097714E-5      4.47779894E-5
3.52250000E+8      1.07374182E+9      0.00000000E+0      -8.11834457E-1      -1.49864295E+0      3.63774598E-5      1.46124512E-5
3.59500000E+8      1.07374182E+9      0.00000000E+0      -1.85845623E+0      8.83815769E-1      -2.88682058E-5      -1.22860074E-5
3.66750000E+8      1.07374182E+9      0.00000000E+0      -1.88005867E-1      1.01645441E+0      1.98911875E-5      4.45172191E-7
3.74000000E+8      1.07374182E+9      0.00000000E+0      1.96197366E-1      6.25630707E-1      -1.90455467E-5      2.44220719E-5
3.81250000E+8      1.07374182E+9      0.00000000E+0      3.16504067E-1      3.87245166E-1      8.19563866E-7      -9.33650881E-6
3.88500000E+8      1.07374182E+9      0.00000000E+0      3.61896840E-1      2.25090799E-1      -1.82539225E-6      2.12993473E-6
3.95750000E+8      1.07374182E+9      0.00000000E+0      3.80305443E-1      9.71252986E-2      2.99625099E-5      1.25244260E-5
4.03000000E+8      1.07374182E+9      0.00000000E+0      3.81691782E-1      -1.72601939E-2      -9.80682671E-7      -9.23685730E-6
4.10250000E+8      1.07374182E+9      0.00000000E+0      3.68477730E-1      -1.31368211E-1      -6.44475222E-6      -1.97784975E-5
4.17500000E+8      1.07374182E+9      0.00000000E+0      3.36042569E-1      -2.55602588E-1      -1.22273341E-5      -2.28080899E-6
4.24750000E+8      1.07374182E+9      0.00000000E+0      2.69058143E-1      -4.06319242E-1      -1.42492354E-7      3.73339280E-5
4.32000000E+8      1.07374182E+9      0.00000000E+0      1.20455814E-1      -6.00723737E-1      1.70711428E-5      -3.41422856E-6
4.39250000E+8      1.07374182E+9      0.00000000E+0      -2.60479522E-1      -8.27955260E-1      3.10549513E-5      8.52253288E-6
4.46500000E+8      1.07374182E+9      0.00000000E+0      -1.18789762E+0      -6.12748052E-1      3.35974619E-5      7.43195415E-7
4.53750000E+8      1.07374182E+9      0.00000000E+0      -1.09951611E+0      8.58687337E-1      -1.30711123E-5      -7.67689198E-6
4.61000000E+8      1.07374182E+9      0.00000000E+0      -1.32969294E-1      9.63522225E-1      -3.96389514E-5      -2.97473744E-5
4.68250000E+8      1.07374182E+9      0.00000000E+0      2.30232061E-1      6.84891721E-1      3.19071114E-6      2.03400850E-6
4.75500000E+8      1.07374182E+9      0.00000000E+0      3.64613870E-1      4.71384773E-1      1.02100894E-5      2.35252082E-6
4.82750000E+8      1.07374182E+9      0.00000000E+0      4.25461228E-1      3.17536335E-1      2.98023224E-6      -4.28967178E-6
4.90000000E+8      1.07374182E+9      0.00000000E+0      4.56405187E-1      1.95682084E-1      -3.47010791E-6      3.24659050E-6
4.97250000E+8      1.07374182E+9      0.00000000E+0      4.74258948E-1      9.11594062E-2      -1.49728730E-5      -4.91738319E-7
5.04500000E+8      1.07374182E+9      0.00000000E+0      4.85367957E-1      -6.57309332E-3      -2.44993716E-5      9.47527587E-6
5.11750000E+8      1.07374182E+9      0.00000000E+0      4.92372804E-1      -1.06895442E-1      1.28727406E-5      -7.00075179E-5
5.19000000E+8      1.07374182E+9      0.00000000E+0      4.96507841E-1      -2.18217797E-1      2.10376456E-5      -3.71504575E-6
5.26250000E+8      1.07374182E+9      0.00000000E+0      4.99508367E-1      -3.55358410E-1      -1.26464292E-5      3.57162207E-6
5.33500000E+8      1.07374182E+9      0.00000000E+0      5.02951911E-1      -5.49337274E-1      -6.83590770E-7      -5.10830432E-6
5.40750000E+8      1.07374182E+9      0.00000000E+0      5.11738720E-1      -8.81124733E-1      1.17626041E-6      -2.24355608E-6
5.48000000E+8      1.07374182E+9      0.00000000E+0      5.87582996E-1      -1.67379987E+0      5.87198883E-6      -1.17067248E-5
5.55250000E+8      1.07374182E+9      0.00000000E+0      3.60537710E+0      -7.14693015E+0      6.34230673E-7      1.24759972E-5
5.62500000E+8      1.07374182E+9      0.00000000E+0      1.19448970E+0      2.73620745E+0      4.53582034E-5      -5.60563058E-6
5.69750000E+8      1.07374182E+9      0.00000000E+0      7.09173419E-1      1.16484526E+0      -8.68272036E-6      -2.22632661E-5
5.77000000E+8      1.07374182E+9      0.00000000E+0      6.26686731E-1      6.93797608E-1      -2.28136778E-5      2.30958685E-5
5.84250000E+8      1.07374182E+9      0.00000000E+0      5.95869727E-1      4.49662301E-1      3.10316682E-6      -2.95341015E-5
5.91500000E+8      1.07374182E+9      0.00000000E+0      5.81276078E-1      2.91876886E-1      -1.81915238E-5      1.61929056E-5
5.98750000E+8      1.07374182E+9      0.00000000E+0      5.72168026E-1      1.70879896E-1      4.68455255E-7      -1.75368041E-5
6.06000000E+8      1.07374182E+9      0.00000000E+0      5.65994151E-1      6.80729722E-2      9.77516174E-6      -1.35414302E-5
6.13250000E+8      1.07374182E+9      0.00000000E+0      5.61305224E-1      -2.89114949E-2      2.83960253E-6      -1.42287463E-5
6.20500000E+8      1.07374182E+9      0.00000000E+0      5.56719403E-1      -1.29372506E-1      -8.16956162E-6      -3.80398706E-5
6.27750000E+8      1.07374182E+9      0.00000000E+0      5.50251649E-1      -2.43440013E-1      2.77636573E-5      -1.01327896E-5
6.35000000E+8      1.07374182E+9      0.00000000E+0      5.39300086E-1      -3.86200974E-1      2.01333314E-5      -4.78792936E-6
6.42250000E+8      1.07374182E+9      0.00000000E+0      5.11336568E-1      -5.95607154E-1      -1.70012936E-5      -1.20392069E-5
6.49500000E+8      1.07374182E+9      0.00000000E+0      4.20058216E-1      -9.63624841E-1      -2.55126506E-5      1.68345869E-5
6.56750000E+8      1.07374182E+9      0.00000000E+0      -1.06401970E-1      -1.81505049E+0      -1.21267512E-5      1.18697062E-5
6.64000000E+8      1.07374182E+9      0.00000000E+0      -3.77981111E+0      -3.71578036E-2      4.58396971E-6      -2.56514177E-5
6.71250000E+8      1.07374182E+9      0.00000000E+0      -4.00975098E-1      1.43362520E+0      -9.63918865E-7      3.60235572E-5
6.78500000E+8      1.07374182E+9      0.00000000E+0      1.69266736E-1      8.09576001E-1      2.27680430E-5      -3.18530947E-5
6.85750000E+8      1.07374182E+9      0.00000000E+0      3.14573379E-1      5.01715586E-1      -1.66576356E-5      -3.71132046E-6
6.93000000E+8      1.07374182E+9      0.00000000E+0      3.69715075E-1      3.13420348E-1      -2.64467672E-5      -2.27885321E-5
7.00250000E+8      1.07374182E+9      0.00000000E+0      3.91918483E-1      1.76730226E-1      -1.54711306E-5      -1.03171915E-5
7.07500000E+8      1.07374182E+9      0.00000000E+0      3.96980867E-1      6.37408901E-2      -2.47815624E-5      -5.09619713E-6
7.14750000E+8      1.07374182E+9      0.00000000E+0      3.88991103E-1      -3.97736764E-2      8.15186650E-6      -4.12035733E-5
7.22000000E+8      1.07374182E+9      0.00000000E+0      3.66669725E-1      -1.40491076E-1      -1.16582960E-5      -1.37491152E-5
7.29250000E+8      1.07374182E+9      0.00000000E+0      3.21518243E-1      -2.49180044E-1      3.47504392E-5      2.69906595E-5
7.36500000E+8      1.07374182E+9      0.00000000E+0      2.37513186E-1      -3.65742777E-1      -5.25545329E-5      -6.76354393E-5
7.43750000E+8      1.07374182E+9      0.00000000E+0      7.72363480E-2      -4.79663343E-1      -5.53298742E-5      1.47027895E-5
7.51000000E+8      1.07374182E+9      0.00000000E+0      -2.11505352E-1      -5.14375634E-1      -1.48611143E-5      2.54781917E-5
7.58250000E+8      1.07374182E+9      0.00000000E+0      -5.50721900E-1      -2.60357071E-1      1.57300383E-6      1.35051087E-5
7.65500000E+8      1.07374182E+9      0.00000000E+0      -5.22331714E-1      2.18423165E-1      7.01844692E-6      -7.71135092E-7
7.72750000E+8      1.07374182E+9      0.00000000E+0      -2.03613453E-1      4.18732025E-1      1.41076744E-5      -2.24672258E-5
7.80000000E+8      1.07374182E+9      0.00000000E+0      4.31085874E-2      3.88258291E-1      -2.62428075E-5      1.47381797E-5
7.87250000E+8      1.07374182E+9      0.00000000E+0      1.89614831E-1      2.94845172E-1      2.82069668E-5      1.30282715E-5
7.94500000E+8      1.07374182E+9      0.00000000E+0      2.68858528E-1      1.97080482E-1      7.31367618E-6      1.07102096E-6
8.01750000E+8      1.07374182E+9      0.00000000E+0      3.14440100E-1      1.02765661E-1      2.32616439E-5      -1.23986974E-5
8.09000000E+8      1.07374182E+9      0.00000000E+0      3.39092031E-1      1.10778615E-2      3.11080366E-5      3.40547413E-5
8.16250000E+8      1.07374182E+9      0.00000000E+0      3.49663090E-1      -8.20721309E-2      -1.97468325E-5      5.36907464E-6
8.23500000E+8      1.07374182E+9      0.00000000E+0      3.46966645E-1      -1.84291683E-1      -3.87895852E-6      2.18106434E-5
8.30750000E+8      1.07374182E+9      0.00000000E+0      3.28252185E-1      -3.04143099E-1      8.24686140E-6      4.15071845E-5
8.38000000E+8      1.07374182E+9      0.00000000E+0      2.81997849E-1      -4.60874747E-1      -7.91531056E-6      2.49231234E-5
8.45250000E+8      1.07374182E+9      0.00000000E+0      1.66093565E-1      -6.91770367E-1      3.14787030E-5      4.84185293E-5
8.52500000E+8      1.07374182E+9      0.00000000E+0      -1.84641376E-1      -1.08553950E+0      -2.47126445E-5      -5.36693260E-5
8.59750000E+8      1.07374182E+9      0.00000000E+0      -1.74136588E+0      -1.31983801E+0      -2.64560804E-5      3.46880406E-5
8.67000000E+8      1.07374182E+9      0.00000000E+0      -1.28680112E+0      1.77397592E+0      -9.26665962E-6      -3.11462209E-5
8.74250000E+8      1.07374182E+9      0.00000000E+0      1.31874147E-1      1.15091527E+0      2.74674967E-5      1.84867531E-6
8.81500000E+8      1.07374182E+9      0.00000000E+0      3.86257011E-1      6.80540982E-1      -1.20559707E-5      1.75517052E-5
8.88750000E+8      1.07374182E+9      0.00000000E+0      4.55997182E-1      4.24423432E-1      7.70017505E-6      -9.40635800E-6
8.96000000E+8      1.07374182E+9      0.00000000E+0      4.82943730E-1      2.51037577E-1      -3.86871397E-6      -7.89668411E-6
9.03250000E+8      1.07374182E+9      0.00000000E+0      4.94157847E-1      1.15398941E-1      -1.18995085E-5      -4.15910035E-5
9.10500000E+8      1.07374182E+9      0.00000000E+0      4.97982889E-1      -7.42489006E-3      3.15858051E-5      -4.28594649E-6
9.17750000E+8      1.07374182E+9      0.00000000E+0      4.97355761E-1      -1.29562042E-1      3.08500603E-5      2.87462026E-5
9.25000000E+8      1.07374182E+9      0.00000000E+0      4.90867872E-1      -2.69877493E-1      4.43905592E-5      1.43367797E-5
9.32250000E+8      1.07374182E+9      0.00000000E+0      4.71929357E-1      -4.57298937E-1      3.42298299E-5      -3.50642949E-6
9.39500000E+8      1.07374182E+9      0.00000000E+0      4.20374204E-1      -7.50859633E-1      -1.63139775E-5      -7.84136355E-5
9.46750000E+8      1.07374182E+9      0.00000000E+0      2.04155812E-1      -1.37748570E+0      1.89319253E-5      7.01006502E-6
9.54000000E+8      1.07374182E+9      0.00000000E+0      -2.41497814E+0      -3.00142125E+0      4.33064997E-6      -1.95493922E-5
9.61250000E+8      1.07374182E+9      0.00000000E+0      -9.39561427E-1      2.36154659E+0      2.70977616E-5      -1.09169632E-5
9.68500000E+8      1.07374182E+9      0.00000000E+0      1.84346588E-1      1.13380963E+0      -1.47325918E-5      -6.83870167E-6
9.75750000E+8      1.07374182E+9      0.00000000E+0      3.53349716E-1      6.84766198E-1      3.25040892E-5      -2.54381448E-5
9.83000000E+8      1.07374182E+9      0.00000000E+0      4.06448873E-1      4.46822903E-1      -1.77081674E-5      -1.39269978E-5
9.90250000E+8      1.07374182E+9      0.00000000E+0      4.26363297E-1      2.91809758E-1      -6.56303018E-5      7.98702240E-6
9.97500000E+8      1.07374182E+9      0.00000000E+0      4.33400599E-1      1.73171750E-1      1.05593354E-5      -3.77930701E-6
1.00475000E+9      1.07374182E+9      0.00000000E+0      4.31675232E-1      7.33888725E-2      -1.84839591E-5      6.73066825E-6
1.01200000E+9      1.07374182E+9      0.00000000E+0      4.22423584E-1      -1.83849793E-2      2.80383974E-5      -1.14534050E-5
1.01925000E+9      1.07374182E+9      0.00000000E+0      4.04744567E-1      -1.07365511E-1      3.99937853E-5      -1.14738941E-5
1.02650000E+9      1.07374182E+9      0.00000000E+0      3.73885019E-1      -2.01236374E-1      -4.49642539E-6      1.04838982E-5
1.03375000E+9      1.07374182E+9      0.00000000E+0      3.20684585E-1      -3.06021817E-1      -1.82744116E-5      2.42423266E-6
1.04100000E+9      1.07374182E+9      0.00000000E+0      2.29236080E-1      -4.16673424E-1      -4.97028232E-5      4.40143049E-6
1.04825000E+9      1.07374182E+9      0.00000000E+0      6.02425251E-2      -5.27155744E-1      -4.88637015E-5      -8.02055001E-6
1.05550000E+9      1.07374182E+9      0.00000000E+0      -2.29207736E-1      -5.55278628E-1      -2.58544460E-5      2.45654956E-5
1.06275000E+9      1.07374182E+9      0.00000000E+0      -5.59424816E-1      -3.15748580E-1      -4.15174291E-5      -2.01389194E-5
1.07000000E+9      1.07374182E+9      0.00000000E+0      -5.71298121E-1      1.33548422E-1      -3.45725566E-5      -2.28490680E-5
1.07725000E+9      1.07374182E+9      0.00000000E+0      -2.99149990E-1      3.65230724E-1      1.11758709E-7      -3.35639343E-5
1.08450000E+9      1.07374182E+9      0.00000000E+0      -5.47692034E-2      3.68924835E-1      -2.03214586E-6      3.92831862E-5
1.09175000E+9      1.07374182E+9      0.00000000E+0      8.92814627E-2      2.97677261E-1      -1.06170774E-7      -4.95724380E-5
1.09900000E+9      1.07374182E+9      0.00000000E+0      1.69093230E-1      2.13437983E-1      -8.95932317E-6      -2.34059989E-5
1.10625000E+9      1.07374182E+9      0.00000000E+0      2.09948537E-1      1.32539423E-1      2.25724652E-5      3.25487927E-5
1.11350000E+9      1.07374182E+9      0.00000000E+0      2.25907484E-1      5.49532148E-2      2.00420618E-6      -1.49384141E-6
1.12075000E+9      1.07374182E+9      0.00000000E+0      2.22183050E-1      -1.59345907E-2      -1.09169632E-5      1.66501850E-5
1.12800000E+9      1.07374182E+9      0.00000000E+0      2.00831418E-1      -8.36809852E-2      -5.13195992E-5      3.17590311E-5
1.13525000E+9      1.07374182E+9      0.00000000E+0      1.58409067E-1      -1.45071762E-1      1.80611387E-5      -3.86135653E-5
1.14250000E+9      1.07374182E+9      0.00000000E+0      9.21770715E-2      -1.96062827E-1      2.66740099E-5      2.41408125E-5
1.14975000E+9      1.07374182E+9      0.00000000E+0      -4.71247112E-3      -2.22754389E-1      2.91774049E-5      6.48200512E-6
1.15700000E+9      1.07374182E+9      0.00000000E+0      -1.22262726E-1      -2.00388038E-1      3.01841646E-5      2.55098566E-5
1.16425000E+9      1.07374182E+9      0.00000000E+0      -2.29510930E-1      -1.01380763E-1      8.66129994E-6      -3.00658867E-5
1.17150000E+9      1.07374182E+9      0.00000000E+0      -2.59043292E-1      6.18768827E-2      -5.49014658E-6      -1.57766044E-6
1.17875000E+9      1.07374182E+9      0.00000000E+0      -1.80019412E-1      2.09062787E-1      -2.78437510E-5      -3.11275944E-5
1.18600000E+9      1.07374182E+9      0.00000000E+0      -4.67386539E-2      2.72905945E-1      -4.52343374E-6      -2.05514953E-5
1.19325000E+9      1.07374182E+9      0.00000000E+0      7.84184915E-2      2.65488698E-1      2.97045335E-5      -1.16685405E-5
1.20050000E+9      1.07374182E+9      0.00000000E+0      1.75138099E-1      2.14822954E-1      4.17539850E-5      -3.97041440E-5
1.20775000E+9      1.07374182E+9      0.00000000E+0      2.39373783E-1      1.48268891E-1      1.44885853E-5      -3.74801457E-5
1.21500000E+9      1.07374182E+9      0.00000000E+0      2.81468014E-1      7.06180068E-2      2.62036920E-5      1.87382102E-6
1.22225000E+9      1.07374182E+9      0.00000000E+0      3.05616577E-1      -9.96975679E-3      3.10717151E-5      -3.14638019E-5
1.22950000E+9      1.07374182E+9      0.00000000E+0      3.15790863E-1      -9.85272146E-2      -1.49635598E-5      -4.30764630E-5
1.23675000E+9      1.07374182E+9      0.00000000E+0      3.10999164E-1      -1.99398037E-1      -5.35892323E-5      -1.00275502E-5
1.24400000E+9      1.07374182E+9      0.00000000E+0      2.87146046E-1      -3.20219159E-1      -1.19507313E-5      -4.03095037E-5
1.25125000E+9      1.07374182E+9      0.00000000E+0      2.26941286E-1      -4.80645609E-1      -2.19382346E-5      2.00150535E-5
1.25850000E+9      1.07374182E+9      0.00000000E+0      8.20227750E-2      -7.07082319E-1      -3.87057662E-5      -2.44034454E-5
1.26575000E+9      1.07374182E+9      0.00000000E+0      -3.43603453E-1      -1.02360836E+0      -9.40170139E-6      5.39263710E-5
1.27300000E+9      1.07374182E+9      0.00000000E+0      -1.61612908E+0      -7.93717896E-1      -6.53229654E-6      1.91070139E-5
1.28025000E+9      1.07374182E+9      0.00000000E+0      -1.21535332E+0      1.10925807E+0      2.14381143E-5      -5.86481765E-5
1.28750000E+9      1.07374182E+9      0.00000000E+0      -1.59872570E-1      9.94289153E-1      1.13844872E-5      8.29249620E-6
1.29475000E+9      1.07374182E+9      0.00000000E+0      1.63239190E-1      6.60135483E-1      -2.49734148E-5      -1.80955976E-5
