! NanoVNA-App by OneOfEleven et al v1.1.209 (+OD15) 
! Date: 2024-07-30 15:20:32
! Start: 200MHz Stop: 6GHz Points: 801
! S-Parameter data: F S11 S21 S12 S22
# Hz S RI R 50
!     Frequency           S11_Real           S11_Imag           S21_Real           S21_Imag           S12_Real           S12_Imag           S22_Real           S22_Imag
      200000000   -9.985991120e-01   -1.088337675e-01    2.337992191e-05    6.185844541e-06    0.000000000e+00    0.000000000e+00    0.000000000e+00    0.000000000e+00
      207250000   -1.009587884e+00   -9.673486464e-03    3.231596202e-05    3.164540976e-05    0.000000000e+00    0.000000000e+00    0.000000000e+00    0.000000000e+00
      214500000   -1.009591460e+00    9.162265807e-02    9.939074516e-06   -2.491101623e-05    0.000000000e+00    0.000000000e+00    0.000000000e+00    0.000000000e+00
      221750000   -9.995269775e-01    1.950402707e-01    9.974464774e-07   -2.168957144e-05    0.000000000e+00    0.000000000e+00    0.000000000e+00    0.000000000e+00
      229000000   -9.785910845e-01    2.977668345e-01    7.107853889e-06   -1.701712608e-05    0.000000000e+00    0.000000000e+00    0.000000000e+00    0.000000000e+00
      236250000   -9.453594089e-01    4.008251429e-01   -1.697521657e-05   -5.796551704e-06    0.000000000e+00    0.000000000e+00    0.000000000e+00    0.000000000e+00
      243500000   -9.001658559e-01    5.004516244e-01   -2.551916987e-05    5.651265383e-06    0.000000000e+00    0.000000000e+00    0.000000000e+00    0.000000000e+00
      250750000   -8.428485990e-01    5.965981483e-01    2.204161137e-05   -8.804723620e-06    0.000000000e+00    0.000000000e+00    0.000000000e+00    0.000000000e+00
      258000000   -7.737231255e-01    6.868008375e-01   -9.411945939e-06    3.574974835e-05    0.000000000e+00    0.000000000e+00    0.000000000e+00    0.000000000e+00
      265250000   -6.925606132e-01    7.699104548e-01   -1.955777407e-08    3.144238144e-05    0.000000000e+00    0.000000000e+00    0.000000000e+00    0.000000000e+00
      272500000   -6.000468731e-01    8.440966606e-01    1.427531242e-05    5.662441254e-06    0.000000000e+00    0.000000000e+00    0.000000000e+00    0.000000000e+00
      279750000   -4.985222816e-01    9.068950415e-01   -2.175010741e-05    2.007186413e-05    0.000000000e+00    0.000000000e+00    0.000000000e+00    0.000000000e+00
      287000000   -3.861289620e-01    9.574944377e-01   -1.478847116e-05   -5.752779543e-06    0.000000000e+00    0.000000000e+00    0.000000000e+00    0.000000000e+00
      294250000   -2.681480944e-01    9.933163524e-01    1.094304025e-05    2.542510629e-06    0.000000000e+00    0.000000000e+00    0.000000000e+00    0.000000000e+00
      301500000   -1.461099088e-01    1.015414357e+00   -4.303921014e-05    2.742744982e-06    0.000000000e+00    0.000000000e+00    0.000000000e+00    0.000000000e+00
      308750000   -2.023997717e-02    1.020650983e+00   -9.440816939e-06    3.247521818e-06    0.000000000e+00    0.000000000e+00    0.000000000e+00    0.000000000e+00
      316000000    1.059629619e-01    1.009013057e+00   -4.663784057e-05    1.298263669e-06    0.000000000e+00    0.000000000e+00    0.000000000e+00    0.000000000e+00
      323250000    2.300756425e-01    9.815344214e-01    4.604458809e-06   -1.818034798e-05    0.000000000e+00    0.000000000e+00    0.000000000e+00    0.000000000e+00
      330500000    3.494407535e-01    9.387988448e-01    1.512095332e-05   -1.317821443e-06    0.000000000e+00    0.000000000e+00    0.000000000e+00    0.000000000e+00
      337750000    4.618654847e-01    8.799304366e-01    1.110136509e-06   -4.654750228e-06    0.000000000e+00    0.000000000e+00    0.000000000e+00    0.000000000e+00
      345000000    5.658908486e-01    8.088589907e-01   -1.436565071e-05   -2.569518983e-05    0.000000000e+00    0.000000000e+00    0.000000000e+00    0.000000000e+00
      352250000    6.590844989e-01    7.244726419e-01   -3.493390977e-06    2.906564623e-05    0.000000000e+00    0.000000000e+00    0.000000000e+00    0.000000000e+00
      359500000    7.404888272e-01    6.308455467e-01    2.104789019e-05    1.790095121e-05    0.000000000e+00    0.000000000e+00    0.000000000e+00    0.000000000e+00
      366750000    8.091512918e-01    5.290228128e-01   -1.658685505e-05    2.132635564e-05    0.000000000e+00    0.000000000e+00    0.000000000e+00    0.000000000e+00
      374000000    8.646364212e-01    4.192264378e-01    1.100823283e-05   -2.379901707e-05    0.000000000e+00    0.000000000e+00    0.000000000e+00    0.000000000e+00
      381250000    9.059165716e-01    3.051637113e-01   -1.687183976e-05    4.679337144e-05    0.000000000e+00    0.000000000e+00    0.000000000e+00    0.000000000e+00
      388500000    9.336898923e-01    1.900467277e-01   -1.519918442e-06   -1.657754183e-07    0.000000000e+00    0.000000000e+00    0.000000000e+00    0.000000000e+00
      395750000    9.472392797e-01    7.330264896e-02   -4.340801388e-05    7.238239050e-06    0.000000000e+00    0.000000000e+00    0.000000000e+00    0.000000000e+00
      403000000    9.478208423e-01   -4.361903667e-02    7.674098015e-07    1.721084118e-05    0.000000000e+00    0.000000000e+00    0.000000000e+00    0.000000000e+00
      410250000    9.355077744e-01   -1.584236771e-01    1.496821642e-05   -3.279745579e-05    0.000000000e+00    0.000000000e+00    0.000000000e+00    0.000000000e+00
      417500000    9.113270044e-01   -2.691308856e-01    6.668269634e-07   -2.341810614e-05    0.000000000e+00    0.000000000e+00    0.000000000e+00    0.000000000e+00
      424750000    8.748678565e-01   -3.761479259e-01    5.646608770e-06    2.296920866e-05    0.000000000e+00    0.000000000e+00    0.000000000e+00    0.000000000e+00
      432000000    8.279327154e-01   -4.776166677e-01    7.916241884e-06    2.762023360e-05    0.000000000e+00    0.000000000e+00    0.000000000e+00    0.000000000e+00
      439250000    7.713580132e-01   -5.730164051e-01   -2.792663872e-05    4.420056939e-06    0.000000000e+00    0.000000000e+00    0.000000000e+00    0.000000000e+00
      446500000    7.052072883e-01   -6.608036757e-01    6.534159184e-06   -1.456215978e-05    0.000000000e+00    0.000000000e+00    0.000000000e+00    0.000000000e+00
      453750000    6.300606728e-01   -7.415450215e-01    8.897855878e-06    4.148576409e-05    0.000000000e+00    0.000000000e+00    0.000000000e+00    0.000000000e+00
      461000000    5.481771231e-01   -8.129568696e-01   -1.101102680e-05    8.265487850e-06    0.000000000e+00    0.000000000e+00    0.000000000e+00    0.000000000e+00
      468250000    4.599452615e-01   -8.757598996e-01    0.000000000e+00    1.965649426e-05    0.000000000e+00    0.000000000e+00    0.000000000e+00    0.000000000e+00
      475500000    3.639735281e-01   -9.290161729e-01    1.625809819e-05    3.447011113e-05    0.000000000e+00    0.000000000e+00    0.000000000e+00    0.000000000e+00
      482750000    2.643451393e-01   -9.717700481e-01   -3.510154784e-06   -1.480802894e-06    0.000000000e+00    0.000000000e+00    0.000000000e+00    0.000000000e+00
      490000000    1.602438688e-01   -1.004275203e+00    3.905687481e-05   -2.294778824e-05    0.000000000e+00    0.000000000e+00    0.000000000e+00    0.000000000e+00
      497250000    5.324173346e-02   -1.025675535e+00   -4.670675844e-05    1.089647412e-07    0.000000000e+00    0.000000000e+00    0.000000000e+00    0.000000000e+00
      504500000   -5.623607337e-02   -1.036115527e+00   -9.264796972e-06   -1.855380833e-05    0.000000000e+00    0.000000000e+00    0.000000000e+00    0.000000000e+00
      511750000   -1.669417471e-01   -1.034036756e+00    8.652918041e-06    1.451466233e-05    0.000000000e+00    0.000000000e+00    0.000000000e+00    0.000000000e+00
      519000000   -2.775861323e-01   -1.020115614e+00    2.958718687e-05   -4.674959928e-05    0.000000000e+00    0.000000000e+00    0.000000000e+00    0.000000000e+00
      526250000   -3.868647218e-01   -9.938419461e-01    3.355834633e-05   -1.039635390e-05    0.000000000e+00    0.000000000e+00    0.000000000e+00    0.000000000e+00
      533500000   -4.932245016e-01   -9.555013180e-01   -6.251037121e-06    1.609046012e-05    0.000000000e+00    0.000000000e+00    0.000000000e+00    0.000000000e+00
      540750000   -5.953086019e-01   -9.051030874e-01   -6.694346666e-06   -1.897756010e-05    0.000000000e+00    0.000000000e+00    0.000000000e+00    0.000000000e+00
      548000000   -6.918889284e-01   -8.420956731e-01   -1.233909279e-05   -4.523433745e-06    0.000000000e+00    0.000000000e+00    0.000000000e+00    0.000000000e+00
      555250000   -7.803335786e-01   -7.687256336e-01   -1.022405922e-05    1.018121839e-05    0.000000000e+00    0.000000000e+00    0.000000000e+00    0.000000000e+00
      562500000   -8.609011173e-01   -6.841769218e-01   -6.835907698e-06    3.897584975e-06    0.000000000e+00    0.000000000e+00    0.000000000e+00    0.000000000e+00
      569750000   -9.312381148e-01   -5.904945135e-01   -1.020636410e-05    4.750303924e-05    0.000000000e+00    0.000000000e+00    0.000000000e+00    0.000000000e+00
      577000000   -9.899630547e-01   -4.891516566e-01   -2.958811820e-05    2.953410149e-05    0.000000000e+00    0.000000000e+00    0.000000000e+00    0.000000000e+00
      584250000   -1.036349416e+00   -3.788580596e-01   -2.425815910e-05    8.326023817e-07    0.000000000e+00    0.000000000e+00    0.000000000e+00    0.000000000e+00
      591500000   -1.069981813e+00   -2.660812736e-01    2.460274845e-05    5.689449608e-06    0.000000000e+00    0.000000000e+00    0.000000000e+00    0.000000000e+00
      598750000   -1.088579297e+00   -1.478185058e-01    4.733540118e-05   -2.043414861e-05    0.000000000e+00    0.000000000e+00    0.000000000e+00    0.000000000e+00
      606000000   -1.092678785e+00   -2.982100472e-02    1.512467861e-05   -2.440065145e-07    0.000000000e+00    0.000000000e+00    0.000000000e+00    0.000000000e+00
      613250000   -1.082353354e+00    8.855655789e-02    1.139938831e-06   -4.518032074e-05    0.000000000e+00    0.000000000e+00    0.000000000e+00    0.000000000e+00
      620500000   -1.057847619e+00    2.052288800e-01   -9.829178452e-06    4.158355296e-06    0.000000000e+00    0.000000000e+00    0.000000000e+00    0.000000000e+00
      627750000   -1.019306660e+00    3.172325194e-01   -4.817079753e-05   -2.118945122e-05    0.000000000e+00    0.000000000e+00    0.000000000e+00    0.000000000e+00
      635000000   -9.694430232e-01    4.213583469e-01   -6.482005119e-06    7.006339729e-06    0.000000000e+00    0.000000000e+00    0.000000000e+00    0.000000000e+00
      642250000   -9.059559703e-01    5.198699832e-01   -1.478567719e-05    7.841736078e-07    0.000000000e+00    0.000000000e+00    0.000000000e+00    0.000000000e+00
      649500000   -8.330501914e-01    6.077293754e-01   -1.760758460e-05   -2.254918218e-05    0.000000000e+00    0.000000000e+00    0.000000000e+00    0.000000000e+00
      656750000   -7.497541904e-01    6.862219572e-01    9.324401617e-06    2.620182931e-05    0.000000000e+00    0.000000000e+00    0.000000000e+00    0.000000000e+00
      664000000   -6.597882509e-01    7.540950775e-01    2.140738070e-05   -1.321360469e-05    0.000000000e+00    0.000000000e+00    0.000000000e+00    0.000000000e+00
      671250000   -5.627595782e-01    8.098522425e-01   -4.922505468e-05    2.472661436e-06    0.000000000e+00    0.000000000e+00    0.000000000e+00    0.000000000e+00
      678500000   -4.620061815e-01    8.543065786e-01    3.870483488e-05   -5.254056305e-05    0.000000000e+00    0.000000000e+00    0.000000000e+00    0.000000000e+00
      685750000   -3.582747877e-01    8.869540095e-01   -1.071020961e-06   -3.476534039e-05    0.000000000e+00    0.000000000e+00    0.000000000e+00    0.000000000e+00
      693000000   -2.531262338e-01    9.068064690e-01   -5.606748164e-05    2.543348819e-05    0.000000000e+00    0.000000000e+00    0.000000000e+00    0.000000000e+00
      700250000   -1.447661370e-01    9.156144857e-01   -2.743396908e-05   -1.832749695e-05    0.000000000e+00    0.000000000e+00    0.000000000e+00    0.000000000e+00
      707500000   -4.225628823e-02    9.122897983e-01   -2.866610885e-06    2.351123840e-05    0.000000000e+00    0.000000000e+00    0.000000000e+00    0.000000000e+00
      714750000    6.311820447e-02    8.989315033e-01    1.772865653e-05   -3.777164966e-05    0.000000000e+00    0.000000000e+00    0.000000000e+00    0.000000000e+00
      722000000    1.608610451e-01    8.742942810e-01    4.379823804e-05   -2.208910882e-05    0.000000000e+00    0.000000000e+00    0.000000000e+00    0.000000000e+00
      729250000    2.596364319e-01    8.398890495e-01    1.610536128e-05    8.897855878e-06    0.000000000e+00    0.000000000e+00    0.000000000e+00    0.000000000e+00
      736500000    3.498200476e-01    7.964646816e-01    1.564901322e-05   -1.192092896e-07    0.000000000e+00    0.000000000e+00    0.000000000e+00    0.000000000e+00
      743750000    4.355404377e-01    7.449936867e-01   -2.036336809e-05    1.817289740e-05    0.000000000e+00    0.000000000e+00    0.000000000e+00    0.000000000e+00
      751000000    5.161460638e-01    6.846798062e-01   -2.200715244e-06    1.252070069e-05    0.000000000e+00    0.000000000e+00    0.000000000e+00    0.000000000e+00
      758250000    5.885871649e-01    6.181181073e-01   -3.607943654e-06    3.936048597e-05    0.000000000e+00    0.000000000e+00    0.000000000e+00    0.000000000e+00
      765500000    6.548162103e-01    5.430560708e-01    2.341251820e-05   -1.212768257e-05    0.000000000e+00    0.000000000e+00    0.000000000e+00    0.000000000e+00
      772750000    7.133410573e-01    4.631721973e-01    4.635192454e-06   -1.095235348e-06    0.000000000e+00    0.000000000e+00    0.000000000e+00    0.000000000e+00
      780000000    7.621410489e-01    3.787241876e-01    2.711080015e-05    4.073604941e-06    0.000000000e+00    0.000000000e+00    0.000000000e+00    0.000000000e+00
      787250000    8.052746654e-01    2.867063582e-01   -9.975396097e-06   -3.677792847e-06    0.000000000e+00    0.000000000e+00    0.000000000e+00    0.000000000e+00
      794500000    8.379370570e-01    1.928997338e-01    4.164129496e-05    4.270114005e-06    0.000000000e+00    0.000000000e+00    0.000000000e+00    0.000000000e+00
      801750000    8.611619473e-01    9.521940351e-02    2.696178854e-06   -1.839455217e-05    0.000000000e+00    0.000000000e+00    0.000000000e+00    0.000000000e+00
      809000000    8.738147020e-01   -5.657624453e-03   -5.359202623e-05   -2.563931048e-06    0.000000000e+00    0.000000000e+00    0.000000000e+00    0.000000000e+00
      816250000    8.770316243e-01   -1.093281135e-01    4.345551133e-06   -1.128762960e-05    0.000000000e+00    0.000000000e+00    0.000000000e+00    0.000000000e+00
      823500000    8.680441380e-01   -2.130112201e-01   -2.771150321e-05    3.893114626e-05    0.000000000e+00    0.000000000e+00    0.000000000e+00    0.000000000e+00
      830750000    8.485897779e-01   -3.162148595e-01   -1.098960638e-07    1.901760697e-06    0.000000000e+00    0.000000000e+00    0.000000000e+00    0.000000000e+00
      838000000    8.178412914e-01   -4.176847339e-01   -1.098122448e-05    3.866851330e-06    0.000000000e+00    0.000000000e+00    0.000000000e+00    0.000000000e+00
      845250000    7.755243778e-01   -5.170558691e-01    3.441702574e-05    2.925656736e-05    0.000000000e+00    0.000000000e+00    0.000000000e+00    0.000000000e+00
      852500000    7.200249434e-01   -6.130696535e-01   -1.128576696e-05   -6.817281246e-07    0.000000000e+00    0.000000000e+00    0.000000000e+00    0.000000000e+00
      859750000    6.548970938e-01   -7.018213868e-01    1.162756234e-05    8.088536561e-06    0.000000000e+00    0.000000000e+00    0.000000000e+00    0.000000000e+00
      867000000    5.759634376e-01   -7.851281762e-01   -1.518055797e-06    8.673407137e-06    0.000000000e+00    0.000000000e+00    0.000000000e+00    0.000000000e+00
      874250000    4.888058305e-01   -8.573686481e-01   -3.802590072e-06    3.066472709e-05    0.000000000e+00    0.000000000e+00    0.000000000e+00    0.000000000e+00
      881500000    3.881073892e-01   -9.217652678e-01    3.094132990e-05    5.185510963e-05    0.000000000e+00    0.000000000e+00    0.000000000e+00    0.000000000e+00
      888750000    2.838516235e-01   -9.710017443e-01   -5.076639354e-06   -9.189359844e-06    0.000000000e+00    0.000000000e+00    0.000000000e+00    0.000000000e+00
      896000000    1.683620512e-01   -1.007911563e+00    4.016142339e-05    1.749303192e-05    0.000000000e+00    0.000000000e+00    0.000000000e+00    0.000000000e+00
      903250000    5.073625222e-02   -1.029903769e+00   -2.248864621e-05    1.552980393e-05    0.000000000e+00    0.000000000e+00    0.000000000e+00    0.000000000e+00
      910500000   -7.275516540e-02   -1.034939885e+00   -2.536363900e-05    3.061816096e-05    0.000000000e+00    0.000000000e+00    0.000000000e+00    0.000000000e+00
      917750000   -1.931869835e-01   -1.023671031e+00    1.605134457e-05   -1.585856080e-05    0.000000000e+00    0.000000000e+00    0.000000000e+00    0.000000000e+00
      925000000   -3.113769889e-01   -9.959568381e-01    1.346785575e-05    1.387950033e-05    0.000000000e+00    0.000000000e+00    0.000000000e+00    0.000000000e+00
      932250000   -4.268674552e-01   -9.519165158e-01   -3.617443144e-05   -4.495494068e-06    0.000000000e+00    0.000000000e+00    0.000000000e+00    0.000000000e+00
      939500000   -5.324653387e-01   -8.943231702e-01    1.196283847e-05    1.177284867e-05    0.000000000e+00    0.000000000e+00    0.000000000e+00    0.000000000e+00
      946750000   -6.287133098e-01   -8.228864074e-01    3.028661013e-06    3.981404006e-05    0.000000000e+00    0.000000000e+00    0.000000000e+00    0.000000000e+00
      954000000   -7.149366140e-01   -7.376109362e-01    5.029141903e-06    2.494454384e-05    0.000000000e+00    0.000000000e+00    0.000000000e+00    0.000000000e+00
      961250000   -7.856122851e-01   -6.477798223e-01   -1.586973667e-06    3.632158041e-06    0.000000000e+00    0.000000000e+00    0.000000000e+00    0.000000000e+00
      968500000   -8.440254927e-01   -5.462352633e-01    4.261545837e-05   -5.113892257e-06    0.000000000e+00    0.000000000e+00    0.000000000e+00    0.000000000e+00
      975750000   -8.876327872e-01   -4.432683289e-01   -6.539747119e-06   -2.524908632e-05    0.000000000e+00    0.000000000e+00    0.000000000e+00    0.000000000e+00
      983000000   -9.170247912e-01   -3.366845548e-01   -7.557682693e-06   -2.755876631e-05    0.000000000e+00    0.000000000e+00    0.000000000e+00    0.000000000e+00
      990250000   -9.326173663e-01   -2.295124829e-01    1.287180930e-05    5.698762834e-06    0.000000000e+00    0.000000000e+00    0.000000000e+00    0.000000000e+00
      997500000   -9.359113574e-01   -1.237448454e-01    5.136709660e-05   -3.188662231e-05    0.000000000e+00    0.000000000e+00    0.000000000e+00    0.000000000e+00
     1004750000   -9.259160757e-01   -2.298085578e-02   -1.163501292e-05   -6.423331797e-06    0.000000000e+00    0.000000000e+00    0.000000000e+00    0.000000000e+00
     1012000000   -9.050587416e-01    7.599648088e-02   -3.580190241e-05    1.017004251e-06    0.000000000e+00    0.000000000e+00    0.000000000e+00    0.000000000e+00
     1019250000   -8.741040826e-01    1.672690064e-01    1.988932490e-05    3.227032721e-06    0.000000000e+00    0.000000000e+00    0.000000000e+00    0.000000000e+00
     1026500000   -8.343166709e-01    2.542367578e-01   -1.799408346e-05    2.815574408e-05    0.000000000e+00    0.000000000e+00    0.000000000e+00    0.000000000e+00
     1033750000   -7.870174050e-01    3.346851766e-01    5.780719221e-06   -2.033822238e-05    0.000000000e+00    0.000000000e+00    0.000000000e+00    0.000000000e+00
     1041000000   -7.332243919e-01    4.055843949e-01   -1.047085971e-05   -2.257525921e-06    0.000000000e+00    0.000000000e+00    0.000000000e+00    0.000000000e+00
