! NanoVNA-App
! Date: 2024-06-25 16:48:06
! Start: 200MHz Stop: 1.5GHz Points: 801
! S-Parameter data: F S11 S21 S12 S22
# Hz S RI R 50
!     Frequency           S11_Real           S11_Imag           S21_Real           S21_Imag           S12_Real           S12_Imag           S22_Real           S22_Imag
      200000000   -8.519030213e-01    1.388335079e-01    1.697957487e-04    6.847820623e-05    0.000000000e+00    0.000000000e+00    0.000000000e+00    0.000000000e+00
      201625000   -8.462717533e-01    1.655036658e-01    1.950909791e-04    5.792749653e-05    0.000000000e+00    0.000000000e+00    0.000000000e+00    0.000000000e+00
      203250000   -8.395484686e-01    1.920060664e-01    2.189034276e-04    4.210048428e-05    0.000000000e+00    0.000000000e+00    0.000000000e+00    0.000000000e+00
      204875000   -8.321886659e-01    2.179523557e-01    2.258806053e-04    6.986982771e-05    0.000000000e+00    0.000000000e+00    0.000000000e+00    0.000000000e+00
      206500000   -8.237942457e-01    2.435812056e-01    2.342577209e-04    5.889382737e-05    0.000000000e+00    0.000000000e+00    0.000000000e+00    0.000000000e+00
      208125000   -8.146138191e-01    2.689380050e-01    2.558354172e-04    5.472196062e-05    0.000000000e+00    0.000000000e+00    0.000000000e+00    0.000000000e+00
      209750000   -8.044852018e-01    2.940700054e-01    2.597293060e-04    8.052242629e-05    0.000000000e+00    0.000000000e+00    0.000000000e+00    0.000000000e+00
      211375000   -7.933337688e-01    3.183225989e-01    2.835665946e-04    8.812996384e-05    0.000000000e+00    0.000000000e+00    0.000000000e+00    0.000000000e+00
      213000000   -7.816371322e-01    3.421581984e-01    2.830552112e-04    1.096392079e-04    0.000000000e+00    0.000000000e+00    0.000000000e+00    0.000000000e+00
      214625000   -7.691254020e-01    3.655669391e-01    2.814297331e-04    1.205751760e-04    0.000000000e+00    0.000000000e+00    0.000000000e+00    0.000000000e+00
      216250000   -7.553763986e-01    3.884286880e-01    2.967387263e-04    1.080733127e-04    0.000000000e+00    0.000000000e+00    0.000000000e+00    0.000000000e+00
      217875000   -7.413273454e-01    4.106416106e-01    2.779292699e-04    1.171709009e-04    0.000000000e+00    0.000000000e+00    0.000000000e+00    0.000000000e+00
      219500000   -7.265288830e-01    4.322888255e-01    3.025851911e-04    1.190980765e-04    0.000000000e+00    0.000000000e+00    0.000000000e+00    0.000000000e+00
      221125000   -7.109314799e-01    4.532653689e-01    2.888235031e-04    1.316995913e-04    0.000000000e+00    0.000000000e+00    0.000000000e+00    0.000000000e+00
      222750000   -6.947616339e-01    4.736392796e-01    2.952595241e-04    1.433431753e-04    0.000000000e+00    0.000000000e+00    0.000000000e+00    0.000000000e+00
      224375000   -6.778818965e-01    4.934223592e-01    3.044224577e-04    1.326769707e-04    0.000000000e+00    0.000000000e+00    0.000000000e+00    0.000000000e+00
      226000000   -6.603749394e-01    5.123158097e-01    2.959395351e-04    1.382769697e-04    0.000000000e+00    0.000000000e+00    0.000000000e+00    0.000000000e+00
      227625000   -6.424852014e-01    5.307267308e-01    3.304876154e-04    1.160661777e-04    0.000000000e+00    0.000000000e+00    0.000000000e+00    0.000000000e+00
      229250000   -6.239387393e-01    5.482624769e-01    3.218522470e-04    1.473734010e-04    0.000000000e+00    0.000000000e+00    0.000000000e+00    0.000000000e+00
      230875000   -6.048845649e-01    5.652308464e-01    3.151055134e-04    1.108807337e-04    0.000000000e+00    0.000000000e+00    0.000000000e+00    0.000000000e+00
      232500000   -5.854848027e-01    5.816786289e-01    3.319690004e-04    1.313822286e-04    0.000000000e+00    0.000000000e+00    0.000000000e+00    0.000000000e+00
      234125000   -5.655727983e-01    5.968448520e-01    3.260848753e-04    1.550572197e-04    0.000000000e+00    0.000000000e+00    0.000000000e+00    0.000000000e+00
      235750000   -5.453844666e-01    6.116679311e-01    3.227711131e-04    1.468653063e-04    0.000000000e+00    0.000000000e+00    0.000000000e+00    0.000000000e+00
      237375000   -5.245044231e-01    6.255211830e-01    3.424087481e-04    1.389378158e-04    0.000000000e+00    0.000000000e+00    0.000000000e+00    0.000000000e+00
      239000000   -5.033965111e-01    6.387579441e-01    3.324653953e-04    1.385915093e-04    0.000000000e+00    0.000000000e+00    0.000000000e+00    0.000000000e+00
      240625000   -4.820286632e-01    6.513121724e-01    3.571105190e-04    1.202659114e-04    0.000000000e+00    0.000000000e+00    0.000000000e+00    0.000000000e+00
      242250000   -4.599768519e-01    6.630398631e-01    3.585235099e-04    1.309174113e-04    0.000000000e+00    0.000000000e+00    0.000000000e+00    0.000000000e+00
      243875000   -4.377397299e-01    6.740441322e-01    3.395313979e-04    1.296717965e-04    0.000000000e+00    0.000000000e+00    0.000000000e+00    0.000000000e+00
      245500000   -4.155211151e-01    6.844587326e-01    3.498130245e-04    1.483053202e-04    0.000000000e+00    0.000000000e+00    0.000000000e+00    0.000000000e+00
      247125000   -3.929391503e-01    6.940119267e-01    3.387637844e-04    1.360909519e-04    0.000000000e+00    0.000000000e+00    0.000000000e+00    0.000000000e+00
      248750000   -3.700045049e-01    7.027617097e-01    3.485047491e-04    1.347651269e-04    0.000000000e+00    0.000000000e+00    0.000000000e+00    0.000000000e+00
      250375000   -3.472619951e-01    7.108502984e-01    3.582061618e-04    1.557344367e-04    0.000000000e+00    0.000000000e+00    0.000000000e+00    0.000000000e+00
      252000000   -3.244371116e-01    7.178750634e-01    3.655622422e-04    1.433911675e-04    0.000000000e+00    0.000000000e+00    0.000000000e+00    0.000000000e+00
      253625000   -3.015972972e-01    7.243605256e-01    3.703914117e-04    1.295978145e-04    0.000000000e+00    0.000000000e+00    0.000000000e+00    0.000000000e+00
      255250000   -2.786911130e-01    7.301927805e-01    3.616261820e-04    1.643382857e-04    0.000000000e+00    0.000000000e+00    0.000000000e+00    0.000000000e+00
      256875000   -2.556279600e-01    7.349881530e-01    3.592805879e-04    1.618382812e-04    0.000000000e+00    0.000000000e+00    0.000000000e+00    0.000000000e+00
      258500000   -2.327789664e-01    7.392300367e-01    3.598934563e-04    1.381133334e-04    0.000000000e+00    0.000000000e+00    0.000000000e+00    0.000000000e+00
      260125000   -2.098520398e-01    7.426773310e-01    3.459775180e-04    1.449540578e-04    0.000000000e+00    0.000000000e+00    0.000000000e+00    0.000000000e+00
      261750000   -1.869169921e-01    7.456454039e-01    3.585147206e-04    1.405433286e-04    0.000000000e+00    0.000000000e+00    0.000000000e+00    0.000000000e+00
      263375000   -1.641008705e-01    7.474645972e-01    3.763476270e-04    1.479163184e-04    0.000000000e+00    0.000000000e+00    0.000000000e+00    0.000000000e+00
      265000000   -1.412563622e-01    7.486090660e-01    3.798077523e-04    1.240703568e-04    0.000000000e+00    0.000000000e+00    0.000000000e+00    0.000000000e+00
      266625000   -1.187259704e-01    7.492707372e-01    3.658169589e-04    1.361764298e-04    0.000000000e+00    0.000000000e+00    0.000000000e+00    0.000000000e+00
      268250000   -9.598726779e-02    7.492965460e-01    3.642539377e-04    1.586030121e-04    0.000000000e+00    0.000000000e+00    0.000000000e+00    0.000000000e+00
      269875000   -7.359424233e-02    7.484763861e-01    3.720604582e-04    1.435929735e-04    0.000000000e+00    0.000000000e+00    0.000000000e+00    0.000000000e+00
      271500000   -5.127190426e-02    7.471559644e-01    3.672816965e-04    1.394928258e-04    0.000000000e+00    0.000000000e+00    0.000000000e+00    0.000000000e+00
      273125000   -2.926891670e-02    7.453086376e-01    3.531529510e-04    1.139566448e-04    0.000000000e+00    0.000000000e+00    0.000000000e+00    0.000000000e+00
      274750000   -7.332555018e-03    7.426993847e-01    3.755908983e-04    1.072611049e-04    0.000000000e+00    0.000000000e+00    0.000000000e+00    0.000000000e+00
      276375000    1.433837973e-02    7.395311594e-01    3.429088683e-04    1.448502444e-04    0.000000000e+00    0.000000000e+00    0.000000000e+00    0.000000000e+00
      278000000    3.578313068e-02    7.355158925e-01    3.719806846e-04    1.176561855e-04    0.000000000e+00    0.000000000e+00    0.000000000e+00    0.000000000e+00
      279625000    5.708362535e-02    7.312051654e-01    3.491059470e-04    1.365123171e-04    0.000000000e+00    0.000000000e+00    0.000000000e+00    0.000000000e+00
      281250000    7.827344537e-02    7.265377641e-01    3.486684291e-04    1.307931961e-04    0.000000000e+00    0.000000000e+00    0.000000000e+00    0.000000000e+00
      282875000    9.892807156e-02    7.208234668e-01    3.294909548e-04    1.264934690e-04    0.000000000e+00    0.000000000e+00    0.000000000e+00    0.000000000e+00
      284500000    1.193087175e-01    7.148305178e-01    3.452645615e-04    1.226300228e-04    0.000000000e+00    0.000000000e+00    0.000000000e+00    0.000000000e+00
      286125000    1.398048848e-01    7.083310485e-01    3.405493044e-04    1.117216307e-04    0.000000000e+00    0.000000000e+00    0.000000000e+00    0.000000000e+00
      287750000    1.597892791e-01    7.013037801e-01    3.161022323e-04    1.223670697e-04    0.000000000e+00    0.000000000e+00    0.000000000e+00    0.000000000e+00
      289375000    1.793457568e-01    6.934908628e-01    3.289810847e-04    1.066124096e-04    0.000000000e+00    0.000000000e+00    0.000000000e+00    0.000000000e+00
      291000000    9.425762296e-02    6.533144712e-01    4.136296775e-05    2.316158498e-05    0.000000000e+00    0.000000000e+00    0.000000000e+00    0.000000000e+00
      292625000    1.131496653e-01    6.464110613e-01   -1.666602475e-04   -5.606449122e-05    0.000000000e+00    0.000000000e+00    0.000000000e+00    0.000000000e+00
      294250000    1.316188574e-01    6.406951547e-01   -1.657924149e-04   -4.356274076e-06    0.000000000e+00    0.000000000e+00    0.000000000e+00    0.000000000e+00
      295875000    1.493893862e-01    6.331724524e-01   -9.554495773e-05    8.561447612e-05    0.000000000e+00    0.000000000e+00    0.000000000e+00    0.000000000e+00
      297500000    1.669643074e-01    6.254289746e-01   -5.692607738e-05   -4.054570309e-05    0.000000000e+00    0.000000000e+00    0.000000000e+00    0.000000000e+00
      299125000    1.845245510e-01    6.184449196e-01   -4.083892418e-05    7.772979006e-05    0.000000000e+00    0.000000000e+00    0.000000000e+00    0.000000000e+00
      300750000    2.010715455e-01    6.093465090e-01   -9.356183728e-05    2.926427260e-05    0.000000000e+00    0.000000000e+00    0.000000000e+00    0.000000000e+00
      302375000    2.178068310e-01    6.008976102e-01    1.718416388e-05    5.546229295e-05    0.000000000e+00    0.000000000e+00    0.000000000e+00    0.000000000e+00
      304000000    2.343838364e-01    5.916177034e-01   -3.073101107e-05    1.620618277e-04    0.000000000e+00    0.000000000e+00    0.000000000e+00    0.000000000e+00
      305625000    2.503639460e-01    5.823084116e-01   -5.714126382e-05   -1.299604628e-04    0.000000000e+00    0.000000000e+00    0.000000000e+00    0.000000000e+00
      307250000    2.688927948e-01    5.728207231e-01   -2.892364282e-04    4.915459795e-05    0.000000000e+00    0.000000000e+00    0.000000000e+00    0.000000000e+00
      308875000    2.810011506e-01    5.620802045e-01   -3.316660514e-05   -2.351387229e-05    0.000000000e+00    0.000000000e+00    0.000000000e+00    0.000000000e+00
      310500000    2.961291969e-01    5.519735217e-01   -1.183948189e-05   -8.320307097e-05    0.000000000e+00    0.000000000e+00    0.000000000e+00    0.000000000e+00
      312125000    3.105022609e-01    5.405772924e-01   -5.761351349e-05    3.601368371e-05    0.000000000e+00    0.000000000e+00    0.000000000e+00    0.000000000e+00
      313750000    3.248401880e-01    5.300228000e-01   -8.956919919e-05    1.423648646e-04    0.000000000e+00    0.000000000e+00    0.000000000e+00    0.000000000e+00
      315375000    3.382085860e-01    5.179629326e-01   -7.423729403e-05   -6.241380470e-05    0.000000000e+00    0.000000000e+00    0.000000000e+00    0.000000000e+00
      317000000    3.516152799e-01    5.064669847e-01   -2.605920963e-05    3.096196087e-05    0.000000000e+00    0.000000000e+00    0.000000000e+00    0.000000000e+00
      318625000    3.646505177e-01    4.945427775e-01   -1.724581125e-05   -3.181342618e-05    0.000000000e+00    0.000000000e+00    0.000000000e+00    0.000000000e+00
      320250000    3.774056137e-01    4.818956554e-01   -1.709337230e-04    9.054195834e-05    0.000000000e+00    0.000000000e+00    0.000000000e+00    0.000000000e+00
      321875000    3.897020221e-01    4.695600867e-01   -1.072797968e-04   -4.892968718e-05    0.000000000e+00    0.000000000e+00    0.000000000e+00    0.000000000e+00
      323500000    4.011587501e-01    4.573025405e-01   -1.452614815e-04    9.108936501e-05    0.000000000e+00    0.000000000e+00    0.000000000e+00    0.000000000e+00
      325125000    4.127787948e-01    4.439648092e-01    6.924165791e-05   -5.433465776e-05    0.000000000e+00    0.000000000e+00    0.000000000e+00    0.000000000e+00
      326750000    4.238180220e-01    4.305257499e-01    8.745615924e-05   -4.193535278e-05    0.000000000e+00    0.000000000e+00    0.000000000e+00    0.000000000e+00
      328375000    4.340644181e-01    4.172025025e-01    3.369563274e-05   -1.784298001e-05    0.000000000e+00    0.000000000e+00    0.000000000e+00    0.000000000e+00
      330000000    4.441942275e-01    4.036196470e-01   -9.372662316e-05   -2.060917177e-05    0.000000000e+00    0.000000000e+00    0.000000000e+00    0.000000000e+00
      331625000    4.545565248e-01    3.903663158e-01    9.454652741e-07    3.564697909e-05    0.000000000e+00    0.000000000e+00    0.000000000e+00    0.000000000e+00
      333250000    4.637610614e-01    3.763289452e-01   -3.422878945e-05    3.999162800e-05    0.000000000e+00    0.000000000e+00    0.000000000e+00    0.000000000e+00
      334875000    4.724991918e-01    3.624921739e-01   -9.548370872e-05    1.482660991e-05    0.000000000e+00    0.000000000e+00    0.000000000e+00    0.000000000e+00
      336500000    4.814656377e-01    3.484185636e-01   -1.229195914e-04    1.671473874e-04    0.000000000e+00    0.000000000e+00    0.000000000e+00    0.000000000e+00
      338125000    4.894793630e-01    3.342243731e-01   -8.693234122e-05    1.113156122e-05    0.000000000e+00    0.000000000e+00    0.000000000e+00    0.000000000e+00
      339750000    4.972973168e-01    3.203008175e-01   -1.434162987e-04    4.701639045e-05    0.000000000e+00    0.000000000e+00    0.000000000e+00    0.000000000e+00
      341375000    5.052484870e-01    3.056181073e-01   -1.328603830e-04    7.829404058e-05    0.000000000e+00    0.000000000e+00    0.000000000e+00    0.000000000e+00
      343000000    5.124191046e-01    2.910463810e-01   -4.159043237e-05    2.609171497e-05    0.000000000e+00    0.000000000e+00    0.000000000e+00    0.000000000e+00
      344625000    5.190654397e-01    2.765760720e-01   -1.937391244e-05    8.651685494e-05    0.000000000e+00    0.000000000e+00    0.000000000e+00    0.000000000e+00
      346250000    5.252441764e-01    2.617104053e-01    1.456954760e-05   -2.002302244e-05    0.000000000e+00    0.000000000e+00    0.000000000e+00    0.000000000e+00
      347875000    5.316696763e-01    2.469853759e-01   -6.051473247e-05    4.522071686e-05    0.000000000e+00    0.000000000e+00    0.000000000e+00    0.000000000e+00
      349500000    5.371533632e-01    2.323323488e-01   -1.152645345e-04   -1.646672536e-05    0.000000000e+00    0.000000000e+00    0.000000000e+00    0.000000000e+00
      351125000    5.424830317e-01    2.173490524e-01   -1.131367098e-04   -1.622889431e-05    0.000000000e+00    0.000000000e+00    0.000000000e+00    0.000000000e+00
      352750000    5.472226739e-01    2.025729567e-01    1.743764915e-05   -2.525371929e-05    0.000000000e+00    0.000000000e+00    0.000000000e+00    0.000000000e+00
      354375000    5.520447493e-01    1.874017119e-01   -4.721694131e-05   -5.260348917e-05    0.000000000e+00    0.000000000e+00    0.000000000e+00    0.000000000e+00
      356000000    5.561841130e-01    1.727803349e-01    5.220017556e-05   -4.597834049e-06    0.000000000e+00    0.000000000e+00    0.000000000e+00    0.000000000e+00
      357625000    5.601368546e-01    1.577913165e-01   -3.266311251e-05    2.693979877e-05    0.000000000e+00    0.000000000e+00    0.000000000e+00    0.000000000e+00
      359250000    5.635479093e-01    1.426879168e-01   -6.237002526e-05   -1.427092502e-04    0.000000000e+00    0.000000000e+00    0.000000000e+00    0.000000000e+00
      360875000    5.667807460e-01    1.279337555e-01   -1.594780770e-04    7.904522499e-05    0.000000000e+00    0.000000000e+00    0.000000000e+00    0.000000000e+00
      362500000    5.698023438e-01    1.128422841e-01   -1.274935639e-04   -7.610163448e-05    0.000000000e+00    0.000000000e+00    0.000000000e+00    0.000000000e+00
      364125000    5.723007321e-01    9.788637608e-02   -9.011363545e-06   -4.401674960e-05    0.000000000e+00    0.000000000e+00    0.000000000e+00    0.000000000e+00
      365750000    5.745923519e-01    8.299525082e-02    2.888838571e-05    7.763473695e-05    0.000000000e+00    0.000000000e+00    0.000000000e+00    0.000000000e+00
      367375000    5.765295029e-01    6.804690510e-02   -1.483384985e-04    4.185157013e-05    0.000000000e+00    0.000000000e+00    0.000000000e+00    0.000000000e+00
      369000000    5.782219172e-01    5.329236016e-02   -1.120767047e-04    1.593685010e-04    0.000000000e+00    0.000000000e+00    0.000000000e+00    0.000000000e+00
      370625000    5.795291662e-01    3.827830777e-02   -7.263728185e-05   -5.906531442e-06    0.000000000e+00    0.000000000e+00    0.000000000e+00    0.000000000e+00
      372250000    5.806728601e-01    2.333113179e-02   -1.049887796e-04   -8.612672536e-05    0.000000000e+00    0.000000000e+00    0.000000000e+00    0.000000000e+00
      373875000    5.811347365e-01    8.581341244e-03   -3.392106373e-05    1.195471705e-04    0.000000000e+00    0.000000000e+00    0.000000000e+00    0.000000000e+00
      375500000    5.812498331e-01   -6.136694923e-03   -3.066048885e-05   -1.362445619e-04    0.000000000e+00    0.000000000e+00    0.000000000e+00    0.000000000e+00
      377125000    5.809307098e-01   -2.094962075e-02   -9.135217260e-05    8.655069541e-05    0.000000000e+00    0.000000000e+00    0.000000000e+00    0.000000000e+00
      378750000    5.810205340e-01   -3.551266342e-02   -1.781831379e-04   -1.815117139e-05    0.000000000e+00    0.000000000e+00    0.000000000e+00    0.000000000e+00
      380375000    5.802243948e-01   -5.020021647e-02   -1.336664573e-04    6.308866432e-05    0.000000000e+00    0.000000000e+00    0.000000000e+00    0.000000000e+00
      382000000    5.792629719e-01   -6.503582001e-02   -5.267536835e-05    9.754769417e-05    0.000000000e+00    0.000000000e+00    0.000000000e+00    0.000000000e+00
      383625000    5.780194998e-01   -7.923058420e-02   -1.651587663e-04   -8.585330761e-06    0.000000000e+00    0.000000000e+00    0.000000000e+00    0.000000000e+00
      385250000    5.766319633e-01   -9.385844320e-02   -1.739543804e-04    2.291784476e-04    0.000000000e+00    0.000000000e+00    0.000000000e+00    0.000000000e+00
      386875000    5.747102499e-01   -1.081628725e-01   -3.038575051e-05    2.162540477e-04    0.000000000e+00    0.000000000e+00    0.000000000e+00    0.000000000e+00
      388500000    5.723689198e-01   -1.223554313e-01   -1.033414082e-04    7.332026144e-05    0.000000000e+00    0.000000000e+00    0.000000000e+00    0.000000000e+00
