! NanoVNA-App
! Date: 2024-06-25 16:48:09
! Start: 200MHz Stop: 1.5GHz Points: 801
! S-Parameter data: F S11 S21 S12 S22
# Hz S RI R 50
!     Frequency           S11_Real           S11_Imag           S21_Real           S21_Imag           S12_Real           S12_Imag           S22_Real           S22_Imag
      200000000   -8.518717885e-01    1.387408078e-01    1.647589961e-04    6.798556569e-05    0.000000000e+00    0.000000000e+00    0.000000000e+00    0.000000000e+00
      201625000   -8.462858200e-01    1.655206233e-01    2.086274617e-04    4.827388329e-05    0.000000000e+00    0.000000000e+00    0.000000000e+00    0.000000000e+00
      203250000   -8.395910859e-01    1.919012666e-01    2.240765753e-04    7.494613965e-05    0.000000000e+00    0.000000000e+00    0.000000000e+00    0.000000000e+00
      204875000   -8.322470784e-01    2.179678679e-01    2.316160972e-04    6.643915549e-05    0.000000000e+00    0.000000000e+00    0.000000000e+00    0.000000000e+00
      206500000   -8.238274455e-01    2.435607016e-01    2.279627661e-04    4.427902604e-05    0.000000000e+00    0.000000000e+00    0.000000000e+00    0.000000000e+00
      208125000   -8.147112727e-01    2.689116001e-01    2.598230785e-04    7.435963198e-05    0.000000000e+00    0.000000000e+00    0.000000000e+00    0.000000000e+00
      209750000   -8.044967055e-01    2.938461602e-01    2.603829780e-04    9.808745381e-05    0.000000000e+00    0.000000000e+00    0.000000000e+00    0.000000000e+00
      211375000   -7.933084965e-01    3.182910979e-01    2.662035404e-04    8.766966494e-05    0.000000000e+00    0.000000000e+00    0.000000000e+00    0.000000000e+00
      213000000   -7.815116048e-01    3.420873880e-01    2.433453483e-04    9.831337957e-05    0.000000000e+00    0.000000000e+00    0.000000000e+00    0.000000000e+00
      214625000   -7.688609362e-01    3.654318750e-01    2.866666473e-04    9.957449947e-05    0.000000000e+00    0.000000000e+00    0.000000000e+00    0.000000000e+00
      216250000   -7.555582523e-01    3.883328140e-01    2.828808210e-04    1.041684227e-04    0.000000000e+00    0.000000000e+00    0.000000000e+00    0.000000000e+00
      217875000   -7.413232923e-01    4.106011391e-01    2.825035481e-04    1.237961551e-04    0.000000000e+00    0.000000000e+00    0.000000000e+00    0.000000000e+00
      219500000   -7.265240550e-01    4.321851134e-01    2.913304197e-04    1.284106547e-04    0.000000000e+00    0.000000000e+00    0.000000000e+00    0.000000000e+00
      221125000   -7.110718489e-01    4.533084631e-01    3.036731214e-04    1.106138006e-04    0.000000000e+00    0.000000000e+00    0.000000000e+00    0.000000000e+00
      222750000   -6.946636438e-01    4.737939835e-01    3.063373151e-04    1.313080138e-04    0.000000000e+00    0.000000000e+00    0.000000000e+00    0.000000000e+00
      224375000   -6.779662967e-01    4.933187664e-01    3.031029191e-04    1.357017318e-04    0.000000000e+00    0.000000000e+00    0.000000000e+00    0.000000000e+00
      226000000   -6.604362130e-01    5.126930475e-01    3.198008926e-04    1.226632885e-04    0.000000000e+00    0.000000000e+00    0.000000000e+00    0.000000000e+00
      227625000   -6.425763369e-01    5.307098031e-01    3.088069789e-04    1.301342709e-04    0.000000000e+00    0.000000000e+00    0.000000000e+00    0.000000000e+00
      229250000   -6.239057779e-01    5.486657023e-01    3.434701648e-04    1.228434267e-04    0.000000000e+00    0.000000000e+00    0.000000000e+00    0.000000000e+00
      230875000   -6.047700644e-01    5.651990771e-01    3.157517349e-04    1.634010259e-04    0.000000000e+00    0.000000000e+00    0.000000000e+00    0.000000000e+00
      232500000   -5.856925249e-01    5.816897750e-01    3.419115965e-04    1.277246483e-04    0.000000000e+00    0.000000000e+00    0.000000000e+00    0.000000000e+00
      234125000   -5.656036735e-01    5.968567133e-01    3.407158656e-04    1.611624175e-04    0.000000000e+00    0.000000000e+00    0.000000000e+00    0.000000000e+00
      235750000   -5.452543497e-01    6.118232012e-01    3.582703648e-04    1.437509200e-04    0.000000000e+00    0.000000000e+00    0.000000000e+00    0.000000000e+00
      237375000   -5.244548321e-01    6.254059672e-01    3.333679342e-04    1.511894079e-04    0.000000000e+00    0.000000000e+00    0.000000000e+00    0.000000000e+00
      239000000   -5.034893751e-01    6.387304664e-01    3.317260707e-04    1.492674492e-04    0.000000000e+00    0.000000000e+00    0.000000000e+00    0.000000000e+00
      240625000   -4.819760025e-01    6.511567235e-01    3.339710529e-04    1.491547446e-04    0.000000000e+00    0.000000000e+00    0.000000000e+00    0.000000000e+00
      242250000   -4.600180387e-01    6.629135013e-01    3.613732406e-04    1.314276014e-04    0.000000000e+00    0.000000000e+00    0.000000000e+00    0.000000000e+00
      243875000   -4.380513728e-01    6.739990115e-01    3.203389060e-04    1.410067925e-04    0.000000000e+00    0.000000000e+00    0.000000000e+00    0.000000000e+00
      245500000   -4.155396521e-01    6.843513846e-01    3.605339734e-04    1.461152133e-04    0.000000000e+00    0.000000000e+00    0.000000000e+00    0.000000000e+00
      247125000   -3.929474354e-01    6.939659119e-01    3.655893088e-04    1.688199554e-04    0.000000000e+00    0.000000000e+00    0.000000000e+00    0.000000000e+00
      248750000   -3.702031672e-01    7.027453184e-01    3.520475293e-04    1.323666511e-04    0.000000000e+00    0.000000000e+00    0.000000000e+00    0.000000000e+00
      250375000   -3.474323153e-01    7.106845975e-01    3.516770666e-04    1.389722020e-04    0.000000000e+00    0.000000000e+00    0.000000000e+00    0.000000000e+00
      252000000   -3.244262636e-01    7.180224657e-01    3.525433131e-04    1.383544732e-04    0.000000000e+00    0.000000000e+00    0.000000000e+00    0.000000000e+00
      253625000   -3.015758395e-01    7.244117856e-01    3.506229841e-04    1.409601828e-04    0.000000000e+00    0.000000000e+00    0.000000000e+00    0.000000000e+00
      255250000   -2.785836458e-01    7.300198078e-01    3.683769319e-04    1.630761981e-04    0.000000000e+00    0.000000000e+00    0.000000000e+00    0.000000000e+00
      256875000   -2.556052208e-01    7.349302769e-01    3.545713844e-04    1.361182658e-04    0.000000000e+00    0.000000000e+00    0.000000000e+00    0.000000000e+00
      258500000   -2.327756137e-01    7.392820716e-01    3.473158285e-04    1.445904199e-04    0.000000000e+00    0.000000000e+00    0.000000000e+00    0.000000000e+00
      260125000   -2.097797096e-01    7.427312732e-01    3.705076815e-04    1.348203368e-04    0.000000000e+00    0.000000000e+00    0.000000000e+00    0.000000000e+00
      261750000   -1.868053377e-01    7.457065582e-01    3.720137756e-04    1.555112831e-04    0.000000000e+00    0.000000000e+00    0.000000000e+00    0.000000000e+00
      263375000   -1.640342027e-01    7.475931048e-01    3.735063365e-04    1.513804455e-04    0.000000000e+00    0.000000000e+00    0.000000000e+00    0.000000000e+00
      265000000   -1.412001848e-01    7.486705184e-01    3.636780893e-04    1.393087878e-04    0.000000000e+00    0.000000000e+00    0.000000000e+00    0.000000000e+00
      266625000   -1.186250374e-01    7.494245768e-01    3.719123488e-04    1.229251648e-04    0.000000000e+00    0.000000000e+00    0.000000000e+00    0.000000000e+00
      268250000   -9.617589414e-02    7.493079305e-01    3.482853062e-04    1.378344605e-04    0.000000000e+00    0.000000000e+00    0.000000000e+00    0.000000000e+00
      269875000   -7.374826074e-02    7.484899759e-01    3.644163371e-04    1.372817351e-04    0.000000000e+00    0.000000000e+00    0.000000000e+00    0.000000000e+00
      271500000   -5.138104409e-02    7.472210526e-01    3.969557874e-04    1.569981978e-04    0.000000000e+00    0.000000000e+00    0.000000000e+00    0.000000000e+00
      273125000   -2.933618426e-02    7.450928688e-01    3.737868101e-04    1.355904096e-04    0.000000000e+00    0.000000000e+00    0.000000000e+00    0.000000000e+00
      274750000   -7.513928693e-03    7.427209616e-01    3.704003757e-04    1.107879725e-04    0.000000000e+00    0.000000000e+00    0.000000000e+00    0.000000000e+00
      276375000    1.427083649e-02    7.392941713e-01    3.642559459e-04    1.416588784e-04    0.000000000e+00    0.000000000e+00    0.000000000e+00    0.000000000e+00
      278000000    3.570718318e-02    7.355961204e-01    3.648246930e-04    1.589454914e-04    0.000000000e+00    0.000000000e+00    0.000000000e+00    0.000000000e+00
      279625000    5.706775934e-02    7.312238216e-01    3.717400250e-04    1.174293502e-04    0.000000000e+00    0.000000000e+00    0.000000000e+00    0.000000000e+00
      281250000    7.814443856e-02    7.263663411e-01    3.408489574e-04    1.326723868e-04    0.000000000e+00    0.000000000e+00    0.000000000e+00    0.000000000e+00
      282875000    9.878358990e-02    7.208288908e-01    3.582320351e-04    1.356540015e-04    0.000000000e+00    0.000000000e+00    0.000000000e+00    0.000000000e+00
      284500000    1.194073036e-01    7.147724628e-01    3.224190441e-04    1.179649698e-04    0.000000000e+00    0.000000000e+00    0.000000000e+00    0.000000000e+00
      286125000    1.396487355e-01    7.082298398e-01    3.287269792e-04    1.234423253e-04    0.000000000e+00    0.000000000e+00    0.000000000e+00    0.000000000e+00
      287750000    1.596813202e-01    7.012695074e-01    3.442711604e-04    1.192119089e-04    0.000000000e+00    0.000000000e+00    0.000000000e+00    0.000000000e+00
      289375000    1.792630702e-01    6.935229301e-01    3.178723855e-04    1.225620072e-04    0.000000000e+00    0.000000000e+00    0.000000000e+00    0.000000000e+00
      291000000    9.420556575e-02    6.530262232e-01   -1.256073301e-04    1.639089751e-04    0.000000000e+00    0.000000000e+00    0.000000000e+00    0.000000000e+00
      292625000    1.129994988e-01    6.472976804e-01    1.180339950e-05   -1.116245912e-04    0.000000000e+00    0.000000000e+00    0.000000000e+00    0.000000000e+00
      294250000    1.311433017e-01    6.402949691e-01    5.761165448e-05    2.018050727e-04    0.000000000e+00    0.000000000e+00    0.000000000e+00    0.000000000e+00
      295875000    1.496199965e-01    6.334388256e-01    2.786546975e-05    1.727778181e-05    0.000000000e+00    0.000000000e+00    0.000000000e+00    0.000000000e+00
      297500000    1.669496447e-01    6.254509091e-01    8.544637967e-05    3.632527660e-05    0.000000000e+00    0.000000000e+00    0.000000000e+00    0.000000000e+00
      299125000    1.844200194e-01    6.185227633e-01   -1.290121145e-04    9.142613999e-05    0.000000000e+00    0.000000000e+00    0.000000000e+00    0.000000000e+00
      300750000    2.011194676e-01    6.091890931e-01   -1.135274852e-05    3.496792488e-05    0.000000000e+00    0.000000000e+00    0.000000000e+00    0.000000000e+00
      302375000    2.177926302e-01    6.009834409e-01    7.496559647e-06   -8.796176553e-05    0.000000000e+00    0.000000000e+00    0.000000000e+00    0.000000000e+00
      304000000    2.336891145e-01    5.915304422e-01   -5.850579691e-05    6.853235391e-05    0.000000000e+00    0.000000000e+00    0.000000000e+00    0.000000000e+00
      305625000    2.504848242e-01    5.818364620e-01   -1.027855797e-05    7.618323434e-05    0.000000000e+00    0.000000000e+00    0.000000000e+00    0.000000000e+00
      307250000    2.665224373e-01    5.752609968e-01   -8.506346057e-05    5.281189715e-06    0.000000000e+00    0.000000000e+00    0.000000000e+00    0.000000000e+00
      308875000    2.811425328e-01    5.621964335e-01   -1.282606972e-04   -8.144145249e-05    0.000000000e+00    0.000000000e+00    0.000000000e+00    0.000000000e+00
      310500000    2.962633371e-01    5.517397523e-01   -2.148517378e-04    8.268600504e-05    0.000000000e+00    0.000000000e+00    0.000000000e+00    0.000000000e+00
      312125000    3.102428913e-01    5.405885577e-01    1.785212771e-05   -7.180076500e-05    0.000000000e+00    0.000000000e+00    0.000000000e+00    0.000000000e+00
      313750000    3.242315054e-01    5.296083689e-01   -1.905433892e-04   -3.899427975e-05    0.000000000e+00    0.000000000e+00    0.000000000e+00    0.000000000e+00
      315375000    3.379576206e-01    5.178750157e-01   -1.273933449e-04   -1.165551566e-05    0.000000000e+00    0.000000000e+00    0.000000000e+00    0.000000000e+00
      317000000    3.519773483e-01    5.063384175e-01    7.339408330e-05    1.538543620e-05    0.000000000e+00    0.000000000e+00    0.000000000e+00    0.000000000e+00
      318625000    3.647466898e-01    4.944812059e-01   -6.033298268e-05    3.885511251e-05    0.000000000e+00    0.000000000e+00    0.000000000e+00    0.000000000e+00
      320250000    3.773376644e-01    4.820805490e-01   -1.162121680e-05   -1.850587723e-04    0.000000000e+00    0.000000000e+00    0.000000000e+00    0.000000000e+00
      321875000    3.895865083e-01    4.699635208e-01   -8.592538506e-06    7.962862583e-05    0.000000000e+00    0.000000000e+00    0.000000000e+00    0.000000000e+00
      323500000    4.010632336e-01    4.569101334e-01   -7.674427616e-05   -9.515583770e-06    0.000000000e+00    0.000000000e+00    0.000000000e+00    0.000000000e+00
      325125000    4.124288559e-01    4.436625838e-01   -1.724549365e-04    6.722022954e-05    0.000000000e+00    0.000000000e+00    0.000000000e+00    0.000000000e+00
      326750000    4.235390425e-01    4.306400716e-01    1.283684251e-04    3.012158595e-05    0.000000000e+00    0.000000000e+00    0.000000000e+00    0.000000000e+00
      328375000    4.344255030e-01    4.176349044e-01   -1.363481715e-04    4.747093772e-05    0.000000000e+00    0.000000000e+00    0.000000000e+00    0.000000000e+00
      330000000    4.443955123e-01    4.039866924e-01   -1.469084382e-04    8.600178262e-05    0.000000000e+00    0.000000000e+00    0.000000000e+00    0.000000000e+00
      331625000    4.541580677e-01    3.902514279e-01   -1.141047760e-04    1.485161306e-06    0.000000000e+00    0.000000000e+00    0.000000000e+00    0.000000000e+00
      333250000    4.637134671e-01    3.763402104e-01   -1.917409245e-04    8.681166946e-05    0.000000000e+00    0.000000000e+00    0.000000000e+00    0.000000000e+00
      334875000    4.726695120e-01    3.625091910e-01   -2.261451482e-05    9.170638805e-05    0.000000000e+00    0.000000000e+00    0.000000000e+00    0.000000000e+00
      336500000    4.812160134e-01    3.481591940e-01   -9.903407772e-05   -1.292571978e-04    0.000000000e+00    0.000000000e+00    0.000000000e+00    0.000000000e+00
      338125000    4.895183742e-01    3.341400325e-01   -1.089286889e-04   -5.530815906e-05    0.000000000e+00    0.000000000e+00    0.000000000e+00    0.000000000e+00
      339750000    4.975859821e-01    3.199592233e-01   -5.764765592e-05    2.508190482e-05    0.000000000e+00    0.000000000e+00    0.000000000e+00    0.000000000e+00
      341375000    5.049433112e-01    3.055517077e-01   -1.738414285e-04   -6.977147677e-06    0.000000000e+00    0.000000000e+00    0.000000000e+00    0.000000000e+00
      343000000    5.122245550e-01    2.910385728e-01   -1.503439216e-05   -4.251455721e-06    0.000000000e+00    0.000000000e+00    0.000000000e+00    0.000000000e+00
      344625000    5.189955831e-01    2.763938606e-01   -2.208061960e-05   -1.682053335e-05    0.000000000e+00    0.000000000e+00    0.000000000e+00    0.000000000e+00
      346250000    5.255045891e-01    2.618597448e-01   -8.606770280e-05   -2.885515460e-05    0.000000000e+00    0.000000000e+00    0.000000000e+00    0.000000000e+00
      347875000    5.313377976e-01    2.472108006e-01   -7.475573511e-05   -2.192914326e-05    0.000000000e+00    0.000000000e+00    0.000000000e+00    0.000000000e+00
      349500000    5.371206403e-01    2.322795093e-01   -4.986030945e-06    1.315286936e-04    0.000000000e+00    0.000000000e+00    0.000000000e+00    0.000000000e+00
      351125000    5.423232913e-01    2.174722403e-01   -3.593243673e-05   -7.440036279e-05    0.000000000e+00    0.000000000e+00    0.000000000e+00    0.000000000e+00
      352750000    5.473496318e-01    2.024502307e-01   -6.977379235e-05   -1.984465962e-05    0.000000000e+00    0.000000000e+00    0.000000000e+00    0.000000000e+00
      354375000    5.518707633e-01    1.876211166e-01   -8.409677685e-05   -1.831075861e-05    0.000000000e+00    0.000000000e+00    0.000000000e+00    0.000000000e+00
      356000000    5.561549067e-01    1.726945043e-01   -1.264218154e-04   -3.957113222e-05    0.000000000e+00    0.000000000e+00    0.000000000e+00    0.000000000e+00
      357625000    5.600578785e-01    1.575710326e-01   -1.204705331e-04    3.213569289e-05    0.000000000e+00    0.000000000e+00    0.000000000e+00    0.000000000e+00
      359250000    5.636693239e-01    1.428059787e-01   -1.140340901e-04    6.697965000e-05    0.000000000e+00    0.000000000e+00    0.000000000e+00    0.000000000e+00
      360875000    5.669997931e-01    1.278630793e-01   -4.617837840e-05   -4.934348908e-05    0.000000000e+00    0.000000000e+00    0.000000000e+00    0.000000000e+00
      362500000    5.700268149e-01    1.126940548e-01   -9.810879419e-05   -8.052834892e-05    0.000000000e+00    0.000000000e+00    0.000000000e+00    0.000000000e+00
      364125000    5.723888874e-01    9.766738117e-02    3.633393135e-05   -2.115909228e-05    0.000000000e+00    0.000000000e+00    0.000000000e+00    0.000000000e+00
      365750000    5.746493936e-01    8.310138434e-02   -9.729238081e-05    2.415770041e-06    0.000000000e+00    0.000000000e+00    0.000000000e+00    0.000000000e+00
      367375000    5.765694976e-01    6.811571121e-02   -3.761461630e-05   -3.445575567e-05    0.000000000e+00    0.000000000e+00    0.000000000e+00    0.000000000e+00
      369000000    5.780892372e-01    5.309366435e-02   -5.574572060e-05    7.322740566e-05    0.000000000e+00    0.000000000e+00    0.000000000e+00    0.000000000e+00
      370625000    5.794944167e-01    3.833600134e-02    1.234231786e-05   -8.910484758e-05    0.000000000e+00    0.000000000e+00    0.000000000e+00    0.000000000e+00
      372250000    5.802865624e-01    2.326079272e-02   -1.035497826e-05   -1.799419988e-05    0.000000000e+00    0.000000000e+00    0.000000000e+00    0.000000000e+00
      373875000    5.811224580e-01    8.465453982e-03   -1.877106261e-04   -2.308413423e-05    0.000000000e+00    0.000000000e+00    0.000000000e+00    0.000000000e+00
      375500000    5.811526179e-01   -6.336166058e-03   -1.106523996e-04    6.041788947e-05    0.000000000e+00    0.000000000e+00    0.000000000e+00    0.000000000e+00
      377125000    5.813030005e-01   -2.093918994e-02   -7.623024430e-06    2.068712274e-05    0.000000000e+00    0.000000000e+00    0.000000000e+00    0.000000000e+00
      378750000    5.809357762e-01   -3.555620834e-02   -4.588411684e-05    3.693620965e-05    0.000000000e+00    0.000000000e+00    0.000000000e+00    0.000000000e+00
      380375000    5.804911256e-01   -5.020418391e-02   -1.355341519e-04    7.287946937e-05    0.000000000e+00    0.000000000e+00    0.000000000e+00    0.000000000e+00
      382000000    5.793280602e-01   -6.511413306e-02   -9.757929365e-05    2.612411627e-04    0.000000000e+00    0.000000000e+00    0.000000000e+00    0.000000000e+00
      383625000    5.778717399e-01   -7.915396988e-02   -2.467992817e-05   -7.957189518e-05    0.000000000e+00    0.000000000e+00    0.000000000e+00    0.000000000e+00
      385250000    5.764915943e-01   -9.371333569e-02   -2.714727998e-05    7.531751180e-05    0.000000000e+00    0.000000000e+00    0.000000000e+00    0.000000000e+00
      386875000    5.748732090e-01   -1.080096364e-01   -6.176959232e-06    1.334826229e-04    0.000000000e+00    0.000000000e+00    0.000000000e+00    0.000000000e+00
      388500000    5.724316835e-01   -1.225903109e-01   -1.224496809e-04   -8.403671018e-06    0.000000000e+00    0.000000000e+00    0.000000000e+00    0.000000000e+00
