! NanoVNA-App
! Date: 2024-06-25 16:48:12
! Start: 200MHz Stop: 1.5GHz Points: 801
! S-Parameter data: F S11 S21 S12 S22
# Hz S RI R 50
!     Frequency           S11_Real           S11_Imag           S21_Real           S21_Imag           S12_Real           S12_Imag           S22_Real           S22_Imag
      200000000   -8.517987132e-01    1.387793571e-01    1.615128567e-04    5.556796896e-05    0.000000000e+00    0.000000000e+00    0.000000000e+00    0.000000000e+00
      201625000   -8.462521434e-01    1.654803902e-01    1.872665161e-04    9.316415526e-05    0.000000000e+00    0.000000000e+00    0.000000000e+00    0.000000000e+00
      203250000   -8.396576643e-01    1.919352561e-01    2.273475257e-04    5.876085561e-05    0.000000000e+00    0.000000000e+00    0.000000000e+00    0.000000000e+00
      204875000   -8.322576284e-01    2.180129886e-01    2.193734690e-04    6.236990157e-05    0.000000000e+00    0.000000000e+00    0.000000000e+00    0.000000000e+00
      206500000   -8.238637447e-01    2.435940206e-01    2.382024104e-04    6.722922990e-05    0.000000000e+00    0.000000000e+00    0.000000000e+00    0.000000000e+00
      208125000   -8.145657778e-01    2.689402699e-01    2.497266396e-04    9.218407649e-05    0.000000000e+00    0.000000000e+00    0.000000000e+00    0.000000000e+00
      209750000   -8.044197559e-01    2.939540446e-01    2.516463574e-04    1.016491515e-04    0.000000000e+00    0.000000000e+00    0.000000000e+00    0.000000000e+00
      211375000   -7.932699919e-01    3.182088137e-01    2.538051922e-04    9.856992983e-05    0.000000000e+00    0.000000000e+00    0.000000000e+00    0.000000000e+00
      213000000   -7.814372778e-01    3.421215415e-01    2.557125408e-04    1.167104856e-04    0.000000000e+00    0.000000000e+00    0.000000000e+00    0.000000000e+00
      214625000   -7.688460946e-01    3.655128479e-01    2.706140513e-04    1.365922508e-04    0.000000000e+00    0.000000000e+00    0.000000000e+00    0.000000000e+00
      216250000   -7.555198669e-01    3.884270489e-01    2.823325631e-04    1.077796769e-04    0.000000000e+00    0.000000000e+00    0.000000000e+00    0.000000000e+00
      217875000   -7.412255406e-01    4.105705917e-01    2.827094577e-04    1.186712980e-04    0.000000000e+00    0.000000000e+00    0.000000000e+00    0.000000000e+00
      219500000   -7.265520692e-01    4.322958589e-01    3.033829562e-04    1.278948475e-04    0.000000000e+00    0.000000000e+00    0.000000000e+00    0.000000000e+00
      221125000   -7.109903693e-01    4.533019364e-01    3.051980457e-04    1.321632299e-04    0.000000000e+00    0.000000000e+00    0.000000000e+00    0.000000000e+00
      222750000   -6.947305202e-01    4.737693071e-01    3.073464031e-04    1.240229030e-04    0.000000000e+00    0.000000000e+00    0.000000000e+00    0.000000000e+00
      224375000   -6.778539419e-01    4.933594763e-01    2.982044534e-04    1.475141762e-04    0.000000000e+00    0.000000000e+00    0.000000000e+00    0.000000000e+00
      226000000   -6.604978442e-01    5.125079155e-01    3.117936722e-04    1.378544985e-04    0.000000000e+00    0.000000000e+00    0.000000000e+00    0.000000000e+00
      227625000   -6.425030231e-01    5.307598114e-01    3.293213667e-04    1.514359756e-04    0.000000000e+00    0.000000000e+00    0.000000000e+00    0.000000000e+00
      229250000   -6.239488125e-01    5.485510230e-01    3.230342409e-04    1.360524184e-04    0.000000000e+00    0.000000000e+00    0.000000000e+00    0.000000000e+00
      230875000   -6.048284769e-01    5.653982162e-01    3.270301677e-04    1.265384490e-04    0.000000000e+00    0.000000000e+00    0.000000000e+00    0.000000000e+00
      232500000   -5.855818391e-01    5.817814469e-01    3.416023974e-04    1.596291258e-04    0.000000000e+00    0.000000000e+00    0.000000000e+00    0.000000000e+00
      234125000   -5.656840801e-01    5.968844891e-01    3.348958853e-04    1.369504898e-04    0.000000000e+00    0.000000000e+00    0.000000000e+00    0.000000000e+00
      235750000   -5.453590751e-01    6.117904782e-01    3.308692831e-04    1.427598036e-04    0.000000000e+00    0.000000000e+00    0.000000000e+00    0.000000000e+00
      237375000   -5.245342851e-01    6.257368922e-01    3.334320791e-04    1.469005219e-04    0.000000000e+00    0.000000000e+00    0.000000000e+00    0.000000000e+00
      239000000   -5.034269691e-01    6.387484074e-01    3.284261620e-04    1.555151830e-04    0.000000000e+00    0.000000000e+00    0.000000000e+00    0.000000000e+00
      240625000   -4.820070863e-01    6.511185169e-01    3.218196507e-04    1.419532491e-04    0.000000000e+00    0.000000000e+00    0.000000000e+00    0.000000000e+00
      242250000   -4.600123167e-01    6.629810333e-01    3.047221689e-04    1.169885145e-04    0.000000000e+00    0.000000000e+00    0.000000000e+00    0.000000000e+00
      243875000   -4.378611445e-01    6.740458012e-01    3.216221812e-04    1.442900684e-04    0.000000000e+00    0.000000000e+00    0.000000000e+00    0.000000000e+00
      245500000   -4.155602455e-01    6.846185923e-01    3.261929378e-04    1.371191465e-04    0.000000000e+00    0.000000000e+00    0.000000000e+00    0.000000000e+00
      247125000   -3.928972781e-01    6.940866113e-01    3.488717775e-04    1.526269189e-04    0.000000000e+00    0.000000000e+00    0.000000000e+00    0.000000000e+00
      248750000   -3.701308370e-01    7.026249170e-01    3.420429712e-04    1.414547005e-04    0.000000000e+00    0.000000000e+00    0.000000000e+00    0.000000000e+00
      250375000   -3.474069536e-01    7.107618451e-01    3.601851349e-04    1.621565316e-04    0.000000000e+00    0.000000000e+00    0.000000000e+00    0.000000000e+00
      252000000   -3.245704174e-01    7.179715037e-01    3.791534982e-04    1.498108322e-04    0.000000000e+00    0.000000000e+00    0.000000000e+00    0.000000000e+00
      253625000   -3.016434312e-01    7.243016958e-01    3.862423473e-04    1.511375740e-04    0.000000000e+00    0.000000000e+00    0.000000000e+00    0.000000000e+00
      255250000   -2.784777880e-01    7.300755382e-01    3.560400801e-04    1.373712876e-04    0.000000000e+00    0.000000000e+00    0.000000000e+00    0.000000000e+00
      256875000   -2.557346225e-01    7.350887060e-01    3.282627440e-04    1.308315259e-04    0.000000000e+00    0.000000000e+00    0.000000000e+00    0.000000000e+00
      258500000   -2.326017767e-01    7.391553521e-01    3.726139839e-04    1.410215773e-04    0.000000000e+00    0.000000000e+00    0.000000000e+00    0.000000000e+00
      260125000   -2.099317759e-01    7.425847650e-01    3.867115302e-04    1.408254175e-04    0.000000000e+00    0.000000000e+00    0.000000000e+00    0.000000000e+00
      261750000   -1.867481470e-01    7.456349730e-01    3.751059121e-04    1.234546507e-04    0.000000000e+00    0.000000000e+00    0.000000000e+00    0.000000000e+00
      263375000   -1.640153527e-01    7.474637628e-01    3.575605224e-04    1.512958843e-04    0.000000000e+00    0.000000000e+00    0.000000000e+00    0.000000000e+00
      265000000   -1.412538439e-01    7.486391664e-01    3.632435983e-04    1.339710871e-04    0.000000000e+00    0.000000000e+00    0.000000000e+00    0.000000000e+00
      266625000   -1.184761673e-01    7.493535280e-01    3.506031062e-04    1.412959537e-04    0.000000000e+00    0.000000000e+00    0.000000000e+00    0.000000000e+00
      268250000   -9.604007006e-02    7.492041588e-01    3.652545274e-04    1.449990232e-04    0.000000000e+00    0.000000000e+00    0.000000000e+00    0.000000000e+00
      269875000   -7.368817925e-02    7.486067414e-01    3.730634053e-04    1.311294909e-04    0.000000000e+00    0.000000000e+00    0.000000000e+00    0.000000000e+00
      271500000   -5.124122277e-02    7.471293807e-01    3.697915236e-04    1.455187739e-04    0.000000000e+00    0.000000000e+00    0.000000000e+00    0.000000000e+00
      273125000   -2.936680987e-02    7.453588843e-01    3.546857915e-04    1.380594040e-04    0.000000000e+00    0.000000000e+00    0.000000000e+00    0.000000000e+00
      274750000   -7.341092452e-03    7.426083088e-01    3.674686886e-04    1.366602228e-04    0.000000000e+00    0.000000000e+00    0.000000000e+00    0.000000000e+00
      276375000    1.431169640e-02    7.395180464e-01    3.519217425e-04    1.252026559e-04    0.000000000e+00    0.000000000e+00    0.000000000e+00    0.000000000e+00
      278000000    3.580281883e-02    7.356253266e-01    3.637742193e-04    1.305326878e-04    0.000000000e+00    0.000000000e+00    0.000000000e+00    0.000000000e+00
      279625000    5.706601962e-02    7.311935425e-01    3.396687680e-04    1.469667768e-04    0.000000000e+00    0.000000000e+00    0.000000000e+00    0.000000000e+00
      281250000    7.826061547e-02    7.262266874e-01    3.390768543e-04    1.340143936e-04    0.000000000e+00    0.000000000e+00    0.000000000e+00    0.000000000e+00
      282875000    9.900585562e-02    7.208316922e-01    3.414470993e-04    1.173495621e-04    0.000000000e+00    0.000000000e+00    0.000000000e+00    0.000000000e+00
      284500000    1.193863973e-01    7.146954536e-01    3.450886288e-04    1.391007536e-04    0.000000000e+00    0.000000000e+00    0.000000000e+00    0.000000000e+00
      286125000    1.397532225e-01    7.081485987e-01    3.328983730e-04    1.252075890e-04    0.000000000e+00    0.000000000e+00    0.000000000e+00    0.000000000e+00
      287750000    1.597148180e-01    7.012844086e-01    3.426376206e-04    1.365796197e-04    0.000000000e+00    0.000000000e+00    0.000000000e+00    0.000000000e+00
      289375000    1.794486940e-01    6.934441924e-01    3.264185216e-04    1.173662968e-04    0.000000000e+00    0.000000000e+00    0.000000000e+00    0.000000000e+00
      291000000    9.485615790e-02    6.531981230e-01    1.611749940e-05    4.326079943e-05    0.000000000e+00    0.000000000e+00    0.000000000e+00    0.000000000e+00
      292625000    1.131618395e-01    6.464136243e-01    2.338321974e-05   -1.198625032e-04    0.000000000e+00    0.000000000e+00    0.000000000e+00    0.000000000e+00
      294250000    1.313713938e-01    6.401070356e-01   -1.578292577e-04   -2.935141083e-06    0.000000000e+00    0.000000000e+00    0.000000000e+00    0.000000000e+00
      295875000    1.488191932e-01    6.328850985e-01   -1.547165302e-04   -7.284716412e-05    0.000000000e+00    0.000000000e+00    0.000000000e+00    0.000000000e+00
      297500000    1.673782319e-01    6.260999441e-01   -1.373140549e-04   -2.957534161e-05    0.000000000e+00    0.000000000e+00    0.000000000e+00    0.000000000e+00
      299125000    1.840695739e-01    6.176106930e-01   -2.534198211e-05   -9.133028652e-05    0.000000000e+00    0.000000000e+00    0.000000000e+00    0.000000000e+00
      300750000    2.015307248e-01    6.094728708e-01   -7.682528667e-05   -6.298199878e-05    0.000000000e+00    0.000000000e+00    0.000000000e+00    0.000000000e+00
      302375000    2.179816961e-01    6.010037065e-01   -2.055700315e-04    1.419086620e-04    0.000000000e+00    0.000000000e+00    0.000000000e+00    0.000000000e+00
      304000000    2.339327186e-01    5.913046598e-01   -2.103850275e-04   -4.439338227e-05    0.000000000e+00    0.000000000e+00    0.000000000e+00    0.000000000e+00
      305625000    2.505081296e-01    5.819141269e-01   -4.668596375e-05   -2.682031891e-06    0.000000000e+00    0.000000000e+00    0.000000000e+00    0.000000000e+00
      307250000    2.684293687e-01    5.743343830e-01    1.642728421e-05    4.016425737e-05    0.000000000e+00    0.000000000e+00    0.000000000e+00    0.000000000e+00
      308875000    2.814371586e-01    5.625788569e-01    2.067644527e-05    1.633601350e-04    0.000000000e+00    0.000000000e+00    0.000000000e+00    0.000000000e+00
      310500000    2.959307432e-01    5.521031618e-01    1.338257862e-04    1.019236806e-04    0.000000000e+00    0.000000000e+00    0.000000000e+00    0.000000000e+00
      312125000    3.107301891e-01    5.409607887e-01   -1.110106223e-05   -1.080108996e-04    0.000000000e+00    0.000000000e+00    0.000000000e+00    0.000000000e+00
      313750000    3.244686425e-01    5.299425125e-01    1.424833172e-04   -6.995815784e-05    0.000000000e+00    0.000000000e+00    0.000000000e+00    0.000000000e+00
      315375000    3.384843469e-01    5.182598233e-01   -3.985593867e-05   -9.760800458e-05    0.000000000e+00    0.000000000e+00    0.000000000e+00    0.000000000e+00
      317000000    3.516010046e-01    5.061567426e-01   -5.978678018e-05   -5.086962847e-05    0.000000000e+00    0.000000000e+00    0.000000000e+00    0.000000000e+00
      318625000    3.648498654e-01    4.941206276e-01   -1.464295492e-04   -2.696603588e-05    0.000000000e+00    0.000000000e+00    0.000000000e+00    0.000000000e+00
      320250000    3.771467507e-01    4.820001721e-01   -6.958685117e-05    9.326521831e-05    0.000000000e+00    0.000000000e+00    0.000000000e+00    0.000000000e+00
      321875000    3.893225193e-01    4.698657990e-01   -9.486096678e-05    2.230009704e-05    0.000000000e+00    0.000000000e+00    0.000000000e+00    0.000000000e+00
      323500000    4.015739858e-01    4.572409689e-01   -5.022548430e-05   -1.903441625e-05    0.000000000e+00    0.000000000e+00    0.000000000e+00    0.000000000e+00
      325125000    4.126810730e-01    4.438913465e-01    1.006603270e-05   -4.015306695e-05    0.000000000e+00    0.000000000e+00    0.000000000e+00    0.000000000e+00
      326750000    4.239722788e-01    4.305446744e-01   -4.622944471e-05    4.243777585e-05    0.000000000e+00    0.000000000e+00    0.000000000e+00    0.000000000e+00
      328375000    4.341022074e-01    4.176953435e-01   -5.799119390e-05   -1.058585331e-04    0.000000000e+00    0.000000000e+00    0.000000000e+00    0.000000000e+00
      330000000    4.444141984e-01    4.036189020e-01   -1.483015076e-04    3.609223859e-05    0.000000000e+00    0.000000000e+00    0.000000000e+00    0.000000000e+00
      331625000    4.542172253e-01    3.901102245e-01    1.122116300e-04   -1.161250202e-05    0.000000000e+00    0.000000000e+00    0.000000000e+00    0.000000000e+00
      333250000    4.637675583e-01    3.764488995e-01    3.743185152e-05    1.171983167e-04    0.000000000e+00    0.000000000e+00    0.000000000e+00    0.000000000e+00
      334875000    4.729691446e-01    3.625062108e-01    1.405719013e-05    5.441475878e-05    0.000000000e+00    0.000000000e+00    0.000000000e+00    0.000000000e+00
      336500000    4.814699888e-01    3.484278321e-01   -6.444583414e-05    3.936937719e-05    0.000000000e+00    0.000000000e+00    0.000000000e+00    0.000000000e+00
      338125000    4.899156094e-01    3.342193663e-01   -1.418633765e-04   -5.591061563e-05    0.000000000e+00    0.000000000e+00    0.000000000e+00    0.000000000e+00
      339750000    4.974994659e-01    3.199797571e-01    2.125140099e-06   -3.512846524e-05    0.000000000e+00    0.000000000e+00    0.000000000e+00    0.000000000e+00
      341375000    5.050442815e-01    3.055045605e-01   -3.390644997e-05   -1.968996912e-05    0.000000000e+00    0.000000000e+00    0.000000000e+00    0.000000000e+00
      343000000    5.123365521e-01    2.908733189e-01   -2.971212962e-05   -7.028895925e-05    0.000000000e+00    0.000000000e+00    0.000000000e+00    0.000000000e+00
      344625000    5.189261436e-01    2.763542831e-01   -1.027512335e-04   -2.939387377e-05    0.000000000e+00    0.000000000e+00    0.000000000e+00    0.000000000e+00
      346250000    5.252691507e-01    2.618735731e-01   -3.791573181e-05    3.385404489e-05    0.000000000e+00    0.000000000e+00    0.000000000e+00    0.000000000e+00
      347875000    5.315722227e-01    2.470741272e-01    2.834327097e-05   -2.361453153e-05    0.000000000e+00    0.000000000e+00    0.000000000e+00    0.000000000e+00
      349500000    5.373086929e-01    2.324564010e-01    3.184756133e-05    8.793244342e-05    0.000000000e+00    0.000000000e+00    0.000000000e+00    0.000000000e+00
      351125000    5.423895717e-01    2.175002098e-01   -4.547782737e-05   -2.912611671e-05    0.000000000e+00    0.000000000e+00    0.000000000e+00    0.000000000e+00
      352750000    5.474014282e-01    2.023841441e-01   -5.501507258e-05   -8.761944628e-05    0.000000000e+00    0.000000000e+00    0.000000000e+00    0.000000000e+00
      354375000    5.519465804e-01    1.875424832e-01   -1.904705859e-04   -1.248094341e-04    0.000000000e+00    0.000000000e+00    0.000000000e+00    0.000000000e+00
      356000000    5.561941862e-01    1.726450324e-01   -5.122831226e-06    1.131129029e-04    0.000000000e+00    0.000000000e+00    0.000000000e+00    0.000000000e+00
      357625000    5.601761341e-01    1.576426029e-01    5.296478412e-05   -1.983171678e-04    0.000000000e+00    0.000000000e+00    0.000000000e+00    0.000000000e+00
      359250000    5.637160540e-01    1.425927430e-01   -1.740047155e-04   -6.724821287e-05    0.000000000e+00    0.000000000e+00    0.000000000e+00    0.000000000e+00
      360875000    5.670023561e-01    1.276790500e-01   -1.948602767e-05    7.120145892e-05    0.000000000e+00    0.000000000e+00    0.000000000e+00    0.000000000e+00
      362500000    5.698634386e-01    1.127643883e-01   -2.082966384e-04   -1.645728626e-04    0.000000000e+00    0.000000000e+00    0.000000000e+00    0.000000000e+00
      364125000    5.723081827e-01    9.775492549e-02   -6.939893501e-05   -7.934643509e-05    0.000000000e+00    0.000000000e+00    0.000000000e+00    0.000000000e+00
      365750000    5.746834278e-01    8.301698416e-02   -7.610986358e-05   -6.103421765e-05    0.000000000e+00    0.000000000e+00    0.000000000e+00    0.000000000e+00
      367375000    5.766167045e-01    6.804985553e-02   -1.086462289e-04   -3.113297134e-05    0.000000000e+00    0.000000000e+00    0.000000000e+00    0.000000000e+00
      369000000    5.780072808e-01    5.301044881e-02   -9.961105388e-05    1.396846346e-04    0.000000000e+00    0.000000000e+00    0.000000000e+00    0.000000000e+00
      370625000    5.793609619e-01    3.826482221e-02   -1.068116035e-04   -8.446983702e-05    0.000000000e+00    0.000000000e+00    0.000000000e+00    0.000000000e+00
      372250000    5.802224278e-01    2.332263067e-02   -7.602326514e-05    6.673959433e-05    0.000000000e+00    0.000000000e+00    0.000000000e+00    0.000000000e+00
      373875000    5.811961293e-01    8.518046699e-03   -5.117011824e-05    2.211309766e-05    0.000000000e+00    0.000000000e+00    0.000000000e+00    0.000000000e+00
      375500000    5.812973380e-01   -6.303581875e-03   -2.038854291e-05   -9.424410382e-05    0.000000000e+00    0.000000000e+00    0.000000000e+00    0.000000000e+00
      377125000    5.812829137e-01   -2.083982900e-02   -1.503462699e-04    4.589981836e-05    0.000000000e+00    0.000000000e+00    0.000000000e+00    0.000000000e+00
      378750000    5.807895064e-01   -3.556866944e-02   -1.240562124e-04   -5.253186828e-05    0.000000000e+00    0.000000000e+00    0.000000000e+00    0.000000000e+00
      380375000    5.801756382e-01   -5.032489076e-02   -5.798017082e-05    1.368433441e-04    0.000000000e+00    0.000000000e+00    0.000000000e+00    0.000000000e+00
      382000000    5.790704489e-01   -6.487805396e-02   -1.345094643e-04    8.912687190e-05    0.000000000e+00    0.000000000e+00    0.000000000e+00    0.000000000e+00
      383625000    5.779392123e-01   -7.934135199e-02   -1.306763170e-05   -9.883584653e-07    0.000000000e+00    0.000000000e+00    0.000000000e+00    0.000000000e+00
      385250000    5.764845610e-01   -9.375271946e-02   -2.006024733e-04    1.471957657e-04    0.000000000e+00    0.000000000e+00    0.000000000e+00    0.000000000e+00
      386875000    5.746280551e-01   -1.083030626e-01   -1.786757784e-04    1.084601536e-04    0.000000000e+00    0.000000000e+00    0.000000000e+00    0.000000000e+00
      388500000    5.723918676e-01   -1.225251481e-01   -2.054949728e-04    4.006067320e-05    0.000000000e+00    0.000000000e+00    0.000000000e+00    0.000000000e+00
