! NanoVNA-App by OneOfEleven et al v1.1.209 (+OD15) 
! Date: 2024-07-30 12:38:45
! Start: 50kHz Stop: 6GHz Points: 801
! S-Parameter data: F S11 S21 S12 S22
# Hz S RI R 50
!     Frequency           S11_Real           S11_Imag           S21_Real           S21_Imag           S12_Real           S12_Imag           S22_Real           S22_Imag
          50000    5.085434914e-01   -1.404569149e-01   -1.066364348e-06   -3.784894943e-06    0.000000000e+00    0.000000000e+00    0.000000000e+00    0.000000000e+00
        7549938   -5.304825306e-02    1.485407818e-02    4.379823804e-05    9.519979358e-06    0.000000000e+00    0.000000000e+00    0.000000000e+00    0.000000000e+00
       15049875   -4.606636614e-02    3.863738850e-03   -1.252349466e-05   -1.903623343e-05    0.000000000e+00    0.000000000e+00    0.000000000e+00    0.000000000e+00
       22549813   -4.605105147e-02   -1.136396080e-03   -2.922955900e-05    6.470829248e-06    0.000000000e+00    0.000000000e+00    0.000000000e+00    0.000000000e+00
       30049750   -4.676285386e-02   -3.921874799e-03    2.133008093e-05   -2.298131585e-05    0.000000000e+00    0.000000000e+00    0.000000000e+00    0.000000000e+00
       37549688   -4.743768647e-02   -5.827086046e-03   -1.840200275e-05   -2.006255090e-05    0.000000000e+00    0.000000000e+00    0.000000000e+00    0.000000000e+00
       45049625   -4.811367393e-02   -7.236701436e-03   -4.442408681e-07    1.943670213e-06    0.000000000e+00    0.000000000e+00    0.000000000e+00    0.000000000e+00
       52549563   -4.833768681e-02   -8.409542963e-03   -3.159511834e-05   -7.307156920e-06    0.000000000e+00    0.000000000e+00    0.000000000e+00    0.000000000e+00
       60049500   -4.873786122e-02   -9.599263780e-03    1.194886863e-06   -2.361927181e-05    0.000000000e+00    0.000000000e+00    0.000000000e+00    0.000000000e+00
       67549438   -4.898047820e-02   -1.077215374e-02    2.810731530e-06    8.196569979e-06    0.000000000e+00    0.000000000e+00    0.000000000e+00    0.000000000e+00
       75049375   -4.922747239e-02   -1.200265903e-02   -1.176632941e-05    1.586228609e-05    0.000000000e+00    0.000000000e+00    0.000000000e+00    0.000000000e+00
       82549313   -4.985508323e-02   -1.328792516e-02    1.413468271e-05   -1.995079219e-05    0.000000000e+00    0.000000000e+00    0.000000000e+00    0.000000000e+00
       90049250   -5.027300492e-02   -1.424170472e-02   -1.586601138e-05    4.983507097e-06    0.000000000e+00    0.000000000e+00    0.000000000e+00    0.000000000e+00
       97549188   -5.074040964e-02   -1.543926448e-02    1.205317676e-05    1.120381057e-06    0.000000000e+00    0.000000000e+00    0.000000000e+00    0.000000000e+00
      105049125   -5.075920746e-02   -1.474340167e-02    4.378147423e-06    3.261584789e-05    0.000000000e+00    0.000000000e+00    0.000000000e+00    0.000000000e+00
      112549063   -5.130883679e-02   -1.575178653e-02   -6.846152246e-06    2.630054951e-06    0.000000000e+00    0.000000000e+00    0.000000000e+00    0.000000000e+00
      120049000   -5.212381855e-02   -1.670683734e-02    8.720904589e-06   -3.067776561e-06    0.000000000e+00    0.000000000e+00    0.000000000e+00    0.000000000e+00
      127548938   -5.288678035e-02   -1.756723411e-02    8.301809430e-06   -7.376074791e-07    0.000000000e+00    0.000000000e+00    0.000000000e+00    0.000000000e+00
      135048875   -5.376563966e-02   -1.832068712e-02   -1.271907240e-05   -7.969327271e-06    0.000000000e+00    0.000000000e+00    0.000000000e+00    0.000000000e+00
      142548813   -5.459496751e-02   -1.900362410e-02    1.152697951e-05   -7.444992661e-06    0.000000000e+00    0.000000000e+00    0.000000000e+00    0.000000000e+00
      150048750   -5.542144179e-02   -1.962812431e-02    1.460965723e-05   -1.081638038e-05    0.000000000e+00    0.000000000e+00    0.000000000e+00    0.000000000e+00
      157548688   -5.611842126e-02   -2.005780488e-02   -2.667307854e-06    1.266598701e-07    0.000000000e+00    0.000000000e+00    0.000000000e+00    0.000000000e+00
      165048625   -5.690726638e-02   -2.049316466e-02    2.888962626e-06   -1.535099000e-05    0.000000000e+00    0.000000000e+00    0.000000000e+00    0.000000000e+00
      172548563   -5.777102709e-02   -2.081141993e-02    4.703179002e-06   -2.614594996e-05    0.000000000e+00    0.000000000e+00    0.000000000e+00    0.000000000e+00
      180048500   -5.842426419e-02   -2.099299803e-02   -2.177711576e-05    6.898306310e-06    0.000000000e+00    0.000000000e+00    0.000000000e+00    0.000000000e+00
      187548438   -5.917152390e-02   -2.104782127e-02    1.966208220e-05   -8.518807590e-06    0.000000000e+00    0.000000000e+00    0.000000000e+00    0.000000000e+00
      195048375   -5.966823176e-02   -2.124498039e-02   -9.098090231e-06    1.720432192e-05    0.000000000e+00    0.000000000e+00    0.000000000e+00    0.000000000e+00
      202548313   -6.011109799e-02   -2.130134217e-02   -1.229532063e-05    2.713873982e-05    0.000000000e+00    0.000000000e+00    0.000000000e+00    0.000000000e+00
      210048250   -6.059353799e-02   -2.134262212e-02   -6.129965186e-06    3.070663661e-05    0.000000000e+00    0.000000000e+00    0.000000000e+00    0.000000000e+00
      217548188   -6.101944670e-02   -2.132278681e-02   -1.656636596e-05    3.805384040e-06    0.000000000e+00    0.000000000e+00    0.000000000e+00    0.000000000e+00
      225048125   -6.112466007e-02   -2.124060504e-02   -1.679919660e-05    2.795178443e-05    0.000000000e+00    0.000000000e+00    0.000000000e+00    0.000000000e+00
      232548063   -6.138452142e-02   -2.127810195e-02   -1.225061715e-05   -7.022172213e-07    0.000000000e+00    0.000000000e+00    0.000000000e+00    0.000000000e+00
      240048000   -6.147854775e-02   -2.117350884e-02    2.789869905e-05   -3.765616566e-05    0.000000000e+00    0.000000000e+00    0.000000000e+00    0.000000000e+00
      247547938   -6.168068945e-02   -2.115761675e-02   -2.464558929e-05   -1.552142203e-05    0.000000000e+00    0.000000000e+00    0.000000000e+00    0.000000000e+00
      255047875   -6.146046147e-02   -2.116760984e-02    2.095196396e-05   -9.945593774e-06    0.000000000e+00    0.000000000e+00    0.000000000e+00    0.000000000e+00
      262547813   -6.150097772e-02   -2.125330456e-02   -1.667160541e-05   -8.908100426e-06    0.000000000e+00    0.000000000e+00    0.000000000e+00    0.000000000e+00
      270047750   -6.119767576e-02   -2.148136124e-02   -3.273505718e-05    7.912516594e-06    0.000000000e+00    0.000000000e+00    0.000000000e+00    0.000000000e+00
      277547688   -6.119129807e-02   -2.165678516e-02    2.130493522e-05   -1.157913357e-05    0.000000000e+00    0.000000000e+00    0.000000000e+00    0.000000000e+00
      285047625   -6.092551351e-02   -2.179218829e-02    5.045905709e-05   -1.138448715e-05    0.000000000e+00    0.000000000e+00    0.000000000e+00    0.000000000e+00
      292547563   -6.069189683e-02   -2.218362316e-02   -9.939074516e-06   -4.675239325e-07    0.000000000e+00    0.000000000e+00    0.000000000e+00    0.000000000e+00
      300047500   -6.040440500e-02   -2.242375724e-02   -4.144944251e-05    1.932494342e-06    0.000000000e+00    0.000000000e+00    0.000000000e+00    0.000000000e+00
      307547438   -6.015117466e-02   -2.269219421e-02    5.380623043e-05   -6.298534572e-06    0.000000000e+00    0.000000000e+00    0.000000000e+00    0.000000000e+00
      315047375   -5.990033969e-02   -2.329415269e-02   -2.150051296e-05   -8.853152394e-06    0.000000000e+00    0.000000000e+00    0.000000000e+00    0.000000000e+00
      322547313   -5.957390368e-02   -2.371307276e-02    1.938361675e-05   -4.890281707e-05    0.000000000e+00    0.000000000e+00    0.000000000e+00    0.000000000e+00
      330047250   -5.940607190e-02   -2.426259033e-02   -1.069717109e-05    4.162918776e-05    0.000000000e+00    0.000000000e+00    0.000000000e+00    0.000000000e+00
      337547188   -5.912297592e-02   -2.494191378e-02   -4.472211003e-06   -1.952238381e-05    0.000000000e+00    0.000000000e+00    0.000000000e+00    0.000000000e+00
      345047125   -5.902103707e-02   -2.547309734e-02    4.211626947e-05    2.346094698e-05    0.000000000e+00    0.000000000e+00    0.000000000e+00    0.000000000e+00
      352547063   -5.887221918e-02   -2.619693242e-02    1.466739923e-05    1.253280789e-05    0.000000000e+00    0.000000000e+00    0.000000000e+00    0.000000000e+00
      360047000   -5.879589170e-02   -2.671631612e-02    1.798197627e-05   -2.038571984e-05    0.000000000e+00    0.000000000e+00    0.000000000e+00    0.000000000e+00
      367546938   -5.872533098e-02   -2.735738270e-02   -2.721045166e-05   -2.841185778e-05    0.000000000e+00    0.000000000e+00    0.000000000e+00    0.000000000e+00
      375046875   -5.868764967e-02   -2.805950120e-02   -2.738554031e-05   -1.644715667e-05    0.000000000e+00    0.000000000e+00    0.000000000e+00    0.000000000e+00
      382546813   -5.859571695e-02   -2.871523239e-02   -1.525226980e-05   -6.621703506e-07    0.000000000e+00    0.000000000e+00    0.000000000e+00    0.000000000e+00
      390046750   -5.855321884e-02   -2.936213464e-02   -2.511870116e-05   -1.984182745e-05    0.000000000e+00    0.000000000e+00    0.000000000e+00    0.000000000e+00
      397546688   -5.858976394e-02   -2.997131646e-02   -1.730211079e-05    7.933937013e-06    0.000000000e+00    0.000000000e+00    0.000000000e+00    0.000000000e+00
      405046625   -5.861714855e-02   -3.055455163e-02    4.470348358e-06   -6.728805602e-06    0.000000000e+00    0.000000000e+00    0.000000000e+00    0.000000000e+00
      412546563   -5.872866884e-02   -3.102841787e-02    4.952680320e-05   -1.648999751e-05    0.000000000e+00    0.000000000e+00    0.000000000e+00    0.000000000e+00
      420046500   -5.879354849e-02   -3.158461675e-02    6.417743862e-06    1.444481313e-06    0.000000000e+00    0.000000000e+00    0.000000000e+00    0.000000000e+00
      427546438   -5.897533894e-02   -3.209696710e-02   -7.342547178e-06    7.702037692e-07    0.000000000e+00    0.000000000e+00    0.000000000e+00    0.000000000e+00
      435046375   -5.911985412e-02   -3.262604401e-02   -7.107853889e-06   -3.779772669e-05    0.000000000e+00    0.000000000e+00    0.000000000e+00    0.000000000e+00
      442546313   -5.924132839e-02   -3.311761469e-02    1.787208021e-05   -1.261010766e-06    0.000000000e+00    0.000000000e+00    0.000000000e+00    0.000000000e+00
      450046250   -5.927002802e-02   -3.336628899e-02   -8.120201528e-06    3.756955266e-06    0.000000000e+00    0.000000000e+00    0.000000000e+00    0.000000000e+00
      457546188   -5.931829661e-02   -3.395840526e-02   -5.351379514e-06   -8.928589523e-06    0.000000000e+00    0.000000000e+00    0.000000000e+00    0.000000000e+00
      465046125   -5.945648253e-02   -3.419021145e-02    1.522898674e-05    1.701153815e-05    0.000000000e+00    0.000000000e+00    0.000000000e+00    0.000000000e+00
      472546063   -5.931937695e-02   -3.454124555e-02   -2.120435238e-05   -1.316610724e-05    0.000000000e+00    0.000000000e+00    0.000000000e+00    0.000000000e+00
      480046000   -5.931133032e-02   -3.485912085e-02   -2.184510231e-05    1.523178071e-05    0.000000000e+00    0.000000000e+00    0.000000000e+00    0.000000000e+00
      487545938   -5.932701379e-02   -3.515825421e-02   -1.715868711e-05    4.086364061e-05    0.000000000e+00    0.000000000e+00    0.000000000e+00    0.000000000e+00
      495045875   -5.912331119e-02   -3.550921381e-02   -4.255957901e-05    1.504924148e-05    0.000000000e+00    0.000000000e+00    0.000000000e+00    0.000000000e+00
      502545813   -5.909949541e-02   -3.565092385e-02    1.011509448e-05    7.357448339e-08    0.000000000e+00    0.000000000e+00    0.000000000e+00    0.000000000e+00
      510045750   -5.899855122e-02   -3.592005372e-02    1.764018089e-05   -2.494920045e-05    0.000000000e+00    0.000000000e+00    0.000000000e+00    0.000000000e+00
      517545688   -5.880343542e-02   -3.637851030e-02    2.662651241e-06    1.534819603e-05    0.000000000e+00    0.000000000e+00    0.000000000e+00    0.000000000e+00
      525045625   -5.859241262e-02   -3.645189852e-02   -2.373196185e-05    2.434477210e-05    0.000000000e+00    0.000000000e+00    0.000000000e+00    0.000000000e+00
      532545563   -5.850978568e-02   -3.679163009e-02   -3.845430911e-05   -6.009824574e-06    0.000000000e+00    0.000000000e+00    0.000000000e+00    0.000000000e+00
      540045500   -5.815474689e-02   -3.716417030e-02    1.886207610e-05   -1.921318471e-06    0.000000000e+00    0.000000000e+00    0.000000000e+00    0.000000000e+00
      547545438   -5.806304514e-02   -3.735751286e-02   -1.125968993e-05   -1.451466233e-05    0.000000000e+00    0.000000000e+00    0.000000000e+00    0.000000000e+00
      555045375   -5.776413530e-02   -3.768122941e-02   -2.152007073e-05    5.708076060e-06    0.000000000e+00    0.000000000e+00    0.000000000e+00    0.000000000e+00
      562545313   -5.732521415e-02   -3.803750500e-02    3.202166408e-05   -5.490146577e-06    0.000000000e+00    0.000000000e+00    0.000000000e+00    0.000000000e+00
      570045250   -5.713921785e-02   -3.820881993e-02    7.911585271e-06   -2.017617226e-05    0.000000000e+00    0.000000000e+00    0.000000000e+00    0.000000000e+00
      577545188   -5.677019432e-02   -3.844525293e-02    1.587346196e-05   -1.467950642e-05    0.000000000e+00    0.000000000e+00    0.000000000e+00    0.000000000e+00
      585045125   -5.652899668e-02   -3.881922737e-02   -2.971570939e-05   -4.550442100e-06    0.000000000e+00    0.000000000e+00    0.000000000e+00    0.000000000e+00
      592545063   -5.606721342e-02   -3.902532160e-02    3.008358181e-05   -3.180280328e-05    0.000000000e+00    0.000000000e+00    0.000000000e+00    0.000000000e+00
      600045000   -5.574920401e-02   -3.925939649e-02   -1.144688576e-05   -4.367902875e-06    0.000000000e+00    0.000000000e+00    0.000000000e+00    0.000000000e+00
      607544938   -5.522106215e-02   -3.946030140e-02   -2.557598054e-05   -2.996902913e-05    0.000000000e+00    0.000000000e+00    0.000000000e+00    0.000000000e+00
      615044875   -5.491245165e-02   -3.990405425e-02   -7.492490113e-06   -1.533422619e-05    0.000000000e+00    0.000000000e+00    0.000000000e+00    0.000000000e+00
      622544813   -5.441159010e-02   -4.001907632e-02   -4.509463906e-06   -3.476440907e-05    0.000000000e+00    0.000000000e+00    0.000000000e+00    0.000000000e+00
      630044750   -5.392019451e-02   -4.024352878e-02    1.945253462e-05   -4.956591874e-05    0.000000000e+00    0.000000000e+00    0.000000000e+00    0.000000000e+00
      637544688   -5.341702327e-02   -4.053088650e-02    1.883134246e-06   -2.697855234e-05    0.000000000e+00    0.000000000e+00    0.000000000e+00    0.000000000e+00
      645044625   -5.273959041e-02   -4.071582481e-02    3.125891089e-05    1.147389412e-06    0.000000000e+00    0.000000000e+00    0.000000000e+00    0.000000000e+00
      652544563   -5.233205855e-02   -4.107321799e-02    1.538451761e-05   -2.060085535e-06    0.000000000e+00    0.000000000e+00    0.000000000e+00    0.000000000e+00
      660044500   -5.158108473e-02   -4.121252149e-02    2.827029675e-05   -7.608905435e-07    0.000000000e+00    0.000000000e+00    0.000000000e+00    0.000000000e+00
      667544438   -5.093620718e-02   -4.149680957e-02    2.094730735e-05   -6.428919733e-06    0.000000000e+00    0.000000000e+00    0.000000000e+00    0.000000000e+00
      675044375   -5.017083138e-02   -4.180246219e-02    4.974193871e-06    1.257099211e-05    0.000000000e+00    0.000000000e+00    0.000000000e+00    0.000000000e+00
      682544313   -4.944560304e-02   -4.204623401e-02   -1.826509833e-05    1.132208854e-05    0.000000000e+00    0.000000000e+00    0.000000000e+00    0.000000000e+00
      690044250   -4.861708730e-02   -4.244170710e-02   -5.021691322e-06   -1.057982445e-05    0.000000000e+00    0.000000000e+00    0.000000000e+00    0.000000000e+00
      697544188   -4.783795774e-02   -4.272257909e-02   -4.926417023e-05   -2.113450319e-05    0.000000000e+00    0.000000000e+00    0.000000000e+00    0.000000000e+00
      705044125   -4.701730236e-02   -4.326891527e-02    1.776963472e-05    1.989770681e-05    0.000000000e+00    0.000000000e+00    0.000000000e+00    0.000000000e+00
      712544063   -4.612112045e-02   -4.373447597e-02   -3.518629819e-05    2.082437277e-05    0.000000000e+00    0.000000000e+00    0.000000000e+00    0.000000000e+00
      720044000   -4.520904273e-02   -4.422973096e-02    2.054311335e-05    6.251316518e-05    0.000000000e+00    0.000000000e+00    0.000000000e+00    0.000000000e+00
      727543938   -4.427294433e-02   -4.471494257e-02    6.090011448e-05    2.594478428e-05    0.000000000e+00    0.000000000e+00    0.000000000e+00    0.000000000e+00
      735043875   -4.345493019e-02   -4.525791481e-02   -1.368299127e-05    6.924383342e-06    0.000000000e+00    0.000000000e+00    0.000000000e+00    0.000000000e+00
      742543813   -4.254795983e-02   -4.598104954e-02    3.670994192e-05    6.897374988e-06    0.000000000e+00    0.000000000e+00    0.000000000e+00    0.000000000e+00
      750043750   -4.156636074e-02   -4.658290744e-02   -2.646911889e-05    1.094490290e-05    0.000000000e+00    0.000000000e+00    0.000000000e+00    0.000000000e+00
      757543688   -4.069122672e-02   -4.740184918e-02   -9.845010936e-06   -2.411194146e-05    0.000000000e+00    0.000000000e+00    0.000000000e+00    0.000000000e+00
      765043625   -3.988092765e-02   -4.820935801e-02   -4.868023098e-06   -9.987503290e-06    0.000000000e+00    0.000000000e+00    0.000000000e+00    0.000000000e+00
      772543563   -3.916474804e-02   -4.898518696e-02   -4.565529525e-05   -6.902031600e-06    0.000000000e+00    0.000000000e+00    0.000000000e+00    0.000000000e+00
      780043500   -3.830422089e-02   -4.985712469e-02    2.468563616e-05    9.289011359e-06    0.000000000e+00    0.000000000e+00    0.000000000e+00    0.000000000e+00
      787543438   -3.774179518e-02   -5.064897984e-02    1.526996493e-05    1.694541425e-05    0.000000000e+00    0.000000000e+00    0.000000000e+00    0.000000000e+00
      795043375   -3.705148771e-02   -5.169460177e-02   -8.548609912e-06    1.081265509e-06    0.000000000e+00    0.000000000e+00    0.000000000e+00    0.000000000e+00
      802543313   -3.641697019e-02   -5.248079449e-02    1.608952880e-05   -2.643372864e-05    0.000000000e+00    0.000000000e+00    0.000000000e+00    0.000000000e+00
      810043250   -3.599040583e-02   -5.336990580e-02   -5.505047739e-06    2.185907215e-05    0.000000000e+00    0.000000000e+00    0.000000000e+00    0.000000000e+00
      817543188   -3.549258411e-02   -5.428829417e-02    1.153815538e-05    2.195592970e-05    0.000000000e+00    0.000000000e+00    0.000000000e+00    0.000000000e+00
      825043125   -3.530900180e-02   -5.492597073e-02    8.865259588e-06    8.689239621e-06    0.000000000e+00    0.000000000e+00    0.000000000e+00    0.000000000e+00
      832543063   -3.492842615e-02   -5.594556406e-02   -3.541819751e-06   -3.543682396e-06    0.000000000e+00    0.000000000e+00    0.000000000e+00    0.000000000e+00
      840043000   -3.490229696e-02   -5.648902431e-02   -6.956048310e-06    1.078285277e-05    0.000000000e+00    0.000000000e+00    0.000000000e+00    0.000000000e+00
      847542938   -3.458967432e-02   -5.721845850e-02   -1.505669206e-05    5.044508725e-05    0.000000000e+00    0.000000000e+00    0.000000000e+00    0.000000000e+00
      855042875   -3.432961181e-02   -5.772021040e-02   -3.227032721e-06    3.982428461e-05    0.000000000e+00    0.000000000e+00    0.000000000e+00    0.000000000e+00
      862542813   -3.413417563e-02   -5.811432377e-02   -1.984462142e-05   -1.396983862e-05    0.000000000e+00    0.000000000e+00    0.000000000e+00    0.000000000e+00
      870042750   -3.438967094e-02   -5.851301923e-02    3.939494491e-06   -8.423812687e-06    0.000000000e+00    0.000000000e+00    0.000000000e+00    0.000000000e+00
