! NanoVNA-App by OneOfEleven et al v1.1.209 (+OD15) 
! Date: 2024-07-30 12:38:47
! Start: 50kHz Stop: 6GHz Points: 801
! S-Parameter data: F S11 S21 S12 S22
# Hz S RI R 50
!     Frequency           S11_Real           S11_Imag           S21_Real           S21_Imag           S12_Real           S12_Imag           S22_Real           S22_Imag
          50000    5.084300041e-01   -1.406524330e-01   -5.867332220e-08   -3.547407687e-06    0.000000000e+00    0.000000000e+00    0.000000000e+00    0.000000000e+00
        7549938   -5.315939337e-02    1.485916227e-02    5.646608770e-06    5.342066288e-06    0.000000000e+00    0.000000000e+00    0.000000000e+00    0.000000000e+00
       15049875   -4.604750872e-02    3.794112243e-03   -3.307126462e-06    2.388842404e-06    0.000000000e+00    0.000000000e+00    0.000000000e+00    0.000000000e+00
       22549813   -4.612519592e-02   -1.245388761e-03   -1.376681030e-05   -6.606802344e-06    0.000000000e+00    0.000000000e+00    0.000000000e+00    0.000000000e+00
       30049750   -4.679295048e-02   -3.839196637e-03   -6.825663149e-06   -1.697614789e-05    0.000000000e+00    0.000000000e+00    0.000000000e+00    0.000000000e+00
       37549688   -4.748827219e-02   -5.714949220e-03    1.107156277e-05    4.839152098e-06    0.000000000e+00    0.000000000e+00    0.000000000e+00    0.000000000e+00
       45049625   -4.798366874e-02   -7.149958983e-03    2.497341484e-05   -1.001544297e-05    0.000000000e+00    0.000000000e+00    0.000000000e+00    0.000000000e+00
       52549563   -4.832914472e-02   -8.425742388e-03    1.098681241e-05   -2.888776362e-05    0.000000000e+00    0.000000000e+00    0.000000000e+00    0.000000000e+00
       60049500   -4.865602776e-02   -9.594215080e-03    9.776093066e-06    1.810491085e-06    0.000000000e+00    0.000000000e+00    0.000000000e+00    0.000000000e+00
       67549438   -4.904237762e-02   -1.079889480e-02   -2.789311111e-06    6.546266377e-06    0.000000000e+00    0.000000000e+00    0.000000000e+00    0.000000000e+00
       75049375   -4.931310192e-02   -1.201248169e-02    1.025572419e-05   -1.618079841e-05    0.000000000e+00    0.000000000e+00    0.000000000e+00    0.000000000e+00
       82549313   -4.978508130e-02   -1.305170264e-02    5.620531738e-06    1.466833055e-05    0.000000000e+00    0.000000000e+00    0.000000000e+00    0.000000000e+00
       90049250   -5.031347275e-02   -1.430764608e-02   -5.104858428e-05   -2.352148294e-05    0.000000000e+00    0.000000000e+00    0.000000000e+00    0.000000000e+00
       97549188   -5.085208640e-02   -1.540249679e-02   -2.742465585e-05    4.382710904e-05    0.000000000e+00    0.000000000e+00    0.000000000e+00    0.000000000e+00
      105049125   -5.073097721e-02   -1.481355075e-02   -2.209562808e-05    1.581013203e-05    0.000000000e+00    0.000000000e+00    0.000000000e+00    0.000000000e+00
      112549063   -5.150054395e-02   -1.580741256e-02    1.451000571e-05    9.321607649e-06    0.000000000e+00    0.000000000e+00    0.000000000e+00    0.000000000e+00
      120049000   -5.210470781e-02   -1.668776572e-02   -1.365691423e-05   -9.237788618e-06    0.000000000e+00    0.000000000e+00    0.000000000e+00    0.000000000e+00
      127548938   -5.285168439e-02   -1.760257035e-02    1.128762960e-06   -7.447786629e-06    0.000000000e+00    0.000000000e+00    0.000000000e+00    0.000000000e+00
      135048875   -5.366427451e-02   -1.839908212e-02    2.244487405e-07   -1.909211278e-05    0.000000000e+00    0.000000000e+00    0.000000000e+00    0.000000000e+00
      142548813   -5.457385629e-02   -1.886248216e-02   -7.050111890e-06    1.857709140e-05    0.000000000e+00    0.000000000e+00    0.000000000e+00    0.000000000e+00
      150048750   -5.528351292e-02   -1.956931688e-02    9.606592357e-06    1.969560981e-05    0.000000000e+00    0.000000000e+00    0.000000000e+00    0.000000000e+00
      157548688   -5.629301071e-02   -2.007271536e-02    7.743947208e-06    1.235865057e-05    0.000000000e+00    0.000000000e+00    0.000000000e+00    0.000000000e+00
      165048625   -5.705542862e-02   -2.039641328e-02   -9.127892554e-06    5.196779966e-07    0.000000000e+00    0.000000000e+00    0.000000000e+00    0.000000000e+00
      172548563   -5.771622062e-02   -2.074819431e-02    1.176260412e-06   -1.485086977e-05    0.000000000e+00    0.000000000e+00    0.000000000e+00    0.000000000e+00
      180048500   -5.847678334e-02   -2.105396986e-02    7.959082723e-06    1.826323569e-05    0.000000000e+00    0.000000000e+00    0.000000000e+00    0.000000000e+00
      187548438   -5.907901376e-02   -2.112384699e-02    1.603830606e-05    6.044283509e-06    0.000000000e+00    0.000000000e+00    0.000000000e+00    0.000000000e+00
      195048375   -5.974020064e-02   -2.127665095e-02   -1.529231668e-06   -4.269182682e-06    0.000000000e+00    0.000000000e+00    0.000000000e+00    0.000000000e+00
      202548313   -6.022669002e-02   -2.134041116e-02    8.155591786e-06    1.492071897e-05    0.000000000e+00    0.000000000e+00    0.000000000e+00    0.000000000e+00
      210048250   -6.063888595e-02   -2.126825228e-02    1.301243901e-05   -1.622922719e-05    0.000000000e+00    0.000000000e+00    0.000000000e+00    0.000000000e+00
      217548188   -6.097939983e-02   -2.124505863e-02   -7.255002856e-06    4.759989679e-06    0.000000000e+00    0.000000000e+00    0.000000000e+00    0.000000000e+00
      225048125   -6.128091738e-02   -2.122719027e-02    1.459475607e-05   -1.639593393e-05    0.000000000e+00    0.000000000e+00    0.000000000e+00    0.000000000e+00
      232548063   -6.146820262e-02   -2.126711421e-02   -1.512467861e-05   -6.204470992e-06    0.000000000e+00    0.000000000e+00    0.000000000e+00    0.000000000e+00
      240048000   -6.151646748e-02   -2.121102251e-02   -1.103337854e-05    3.793276846e-06    0.000000000e+00    0.000000000e+00    0.000000000e+00    0.000000000e+00
      247547938   -6.153195724e-02   -2.123249508e-02    8.207745850e-06   -2.402253449e-05    0.000000000e+00    0.000000000e+00    0.000000000e+00    0.000000000e+00
      255047875   -6.157736480e-02   -2.123875357e-02    2.033077180e-05   -2.114009112e-05    0.000000000e+00    0.000000000e+00    0.000000000e+00    0.000000000e+00
      262547813   -6.151478365e-02   -2.126961015e-02   -6.105750799e-06   -7.815659046e-06    0.000000000e+00    0.000000000e+00    0.000000000e+00    0.000000000e+00
      270047750   -6.137874722e-02   -2.144169062e-02   -6.184913218e-06   -7.247552276e-06    0.000000000e+00    0.000000000e+00    0.000000000e+00    0.000000000e+00
      277547688   -6.109888852e-02   -2.153253555e-02    1.815520227e-05    1.391675323e-05    0.000000000e+00    0.000000000e+00    0.000000000e+00    0.000000000e+00
      285047625   -6.088831276e-02   -2.182604373e-02    1.659896225e-05    3.692694008e-06    0.000000000e+00    0.000000000e+00    0.000000000e+00    0.000000000e+00
      292547563   -6.062356383e-02   -2.207811736e-02   -1.874472946e-05    2.386979759e-06    0.000000000e+00    0.000000000e+00    0.000000000e+00    0.000000000e+00
      300047500   -6.029653922e-02   -2.234574780e-02    1.368857920e-05   -1.987442374e-06    0.000000000e+00    0.000000000e+00    0.000000000e+00    0.000000000e+00
      307547438   -6.009475514e-02   -2.275028825e-02    8.033588529e-06   -7.145106792e-06    0.000000000e+00    0.000000000e+00    0.000000000e+00    0.000000000e+00
      315047375   -5.989614502e-02   -2.327422611e-02   -2.816971391e-05   -1.671165228e-05    0.000000000e+00    0.000000000e+00    0.000000000e+00    0.000000000e+00
      322547313   -5.964070559e-02   -2.381692454e-02   -1.857895404e-05   -1.719035208e-05    0.000000000e+00    0.000000000e+00    0.000000000e+00    0.000000000e+00
      330047250   -5.932307988e-02   -2.417772077e-02    5.085021257e-07    1.761410385e-05    0.000000000e+00    0.000000000e+00    0.000000000e+00    0.000000000e+00
      337547188   -5.927910656e-02   -2.492265031e-02    1.173000783e-05    1.516100019e-05    0.000000000e+00    0.000000000e+00    0.000000000e+00    0.000000000e+00
      345047125   -5.894270912e-02   -2.555518039e-02   -6.230548024e-07   -1.118890941e-05    0.000000000e+00    0.000000000e+00    0.000000000e+00    0.000000000e+00
      352547063   -5.870025232e-02   -2.612575889e-02   -2.861302346e-05    1.367274672e-05    0.000000000e+00    0.000000000e+00    0.000000000e+00    0.000000000e+00
      360047000   -5.866313726e-02   -2.682357095e-02    5.537644029e-06   -1.988466829e-05    0.000000000e+00    0.000000000e+00    0.000000000e+00    0.000000000e+00
      367546938   -5.861729756e-02   -2.739594132e-02    2.141669393e-05   -3.278255463e-07    0.000000000e+00    0.000000000e+00    0.000000000e+00    0.000000000e+00
      375046875   -5.868231505e-02   -2.816818282e-02   -2.698600292e-05   -8.316710591e-07    0.000000000e+00    0.000000000e+00    0.000000000e+00    0.000000000e+00
      382546813   -5.851648003e-02   -2.878785692e-02    1.544039696e-05    2.075266093e-05    0.000000000e+00    0.000000000e+00    0.000000000e+00    0.000000000e+00
      390046750   -5.858078599e-02   -2.930036373e-02   -1.145992428e-05   -5.191564560e-05    0.000000000e+00    0.000000000e+00    0.000000000e+00    0.000000000e+00
      397546688   -5.863705650e-02   -3.000462241e-02   -5.139969289e-06   -2.873223275e-05    0.000000000e+00    0.000000000e+00    0.000000000e+00    0.000000000e+00
      405046625   -5.875876546e-02   -3.060874157e-02    1.832749695e-05   -1.183804125e-05    0.000000000e+00    0.000000000e+00    0.000000000e+00    0.000000000e+00
      412546563   -5.893316492e-02   -3.114374727e-02   -2.252869308e-05   -1.564063132e-05    0.000000000e+00    0.000000000e+00    0.000000000e+00    0.000000000e+00
      420046500   -5.883968994e-02   -3.166652471e-02    1.817941666e-06    6.025657058e-06    0.000000000e+00    0.000000000e+00    0.000000000e+00    0.000000000e+00
      427546438   -5.896573141e-02   -3.209674731e-02    2.125278115e-06    2.711173147e-05    0.000000000e+00    0.000000000e+00    0.000000000e+00    0.000000000e+00
      435046375   -5.910899863e-02   -3.270025551e-02   -1.493562013e-05   -4.196539521e-06    0.000000000e+00    0.000000000e+00    0.000000000e+00    0.000000000e+00
      442546313   -5.923394114e-02   -3.289335594e-02    3.482960165e-05    2.847053111e-06    0.000000000e+00    0.000000000e+00    0.000000000e+00    0.000000000e+00
      450046250   -5.932968110e-02   -3.351914510e-02    1.552980393e-05   -1.836568117e-05    0.000000000e+00    0.000000000e+00    0.000000000e+00    0.000000000e+00
      457546188   -5.941311270e-02   -3.378638998e-02    3.531575203e-06    7.227994502e-06    0.000000000e+00    0.000000000e+00    0.000000000e+00    0.000000000e+00
      465046125   -5.939267576e-02   -3.416505828e-02   -2.291332930e-05   -3.548339009e-07    0.000000000e+00    0.000000000e+00    0.000000000e+00    0.000000000e+00
      472546063   -5.939672515e-02   -3.452037275e-02   -5.072727799e-05   -7.679685950e-06    0.000000000e+00    0.000000000e+00    0.000000000e+00    0.000000000e+00
      480046000   -5.935991183e-02   -3.492658958e-02    2.304837108e-05   -3.340560943e-05    0.000000000e+00    0.000000000e+00    0.000000000e+00    0.000000000e+00
      487545938   -5.938461050e-02   -3.517369553e-02    2.518296242e-06    3.064889461e-05    0.000000000e+00    0.000000000e+00    0.000000000e+00    0.000000000e+00
      495045875   -5.914237350e-02   -3.538868949e-02   -1.057051122e-06   -1.786928624e-05    0.000000000e+00    0.000000000e+00    0.000000000e+00    0.000000000e+00
      502545813   -5.912611261e-02   -3.579903394e-02    1.304131001e-05   -2.231076360e-05    0.000000000e+00    0.000000000e+00    0.000000000e+00    0.000000000e+00
      510045750   -5.881413072e-02   -3.600489721e-02   -1.069251448e-05   -5.385838449e-05    0.000000000e+00    0.000000000e+00    0.000000000e+00    0.000000000e+00
      517545688   -5.889851972e-02   -3.620496392e-02    2.001971006e-05    5.872920156e-05    0.000000000e+00    0.000000000e+00    0.000000000e+00    0.000000000e+00
      525045625   -5.861283466e-02   -3.646176681e-02   -3.098510206e-06   -9.838491678e-06    0.000000000e+00    0.000000000e+00    0.000000000e+00    0.000000000e+00
      532545563   -5.850366503e-02   -3.683894500e-02   -2.462416887e-05    1.969560981e-05    0.000000000e+00    0.000000000e+00    0.000000000e+00    0.000000000e+00
      540045500   -5.816392228e-02   -3.714386374e-02   -1.869071275e-05   -2.025160939e-05    0.000000000e+00    0.000000000e+00    0.000000000e+00    0.000000000e+00
      547545438   -5.795255303e-02   -3.749667481e-02    8.071772754e-06   -2.504326403e-06    0.000000000e+00    0.000000000e+00    0.000000000e+00    0.000000000e+00
      555045375   -5.784713104e-02   -3.764114529e-02   -2.016220242e-05    1.982320100e-05    0.000000000e+00    0.000000000e+00    0.000000000e+00    0.000000000e+00
      562545313   -5.731668323e-02   -3.789234161e-02    2.807751298e-05    2.593267709e-05    0.000000000e+00    0.000000000e+00    0.000000000e+00    0.000000000e+00
      570045250   -5.714005604e-02   -3.825395554e-02    3.477558494e-06   -5.304627120e-05    0.000000000e+00    0.000000000e+00    0.000000000e+00    0.000000000e+00
      577545188   -5.671257898e-02   -3.846277297e-02    2.333242446e-05   -2.628751099e-05    0.000000000e+00    0.000000000e+00    0.000000000e+00    0.000000000e+00
      585045125   -5.642855167e-02   -3.872564062e-02   -2.352893353e-05   -7.592141628e-06    0.000000000e+00    0.000000000e+00    0.000000000e+00    0.000000000e+00
      592545063   -5.598074198e-02   -3.908971697e-02   -3.755465150e-05   -3.842823207e-05    0.000000000e+00    0.000000000e+00    0.000000000e+00    0.000000000e+00
      600045000   -5.583920330e-02   -3.919396549e-02    3.630761057e-05   -9.732320905e-07    0.000000000e+00    0.000000000e+00    0.000000000e+00    0.000000000e+00
      607544938   -5.537148938e-02   -3.950636089e-02    7.234513760e-06    2.142041922e-05    0.000000000e+00    0.000000000e+00    0.000000000e+00    0.000000000e+00
      615044875   -5.495059118e-02   -3.975851461e-02    6.933696568e-06   -1.580920070e-05    0.000000000e+00    0.000000000e+00    0.000000000e+00    0.000000000e+00
      622544813   -5.438688770e-02   -4.008805379e-02    1.630000770e-05    6.009824574e-06    0.000000000e+00    0.000000000e+00    0.000000000e+00    0.000000000e+00
      630044750   -5.386389419e-02   -4.024574906e-02    2.016685903e-05   -3.902241588e-06    0.000000000e+00    0.000000000e+00    0.000000000e+00    0.000000000e+00
      637544688   -5.339989811e-02   -4.054293782e-02   -7.129274309e-06   -1.382455230e-05    0.000000000e+00    0.000000000e+00    0.000000000e+00    0.000000000e+00
      645044625   -5.275900289e-02   -4.079806805e-02    9.847804904e-06    3.565475345e-05    0.000000000e+00    0.000000000e+00    0.000000000e+00    0.000000000e+00
      652544563   -5.230027437e-02   -4.100406542e-02   -4.326086491e-05    3.436300904e-05    0.000000000e+00    0.000000000e+00    0.000000000e+00    0.000000000e+00
      660044500   -5.152190104e-02   -4.132895172e-02    1.799315214e-06    2.505071461e-05    0.000000000e+00    0.000000000e+00    0.000000000e+00    0.000000000e+00
      667544438   -5.099665746e-02   -4.147294909e-02    4.744157195e-06   -2.650078386e-05    0.000000000e+00    0.000000000e+00    0.000000000e+00    0.000000000e+00
      675044375   -5.004622415e-02   -4.186307639e-02   -1.281965524e-05    6.224028766e-06    0.000000000e+00    0.000000000e+00    0.000000000e+00    0.000000000e+00
      682544313   -4.948096350e-02   -4.225299880e-02    3.049615771e-05   -8.186325431e-07    0.000000000e+00    0.000000000e+00    0.000000000e+00    0.000000000e+00
      690044250   -4.859616607e-02   -4.225455597e-02    1.447554678e-05   -3.674719483e-05    0.000000000e+00    0.000000000e+00    0.000000000e+00    0.000000000e+00
      697544188   -4.791409522e-02   -4.282154888e-02   -1.065246761e-05   -4.380103201e-05    0.000000000e+00    0.000000000e+00    0.000000000e+00    0.000000000e+00
      705044125   -4.688235745e-02   -4.323780909e-02   -7.750466466e-06    2.053286880e-05    0.000000000e+00    0.000000000e+00    0.000000000e+00    0.000000000e+00
      712544063   -4.600320384e-02   -4.377083853e-02    7.123686373e-06   -1.958291978e-05    0.000000000e+00    0.000000000e+00    0.000000000e+00    0.000000000e+00
      720044000   -4.525998980e-02   -4.424303398e-02   -2.861954272e-06    2.196338028e-05    0.000000000e+00    0.000000000e+00    0.000000000e+00    0.000000000e+00
      727543938   -4.436096922e-02   -4.467689246e-02   -3.679189831e-05    2.780184150e-05    0.000000000e+00    0.000000000e+00    0.000000000e+00    0.000000000e+00
      735043875   -4.343172535e-02   -4.523932561e-02    7.238239050e-06    7.709488273e-06    0.000000000e+00    0.000000000e+00    0.000000000e+00    0.000000000e+00
      742543813   -4.250299558e-02   -4.588342831e-02    3.552064300e-06   -2.986751497e-05    0.000000000e+00    0.000000000e+00    0.000000000e+00    0.000000000e+00
      750043750   -4.149301350e-02   -4.667386040e-02   -3.377813846e-05   -3.298837692e-05    0.000000000e+00    0.000000000e+00    0.000000000e+00    0.000000000e+00
      757543688   -4.078339785e-02   -4.749925062e-02    3.581773490e-05    8.076429367e-06    0.000000000e+00    0.000000000e+00    0.000000000e+00    0.000000000e+00
      765043625   -3.994493559e-02   -4.805117473e-02   -3.154110163e-05    1.042708755e-05    0.000000000e+00    0.000000000e+00    0.000000000e+00    0.000000000e+00
      772543563   -3.901514038e-02   -4.899641126e-02    1.249462366e-05    2.163741738e-05    0.000000000e+00    0.000000000e+00    0.000000000e+00    0.000000000e+00
      780043500   -3.814809024e-02   -5.003987998e-02    2.088956535e-05   -1.473724842e-05    0.000000000e+00    0.000000000e+00    0.000000000e+00    0.000000000e+00
      787543438   -3.756995499e-02   -5.076844990e-02   -4.881992936e-06   -3.556814045e-05    0.000000000e+00    0.000000000e+00    0.000000000e+00    0.000000000e+00
      795043375   -3.711974993e-02   -5.168087035e-02   -4.548579454e-06   -1.414678991e-05    0.000000000e+00    0.000000000e+00    0.000000000e+00    0.000000000e+00
      802543313   -3.646878526e-02   -5.270290375e-02   -3.217253834e-05   -2.317130566e-05    0.000000000e+00    0.000000000e+00    0.000000000e+00    0.000000000e+00
      810043250   -3.607485816e-02   -5.353833735e-02    7.191672921e-06    5.866400898e-06    0.000000000e+00    0.000000000e+00    0.000000000e+00    0.000000000e+00
      817543188   -3.553115204e-02   -5.422522873e-02   -2.542324364e-05   -6.710179150e-06    0.000000000e+00    0.000000000e+00    0.000000000e+00    0.000000000e+00
      825043125   -3.523623198e-02   -5.511909723e-02   -5.290843546e-06   -3.661029041e-06    0.000000000e+00    0.000000000e+00    0.000000000e+00    0.000000000e+00
      832543063   -3.499485925e-02   -5.593933910e-02    1.291651279e-05    5.726702511e-06    0.000000000e+00    0.000000000e+00    0.000000000e+00    0.000000000e+00
      840043000   -3.472471610e-02   -5.648972094e-02    2.437643707e-05    7.109716535e-06    0.000000000e+00    0.000000000e+00    0.000000000e+00    0.000000000e+00
      847542938   -3.455584869e-02   -5.721710622e-02    1.485180110e-05   -2.823956311e-05    0.000000000e+00    0.000000000e+00    0.000000000e+00    0.000000000e+00
      855042875   -3.459050134e-02   -5.782093480e-02    2.151448280e-05    1.808814704e-05    0.000000000e+00    0.000000000e+00    0.000000000e+00    0.000000000e+00
      862542813   -3.430362791e-02   -5.814908072e-02   -2.059154212e-06    1.055374742e-05    0.000000000e+00    0.000000000e+00    0.000000000e+00    0.000000000e+00
      870042750   -3.440052643e-02   -5.854912475e-02    4.741363227e-06    2.053193748e-05    0.000000000e+00    0.000000000e+00    0.000000000e+00    0.000000000e+00
