! NanoVNA-App by OneOfEleven et al v1.1.209 (+OD15) 
! Date: 2024-07-30 12:38:50
! Start: 50kHz Stop: 6GHz Points: 801
! S-Parameter data: F S11 S21 S12 S22
# Hz S RI R 50
!     Frequency           S11_Real           S11_Imag           S21_Real           S21_Imag           S12_Real           S12_Imag           S22_Real           S22_Imag
          50000    5.084642172e-01   -1.409777105e-01   -1.973472536e-06    2.956949174e-06    0.000000000e+00    0.000000000e+00    0.000000000e+00    0.000000000e+00
        7549938   -5.291995779e-02    1.472122874e-02    3.049522638e-05   -1.179054379e-06    0.000000000e+00    0.000000000e+00    0.000000000e+00    0.000000000e+00
       15049875   -4.612768441e-02    3.711353056e-03    2.074986696e-06    7.234513760e-06    0.000000000e+00    0.000000000e+00    0.000000000e+00    0.000000000e+00
       22549813   -4.603280872e-02   -1.180280000e-03   -3.706663847e-07   -2.241693437e-06    0.000000000e+00    0.000000000e+00    0.000000000e+00    0.000000000e+00
       30049750   -4.683041200e-02   -4.039047286e-03    4.268903285e-05    6.591901183e-06    0.000000000e+00    0.000000000e+00    0.000000000e+00    0.000000000e+00
       37549688   -4.755041003e-02   -5.765770562e-03   -1.928303391e-05    2.500694245e-05    0.000000000e+00    0.000000000e+00    0.000000000e+00    0.000000000e+00
       45049625   -4.807446152e-02   -7.054282352e-03   -1.717358828e-06    2.644769847e-05    0.000000000e+00    0.000000000e+00    0.000000000e+00    0.000000000e+00
       52549563   -4.826956615e-02   -8.470825851e-03    8.554197848e-06   -4.606414586e-05    0.000000000e+00    0.000000000e+00    0.000000000e+00    0.000000000e+00
       60049500   -4.866758361e-02   -9.616356343e-03   -2.074986696e-05   -7.098540664e-06    0.000000000e+00    0.000000000e+00    0.000000000e+00    0.000000000e+00
       67549438   -4.906388745e-02   -1.082595252e-02    3.112386912e-05    2.530962229e-05    0.000000000e+00    0.000000000e+00    0.000000000e+00    0.000000000e+00
       75049375   -4.940415546e-02   -1.205319446e-02   -8.014962077e-06    1.541711390e-05    0.000000000e+00    0.000000000e+00    0.000000000e+00    0.000000000e+00
       82549313   -4.977004975e-02   -1.318760216e-02   -2.573151141e-05   -8.122064173e-06    0.000000000e+00    0.000000000e+00    0.000000000e+00    0.000000000e+00
       90049250   -5.015391484e-02   -1.438777242e-02    3.413110971e-05   -2.080760896e-05    0.000000000e+00    0.000000000e+00    0.000000000e+00    0.000000000e+00
       97549188   -5.083102360e-02   -1.554000191e-02    3.593042493e-06   -3.959983587e-05    0.000000000e+00    0.000000000e+00    0.000000000e+00    0.000000000e+00
      105049125   -5.075650290e-02   -1.485265419e-02   -1.992937177e-05    1.081172377e-05    0.000000000e+00    0.000000000e+00    0.000000000e+00    0.000000000e+00
      112549063   -5.155043304e-02   -1.574797370e-02   -4.582107067e-06    1.022592187e-06    0.000000000e+00    0.000000000e+00    0.000000000e+00    0.000000000e+00
      120049000   -5.213503540e-02   -1.677574217e-02   -2.526585013e-05   -1.352839172e-05    0.000000000e+00    0.000000000e+00    0.000000000e+00    0.000000000e+00
      127548938   -5.301650986e-02   -1.754807122e-02   -4.481524229e-06    1.643784344e-05    0.000000000e+00    0.000000000e+00    0.000000000e+00    0.000000000e+00
      135048875   -5.368525535e-02   -1.831559837e-02    1.328997314e-06    3.806315362e-05    0.000000000e+00    0.000000000e+00    0.000000000e+00    0.000000000e+00
      142548813   -5.459606275e-02   -1.904556528e-02   -1.053325832e-06    2.622511238e-05    0.000000000e+00    0.000000000e+00    0.000000000e+00    0.000000000e+00
      150048750   -5.542261153e-02   -1.959148236e-02   -3.780238330e-06    7.597729564e-06    0.000000000e+00    0.000000000e+00    0.000000000e+00    0.000000000e+00
      157548688   -5.618367717e-02   -2.014172636e-02   -8.501112461e-06   -7.419846952e-06    0.000000000e+00    0.000000000e+00    0.000000000e+00    0.000000000e+00
      165048625   -5.700511858e-02   -2.043704502e-02    1.078471541e-06    1.980178058e-05    0.000000000e+00    0.000000000e+00    0.000000000e+00    0.000000000e+00
      172548563   -5.769941956e-02   -2.071984671e-02    2.573896199e-05    1.091696322e-05    0.000000000e+00    0.000000000e+00    0.000000000e+00    0.000000000e+00
      180048500   -5.845252424e-02   -2.097177505e-02   -7.974915206e-06   -2.615898848e-05    0.000000000e+00    0.000000000e+00    0.000000000e+00    0.000000000e+00
      187548438   -5.923968181e-02   -2.114859968e-02    1.294072717e-05   -9.333714843e-06    0.000000000e+00    0.000000000e+00    0.000000000e+00    0.000000000e+00
      195048375   -5.973450094e-02   -2.134872600e-02    5.142763257e-06    2.050958574e-05    0.000000000e+00    0.000000000e+00    0.000000000e+00    0.000000000e+00
      202548313   -6.030042842e-02   -2.134147473e-02    5.039386451e-06    1.415051520e-05    0.000000000e+00    0.000000000e+00    0.000000000e+00    0.000000000e+00
      210048250   -6.055352092e-02   -2.128394134e-02   -6.640329957e-06    1.256447285e-05    0.000000000e+00    0.000000000e+00    0.000000000e+00    0.000000000e+00
      217548188   -6.103338674e-02   -2.130848914e-02   -5.816109478e-06    9.424984455e-07    0.000000000e+00    0.000000000e+00    0.000000000e+00    0.000000000e+00
      225048125   -6.128219888e-02   -2.129426785e-02    1.546647400e-05   -4.055723548e-05    0.000000000e+00    0.000000000e+00    0.000000000e+00    0.000000000e+00
      232548063   -6.148399040e-02   -2.132765949e-02    5.023553967e-06   -7.058493793e-06    0.000000000e+00    0.000000000e+00    0.000000000e+00    0.000000000e+00
      240048000   -6.159751862e-02   -2.131570317e-02    2.215430140e-05    2.121645957e-05    0.000000000e+00    0.000000000e+00    0.000000000e+00    0.000000000e+00
      247547938   -6.147117913e-02   -2.125262842e-02   -8.578412235e-06   -5.644746125e-06    0.000000000e+00    0.000000000e+00    0.000000000e+00    0.000000000e+00
      255047875   -6.157691777e-02   -2.117307298e-02   -1.643970609e-05   -2.577900887e-05    0.000000000e+00    0.000000000e+00    0.000000000e+00    0.000000000e+00
      262547813   -6.139922142e-02   -2.128651738e-02   -1.996941864e-05   -8.344650269e-07    0.000000000e+00    0.000000000e+00    0.000000000e+00    0.000000000e+00
      270047750   -6.130908057e-02   -2.137531713e-02   -7.003545761e-07   -8.526258171e-06    0.000000000e+00    0.000000000e+00    0.000000000e+00    0.000000000e+00
      277547688   -6.104177609e-02   -2.165444940e-02    2.712476999e-05   -2.045463771e-05    0.000000000e+00    0.000000000e+00    0.000000000e+00    0.000000000e+00
      285047625   -6.087976322e-02   -2.186464891e-02   -6.098300219e-06    3.042630851e-06    0.000000000e+00    0.000000000e+00    0.000000000e+00    0.000000000e+00
      292547563   -6.055865809e-02   -2.210568823e-02   -3.343448043e-05   -1.184642315e-06    0.000000000e+00    0.000000000e+00    0.000000000e+00    0.000000000e+00
      300047500   -6.033198535e-02   -2.240595035e-02   -2.359598875e-05    1.588556916e-05    0.000000000e+00    0.000000000e+00    0.000000000e+00    0.000000000e+00
      307547438   -6.012184545e-02   -2.283704281e-02    2.651475370e-06    1.133698970e-05    0.000000000e+00    0.000000000e+00    0.000000000e+00    0.000000000e+00
      315047375   -6.001236662e-02   -2.327705361e-02    1.257471740e-05   -1.384690404e-05    0.000000000e+00    0.000000000e+00    0.000000000e+00    0.000000000e+00
      322547313   -5.965400115e-02   -2.376298979e-02    1.023989171e-05    3.090128303e-06    0.000000000e+00    0.000000000e+00    0.000000000e+00    0.000000000e+00
      330047250   -5.953769758e-02   -2.426127344e-02   -1.144409180e-05   -8.879229426e-06    0.000000000e+00    0.000000000e+00    0.000000000e+00    0.000000000e+00
      337547188   -5.913076922e-02   -2.487993427e-02   -1.075584441e-05   -8.055940270e-07    0.000000000e+00    0.000000000e+00    0.000000000e+00    0.000000000e+00
      345047125   -5.902463198e-02   -2.548572235e-02   -8.393079042e-06   -1.982785761e-06    0.000000000e+00    0.000000000e+00    0.000000000e+00    0.000000000e+00
      352547063   -5.886485428e-02   -2.610979229e-02   -1.469068229e-05    9.606592357e-06    0.000000000e+00    0.000000000e+00    0.000000000e+00    0.000000000e+00
      360047000   -5.868940055e-02   -2.671884373e-02    1.293141395e-05    6.557442248e-06    0.000000000e+00    0.000000000e+00    0.000000000e+00    0.000000000e+00
      367546938   -5.857918784e-02   -2.739765681e-02   -4.890374839e-06    7.022172213e-06    0.000000000e+00    0.000000000e+00    0.000000000e+00    0.000000000e+00
      375046875   -5.858348310e-02   -2.818062529e-02   -9.024515748e-07    8.226372302e-06    0.000000000e+00    0.000000000e+00    0.000000000e+00    0.000000000e+00
      382546813   -5.867661908e-02   -2.874022722e-02    1.576356590e-05    3.953278065e-05    0.000000000e+00    0.000000000e+00    0.000000000e+00    0.000000000e+00
      390046750   -5.863940343e-02   -2.950107679e-02    4.278961569e-05    4.051253200e-06    0.000000000e+00    0.000000000e+00    0.000000000e+00    0.000000000e+00
      397546688   -5.865069851e-02   -3.004097380e-02   -1.144967973e-05    9.518116713e-07    0.000000000e+00    0.000000000e+00    0.000000000e+00    0.000000000e+00
      405046625   -5.864854530e-02   -3.066805564e-02    1.833029091e-05    2.723746002e-05    0.000000000e+00    0.000000000e+00    0.000000000e+00    0.000000000e+00
      412546563   -5.875200406e-02   -3.121482953e-02   -2.095941454e-05    9.170733392e-06    0.000000000e+00    0.000000000e+00    0.000000000e+00    0.000000000e+00
      420046500   -5.878269300e-02   -3.179406747e-02   -3.823265433e-05   -1.716241241e-05    0.000000000e+00    0.000000000e+00    0.000000000e+00    0.000000000e+00
      427546438   -5.913563818e-02   -3.226787224e-02    1.295283437e-05   -2.210866660e-05    0.000000000e+00    0.000000000e+00    0.000000000e+00    0.000000000e+00
      435046375   -5.913037434e-02   -3.254735097e-02   -2.681836486e-05    1.944880933e-05    0.000000000e+00    0.000000000e+00    0.000000000e+00    0.000000000e+00
      442546313   -5.919294432e-02   -3.312036768e-02   -1.894589514e-05   -1.593772322e-05    0.000000000e+00    0.000000000e+00    0.000000000e+00    0.000000000e+00
      450046250   -5.929062515e-02   -3.342866153e-02    1.512281597e-05    1.897942275e-05    0.000000000e+00    0.000000000e+00    0.000000000e+00    0.000000000e+00
      457546188   -5.925280228e-02   -3.380518034e-02   -2.595596015e-05    7.785856724e-07    0.000000000e+00    0.000000000e+00    0.000000000e+00    0.000000000e+00
      465046125   -5.935204774e-02   -3.421146423e-02   -7.742084563e-06   -1.804530621e-05    0.000000000e+00    0.000000000e+00    0.000000000e+00    0.000000000e+00
      472546063   -5.940572172e-02   -3.456680104e-02   -1.291651279e-05   -2.598483115e-05    0.000000000e+00    0.000000000e+00    0.000000000e+00    0.000000000e+00
      480046000   -5.946324021e-02   -3.486760706e-02    2.266652882e-05   -2.637226135e-05    0.000000000e+00    0.000000000e+00    0.000000000e+00    0.000000000e+00
      487545938   -5.932696164e-02   -3.515495360e-02    1.076608896e-05   -1.313630491e-05    0.000000000e+00    0.000000000e+00    0.000000000e+00    0.000000000e+00
      495045875   -5.928616971e-02   -3.556899354e-02   -4.681572318e-05   -4.233792424e-06    0.000000000e+00    0.000000000e+00    0.000000000e+00    0.000000000e+00
      502545813   -5.910642818e-02   -3.565494716e-02   -1.035444438e-05    1.015048474e-05    0.000000000e+00    0.000000000e+00    0.000000000e+00    0.000000000e+00
      510045750   -5.888488516e-02   -3.606398031e-02   -1.017097384e-05    7.624737918e-06    0.000000000e+00    0.000000000e+00    0.000000000e+00    0.000000000e+00
      517545688   -5.884477869e-02   -3.630166873e-02   -2.116244286e-05   -9.667128325e-07    0.000000000e+00    0.000000000e+00    0.000000000e+00    0.000000000e+00
      525045625   -5.878464133e-02   -3.658484295e-02   -7.877126336e-06    2.259667963e-05    0.000000000e+00    0.000000000e+00    0.000000000e+00    0.000000000e+00
      532545563   -5.845427513e-02   -3.683870658e-02    3.119278699e-05    3.124866635e-05    0.000000000e+00    0.000000000e+00    0.000000000e+00    0.000000000e+00
      540045500   -5.815681070e-02   -3.717080504e-02   -4.543364048e-05    4.685483873e-06    0.000000000e+00    0.000000000e+00    0.000000000e+00    0.000000000e+00
      547545438   -5.796026811e-02   -3.740771115e-02   -2.353917807e-05    2.603791654e-05    0.000000000e+00    0.000000000e+00    0.000000000e+00    0.000000000e+00
      555045375   -5.765212327e-02   -3.767694533e-02    3.227032721e-06    9.218230844e-06    0.000000000e+00    0.000000000e+00    0.000000000e+00    0.000000000e+00
      562545313   -5.750849470e-02   -3.799477965e-02    1.792889088e-05    2.015382051e-06    0.000000000e+00    0.000000000e+00    0.000000000e+00    0.000000000e+00
      570045250   -5.715158954e-02   -3.815852478e-02   -5.166046321e-06    2.172775567e-06    0.000000000e+00    0.000000000e+00    0.000000000e+00    0.000000000e+00
      577545188   -5.680554360e-02   -3.861151636e-02   -2.487562597e-05    3.107171506e-05    0.000000000e+00    0.000000000e+00    0.000000000e+00    0.000000000e+00
      585045125   -5.660084262e-02   -3.873778135e-02    2.743583173e-05   -2.249144018e-06    0.000000000e+00    0.000000000e+00    0.000000000e+00    0.000000000e+00
      592545063   -5.612693354e-02   -3.910128027e-02   -1.093931496e-05   -2.671964467e-06    0.000000000e+00    0.000000000e+00    0.000000000e+00    0.000000000e+00
      600045000   -5.561823770e-02   -3.924470767e-02    4.671048373e-05    2.101622522e-05    0.000000000e+00    0.000000000e+00    0.000000000e+00    0.000000000e+00
      607544938   -5.534145236e-02   -3.954310343e-02    2.978742123e-05    2.862326801e-05    0.000000000e+00    0.000000000e+00    0.000000000e+00    0.000000000e+00
      615044875   -5.494814366e-02   -3.974607959e-02   -1.953449100e-05   -4.155375063e-05    0.000000000e+00    0.000000000e+00    0.000000000e+00    0.000000000e+00
      622544813   -5.430752411e-02   -4.008645192e-02   -6.534811109e-05    2.135802060e-05    0.000000000e+00    0.000000000e+00    0.000000000e+00    0.000000000e+00
      630044750   -5.405779928e-02   -4.025926068e-02   -3.213249147e-05    4.702247679e-06    0.000000000e+00    0.000000000e+00    0.000000000e+00    0.000000000e+00
      637544688   -5.346092209e-02   -4.053341970e-02   -2.050958574e-05   -1.111254096e-05    0.000000000e+00    0.000000000e+00    0.000000000e+00    0.000000000e+00
      645044625   -5.289457738e-02   -4.074504226e-02    1.067947596e-05    5.303695798e-05    0.000000000e+00    0.000000000e+00    0.000000000e+00    0.000000000e+00
      652544563   -5.230154842e-02   -4.106706381e-02   -3.616325557e-06   -2.837087959e-05    0.000000000e+00    0.000000000e+00    0.000000000e+00    0.000000000e+00
      660044500   -5.151537433e-02   -4.117051885e-02   -2.438668162e-05    1.014117151e-05    0.000000000e+00    0.000000000e+00    0.000000000e+00    0.000000000e+00
      667544438   -5.079131201e-02   -4.175260291e-02    2.262275666e-05    2.621114254e-05    0.000000000e+00    0.000000000e+00    0.000000000e+00    0.000000000e+00
      675044375   -5.023366213e-02   -4.172533751e-02   -1.336541027e-05   -8.048489690e-06    0.000000000e+00    0.000000000e+00    0.000000000e+00    0.000000000e+00
      682544313   -4.935685173e-02   -4.208802432e-02   -2.705026418e-05    1.232139766e-05    0.000000000e+00    0.000000000e+00    0.000000000e+00    0.000000000e+00
      690044250   -4.869664833e-02   -4.244558141e-02   -1.944787800e-05   -9.003095329e-06    0.000000000e+00    0.000000000e+00    0.000000000e+00    0.000000000e+00
      697544188   -4.790027067e-02   -4.294740036e-02   -2.898555249e-05    7.373280823e-06    0.000000000e+00    0.000000000e+00    0.000000000e+00    0.000000000e+00
      705044125   -4.700480402e-02   -4.323756322e-02    1.918431371e-05   -3.711506724e-05    0.000000000e+00    0.000000000e+00    0.000000000e+00    0.000000000e+00
      712544063   -4.615303501e-02   -4.377026111e-02   -3.085006028e-05    5.198828876e-05    0.000000000e+00    0.000000000e+00    0.000000000e+00    0.000000000e+00
      720044000   -4.523362964e-02   -4.421314970e-02   -1.898221672e-05   -2.829171717e-05    0.000000000e+00    0.000000000e+00    0.000000000e+00    0.000000000e+00
      727543938   -4.440885037e-02   -4.466808215e-02    2.991035581e-05   -9.207986295e-06    0.000000000e+00    0.000000000e+00    0.000000000e+00    0.000000000e+00
      735043875   -4.342196509e-02   -4.551068693e-02   -1.088157296e-05    4.312954843e-06    0.000000000e+00    0.000000000e+00    0.000000000e+00    0.000000000e+00
      742543813   -4.245658591e-02   -4.602955654e-02   -2.321228385e-05    1.467019320e-05    0.000000000e+00    0.000000000e+00    0.000000000e+00    0.000000000e+00
      750043750   -4.148440436e-02   -4.671780765e-02    8.575618267e-06    1.057982445e-06    0.000000000e+00    0.000000000e+00    0.000000000e+00    0.000000000e+00
      757543688   -4.067112505e-02   -4.749694467e-02   -5.098991096e-06   -3.146007657e-06    0.000000000e+00    0.000000000e+00    0.000000000e+00    0.000000000e+00
      765043625   -3.984399512e-02   -4.819883406e-02   -1.584365964e-05    2.069398761e-06    0.000000000e+00    0.000000000e+00    0.000000000e+00    0.000000000e+00
      772543563   -3.903402761e-02   -4.904771224e-02    1.421943307e-05   -7.928349078e-06    0.000000000e+00    0.000000000e+00    0.000000000e+00    0.000000000e+00
      780043500   -3.824708238e-02   -4.998933896e-02   -1.300126314e-05    3.704801202e-06    0.000000000e+00    0.000000000e+00    0.000000000e+00    0.000000000e+00
      787543438   -3.771184012e-02   -5.082350224e-02    1.680664718e-05   -2.421624959e-05    0.000000000e+00    0.000000000e+00    0.000000000e+00    0.000000000e+00
      795043375   -3.717625886e-02   -5.177801102e-02    3.203749657e-07   -8.095987141e-06    0.000000000e+00    0.000000000e+00    0.000000000e+00    0.000000000e+00
      802543313   -3.654247150e-02   -5.249582231e-02   -1.557637006e-05    1.095235348e-06    0.000000000e+00    0.000000000e+00    0.000000000e+00    0.000000000e+00
      810043250   -3.608731925e-02   -5.352593586e-02   -1.813471317e-05   -2.669170499e-06    0.000000000e+00    0.000000000e+00    0.000000000e+00    0.000000000e+00
      817543188   -3.559001163e-02   -5.446036160e-02    6.678141654e-05   -1.472234726e-05    0.000000000e+00    0.000000000e+00    0.000000000e+00    0.000000000e+00
      825043125   -3.530866280e-02   -5.517344549e-02    1.933798194e-05   -3.324821591e-07    0.000000000e+00    0.000000000e+00    0.000000000e+00    0.000000000e+00
      832543063   -3.481841460e-02   -5.596534163e-02   -1.237727702e-05    8.993782103e-06    0.000000000e+00    0.000000000e+00    0.000000000e+00    0.000000000e+00
      840043000   -3.471111879e-02   -5.659841374e-02   -9.717419744e-06   -8.152797818e-06    0.000000000e+00    0.000000000e+00    0.000000000e+00    0.000000000e+00
      847542938   -3.467435390e-02   -5.725412443e-02    3.310199827e-05    2.021901309e-06    0.000000000e+00    0.000000000e+00    0.000000000e+00    0.000000000e+00
      855042875   -3.445163369e-02   -5.772709101e-02   -2.723280340e-05   -1.393258572e-05    0.000000000e+00    0.000000000e+00    0.000000000e+00    0.000000000e+00
      862542813   -3.443193436e-02   -5.831538513e-02   -1.425854862e-06   -5.075708032e-06    0.000000000e+00    0.000000000e+00    0.000000000e+00    0.000000000e+00
      870042750   -3.437589854e-02   -5.846378207e-02   -2.176407725e-05    3.539957106e-05    0.000000000e+00    0.000000000e+00    0.000000000e+00    0.000000000e+00
