! NanoVNA-App by OneOfEleven et al v1.1.209 (+OD15) 
! Date: 2024-07-30 12:38:52
! Start: 50kHz Stop: 6GHz Points: 801
! S-Parameter data: F S11 S21 S12 S22
# Hz S RI R 50
!     Frequency           S11_Real           S11_Imag           S21_Real           S21_Imag           S12_Real           S12_Imag           S22_Real           S22_Imag
          50000    5.084500909e-01   -1.410077661e-01   -1.054257154e-06    1.042336226e-05    0.000000000e+00    0.000000000e+00    0.000000000e+00    0.000000000e+00
        7549938   -5.293520167e-02    1.477739494e-02   -1.191627234e-05    1.090019941e-05    0.000000000e+00    0.000000000e+00    0.000000000e+00    0.000000000e+00
       15049875   -4.602554440e-02    3.741457127e-03   -2.273358405e-06   -5.532987416e-06    0.000000000e+00    0.000000000e+00    0.000000000e+00    0.000000000e+00
       22549813   -4.616283253e-02   -1.218819059e-03   -6.691552699e-06    2.605654299e-05    0.000000000e+00    0.000000000e+00    0.000000000e+00    0.000000000e+00
       30049750   -4.671613127e-02   -3.967559896e-03    2.667307854e-05   -9.249895811e-06    0.000000000e+00    0.000000000e+00    0.000000000e+00    0.000000000e+00
       37549688   -4.752925038e-02   -5.750681274e-03   -5.479436368e-05   -1.194700599e-05    0.000000000e+00    0.000000000e+00    0.000000000e+00    0.000000000e+00
       45049625   -4.805626348e-02   -7.201584987e-03    9.843148291e-06   -1.885648817e-05    0.000000000e+00    0.000000000e+00    0.000000000e+00    0.000000000e+00
       52549563   -4.840585589e-02   -8.525820449e-03   -7.087364793e-07    3.082491457e-05    0.000000000e+00    0.000000000e+00    0.000000000e+00    0.000000000e+00
       60049500   -4.861031100e-02   -9.666311555e-03   -4.572793841e-06    3.843568265e-06    0.000000000e+00    0.000000000e+00    0.000000000e+00    0.000000000e+00
       67549438   -4.895718023e-02   -1.078518108e-02   -6.421469152e-06    3.407709301e-06    0.000000000e+00    0.000000000e+00    0.000000000e+00    0.000000000e+00
       75049375   -4.921413586e-02   -1.200330630e-02    1.705158502e-05   -3.451481462e-06    0.000000000e+00    0.000000000e+00    0.000000000e+00    0.000000000e+00
       82549313   -4.985619709e-02   -1.321048569e-02    8.828938007e-06   -1.003593206e-05    0.000000000e+00    0.000000000e+00    0.000000000e+00    0.000000000e+00
       90049250   -5.031824112e-02   -1.429556403e-02   -2.532266080e-06    4.394911230e-06    0.000000000e+00    0.000000000e+00    0.000000000e+00    0.000000000e+00
       97549188   -5.086045340e-02   -1.549852826e-02    1.093000174e-05   -2.031680197e-05    0.000000000e+00    0.000000000e+00    0.000000000e+00    0.000000000e+00
      105049125   -5.076555535e-02   -1.477864664e-02   -2.052169293e-05    8.661299944e-07    0.000000000e+00    0.000000000e+00    0.000000000e+00    0.000000000e+00
      112549063   -5.148456246e-02   -1.569245011e-02   -2.578832209e-06    6.988644600e-06    0.000000000e+00    0.000000000e+00    0.000000000e+00    0.000000000e+00
      120049000   -5.221602321e-02   -1.675684750e-02   -2.800673246e-05   -3.132224083e-05    0.000000000e+00    0.000000000e+00    0.000000000e+00    0.000000000e+00
      127548938   -5.291967466e-02   -1.762503572e-02    2.491567284e-05   -4.014931619e-06    0.000000000e+00    0.000000000e+00    0.000000000e+00    0.000000000e+00
      135048875   -5.382274836e-02   -1.839607209e-02   -2.389028668e-05    5.749054253e-06    0.000000000e+00    0.000000000e+00    0.000000000e+00    0.000000000e+00
      142548813   -5.452570692e-02   -1.898110285e-02   -7.041729987e-06   -1.353211701e-06    0.000000000e+00    0.000000000e+00    0.000000000e+00    0.000000000e+00
      150048750   -5.542908236e-02   -1.954048499e-02   -2.201367170e-05   -1.756474376e-05    0.000000000e+00    0.000000000e+00    0.000000000e+00    0.000000000e+00
      157548688   -5.620647594e-02   -2.010104991e-02    3.221444786e-06    2.412125468e-07    0.000000000e+00    0.000000000e+00    0.000000000e+00    0.000000000e+00
      165048625   -5.698317289e-02   -2.038415335e-02    3.185123205e-07    1.967232674e-05    0.000000000e+00    0.000000000e+00    0.000000000e+00    0.000000000e+00
      172548563   -5.787973106e-02   -2.079254016e-02   -3.674998879e-05   -2.599321306e-06    0.000000000e+00    0.000000000e+00    0.000000000e+00    0.000000000e+00
      180048500   -5.854056776e-02   -2.099648491e-02    4.941597581e-06    4.173256457e-06    0.000000000e+00    0.000000000e+00    0.000000000e+00    0.000000000e+00
      187548438   -5.902929604e-02   -2.111790515e-02    3.918074071e-06    1.151021570e-05    0.000000000e+00    0.000000000e+00    0.000000000e+00    0.000000000e+00
      195048375   -5.971359462e-02   -2.130422555e-02    1.995824277e-06    1.151487231e-05    0.000000000e+00    0.000000000e+00    0.000000000e+00    0.000000000e+00
      202548313   -6.017758697e-02   -2.130206116e-02    2.266280353e-05    1.315493137e-05    0.000000000e+00    0.000000000e+00    0.000000000e+00    0.000000000e+00
      210048250   -6.064379215e-02   -2.124409750e-02   -1.716986299e-05    2.766028047e-06    0.000000000e+00    0.000000000e+00    0.000000000e+00    0.000000000e+00
      217548188   -6.094157696e-02   -2.134254202e-02    2.326816320e-05    7.139518857e-06    0.000000000e+00    0.000000000e+00    0.000000000e+00    0.000000000e+00
      225048125   -6.118989363e-02   -2.122727036e-02    2.492312342e-05   -1.715496182e-05    0.000000000e+00    0.000000000e+00    0.000000000e+00    0.000000000e+00
      232548063   -6.138879061e-02   -2.121106535e-02    7.882714272e-06   -9.330920875e-06    0.000000000e+00    0.000000000e+00    0.000000000e+00    0.000000000e+00
      240048000   -6.150585413e-02   -2.127325721e-02    9.451061487e-06    1.154374331e-05    0.000000000e+00    0.000000000e+00    0.000000000e+00    0.000000000e+00
      247547938   -6.159093231e-02   -2.121530659e-02    1.977290958e-05   -5.436129868e-06    0.000000000e+00    0.000000000e+00    0.000000000e+00    0.000000000e+00
      255047875   -6.154019013e-02   -2.124451473e-02   -1.025386155e-05    9.937211871e-06    0.000000000e+00    0.000000000e+00    0.000000000e+00    0.000000000e+00
      262547813   -6.146116555e-02   -2.127772570e-02    2.151727676e-05   -2.619624138e-05    0.000000000e+00    0.000000000e+00    0.000000000e+00    0.000000000e+00
      270047750   -6.135180965e-02   -2.152213082e-02    1.787487417e-05   -5.159527063e-06    0.000000000e+00    0.000000000e+00    0.000000000e+00    0.000000000e+00
      277547688   -6.121260673e-02   -2.158341743e-02    5.197711289e-06   -1.137424260e-05    0.000000000e+00    0.000000000e+00    0.000000000e+00    0.000000000e+00
      285047625   -6.100107357e-02   -2.180432715e-02   -5.679205060e-06    2.911500633e-05    0.000000000e+00    0.000000000e+00    0.000000000e+00    0.000000000e+00
      292547563   -6.062921137e-02   -2.198665589e-02   -3.845430911e-06    2.974178642e-05    0.000000000e+00    0.000000000e+00    0.000000000e+00    0.000000000e+00
      300047500   -6.039531156e-02   -2.244795300e-02   -3.929249942e-05    2.457853407e-05    0.000000000e+00    0.000000000e+00    0.000000000e+00    0.000000000e+00
      307547438   -6.023648381e-02   -2.280486003e-02   -2.523791045e-05   -8.674338460e-06    0.000000000e+00    0.000000000e+00    0.000000000e+00    0.000000000e+00
      315047375   -5.987933651e-02   -2.337069437e-02   -4.970468581e-06   -1.651234925e-06    0.000000000e+00    0.000000000e+00    0.000000000e+00    0.000000000e+00
      322547313   -5.967078358e-02   -2.378047071e-02   -4.453584552e-06    2.031400800e-05    0.000000000e+00    0.000000000e+00    0.000000000e+00    0.000000000e+00
      330047250   -5.928842723e-02   -2.437112480e-02    2.612359822e-05   -2.809241414e-05    0.000000000e+00    0.000000000e+00    0.000000000e+00    0.000000000e+00
      337547188   -5.910132453e-02   -2.485844493e-02    3.168080002e-05   -9.540468454e-06    0.000000000e+00    0.000000000e+00    0.000000000e+00    0.000000000e+00
      345047125   -5.911685526e-02   -2.555424534e-02    2.445839345e-05    2.211518586e-05    0.000000000e+00    0.000000000e+00    0.000000000e+00    0.000000000e+00
      352547063   -5.892920494e-02   -2.612032369e-02    1.235678792e-05    5.152635276e-05    0.000000000e+00    0.000000000e+00    0.000000000e+00    0.000000000e+00
      360047000   -5.870879814e-02   -2.678932622e-02    4.899688065e-06   -4.097819328e-07    0.000000000e+00    0.000000000e+00    0.000000000e+00    0.000000000e+00
      367546938   -5.875487253e-02   -2.751999907e-02    1.546181738e-05   -9.059906006e-06    0.000000000e+00    0.000000000e+00    0.000000000e+00    0.000000000e+00
      375046875   -5.858406425e-02   -2.813877165e-02    1.462828368e-05    3.035739064e-05    0.000000000e+00    0.000000000e+00    0.000000000e+00    0.000000000e+00
      382546813   -5.876926705e-02   -2.882292867e-02    7.181428373e-06   -1.260824502e-05    0.000000000e+00    0.000000000e+00    0.000000000e+00    0.000000000e+00
      390046750   -5.862117186e-02   -2.946037985e-02   -2.324674278e-05    1.457426697e-05    0.000000000e+00    0.000000000e+00    0.000000000e+00    0.000000000e+00
      397546688   -5.878172442e-02   -2.991258726e-02    8.924864233e-06   -1.576635987e-05    0.000000000e+00    0.000000000e+00    0.000000000e+00    0.000000000e+00
      405046625   -5.875932798e-02   -3.058951348e-02   -2.207886428e-05    1.815985888e-05    0.000000000e+00    0.000000000e+00    0.000000000e+00    0.000000000e+00
      412546563   -5.890912563e-02   -3.106475808e-02   -2.166256309e-06   -5.063042045e-05    0.000000000e+00    0.000000000e+00    0.000000000e+00    0.000000000e+00
      420046500   -5.897324905e-02   -3.166209161e-02   -1.635681838e-05   -1.285038888e-05    0.000000000e+00    0.000000000e+00    0.000000000e+00    0.000000000e+00
      427546438   -5.911846459e-02   -3.219420090e-02   -9.360723197e-06   -1.312792301e-05    0.000000000e+00    0.000000000e+00    0.000000000e+00    0.000000000e+00
      435046375   -5.901850015e-02   -3.269188851e-02    2.712011337e-05    1.546833664e-05    0.000000000e+00    0.000000000e+00    0.000000000e+00    0.000000000e+00
      442546313   -5.932636186e-02   -3.306698799e-02    2.607423812e-05    1.502223313e-05    0.000000000e+00    0.000000000e+00    0.000000000e+00    0.000000000e+00
      450046250   -5.945804715e-02   -3.360964358e-02   -1.291930676e-05   -2.149958163e-05    0.000000000e+00    0.000000000e+00    0.000000000e+00    0.000000000e+00
      457546188   -5.926473811e-02   -3.384732082e-02    1.276377589e-05   -1.816079021e-05    0.000000000e+00    0.000000000e+00    0.000000000e+00    0.000000000e+00
      465046125   -5.925284699e-02   -3.413794935e-02    2.271682024e-05    8.386559784e-06    0.000000000e+00    0.000000000e+00    0.000000000e+00    0.000000000e+00
      472546063   -5.935809761e-02   -3.445722535e-02    7.816590369e-06    2.205558121e-05    0.000000000e+00    0.000000000e+00    0.000000000e+00    0.000000000e+00
      480046000   -5.939901993e-02   -3.485646099e-02    3.162678331e-05   -1.211464405e-05    0.000000000e+00    0.000000000e+00    0.000000000e+00    0.000000000e+00
      487545938   -5.930505320e-02   -3.522173315e-02   -5.934387445e-06   -2.261623740e-05    0.000000000e+00    0.000000000e+00    0.000000000e+00    0.000000000e+00
      495045875   -5.934268609e-02   -3.532594442e-02    5.554407835e-06    1.106783748e-05    0.000000000e+00    0.000000000e+00    0.000000000e+00    0.000000000e+00
      502545813   -5.917478353e-02   -3.577438369e-02   -8.398666978e-06    1.877546310e-06    0.000000000e+00    0.000000000e+00    0.000000000e+00    0.000000000e+00
      510045750   -5.911615863e-02   -3.609735519e-02    5.068257451e-06   -3.228988498e-05    0.000000000e+00    0.000000000e+00    0.000000000e+00    0.000000000e+00
      517545688   -5.885810778e-02   -3.632460907e-02    2.331845462e-05    6.363727152e-06    0.000000000e+00    0.000000000e+00    0.000000000e+00    0.000000000e+00
      525045625   -5.869204178e-02   -3.659358621e-02    2.011656761e-07    2.171192318e-05    0.000000000e+00    0.000000000e+00    0.000000000e+00    0.000000000e+00
      532545563   -5.852366984e-02   -3.680871055e-02   -4.317983985e-05   -7.590278983e-06    0.000000000e+00    0.000000000e+00    0.000000000e+00    0.000000000e+00
      540045500   -5.813253298e-02   -3.726223484e-02    5.043763667e-05   -1.600943506e-06    0.000000000e+00    0.000000000e+00    0.000000000e+00    0.000000000e+00
      547545438   -5.805014074e-02   -3.747356310e-02    2.944841981e-05   -1.610256732e-06    0.000000000e+00    0.000000000e+00    0.000000000e+00    0.000000000e+00
      555045375   -5.775725842e-02   -3.771021217e-02   -1.536775380e-05    6.531365216e-06    0.000000000e+00    0.000000000e+00    0.000000000e+00    0.000000000e+00
      562545313   -5.739352480e-02   -3.789511696e-02    3.206916153e-05    6.588175893e-06    0.000000000e+00    0.000000000e+00    0.000000000e+00    0.000000000e+00
      570045250   -5.709513649e-02   -3.821063787e-02   -9.647570550e-06    1.738220453e-05    0.000000000e+00    0.000000000e+00    0.000000000e+00    0.000000000e+00
      577545188   -5.677285790e-02   -3.859258816e-02    1.193583012e-05    1.752935350e-05    0.000000000e+00    0.000000000e+00    0.000000000e+00    0.000000000e+00
      585045125   -5.640882254e-02   -3.872802854e-02   -1.305621117e-05    6.807036698e-06    0.000000000e+00    0.000000000e+00    0.000000000e+00    0.000000000e+00
      592545063   -5.611861497e-02   -3.891604394e-02   -4.236586392e-05    3.391224891e-05    0.000000000e+00    0.000000000e+00    0.000000000e+00    0.000000000e+00
      600045000   -5.577405915e-02   -3.938393667e-02    1.346413046e-05   -5.211681128e-06    0.000000000e+00    0.000000000e+00    0.000000000e+00    0.000000000e+00
      607544938   -5.527519062e-02   -3.952258453e-02   -4.629231989e-05    3.132969141e-06    0.000000000e+00    0.000000000e+00    0.000000000e+00    0.000000000e+00
      615044875   -5.481746420e-02   -3.969377279e-02   -2.613663673e-05   -1.665204763e-06    0.000000000e+00    0.000000000e+00    0.000000000e+00    0.000000000e+00
      622544813   -5.444598198e-02   -4.010077193e-02   -3.277510405e-05   -3.778375685e-06    0.000000000e+00    0.000000000e+00    0.000000000e+00    0.000000000e+00
      630044750   -5.389012769e-02   -4.021969438e-02    3.705732524e-06   -1.132395118e-05    0.000000000e+00    0.000000000e+00    0.000000000e+00    0.000000000e+00
      637544688   -5.329878256e-02   -4.061450064e-02   -3.745313734e-05    9.322538972e-07    0.000000000e+00    0.000000000e+00    0.000000000e+00    0.000000000e+00
      645044625   -5.289974436e-02   -4.072856531e-02    7.759779692e-06    3.354251385e-05    0.000000000e+00    0.000000000e+00    0.000000000e+00    0.000000000e+00
      652544563   -5.224710703e-02   -4.105627164e-02    2.386979759e-06   -2.950429916e-06    0.000000000e+00    0.000000000e+00    0.000000000e+00    0.000000000e+00
      660044500   -5.171614885e-02   -4.122357816e-02   -3.489386290e-05    3.810413182e-05    0.000000000e+00    0.000000000e+00    0.000000000e+00    0.000000000e+00
      667544438   -5.098616704e-02   -4.160689563e-02   -2.481509000e-05   -4.793517292e-06    0.000000000e+00    0.000000000e+00    0.000000000e+00    0.000000000e+00
      675044375   -5.010647327e-02   -4.185824469e-02    1.167040318e-05   -1.425854862e-06    0.000000000e+00    0.000000000e+00    0.000000000e+00    0.000000000e+00
      682544313   -4.951983318e-02   -4.226778448e-02   -1.273490489e-05    2.218224108e-05    0.000000000e+00    0.000000000e+00    0.000000000e+00    0.000000000e+00
      690044250   -4.868551716e-02   -4.255575687e-02    1.488532871e-05    3.810040653e-06    0.000000000e+00    0.000000000e+00    0.000000000e+00    0.000000000e+00
      697544188   -4.788628221e-02   -4.285819083e-02    9.523704648e-06    1.893192530e-05    0.000000000e+00    0.000000000e+00    0.000000000e+00    0.000000000e+00
      705044125   -4.696317762e-02   -4.324550554e-02    3.251619637e-05   -2.078618854e-05    0.000000000e+00    0.000000000e+00    0.000000000e+00    0.000000000e+00
      712544063   -4.612884670e-02   -4.364477843e-02    2.635270357e-05    1.932308078e-05    0.000000000e+00    0.000000000e+00    0.000000000e+00    0.000000000e+00
      720044000   -4.520779848e-02   -4.425754771e-02    6.335694343e-05    1.793261617e-05    0.000000000e+00    0.000000000e+00    0.000000000e+00    0.000000000e+00
      727543938   -4.435785115e-02   -4.475163296e-02    1.063663512e-05    2.409331501e-06    0.000000000e+00    0.000000000e+00    0.000000000e+00    0.000000000e+00
      735043875   -4.334063455e-02   -4.532131925e-02   -4.673376679e-06   -1.127552241e-05    0.000000000e+00    0.000000000e+00    0.000000000e+00    0.000000000e+00
      742543813   -4.253790900e-02   -4.606964067e-02    2.455152571e-05    3.922358155e-05    0.000000000e+00    0.000000000e+00    0.000000000e+00    0.000000000e+00
      750043750   -4.167027026e-02   -4.680267349e-02   -6.147660315e-06   -2.270936966e-05    0.000000000e+00    0.000000000e+00    0.000000000e+00    0.000000000e+00
      757543688   -4.080886394e-02   -4.752609879e-02    1.376960427e-05    1.487880945e-05    0.000000000e+00    0.000000000e+00    0.000000000e+00    0.000000000e+00
      765043625   -3.995911032e-02   -4.815654457e-02   -3.654044122e-05    4.465319216e-05    0.000000000e+00    0.000000000e+00    0.000000000e+00    0.000000000e+00
      772543563   -3.905279562e-02   -4.910232499e-02    1.910980791e-05   -1.605413854e-05    0.000000000e+00    0.000000000e+00    0.000000000e+00    0.000000000e+00
      780043500   -3.828898072e-02   -4.998634756e-02   -7.417984307e-06   -2.504326403e-05    0.000000000e+00    0.000000000e+00    0.000000000e+00    0.000000000e+00
      787543438   -3.775963560e-02   -5.075795576e-02   -6.784684956e-06   -2.530124038e-05    0.000000000e+00    0.000000000e+00    0.000000000e+00    0.000000000e+00
      795043375   -3.704218566e-02   -5.169426277e-02    1.055374742e-05    8.853152394e-06    0.000000000e+00    0.000000000e+00    0.000000000e+00    0.000000000e+00
      802543313   -3.651042655e-02   -5.256308988e-02    6.315764040e-05   -5.770474672e-06    0.000000000e+00    0.000000000e+00    0.000000000e+00    0.000000000e+00
      810043250   -3.601234034e-02   -5.347410217e-02    1.404713839e-05   -1.345947385e-05    0.000000000e+00    0.000000000e+00    0.000000000e+00    0.000000000e+00
      817543188   -3.561808541e-02   -5.438574031e-02   -2.301298082e-06    3.095995635e-05    0.000000000e+00    0.000000000e+00    0.000000000e+00    0.000000000e+00
      825043125   -3.542703018e-02   -5.520598590e-02   -4.256144166e-07    3.065913916e-05    0.000000000e+00    0.000000000e+00    0.000000000e+00    0.000000000e+00
      832543063   -3.497236595e-02   -5.587181076e-02   -1.772306859e-05   -2.552941442e-05    0.000000000e+00    0.000000000e+00    0.000000000e+00    0.000000000e+00
      840043000   -3.476405889e-02   -5.660587922e-02   -1.105293632e-05    7.932074368e-06    0.000000000e+00    0.000000000e+00    0.000000000e+00    0.000000000e+00
      847542938   -3.468389809e-02   -5.721958354e-02    2.907775342e-05    1.848489046e-05    0.000000000e+00    0.000000000e+00    0.000000000e+00    0.000000000e+00
      855042875   -3.428535536e-02   -5.789425969e-02   -1.217518002e-05    1.802202314e-05    0.000000000e+00    0.000000000e+00    0.000000000e+00    0.000000000e+00
      862542813   -3.432781249e-02   -5.824072286e-02   -6.053596735e-07   -4.248879850e-05    0.000000000e+00    0.000000000e+00    0.000000000e+00    0.000000000e+00
      870042750   -3.432115912e-02   -5.861893296e-02    1.210998744e-05    3.306102008e-05    0.000000000e+00    0.000000000e+00    0.000000000e+00    0.000000000e+00
