! NanoVNA-App by OneOfEleven et al v1.1.209 (+OD15) 
! Date: 2024-07-30 12:38:55
! Start: 50kHz Stop: 6GHz Points: 801
! S-Parameter data: F S11 S21 S12 S22
# Hz S RI R 50
!     Frequency           S11_Real           S11_Imag           S21_Real           S21_Imag           S12_Real           S12_Imag           S22_Real           S22_Imag
          50000    5.084480047e-01   -1.410720795e-01    1.515448093e-05   -6.633810699e-06    0.000000000e+00    0.000000000e+00    0.000000000e+00    0.000000000e+00
        7549938   -5.299321562e-02    1.468002796e-02   -2.577621490e-05   -3.254041076e-05    0.000000000e+00    0.000000000e+00    0.000000000e+00    0.000000000e+00
       15049875   -4.595355317e-02    3.686821088e-03   -1.437496394e-05    2.864841372e-05    0.000000000e+00    0.000000000e+00    0.000000000e+00    0.000000000e+00
       22549813   -4.615661129e-02   -1.274246722e-03   -6.445683539e-06    3.021210432e-06    0.000000000e+00    0.000000000e+00    0.000000000e+00    0.000000000e+00
       30049750   -4.696011543e-02   -4.106560722e-03    7.714144886e-06    1.992098987e-06    0.000000000e+00    0.000000000e+00    0.000000000e+00    0.000000000e+00
       37549688   -4.755902290e-02   -5.810483359e-03    2.299435437e-06   -5.774199963e-07    0.000000000e+00    0.000000000e+00    0.000000000e+00    0.000000000e+00
       45049625   -4.796432704e-02   -7.212952711e-03   -1.432467252e-05   -3.363844007e-05    0.000000000e+00    0.000000000e+00    0.000000000e+00    0.000000000e+00
       52549563   -4.838721082e-02   -8.465251885e-03   -8.659437299e-06   -2.661719918e-05    0.000000000e+00    0.000000000e+00    0.000000000e+00    0.000000000e+00
       60049500   -4.867339507e-02   -9.628872387e-03   -2.328678966e-05   -1.422502100e-05    0.000000000e+00    0.000000000e+00    0.000000000e+00    0.000000000e+00
       67549438   -4.898815602e-02   -1.090536453e-02   -4.519708455e-06   -1.076329499e-05    0.000000000e+00    0.000000000e+00    0.000000000e+00    0.000000000e+00
       75049375   -4.941785336e-02   -1.205936261e-02   -3.062002361e-05    3.112107515e-05    0.000000000e+00    0.000000000e+00    0.000000000e+00    0.000000000e+00
       82549313   -4.970667139e-02   -1.312832162e-02    9.912997484e-06    4.066061229e-05    0.000000000e+00    0.000000000e+00    0.000000000e+00    0.000000000e+00
       90049250   -5.013123527e-02   -1.445806958e-02    3.544986248e-05    6.011687219e-06    0.000000000e+00    0.000000000e+00    0.000000000e+00    0.000000000e+00
       97549188   -5.085662007e-02   -1.556489803e-02    4.761107266e-05   -4.000961781e-06    0.000000000e+00    0.000000000e+00    0.000000000e+00    0.000000000e+00
      105049125   -5.071036890e-02   -1.481801458e-02   -3.512017429e-06   -2.766959369e-06    0.000000000e+00    0.000000000e+00    0.000000000e+00    0.000000000e+00
      112549063   -5.145796388e-02   -1.577365212e-02   -5.035661161e-06   -8.712522686e-06    0.000000000e+00    0.000000000e+00    0.000000000e+00    0.000000000e+00
      120049000   -5.217836425e-02   -1.664873958e-02   -1.106318086e-05   -1.084245741e-05    0.000000000e+00    0.000000000e+00    0.000000000e+00    0.000000000e+00
      127548938   -5.292366073e-02   -1.751292869e-02   -1.940689981e-05   -1.461990178e-05    0.000000000e+00    0.000000000e+00    0.000000000e+00    0.000000000e+00
      135048875   -5.378628895e-02   -1.842957735e-02   -1.018773764e-05   -4.824250937e-07    0.000000000e+00    0.000000000e+00    0.000000000e+00    0.000000000e+00
      142548813   -5.455024540e-02   -1.898739114e-02    1.737195998e-05    1.920480281e-05    0.000000000e+00    0.000000000e+00    0.000000000e+00    0.000000000e+00
      150048750   -5.531973764e-02   -1.965373009e-02   -4.173256457e-06    2.590008080e-06    0.000000000e+00    0.000000000e+00    0.000000000e+00    0.000000000e+00
      157548688   -5.615212396e-02   -2.014607750e-02   -7.525086403e-07    1.921877265e-05    0.000000000e+00    0.000000000e+00    0.000000000e+00    0.000000000e+00
      165048625   -5.691859871e-02   -2.046878077e-02    1.318193972e-05   -7.058493793e-06    0.000000000e+00    0.000000000e+00    0.000000000e+00    0.000000000e+00
      172548563   -5.782467872e-02   -2.069745213e-02    1.066550612e-05    1.882202923e-05    0.000000000e+00    0.000000000e+00    0.000000000e+00    0.000000000e+00
      180048500   -5.842418596e-02   -2.114286833e-02    3.704056144e-05   -2.029072493e-05    0.000000000e+00    0.000000000e+00    0.000000000e+00    0.000000000e+00
      187548438   -5.915390700e-02   -2.118925937e-02    7.878988981e-06   -1.728720963e-05    0.000000000e+00    0.000000000e+00    0.000000000e+00    0.000000000e+00
      195048375   -5.972529203e-02   -2.133265138e-02    7.996335626e-06   -3.970600665e-05    0.000000000e+00    0.000000000e+00    0.000000000e+00    0.000000000e+00
      202548313   -6.020647287e-02   -2.133801579e-02    1.904368401e-05   -2.050772309e-05    0.000000000e+00    0.000000000e+00    0.000000000e+00    0.000000000e+00
      210048250   -6.063392386e-02   -2.133512311e-02    4.635192454e-06    8.397735655e-06    0.000000000e+00    0.000000000e+00    0.000000000e+00    0.000000000e+00
      217548188   -6.091992930e-02   -2.127567679e-02    2.034474164e-05   -9.302981198e-06    0.000000000e+00    0.000000000e+00    0.000000000e+00    0.000000000e+00
      225048125   -6.126242504e-02   -2.127048001e-02   -1.100543886e-05   -1.969654113e-05    0.000000000e+00    0.000000000e+00    0.000000000e+00    0.000000000e+00
      232548063   -6.145378575e-02   -2.122145332e-02    2.284441143e-05    1.744646579e-05    0.000000000e+00    0.000000000e+00    0.000000000e+00    0.000000000e+00
      240048000   -6.163415685e-02   -2.123881504e-02    2.668891102e-05   -5.001202226e-07    0.000000000e+00    0.000000000e+00    0.000000000e+00    0.000000000e+00
      247547938   -6.155363098e-02   -2.118597180e-02    9.962357581e-06    2.327002585e-05    0.000000000e+00    0.000000000e+00    0.000000000e+00    0.000000000e+00
      255047875   -6.148094684e-02   -2.126049064e-02    2.684816718e-05    4.555098712e-06    0.000000000e+00    0.000000000e+00    0.000000000e+00    0.000000000e+00
      262547813   -6.139171124e-02   -2.129463293e-02    2.580881119e-05   -9.296461940e-06    0.000000000e+00    0.000000000e+00    0.000000000e+00    0.000000000e+00
      270047750   -6.137234718e-02   -2.138400078e-02   -3.044493496e-06    3.225635737e-05    0.000000000e+00    0.000000000e+00    0.000000000e+00    0.000000000e+00
      277547688   -6.125021726e-02   -2.163590863e-02   -9.238719940e-06   -2.592802048e-05    0.000000000e+00    0.000000000e+00    0.000000000e+00    0.000000000e+00
      285047625   -6.084591150e-02   -2.182470448e-02   -1.365318894e-06   -5.627982318e-06    0.000000000e+00    0.000000000e+00    0.000000000e+00    0.000000000e+00
      292547563   -6.064058840e-02   -2.215526998e-02    2.570636570e-05   -3.040116280e-05    0.000000000e+00    0.000000000e+00    0.000000000e+00    0.000000000e+00
      300047500   -6.043527648e-02   -2.237404883e-02   -1.184642315e-05    6.649643183e-06    0.000000000e+00    0.000000000e+00    0.000000000e+00    0.000000000e+00
      307547438   -6.010904536e-02   -2.282568626e-02    9.478069842e-06    4.442408681e-07    0.000000000e+00    0.000000000e+00    0.000000000e+00    0.000000000e+00
      315047375   -5.998516828e-02   -2.321781032e-02    1.832004637e-05   -7.736496627e-06    0.000000000e+00    0.000000000e+00    0.000000000e+00    0.000000000e+00
      322547313   -5.974798650e-02   -2.376458049e-02   -2.281554043e-05    1.746788621e-05    0.000000000e+00    0.000000000e+00    0.000000000e+00    0.000000000e+00
      330047250   -5.928824842e-02   -2.430327982e-02   -5.412846804e-06    5.420297384e-06    0.000000000e+00    0.000000000e+00    0.000000000e+00    0.000000000e+00
      337547188   -5.926772580e-02   -2.489313670e-02    1.260265708e-05   -2.471543849e-05    0.000000000e+00    0.000000000e+00    0.000000000e+00    0.000000000e+00
      345047125   -5.909142271e-02   -2.551295236e-02    2.934690565e-05    1.992937177e-05    0.000000000e+00    0.000000000e+00    0.000000000e+00    0.000000000e+00
      352547063   -5.886792019e-02   -2.611301094e-02    2.264231443e-05   -3.135297447e-05    0.000000000e+00    0.000000000e+00    0.000000000e+00    0.000000000e+00
      360047000   -5.870779604e-02   -2.687475272e-02    1.467112452e-05   -2.629030496e-05    0.000000000e+00    0.000000000e+00    0.000000000e+00    0.000000000e+00
      367546938   -5.863861367e-02   -2.746443823e-02    2.702884376e-05    1.860037446e-05    0.000000000e+00    0.000000000e+00    0.000000000e+00    0.000000000e+00
      375046875   -5.866049603e-02   -2.807747200e-02   -2.324488014e-05   -2.605002373e-05    0.000000000e+00    0.000000000e+00    0.000000000e+00    0.000000000e+00
      382546813   -5.876088142e-02   -2.875813842e-02    1.339521259e-05    1.486390829e-05    0.000000000e+00    0.000000000e+00    0.000000000e+00    0.000000000e+00
      390046750   -5.878217146e-02   -2.946641110e-02   -5.170051008e-05    2.372171730e-05    0.000000000e+00    0.000000000e+00    0.000000000e+00    0.000000000e+00
      397546688   -5.873664469e-02   -3.001466021e-02   -5.835294724e-05   -2.276431769e-05    0.000000000e+00    0.000000000e+00    0.000000000e+00    0.000000000e+00
      405046625   -5.875793099e-02   -3.058661893e-02   -2.820324153e-05    1.007877290e-05    0.000000000e+00    0.000000000e+00    0.000000000e+00    0.000000000e+00
      412546563   -5.889685825e-02   -3.117891960e-02    3.298651427e-05    2.713501453e-05    0.000000000e+00    0.000000000e+00    0.000000000e+00    0.000000000e+00
      420046500   -5.894473940e-02   -3.165148571e-02    1.144688576e-05    3.003515303e-05    0.000000000e+00    0.000000000e+00    0.000000000e+00    0.000000000e+00
      427546438   -5.911949649e-02   -3.216370940e-02   -2.509914339e-06   -5.786307156e-06    0.000000000e+00    0.000000000e+00    0.000000000e+00    0.000000000e+00
      435046375   -5.924215540e-02   -3.265888989e-02   -1.198239625e-05   -8.955597878e-06    0.000000000e+00    0.000000000e+00    0.000000000e+00    0.000000000e+00
      442546313   -5.936665833e-02   -3.309106082e-02    2.335943282e-05   -2.488493919e-06    0.000000000e+00    0.000000000e+00    0.000000000e+00    0.000000000e+00
      450046250   -5.945225805e-02   -3.355189785e-02    1.622736454e-05    3.962591290e-05    0.000000000e+00    0.000000000e+00    0.000000000e+00    0.000000000e+00
      457546188   -5.942879990e-02   -3.398242220e-02   -2.666376531e-05    7.323920727e-06    0.000000000e+00    0.000000000e+00    0.000000000e+00    0.000000000e+00
      465046125   -5.949347466e-02   -3.412974998e-02   -4.926696420e-06   -6.792135537e-06    0.000000000e+00    0.000000000e+00    0.000000000e+00    0.000000000e+00
      472546063   -5.947935209e-02   -3.453105316e-02    7.116235793e-06    3.739539534e-05    0.000000000e+00    0.000000000e+00    0.000000000e+00    0.000000000e+00
      480046000   -5.948591977e-02   -3.479861841e-02    3.158114851e-06    2.616643906e-05    0.000000000e+00    0.000000000e+00    0.000000000e+00    0.000000000e+00
      487545938   -5.929168686e-02   -3.501265496e-02    1.639407128e-05   -1.451838762e-05    0.000000000e+00    0.000000000e+00    0.000000000e+00    0.000000000e+00
      495045875   -5.919243768e-02   -3.547639027e-02   -9.546987712e-06   -1.752283424e-05    0.000000000e+00    0.000000000e+00    0.000000000e+00    0.000000000e+00
      502545813   -5.913338065e-02   -3.562003374e-02    1.728907228e-05    2.014450729e-06    0.000000000e+00    0.000000000e+00    0.000000000e+00    0.000000000e+00
      510045750   -5.902469903e-02   -3.607177734e-02   -2.227444202e-05   -2.555828542e-05    0.000000000e+00    0.000000000e+00    0.000000000e+00    0.000000000e+00
      517545688   -5.887676030e-02   -3.630718961e-02    2.735015005e-05   -1.339148730e-05    0.000000000e+00    0.000000000e+00    0.000000000e+00    0.000000000e+00
      525045625   -5.865313113e-02   -3.650028259e-02    3.638770431e-05   -1.944135875e-05    0.000000000e+00    0.000000000e+00    0.000000000e+00    0.000000000e+00
      532545563   -5.844973773e-02   -3.693552315e-02   -6.822869182e-06   -6.156042218e-07    0.000000000e+00    0.000000000e+00    0.000000000e+00    0.000000000e+00
      540045500   -5.825985223e-02   -3.720612824e-02    3.819074482e-05   -2.450589091e-05    0.000000000e+00    0.000000000e+00    0.000000000e+00    0.000000000e+00
      547545438   -5.810808018e-02   -3.738958016e-02   -3.548990935e-05   -1.968909055e-05    0.000000000e+00    0.000000000e+00    0.000000000e+00    0.000000000e+00
      555045375   -5.756951496e-02   -3.763853014e-02    1.784693450e-05   -1.894310117e-05    0.000000000e+00    0.000000000e+00    0.000000000e+00    0.000000000e+00
      562545313   -5.757562444e-02   -3.798540309e-02   -3.340747207e-05    5.417503417e-06    0.000000000e+00    0.000000000e+00    0.000000000e+00    0.000000000e+00
      570045250   -5.721900612e-02   -3.819181025e-02    5.062948912e-05    1.034792513e-05    0.000000000e+00    0.000000000e+00    0.000000000e+00    0.000000000e+00
      577545188   -5.659931153e-02   -3.855911270e-02    1.346878707e-05   -3.281142563e-05    0.000000000e+00    0.000000000e+00    0.000000000e+00    0.000000000e+00
      585045125   -5.648016185e-02   -3.878893703e-02    6.542447954e-05   -2.163928002e-05    0.000000000e+00    0.000000000e+00    0.000000000e+00    0.000000000e+00
      592545063   -5.603918061e-02   -3.909005970e-02   -4.404690117e-05    1.335050911e-05    0.000000000e+00    0.000000000e+00    0.000000000e+00    0.000000000e+00
      600045000   -5.578329414e-02   -3.928876296e-02    4.206970334e-05    1.394376159e-05    0.000000000e+00    0.000000000e+00    0.000000000e+00    0.000000000e+00
      607544938   -5.539866164e-02   -3.949744627e-02    2.685654908e-05    1.752190292e-05    0.000000000e+00    0.000000000e+00    0.000000000e+00    0.000000000e+00
      615044875   -5.495999008e-02   -3.967888653e-02   -1.085363328e-05    3.423821181e-05    0.000000000e+00    0.000000000e+00    0.000000000e+00    0.000000000e+00
      622544813   -5.445824564e-02   -4.018917680e-02   -2.914853394e-05   -7.160939276e-06    0.000000000e+00    0.000000000e+00    0.000000000e+00    0.000000000e+00
      630044750   -5.389552563e-02   -4.032770544e-02   -2.565328032e-05   -1.451000571e-06    0.000000000e+00    0.000000000e+00    0.000000000e+00    0.000000000e+00
      637544688   -5.347288027e-02   -4.052387178e-02    1.308321953e-05    2.718996257e-05    0.000000000e+00    0.000000000e+00    0.000000000e+00    0.000000000e+00
      645044625   -5.269546062e-02   -4.076264799e-02    4.077330232e-06    1.916289330e-05    0.000000000e+00    0.000000000e+00    0.000000000e+00    0.000000000e+00
      652544563   -5.225266889e-02   -4.106859118e-02   -1.287087798e-05   -2.812873572e-05    0.000000000e+00    0.000000000e+00    0.000000000e+00    0.000000000e+00
      660044500   -5.158727616e-02   -4.128974676e-02   -3.040954471e-05    1.239683479e-05    0.000000000e+00    0.000000000e+00    0.000000000e+00    0.000000000e+00
      667544438   -5.088341609e-02   -4.150676727e-02   -1.253373921e-05   -1.604668796e-06    0.000000000e+00    0.000000000e+00    0.000000000e+00    0.000000000e+00
      675044375   -5.028153211e-02   -4.192272946e-02    1.342315227e-05   -2.401694655e-05    0.000000000e+00    0.000000000e+00    0.000000000e+00    0.000000000e+00
      682544313   -4.943186790e-02   -4.216641188e-02   -2.181809396e-05   -2.049840987e-05    0.000000000e+00    0.000000000e+00    0.000000000e+00    0.000000000e+00
      690044250   -4.874910414e-02   -4.249015078e-02   -1.800339669e-05   -6.598420441e-06    0.000000000e+00    0.000000000e+00    0.000000000e+00    0.000000000e+00
      697544188   -4.780311137e-02   -4.290420189e-02    1.090578735e-06    3.946200013e-05    0.000000000e+00    0.000000000e+00    0.000000000e+00    0.000000000e+00
      705044125   -4.708358273e-02   -4.328152910e-02    1.892354339e-05    1.672748476e-05    0.000000000e+00    0.000000000e+00    0.000000000e+00    0.000000000e+00
      712544063   -4.620587453e-02   -4.374434799e-02    4.968326539e-05   -7.614493370e-06    0.000000000e+00    0.000000000e+00    0.000000000e+00    0.000000000e+00
      720044000   -4.532755539e-02   -4.416439682e-02   -1.633912325e-05    5.053356290e-06    0.000000000e+00    0.000000000e+00    0.000000000e+00    0.000000000e+00
      727543938   -4.439574108e-02   -4.480297863e-02   -2.365186810e-05    5.243346095e-07    0.000000000e+00    0.000000000e+00    0.000000000e+00    0.000000000e+00
      735043875   -4.338777438e-02   -4.542546719e-02   -2.490263432e-05   -8.304603398e-06    0.000000000e+00    0.000000000e+00    0.000000000e+00    0.000000000e+00
      742543813   -4.258196428e-02   -4.599911347e-02   -3.343727440e-05   -2.306140959e-05    0.000000000e+00    0.000000000e+00    0.000000000e+00    0.000000000e+00
      750043750   -4.162650555e-02   -4.676539823e-02    2.201274037e-05    1.217890531e-05    0.000000000e+00    0.000000000e+00    0.000000000e+00    0.000000000e+00
      757543688   -4.070088640e-02   -4.752917588e-02   -6.830319762e-06    4.136934876e-05    0.000000000e+00    0.000000000e+00    0.000000000e+00    0.000000000e+00
      765043625   -3.992829099e-02   -4.827831686e-02    1.037772745e-05    1.308508217e-06    0.000000000e+00    0.000000000e+00    0.000000000e+00    0.000000000e+00
      772543563   -3.913879395e-02   -4.914097115e-02   -1.538917422e-05    6.601773202e-05    0.000000000e+00    0.000000000e+00    0.000000000e+00    0.000000000e+00
      780043500   -3.834471107e-02   -4.999222234e-02   -3.836583346e-05   -1.361221075e-05    0.000000000e+00    0.000000000e+00    0.000000000e+00    0.000000000e+00
      787543438   -3.776480630e-02   -5.085872486e-02    1.046806574e-05    2.944841981e-06    0.000000000e+00    0.000000000e+00    0.000000000e+00    0.000000000e+00
      795043375   -3.702778369e-02   -5.181331187e-02    5.196314305e-05    2.911034971e-05    0.000000000e+00    0.000000000e+00    0.000000000e+00    0.000000000e+00
      802543313   -3.659158573e-02   -5.269553885e-02    1.234095544e-05    3.802217543e-05    0.000000000e+00    0.000000000e+00    0.000000000e+00    0.000000000e+00
      810043250   -3.603091463e-02   -5.345414206e-02    2.458505332e-05   -1.669023186e-05    0.000000000e+00    0.000000000e+00    0.000000000e+00    0.000000000e+00
      817543188   -3.549590334e-02   -5.435013399e-02    1.742970198e-05   -5.038641393e-05    0.000000000e+00    0.000000000e+00    0.000000000e+00    0.000000000e+00
      825043125   -3.526751325e-02   -5.519927666e-02   -2.081040293e-05    1.622363925e-06    0.000000000e+00    0.000000000e+00    0.000000000e+00    0.000000000e+00
      832543063   -3.497763351e-02   -5.592020229e-02   -2.831220627e-05   -1.997500658e-05    0.000000000e+00    0.000000000e+00    0.000000000e+00    0.000000000e+00
      840043000   -3.485030681e-02   -5.667004362e-02    1.167785376e-05   -2.091750503e-06    0.000000000e+00    0.000000000e+00    0.000000000e+00    0.000000000e+00
      847542938   -3.466463089e-02   -5.733873323e-02    1.496262848e-05    8.230097592e-06    0.000000000e+00    0.000000000e+00    0.000000000e+00    0.000000000e+00
      855042875   -3.458799794e-02   -5.786744505e-02    2.849288285e-05    8.128583431e-06    0.000000000e+00    0.000000000e+00    0.000000000e+00    0.000000000e+00
      862542813   -3.430505842e-02   -5.830132216e-02    2.689845860e-05    1.336727291e-05    0.000000000e+00    0.000000000e+00    0.000000000e+00    0.000000000e+00
      870042750   -3.431995213e-02   -5.857648328e-02    1.723971218e-05   -1.419428736e-05    0.000000000e+00    0.000000000e+00    0.000000000e+00    0.000000000e+00
