! NanoVNA-App by OneOfEleven et al v1.1.209 (+OD15) 
! Date: 2024-07-30 12:38:58
! Start: 50kHz Stop: 6GHz Points: 801
! S-Parameter data: F S11 S21 S12 S22
# Hz S RI R 50
!     Frequency           S11_Real           S11_Imag           S21_Real           S21_Imag           S12_Real           S12_Imag           S22_Real           S22_Imag
          50000    5.084799528e-01   -1.414518207e-01   -3.573484719e-06   -2.049840987e-06    0.000000000e+00    0.000000000e+00    0.000000000e+00    0.000000000e+00
        7549938   -5.279889703e-02    1.460320782e-02   -1.632329077e-05    3.526918590e-06    0.000000000e+00    0.000000000e+00    0.000000000e+00    0.000000000e+00
       15049875   -4.609844834e-02    3.692196682e-03   -4.585832357e-06    2.645887434e-06    0.000000000e+00    0.000000000e+00    0.000000000e+00    0.000000000e+00
       22549813   -4.617857561e-02   -1.226156019e-03   -8.385628462e-06    9.501352906e-06    0.000000000e+00    0.000000000e+00    0.000000000e+00    0.000000000e+00
       30049750   -4.687817022e-02   -4.035615362e-03   -1.225434244e-05    6.168149412e-06    0.000000000e+00    0.000000000e+00    0.000000000e+00    0.000000000e+00
       37549688   -4.741981998e-02   -5.786512047e-03    2.762395889e-05    3.977585584e-05    0.000000000e+00    0.000000000e+00    0.000000000e+00    0.000000000e+00
       45049625   -4.803614318e-02   -7.132427767e-03   -3.791321069e-05    1.578684896e-05    0.000000000e+00    0.000000000e+00    0.000000000e+00    0.000000000e+00
       52549563   -4.840991646e-02   -8.491830900e-03   -1.805834472e-05   -4.122033715e-06    0.000000000e+00    0.000000000e+00    0.000000000e+00    0.000000000e+00
       60049500   -4.879711941e-02   -9.642629884e-03    5.005765706e-05    7.719732821e-06    0.000000000e+00    0.000000000e+00    0.000000000e+00    0.000000000e+00
       67549438   -4.900529981e-02   -1.087295264e-02    2.019107342e-05   -2.288911492e-05    0.000000000e+00    0.000000000e+00    0.000000000e+00    0.000000000e+00
       75049375   -4.944069684e-02   -1.194651052e-02    2.903025597e-05   -1.318193972e-05    0.000000000e+00    0.000000000e+00    0.000000000e+00    0.000000000e+00
       82549313   -4.983634129e-02   -1.316629630e-02    4.997476935e-06   -7.534399629e-07    0.000000000e+00    0.000000000e+00    0.000000000e+00    0.000000000e+00
       90049250   -5.019633099e-02   -1.427259017e-02   -2.222694457e-05   -2.371147275e-05    0.000000000e+00    0.000000000e+00    0.000000000e+00    0.000000000e+00
       97549188   -5.078916252e-02   -1.540248189e-02    2.557039261e-05    2.615153790e-06    0.000000000e+00    0.000000000e+00    0.000000000e+00    0.000000000e+00
      105049125   -5.074019358e-02   -1.474186033e-02    2.376642078e-05    4.498288035e-06    0.000000000e+00    0.000000000e+00    0.000000000e+00    0.000000000e+00
      112549063   -5.143349990e-02   -1.573506929e-02   -2.666469663e-05   -2.086348832e-05    0.000000000e+00    0.000000000e+00    0.000000000e+00    0.000000000e+00
      120049000   -5.230920762e-02   -1.676911674e-02   -9.443610907e-07    1.279637218e-05    0.000000000e+00    0.000000000e+00    0.000000000e+00    0.000000000e+00
      127548938   -5.304920301e-02   -1.759940386e-02    1.500826329e-05    5.777925253e-06    0.000000000e+00    0.000000000e+00    0.000000000e+00    0.000000000e+00
      135048875   -5.370613560e-02   -1.845451258e-02    5.017966032e-06   -5.748122931e-06    0.000000000e+00    0.000000000e+00    0.000000000e+00    0.000000000e+00
      142548813   -5.456201732e-02   -1.896608062e-02   -2.457015216e-05    9.769573808e-06    0.000000000e+00    0.000000000e+00    0.000000000e+00    0.000000000e+00
      150048750   -5.534741655e-02   -1.963870786e-02    2.359040082e-05   -3.454275429e-06    0.000000000e+00    0.000000000e+00    0.000000000e+00    0.000000000e+00
      157548688   -5.622982234e-02   -2.009228058e-02    1.608114690e-05   -3.335997462e-06    0.000000000e+00    0.000000000e+00    0.000000000e+00    0.000000000e+00
      165048625   -5.700826272e-02   -2.043416537e-02   -9.357929230e-06   -3.272294998e-05    0.000000000e+00    0.000000000e+00    0.000000000e+00    0.000000000e+00
      172548563   -5.775516108e-02   -2.074635029e-02   -7.335096598e-06    3.396905959e-05    0.000000000e+00    0.000000000e+00    0.000000000e+00    0.000000000e+00
      180048500   -5.852495506e-02   -2.099634521e-02    9.661540389e-06   -7.121823728e-06    0.000000000e+00    0.000000000e+00    0.000000000e+00    0.000000000e+00
      187548438   -5.915926769e-02   -2.121138573e-02   -2.712942660e-05    1.370720565e-05    0.000000000e+00    0.000000000e+00    0.000000000e+00    0.000000000e+00
      195048375   -5.974776298e-02   -2.137858979e-02    1.231022179e-05   -3.138184547e-05    0.000000000e+00    0.000000000e+00    0.000000000e+00    0.000000000e+00
      202548313   -6.029116362e-02   -2.141456679e-02    1.116003841e-05   -3.413110971e-05    0.000000000e+00    0.000000000e+00    0.000000000e+00    0.000000000e+00
      210048250   -6.068566069e-02   -2.127768658e-02   -1.712981611e-05   -5.393289030e-06    0.000000000e+00    0.000000000e+00    0.000000000e+00    0.000000000e+00
      217548188   -6.091815233e-02   -2.126278542e-02   -1.298449934e-05   -4.502013326e-06    0.000000000e+00    0.000000000e+00    0.000000000e+00    0.000000000e+00
      225048125   -6.126384437e-02   -2.136719786e-02   -2.832151949e-06   -2.194289118e-05    0.000000000e+00    0.000000000e+00    0.000000000e+00    0.000000000e+00
      232548063   -6.149391085e-02   -2.124474570e-02    2.543441951e-06    1.529138535e-05    0.000000000e+00    0.000000000e+00    0.000000000e+00    0.000000000e+00
      240048000   -6.160860509e-02   -2.125643753e-02   -5.629844964e-06   -1.672096550e-05    0.000000000e+00    0.000000000e+00    0.000000000e+00    0.000000000e+00
      247547938   -6.166817620e-02   -2.123074792e-02    1.605134457e-05   -1.641456038e-05    0.000000000e+00    0.000000000e+00    0.000000000e+00    0.000000000e+00
      255047875   -6.166302040e-02   -2.122497559e-02   -8.295290172e-06   -4.775822163e-06    0.000000000e+00    0.000000000e+00    0.000000000e+00    0.000000000e+00
      262547813   -6.142403185e-02   -2.134512924e-02    4.215724766e-05    1.894310117e-06    0.000000000e+00    0.000000000e+00    0.000000000e+00    0.000000000e+00
      270047750   -6.133548915e-02   -2.148925327e-02   -6.030313671e-06   -4.258938134e-06    0.000000000e+00    0.000000000e+00    0.000000000e+00    0.000000000e+00
      277547688   -6.109647825e-02   -2.150203101e-02   -1.721084118e-05    1.907162368e-05    0.000000000e+00    0.000000000e+00    0.000000000e+00    0.000000000e+00
      285047625   -6.090185419e-02   -2.182718180e-02   -2.708286047e-06    6.854534149e-07    0.000000000e+00    0.000000000e+00    0.000000000e+00    0.000000000e+00
      292547563   -6.066010147e-02   -2.208417468e-02   -5.421228707e-06    2.788659185e-05    0.000000000e+00    0.000000000e+00    0.000000000e+00    0.000000000e+00
      300047500   -6.045051664e-02   -2.242859639e-02   -1.094304025e-06   -1.548323780e-05    0.000000000e+00    0.000000000e+00    0.000000000e+00    0.000000000e+00
      307547438   -6.012507901e-02   -2.285919525e-02   -4.806555808e-06    7.130205631e-06    0.000000000e+00    0.000000000e+00    0.000000000e+00    0.000000000e+00
      315047375   -5.983354896e-02   -2.327429131e-02   -7.227063179e-06   -6.733462214e-07    0.000000000e+00    0.000000000e+00    0.000000000e+00    0.000000000e+00
      322547313   -5.956806615e-02   -2.381613851e-02    4.742294550e-05    2.823490649e-05    0.000000000e+00    0.000000000e+00    0.000000000e+00    0.000000000e+00
      330047250   -5.942496285e-02   -2.432722598e-02   -2.542231232e-05   -3.163702786e-06    0.000000000e+00    0.000000000e+00    0.000000000e+00    0.000000000e+00
      337547188   -5.916700885e-02   -2.491510473e-02    5.705282092e-06    1.068226993e-05    0.000000000e+00    0.000000000e+00    0.000000000e+00    0.000000000e+00
      345047125   -5.904803798e-02   -2.553183213e-02   -4.314817488e-06   -1.277867705e-05    0.000000000e+00    0.000000000e+00    0.000000000e+00    0.000000000e+00
      352547063   -5.898088217e-02   -2.620199695e-02    3.406126052e-05    3.358349204e-06    0.000000000e+00    0.000000000e+00    0.000000000e+00    0.000000000e+00
      360047000   -5.882575735e-02   -2.681136690e-02    9.852461517e-06   -2.070050687e-05    0.000000000e+00    0.000000000e+00    0.000000000e+00    0.000000000e+00
      367546938   -5.873440206e-02   -2.745762840e-02   -1.693144441e-05   -8.036382496e-06    0.000000000e+00    0.000000000e+00    0.000000000e+00    0.000000000e+00
      375046875   -5.861619860e-02   -2.815169282e-02    1.667067409e-06   -2.037547529e-05    0.000000000e+00    0.000000000e+00    0.000000000e+00    0.000000000e+00
      382546813   -5.870109797e-02   -2.882933058e-02    1.242943108e-05   -2.190005034e-05    0.000000000e+00    0.000000000e+00    0.000000000e+00    0.000000000e+00
      390046750   -5.866571888e-02   -2.951194532e-02   -2.096872777e-05   -1.544132829e-05    0.000000000e+00    0.000000000e+00    0.000000000e+00    0.000000000e+00
      397546688   -5.884832516e-02   -2.990663238e-02    2.756714821e-07    2.887379378e-05    0.000000000e+00    0.000000000e+00    0.000000000e+00    0.000000000e+00
      405046625   -5.873038620e-02   -3.067590669e-02   -8.109956980e-06   -3.717839718e-06    0.000000000e+00    0.000000000e+00    0.000000000e+00    0.000000000e+00
      412546563   -5.890929699e-02   -3.117319383e-02    3.004632890e-05   -4.765577614e-06    0.000000000e+00    0.000000000e+00    0.000000000e+00    0.000000000e+00
      420046500   -5.898461491e-02   -3.170868009e-02   -1.390837133e-05   -2.142600715e-05    0.000000000e+00    0.000000000e+00    0.000000000e+00    0.000000000e+00
      427546438   -5.906279385e-02   -3.226215392e-02   -1.287180930e-05   -7.054768503e-06    0.000000000e+00    0.000000000e+00    0.000000000e+00    0.000000000e+00
      435046375   -5.919648334e-02   -3.262404352e-02    4.740431905e-07   -7.476657629e-06    0.000000000e+00    0.000000000e+00    0.000000000e+00    0.000000000e+00
      442546313   -5.915946886e-02   -3.310007229e-02    9.399838746e-06   -1.368578523e-05    0.000000000e+00    0.000000000e+00    0.000000000e+00    0.000000000e+00
      450046250   -5.960073695e-02   -3.361061215e-02    4.352070391e-06    1.777149737e-05    0.000000000e+00    0.000000000e+00    0.000000000e+00    0.000000000e+00
      457546188   -5.949962512e-02   -3.390041739e-02   -6.002373993e-06   -1.377891749e-05    0.000000000e+00    0.000000000e+00    0.000000000e+00    0.000000000e+00
      465046125   -5.931966007e-02   -3.434119001e-02   -5.703233182e-05    1.870188862e-05    0.000000000e+00    0.000000000e+00    0.000000000e+00    0.000000000e+00
      472546063   -5.937618390e-02   -3.449340910e-02   -1.103617251e-06   -1.393910497e-05    0.000000000e+00    0.000000000e+00    0.000000000e+00    0.000000000e+00
      480046000   -5.939637125e-02   -3.497312590e-02   -2.819392830e-05    4.960224032e-06    0.000000000e+00    0.000000000e+00    0.000000000e+00    0.000000000e+00
      487545938   -5.942068622e-02   -3.511261940e-02    4.274770617e-07   -3.410782665e-05    0.000000000e+00    0.000000000e+00    0.000000000e+00    0.000000000e+00
      495045875   -5.927842483e-02   -3.563464433e-02   -1.771003008e-05    1.251325011e-05    0.000000000e+00    0.000000000e+00    0.000000000e+00    0.000000000e+00
      502545813   -5.921863019e-02   -3.573217988e-02   -5.539506674e-06    4.255492240e-05    0.000000000e+00    0.000000000e+00    0.000000000e+00    0.000000000e+00
      510045750   -5.895388871e-02   -3.592474014e-02    7.654540241e-06   -9.600073099e-06    0.000000000e+00    0.000000000e+00    0.000000000e+00    0.000000000e+00
      517545688   -5.891246721e-02   -3.627594560e-02   -1.474283636e-06    3.132037818e-06    0.000000000e+00    0.000000000e+00    0.000000000e+00    0.000000000e+00
      525045625   -5.878768861e-02   -3.667917848e-02    2.780649811e-05   -4.068017006e-06    0.000000000e+00    0.000000000e+00    0.000000000e+00    0.000000000e+00
      532545563   -5.834025145e-02   -3.688120097e-02    1.388601959e-06    3.708899021e-05    0.000000000e+00    0.000000000e+00    0.000000000e+00    0.000000000e+00
      540045500   -5.819764361e-02   -3.710773960e-02    1.132208854e-05    3.953464329e-06    0.000000000e+00    0.000000000e+00    0.000000000e+00    0.000000000e+00
      547545438   -5.794435740e-02   -3.745185211e-02   -2.779159695e-05    1.430045813e-05    0.000000000e+00    0.000000000e+00    0.000000000e+00    0.000000000e+00
      555045375   -5.778087303e-02   -3.764952719e-02    2.335477620e-05   -5.389004946e-05    0.000000000e+00    0.000000000e+00    0.000000000e+00    0.000000000e+00
      562545313   -5.752515793e-02   -3.796713427e-02   -3.387406468e-05    9.754672647e-06    0.000000000e+00    0.000000000e+00    0.000000000e+00    0.000000000e+00
      570045250   -5.704455078e-02   -3.822997957e-02   -1.527089626e-05    1.307204366e-05    0.000000000e+00    0.000000000e+00    0.000000000e+00    0.000000000e+00
      577545188   -5.685177445e-02   -3.850160167e-02    9.258277714e-06   -1.009088010e-05    0.000000000e+00    0.000000000e+00    0.000000000e+00    0.000000000e+00
      585045125   -5.648578703e-02   -3.866552189e-02   -2.701766789e-05    6.045214832e-06    0.000000000e+00    0.000000000e+00    0.000000000e+00    0.000000000e+00
      592545063   -5.607200786e-02   -3.915259615e-02   -3.018416464e-06   -8.716247976e-06    0.000000000e+00    0.000000000e+00    0.000000000e+00    0.000000000e+00
      600045000   -5.566379055e-02   -3.940382227e-02   -1.174863428e-05   -1.578219235e-05    0.000000000e+00    0.000000000e+00    0.000000000e+00    0.000000000e+00
      607544938   -5.535859987e-02   -3.965361044e-02    3.653578460e-05    2.342276275e-06    0.000000000e+00    0.000000000e+00    0.000000000e+00    0.000000000e+00
      615044875   -5.504262820e-02   -3.992010653e-02   -3.354623914e-06   -1.979619265e-05    0.000000000e+00    0.000000000e+00    0.000000000e+00    0.000000000e+00
      622544813   -5.454735830e-02   -4.014562443e-02   -3.182049841e-05   -3.793369979e-05    0.000000000e+00    0.000000000e+00    0.000000000e+00    0.000000000e+00
      630044750   -5.386948958e-02   -4.031568766e-02    3.073830158e-05    1.175701618e-05    0.000000000e+00    0.000000000e+00    0.000000000e+00    0.000000000e+00
      637544688   -5.337594822e-02   -4.046767205e-02   -4.719663411e-05    2.385862172e-05    0.000000000e+00    0.000000000e+00    0.000000000e+00    0.000000000e+00
      645044625   -5.286867917e-02   -4.083729535e-02   -2.137385309e-06   -1.117587090e-07    0.000000000e+00    0.000000000e+00    0.000000000e+00    0.000000000e+00
      652544563   -5.223213136e-02   -4.098781943e-02    3.356859088e-05    3.367196769e-05    0.000000000e+00    0.000000000e+00    0.000000000e+00    0.000000000e+00
      660044500   -5.170819536e-02   -4.133693129e-02   -1.801364124e-05   -1.699663699e-06    0.000000000e+00    0.000000000e+00    0.000000000e+00    0.000000000e+00
      667544438   -5.099244416e-02   -4.171577841e-02   -1.055095345e-05    2.301577479e-05    0.000000000e+00    0.000000000e+00    0.000000000e+00    0.000000000e+00
      675044375   -5.023594573e-02   -4.173864797e-02    1.179892570e-05    1.997500658e-05    0.000000000e+00    0.000000000e+00    0.000000000e+00    0.000000000e+00
      682544313   -4.952333495e-02   -4.208353162e-02   -3.521237522e-05   -3.082677722e-07    0.000000000e+00    0.000000000e+00    0.000000000e+00    0.000000000e+00
      690044250   -4.873809591e-02   -4.254382476e-02   -9.127892554e-06    5.962047726e-05    0.000000000e+00    0.000000000e+00    0.000000000e+00    0.000000000e+00
      697544188   -4.797569662e-02   -4.286125302e-02   -4.229135811e-06   -7.706694305e-06    0.000000000e+00    0.000000000e+00    0.000000000e+00    0.000000000e+00
      705044125   -4.703585058e-02   -4.322562739e-02   -2.211518586e-05   -2.709031105e-05    0.000000000e+00    0.000000000e+00    0.000000000e+00    0.000000000e+00
      712544063   -4.621746019e-02   -4.370005056e-02   -1.545716077e-05    1.792144030e-05    0.000000000e+00    0.000000000e+00    0.000000000e+00    0.000000000e+00
      720044000   -4.528900236e-02   -4.419875517e-02   -2.021249384e-05   -1.378357410e-05    0.000000000e+00    0.000000000e+00    0.000000000e+00    0.000000000e+00
      727543938   -4.437514022e-02   -4.487604648e-02    1.042243093e-05   -2.896320075e-05    0.000000000e+00    0.000000000e+00    0.000000000e+00    0.000000000e+00
      735043875   -4.343069717e-02   -4.538189992e-02   -2.125464380e-05    1.979619265e-05    0.000000000e+00    0.000000000e+00    0.000000000e+00    0.000000000e+00
      742543813   -4.247993976e-02   -4.598804563e-02   -1.448486000e-05   -4.961714149e-05    0.000000000e+00    0.000000000e+00    0.000000000e+00    0.000000000e+00
      750043750   -4.162173346e-02   -4.684175923e-02   -1.810491085e-06    2.421531826e-05    0.000000000e+00    0.000000000e+00    0.000000000e+00    0.000000000e+00
      757543688   -4.075556993e-02   -4.756512865e-02   -1.075677574e-06    1.849420369e-05    0.000000000e+00    0.000000000e+00    0.000000000e+00    0.000000000e+00
      765043625   -4.000999406e-02   -4.827578738e-02    3.057904541e-05    4.674308002e-05    0.000000000e+00    0.000000000e+00    0.000000000e+00    0.000000000e+00
      772543563   -3.910493478e-02   -4.907699674e-02    1.009739935e-05   -1.310650259e-05    0.000000000e+00    0.000000000e+00    0.000000000e+00    0.000000000e+00
      780043500   -3.835059330e-02   -5.002092570e-02   -5.662441254e-07    2.952385694e-05    0.000000000e+00    0.000000000e+00    0.000000000e+00    0.000000000e+00
      787543438   -3.778832033e-02   -5.086241290e-02    1.840293407e-06   -3.501772881e-07    0.000000000e+00    0.000000000e+00    0.000000000e+00    0.000000000e+00
      795043375   -3.694761172e-02   -5.172833055e-02    1.654960215e-05    1.795589924e-06    0.000000000e+00    0.000000000e+00    0.000000000e+00    0.000000000e+00
      802543313   -3.657302633e-02   -5.280945450e-02   -3.092456609e-05    1.033395529e-05    0.000000000e+00    0.000000000e+00    0.000000000e+00    0.000000000e+00
      810043250   -3.593305498e-02   -5.355709419e-02    1.284852624e-05    1.886487007e-05    0.000000000e+00    0.000000000e+00    0.000000000e+00    0.000000000e+00
      817543188   -3.556921706e-02   -5.441614240e-02   -9.840354323e-06    2.976693213e-05    0.000000000e+00    0.000000000e+00    0.000000000e+00    0.000000000e+00
      825043125   -3.532122448e-02   -5.513260514e-02   -2.682488412e-05   -1.087412238e-05    0.000000000e+00    0.000000000e+00    0.000000000e+00    0.000000000e+00
      832543063   -3.475135937e-02   -5.603744090e-02   -7.441267371e-06    1.181568950e-05    0.000000000e+00    0.000000000e+00    0.000000000e+00    0.000000000e+00
      840043000   -3.484832868e-02   -5.665822700e-02    2.419296652e-05    1.799967140e-05    0.000000000e+00    0.000000000e+00    0.000000000e+00    0.000000000e+00
      847542938   -3.449456766e-02   -5.732592195e-02   -5.275011063e-06    1.904834062e-05    0.000000000e+00    0.000000000e+00    0.000000000e+00    0.000000000e+00
      855042875   -3.447459266e-02   -5.787438527e-02   -1.027435064e-05    1.133792102e-05    0.000000000e+00    0.000000000e+00    0.000000000e+00    0.000000000e+00
      862542813   -3.437167406e-02   -5.835725367e-02    3.206171095e-05    2.006068826e-05    0.000000000e+00    0.000000000e+00    0.000000000e+00    0.000000000e+00
      870042750   -3.449767455e-02   -5.861173570e-02   -8.445233107e-06    3.076903522e-05    0.000000000e+00    0.000000000e+00    0.000000000e+00    0.000000000e+00
