! NanoVNA-App by OneOfEleven et al v1.1.209 (+OD15) 
! Date: 2024-07-30 15:11:49
! Start: 200MHz Stop: 6GHz Points: 801
! S-Parameter data: F S11 S21 S12 S22
# Hz S RI R 50
!     Frequency           S11_Real           S11_Imag           S21_Real           S21_Imag           S12_Real           S12_Imag           S22_Real           S22_Imag
      200000000    8.886245489e-01    2.082596421e-01    4.013720900e-05    6.201677024e-06    0.000000000e+00    0.000000000e+00    0.000000000e+00    0.000000000e+00
      207250000    9.047120214e-01    1.003365889e-01   -1.631677151e-06   -7.285736501e-06    0.000000000e+00    0.000000000e+00    0.000000000e+00    0.000000000e+00
      214500000    9.081251025e-01   -6.994941272e-03    4.671514034e-06   -2.653244883e-05    0.000000000e+00    0.000000000e+00    0.000000000e+00    0.000000000e+00
      221750000    8.985626101e-01   -1.138254255e-01   -1.217611134e-05    7.012858987e-06    0.000000000e+00    0.000000000e+00    0.000000000e+00    0.000000000e+00
      229000000    8.778781295e-01   -2.168413252e-01    6.011407822e-05    2.653338015e-06    0.000000000e+00    0.000000000e+00    0.000000000e+00    0.000000000e+00
      236250000    8.466004133e-01   -3.157142699e-01   -3.912486136e-06    1.139473170e-05    0.000000000e+00    0.000000000e+00    0.000000000e+00    0.000000000e+00
      243500000    8.050113320e-01   -4.091275334e-01   -2.094544470e-06   -1.022405922e-05    0.000000000e+00    0.000000000e+00    0.000000000e+00    0.000000000e+00
      250750000    7.545878887e-01   -4.968237877e-01    9.002164006e-06    3.284215927e-05    0.000000000e+00    0.000000000e+00    0.000000000e+00    0.000000000e+00
      258000000    6.965273023e-01   -5.771417618e-01    8.365139365e-06   -3.041140735e-05    0.000000000e+00    0.000000000e+00    0.000000000e+00    0.000000000e+00
      265250000    6.312514544e-01   -6.500566602e-01   -1.450348645e-05   -1.109205186e-06    0.000000000e+00    0.000000000e+00    0.000000000e+00    0.000000000e+00
      272500000    5.599869490e-01   -7.152618170e-01    7.958151400e-06    3.334134817e-07    0.000000000e+00    0.000000000e+00    0.000000000e+00    0.000000000e+00
      279750000    4.843532741e-01   -7.725815773e-01    3.276392817e-06    1.965742558e-05    0.000000000e+00    0.000000000e+00    0.000000000e+00    0.000000000e+00
      287000000    4.027674496e-01   -8.221559525e-01    8.303672075e-06   -3.362074494e-07    0.000000000e+00    0.000000000e+00    0.000000000e+00    0.000000000e+00
      294250000    3.194267750e-01   -8.628224730e-01   -7.777474821e-06    3.894045949e-05    0.000000000e+00    0.000000000e+00    0.000000000e+00    0.000000000e+00
      301500000    2.324990928e-01   -8.957182765e-01   -7.010996342e-06    3.889203072e-06    0.000000000e+00    0.000000000e+00    0.000000000e+00    0.000000000e+00
      308750000    1.431436092e-01   -9.189633131e-01   -1.562107354e-05    2.419389784e-05    0.000000000e+00    0.000000000e+00    0.000000000e+00    0.000000000e+00
      316000000    5.358460918e-02   -9.349107742e-01   -2.279691398e-05    9.751878679e-06    0.000000000e+00    0.000000000e+00    0.000000000e+00    0.000000000e+00
      323250000   -3.709920868e-02   -9.422060251e-01    1.261383295e-05    2.671685070e-05    0.000000000e+00    0.000000000e+00    0.000000000e+00    0.000000000e+00
      330500000   -1.278899461e-01   -9.407080412e-01   -5.989335477e-06    9.954907000e-06    0.000000000e+00    0.000000000e+00    0.000000000e+00    0.000000000e+00
      337750000   -2.185855061e-01   -9.316772819e-01    1.745764166e-05    2.287328243e-05    0.000000000e+00    0.000000000e+00    0.000000000e+00    0.000000000e+00
      345000000   -3.079037964e-01   -9.138730764e-01    1.894403249e-05   -6.109476089e-06    0.000000000e+00    0.000000000e+00    0.000000000e+00    0.000000000e+00
      352250000   -3.956919611e-01   -8.876661658e-01   -7.483176887e-06    1.280568540e-06    0.000000000e+00    0.000000000e+00    0.000000000e+00    0.000000000e+00
      359500000   -4.807905853e-01   -8.531808257e-01    3.622286022e-05    1.220963895e-05    0.000000000e+00    0.000000000e+00    0.000000000e+00    0.000000000e+00
      366750000   -5.629413128e-01   -8.098161817e-01   -3.787875175e-05    4.140660167e-06    0.000000000e+00    0.000000000e+00    0.000000000e+00    0.000000000e+00
      374000000   -6.405757666e-01   -7.602756619e-01   -1.102592796e-05    1.064967364e-05    0.000000000e+00    0.000000000e+00    0.000000000e+00    0.000000000e+00
      381250000   -7.152677774e-01   -7.017142177e-01    1.868605614e-05   -1.687929034e-05    0.000000000e+00    0.000000000e+00    0.000000000e+00    0.000000000e+00
      388500000   -7.825288773e-01   -6.362743378e-01    2.686027437e-05   -1.184735447e-05    0.000000000e+00    0.000000000e+00    0.000000000e+00    0.000000000e+00
      395750000   -8.449393511e-01   -5.623055100e-01   -1.298263669e-05   -6.241723895e-06    0.000000000e+00    0.000000000e+00    0.000000000e+00    0.000000000e+00
      403000000   -8.995146155e-01   -4.819855094e-01   -2.530869097e-05   -1.648440957e-06    0.000000000e+00    0.000000000e+00    0.000000000e+00    0.000000000e+00
      410250000   -9.469199181e-01   -3.960566521e-01    1.903623343e-06   -1.606531441e-05    0.000000000e+00    0.000000000e+00    0.000000000e+00    0.000000000e+00
      417500000   -9.840833545e-01   -3.045032024e-01    6.308779120e-06   -3.148801625e-06    0.000000000e+00    0.000000000e+00    0.000000000e+00    0.000000000e+00
      424750000   -1.012370467e+00   -2.085209638e-01    1.793727279e-06    1.694634557e-05    0.000000000e+00    0.000000000e+00    0.000000000e+00    0.000000000e+00
      432000000   -1.030549645e+00   -1.074327528e-01    1.262035221e-05    2.269726247e-05    0.000000000e+00    0.000000000e+00    0.000000000e+00    0.000000000e+00
      439250000   -1.037217617e+00   -5.953622982e-03   -1.769233495e-05    9.993091226e-06    0.000000000e+00    0.000000000e+00    0.000000000e+00    0.000000000e+00
      446500000   -1.032659054e+00    9.715887904e-02    1.525785774e-05   -3.136508167e-05    0.000000000e+00    0.000000000e+00    0.000000000e+00    0.000000000e+00
      453750000   -1.016869068e+00    2.013353705e-01    1.052301377e-05    2.915319055e-05    0.000000000e+00    0.000000000e+00    0.000000000e+00    0.000000000e+00
      461000000   -9.894761443e-01    3.030441105e-01   -2.700649202e-05    4.494190216e-05    0.000000000e+00    0.000000000e+00    0.000000000e+00    0.000000000e+00
      468250000   -9.498466253e-01    4.015751481e-01    2.255663276e-05    3.255903721e-06    0.000000000e+00    0.000000000e+00    0.000000000e+00    0.000000000e+00
      475500000   -8.987370133e-01    4.958506525e-01    7.199123502e-06   -4.136282951e-05    0.000000000e+00    0.000000000e+00    0.000000000e+00    0.000000000e+00
      482750000   -8.369241953e-01    5.843713284e-01    2.168118954e-06    1.695472747e-05    0.000000000e+00    0.000000000e+00    0.000000000e+00    0.000000000e+00
      490000000   -7.659584284e-01    6.648995280e-01    4.064291716e-06   -3.049522638e-05    0.000000000e+00    0.000000000e+00    0.000000000e+00    0.000000000e+00
      497250000   -6.860699058e-01    7.371984720e-01   -1.013651490e-05    4.244036973e-05    0.000000000e+00    0.000000000e+00    0.000000000e+00    0.000000000e+00
      504500000   -5.970645547e-01    7.990780473e-01    6.305053830e-06    8.816830814e-06    0.000000000e+00    0.000000000e+00    0.000000000e+00    0.000000000e+00
      511750000   -5.022184253e-01    8.504125476e-01   -9.104609489e-06    7.636845112e-08    0.000000000e+00    0.000000000e+00    0.000000000e+00    0.000000000e+00
      519000000   -4.018824399e-01    8.904804587e-01    9.324401617e-06   -1.101661474e-05    0.000000000e+00    0.000000000e+00    0.000000000e+00    0.000000000e+00
      526250000   -2.989728749e-01    9.199288487e-01    1.332070678e-05    6.776303053e-06    0.000000000e+00    0.000000000e+00    0.000000000e+00    0.000000000e+00
      533500000   -1.931980848e-01    9.367986321e-01    4.658475518e-06   -1.666229218e-05    0.000000000e+00    0.000000000e+00    0.000000000e+00    0.000000000e+00
      540750000   -8.682033420e-02    9.419552088e-01   -2.552382648e-05    7.378868759e-06    0.000000000e+00    0.000000000e+00    0.000000000e+00    0.000000000e+00
      548000000    1.927522384e-02    9.345229268e-01   -2.296641469e-06   -7.879920304e-06    0.000000000e+00    0.000000000e+00    0.000000000e+00    0.000000000e+00
      555250000    1.221934929e-01    9.164133072e-01    1.694541425e-05    1.643225551e-05    0.000000000e+00    0.000000000e+00    0.000000000e+00    0.000000000e+00
      562500000    2.226169705e-01    8.866989017e-01   -4.454329610e-05    1.682341099e-05    0.000000000e+00    0.000000000e+00    0.000000000e+00    0.000000000e+00
      569750000    3.187260628e-01    8.474103808e-01   -1.548975706e-05    1.897290349e-05    0.000000000e+00    0.000000000e+00    0.000000000e+00    0.000000000e+00
      577000000    4.089183509e-01    7.987275124e-01    2.830382437e-05    9.493902326e-06    0.000000000e+00    0.000000000e+00    0.000000000e+00    0.000000000e+00
      584250000    4.930372834e-01    7.410991192e-01   -1.499336213e-05    1.493934542e-05    0.000000000e+00    0.000000000e+00    0.000000000e+00    0.000000000e+00
      591500000    5.708568692e-01    6.745918393e-01   -1.534260809e-05   -4.599057138e-05    0.000000000e+00    0.000000000e+00    0.000000000e+00    0.000000000e+00
      598750000    6.405467391e-01    6.013918519e-01   -2.295151353e-05   -5.152449012e-05    0.000000000e+00    0.000000000e+00    0.000000000e+00    0.000000000e+00
      606000000    7.022473216e-01    5.232151151e-01    1.138262451e-05    2.305861562e-05    0.000000000e+00    0.000000000e+00    0.000000000e+00    0.000000000e+00
      613250000    7.557471991e-01    4.384444356e-01   -2.753362060e-05   -1.184735447e-05    0.000000000e+00    0.000000000e+00    0.000000000e+00    0.000000000e+00
      620500000    7.998679280e-01    3.508925438e-01    1.438707113e-05    2.722162753e-05    0.000000000e+00    0.000000000e+00    0.000000000e+00    0.000000000e+00
      627750000    8.359991312e-01    2.578107119e-01    3.942288458e-06    6.237067282e-05    0.000000000e+00    0.000000000e+00    0.000000000e+00    0.000000000e+00
      635000000    8.615217209e-01    1.623690873e-01    6.123445928e-06   -1.282151788e-05    0.000000000e+00    0.000000000e+00    0.000000000e+00    0.000000000e+00
      642250000    8.786189556e-01    6.398367882e-02    1.126062125e-05   -3.635045141e-05    0.000000000e+00    0.000000000e+00    0.000000000e+00    0.000000000e+00
      649500000    8.853609562e-01   -3.453367576e-02    2.485606819e-05    2.132821828e-05    0.000000000e+00    0.000000000e+00    0.000000000e+00    0.000000000e+00
      656750000    8.822068572e-01   -1.339495331e-01   -1.078005880e-05    1.317542046e-05    0.000000000e+00    0.000000000e+00    0.000000000e+00    0.000000000e+00
      664000000    8.702170253e-01   -2.328608483e-01    4.732981324e-06   -1.346133649e-05    0.000000000e+00    0.000000000e+00    0.000000000e+00    0.000000000e+00
      671250000    8.479256630e-01   -3.305608630e-01   -2.753455192e-05   -2.322159708e-05    0.000000000e+00    0.000000000e+00    0.000000000e+00    0.000000000e+00
      678500000    8.157798052e-01   -4.248527586e-01   -1.369975507e-06   -5.275942385e-06    0.000000000e+00    0.000000000e+00    0.000000000e+00    0.000000000e+00
      685750000    7.735781074e-01   -5.186924338e-01    3.157183528e-06   -5.860999227e-05    0.000000000e+00    0.000000000e+00    0.000000000e+00    0.000000000e+00
      693000000    7.219754457e-01   -6.071454883e-01    3.788340837e-05   -2.462603152e-05    0.000000000e+00    0.000000000e+00    0.000000000e+00    0.000000000e+00
      700250000    6.600398421e-01   -6.916854382e-01    2.543441951e-06   -1.931563020e-05    0.000000000e+00    0.000000000e+00    0.000000000e+00    0.000000000e+00
      707500000    5.920428634e-01   -7.668067813e-01    1.138541847e-05   -1.347437501e-05    0.000000000e+00    0.000000000e+00    0.000000000e+00    0.000000000e+00
      714750000    5.121444464e-01   -8.394929171e-01   -2.510100603e-05    1.096632332e-05    0.000000000e+00    0.000000000e+00    0.000000000e+00    0.000000000e+00
      722000000    4.263109565e-01   -9.012824893e-01   -3.346335143e-05    8.800067008e-06    0.000000000e+00    0.000000000e+00    0.000000000e+00    0.000000000e+00
      729250000    3.308893442e-01   -9.549486637e-01    2.862792462e-05   -2.150237560e-05    0.000000000e+00    0.000000000e+00    0.000000000e+00    0.000000000e+00
      736500000    2.310322970e-01   -9.974275231e-01    3.740191460e-06   -2.860650420e-05    0.000000000e+00    0.000000000e+00    0.000000000e+00    0.000000000e+00
      743750000    1.244706884e-01   -1.029358268e+00    1.060403883e-05    1.260079443e-05    0.000000000e+00    0.000000000e+00    0.000000000e+00    0.000000000e+00
      751000000    1.368544251e-02   -1.048613071e+00    1.951865852e-05   -1.487415284e-05    0.000000000e+00    0.000000000e+00    0.000000000e+00    0.000000000e+00
      758250000   -9.872554988e-02   -1.054751635e+00    9.155832231e-06    9.678304195e-06    0.000000000e+00    0.000000000e+00    0.000000000e+00    0.000000000e+00
      765500000   -2.115104795e-01   -1.047147989e+00   -6.892718375e-06    2.241693437e-05    0.000000000e+00    0.000000000e+00    0.000000000e+00    0.000000000e+00
      772750000   -3.260658681e-01   -1.025923133e+00   -1.884065568e-05    2.090539783e-05    0.000000000e+00    0.000000000e+00    0.000000000e+00    0.000000000e+00
      780000000   -4.363574088e-01   -9.926649332e-01    2.842862159e-05   -5.995668471e-05    0.000000000e+00    0.000000000e+00    0.000000000e+00    0.000000000e+00
      787250000   -5.419245958e-01   -9.430202842e-01    1.073908061e-05   -2.826843411e-05    0.000000000e+00    0.000000000e+00    0.000000000e+00    0.000000000e+00
      794500000   -6.413674355e-01   -8.812260032e-01   -1.001823694e-05   -1.369044185e-06    0.000000000e+00    0.000000000e+00    0.000000000e+00    0.000000000e+00
      801750000   -7.331914902e-01   -8.074172139e-01    4.204548895e-05    1.745019108e-05    0.000000000e+00    0.000000000e+00    0.000000000e+00    0.000000000e+00
      809000000   -8.129047751e-01   -7.241982222e-01    2.127140760e-06   -2.593826503e-05    0.000000000e+00    0.000000000e+00    0.000000000e+00    0.000000000e+00
      816250000   -8.823181987e-01   -6.316859722e-01    2.692919225e-05    1.281499863e-05    0.000000000e+00    0.000000000e+00    0.000000000e+00    0.000000000e+00
      823500000   -9.403501749e-01   -5.297251344e-01    1.029763371e-05    2.900604159e-05    0.000000000e+00    0.000000000e+00    0.000000000e+00    0.000000000e+00
      830750000   -9.836716056e-01   -4.250327349e-01   -1.303851604e-05   -2.667121589e-05    0.000000000e+00    0.000000000e+00    0.000000000e+00    0.000000000e+00
      838000000   -1.013617873e+00   -3.180115819e-01    4.803948104e-05   -3.091432154e-05    0.000000000e+00    0.000000000e+00    0.000000000e+00    0.000000000e+00
      845250000   -1.030211210e+00   -2.074166387e-01    7.688067853e-06   -5.806330591e-05    0.000000000e+00    0.000000000e+00    0.000000000e+00    0.000000000e+00
      852500000   -1.034103632e+00   -9.838987887e-02   -1.030694693e-05   -5.591660738e-06    0.000000000e+00    0.000000000e+00    0.000000000e+00    0.000000000e+00
      859750000   -1.025350928e+00    8.415799588e-03   -1.355446875e-05   -1.982785761e-06    0.000000000e+00    0.000000000e+00    0.000000000e+00    0.000000000e+00
      867000000   -1.003142357e+00    1.147336140e-01    7.119029760e-06    8.499249816e-06    0.000000000e+00    0.000000000e+00    0.000000000e+00    0.000000000e+00
      874250000   -9.723513722e-01    2.115153074e-01   -1.338217407e-05    1.374166459e-05    0.000000000e+00    0.000000000e+00    0.000000000e+00    0.000000000e+00
      881500000   -9.289073348e-01    3.065076470e-01    9.550713003e-06   -3.344379365e-06    0.000000000e+00    0.000000000e+00    0.000000000e+00    0.000000000e+00
      888750000   -8.785119057e-01    3.916957378e-01   -1.997500658e-05   -4.722736776e-06    0.000000000e+00    0.000000000e+00    0.000000000e+00    0.000000000e+00
      896000000   -8.200744987e-01    4.709768593e-01    7.375143468e-06    2.620741725e-06    0.000000000e+00    0.000000000e+00    0.000000000e+00    0.000000000e+00
      903250000   -7.559874058e-01    5.397572517e-01   -4.515051842e-06    1.494400203e-05    0.000000000e+00    0.000000000e+00    0.000000000e+00    0.000000000e+00
      910500000   -6.837388873e-01    6.047621369e-01   -1.307763159e-05    2.691987902e-05    0.000000000e+00    0.000000000e+00    0.000000000e+00    0.000000000e+00
      917750000   -6.095559597e-01    6.582061648e-01    3.379490227e-05    5.465652794e-05    0.000000000e+00    0.000000000e+00    0.000000000e+00    0.000000000e+00
      925000000   -5.303265452e-01    7.042624354e-01    1.334398985e-05    1.149997115e-05    0.000000000e+00    0.000000000e+00    0.000000000e+00    0.000000000e+00
      932250000   -4.499034882e-01    7.416453958e-01   -1.012813300e-05   -3.611668944e-06    0.000000000e+00    0.000000000e+00    0.000000000e+00    0.000000000e+00
      939500000   -3.669990301e-01    7.714499831e-01    6.328336895e-06    2.611707896e-05    0.000000000e+00    0.000000000e+00    0.000000000e+00    0.000000000e+00
      946750000   -2.834639847e-01    7.931065559e-01    1.950003207e-05   -1.232698560e-05    0.000000000e+00    0.000000000e+00    0.000000000e+00    0.000000000e+00
      954000000   -1.998886764e-01    8.061800599e-01    4.434026778e-06    6.723310798e-05    0.000000000e+00    0.000000000e+00    0.000000000e+00    0.000000000e+00
      961250000   -1.165331900e-01    8.139241934e-01    2.052448690e-05    1.555681229e-05    0.000000000e+00    0.000000000e+00    0.000000000e+00    0.000000000e+00
      968500000   -3.022918850e-02    8.126054406e-01   -3.090966493e-05    2.258550376e-05    0.000000000e+00    0.000000000e+00    0.000000000e+00    0.000000000e+00
      975750000    5.014187470e-02    8.054080009e-01   -9.633600712e-06    6.332993507e-07    0.000000000e+00    0.000000000e+00    0.000000000e+00    0.000000000e+00
      983000000    1.319488734e-01    7.900118828e-01    7.113441825e-06   -4.881992936e-06    0.000000000e+00    0.000000000e+00    0.000000000e+00    0.000000000e+00
      990250000    2.109379172e-01    7.682500482e-01   -3.880821168e-05   -1.409370452e-05    0.000000000e+00    0.000000000e+00    0.000000000e+00    0.000000000e+00
      997500000    2.883349359e-01    7.395106554e-01   -1.463945955e-05   -1.225620508e-06    0.000000000e+00    0.000000000e+00    0.000000000e+00    0.000000000e+00
     1004750000    3.630438149e-01    7.053700089e-01    2.329610288e-05    5.828216672e-06    0.000000000e+00    0.000000000e+00    0.000000000e+00    0.000000000e+00
     1012000000    4.344000220e-01    6.651396155e-01    3.402121365e-06    3.057718277e-05    0.000000000e+00    0.000000000e+00    0.000000000e+00    0.000000000e+00
     1019250000    5.018131137e-01    6.176646948e-01    8.707866073e-07   -3.131665289e-05    0.000000000e+00    0.000000000e+00    0.000000000e+00    0.000000000e+00
     1026500000    5.671602488e-01    5.641218424e-01   -3.212317824e-05    2.792384475e-05    0.000000000e+00    0.000000000e+00    0.000000000e+00    0.000000000e+00
     1033750000    6.267470717e-01    5.050295591e-01   -8.168630302e-06    1.830980182e-05    0.000000000e+00    0.000000000e+00    0.000000000e+00    0.000000000e+00
     1041000000    6.818065047e-01    4.407848716e-01   -2.533104271e-05    7.966533303e-06    0.000000000e+00    0.000000000e+00    0.000000000e+00    0.000000000e+00
