! NanoVNA-App by OneOfEleven et al v1.1.209 (+OD15) 
! Date: 2024-07-30 15:11:38
! Start: 200MHz Stop: 6GHz Points: 801
! S-Parameter data: F S11 S21 S12 S22
# Hz S RI R 50
!     Frequency           S11_Real           S11_Imag           S21_Real           S21_Imag           S12_Real           S12_Imag           S22_Real           S22_Imag
      200000000    8.886702061e-01    2.081387192e-01   -1.950096339e-05    9.641051292e-06    0.000000000e+00    0.000000000e+00    0.000000000e+00    0.000000000e+00
      207250000    9.044286013e-01    9.984484315e-02   -1.465529203e-05   -1.213513315e-06    0.000000000e+00    0.000000000e+00    0.000000000e+00    0.000000000e+00
      214500000    9.080079198e-01   -7.106215693e-03    2.013985068e-05   -8.586794138e-07    0.000000000e+00    0.000000000e+00    0.000000000e+00    0.000000000e+00
      221750000    8.985751867e-01   -1.138525382e-01    6.415881217e-06    3.237649798e-05    0.000000000e+00    0.000000000e+00    0.000000000e+00    0.000000000e+00
      229000000    8.782676458e-01   -2.169112414e-01    1.043360680e-05   -5.461275578e-06    0.000000000e+00    0.000000000e+00    0.000000000e+00    0.000000000e+00
      236250000    8.468984365e-01   -3.161806464e-01   -1.240801066e-05   -5.028862506e-05    0.000000000e+00    0.000000000e+00    0.000000000e+00    0.000000000e+00
      243500000    8.055756688e-01   -4.091612697e-01   -2.707820386e-05   -1.889001578e-05    0.000000000e+00    0.000000000e+00    0.000000000e+00    0.000000000e+00
      250750000    7.546836734e-01   -4.966180921e-01    3.202073276e-05    5.091540515e-06    0.000000000e+00    0.000000000e+00    0.000000000e+00    0.000000000e+00
      258000000    6.963670254e-01   -5.768280029e-01    3.383494914e-06   -1.255981624e-05    0.000000000e+00    0.000000000e+00    0.000000000e+00    0.000000000e+00
      265250000    6.314848065e-01   -6.502265334e-01   -1.150183380e-06    1.446343958e-06    0.000000000e+00    0.000000000e+00    0.000000000e+00    0.000000000e+00
      272500000    5.601507425e-01   -7.153477073e-01   -2.638809383e-05   -1.922436059e-05    0.000000000e+00    0.000000000e+00    0.000000000e+00    0.000000000e+00
      279750000    4.839389622e-01   -7.726328969e-01    2.776179463e-05   -2.160482109e-05    0.000000000e+00    0.000000000e+00    0.000000000e+00    0.000000000e+00
      287000000    4.035636187e-01   -8.222825527e-01   -1.593120396e-05    5.892477930e-06    0.000000000e+00    0.000000000e+00    0.000000000e+00    0.000000000e+00
      294250000    3.195303380e-01   -8.631254435e-01   -4.049390554e-06    2.083834261e-05    0.000000000e+00    0.000000000e+00    0.000000000e+00    0.000000000e+00
      301500000    2.324855179e-01   -8.955882192e-01   -7.795169950e-06    2.370215952e-06    0.000000000e+00    0.000000000e+00    0.000000000e+00    0.000000000e+00
      308750000    1.430321485e-01   -9.193537831e-01   -4.823319614e-06    1.827348024e-05    0.000000000e+00    0.000000000e+00    0.000000000e+00    0.000000000e+00
      316000000    5.376595631e-02   -9.356434345e-01    1.661479473e-06    6.948597729e-06    0.000000000e+00    0.000000000e+00    0.000000000e+00    0.000000000e+00
      323250000   -3.744844720e-02   -9.423382878e-01    2.615805715e-05    1.469068229e-05    0.000000000e+00    0.000000000e+00    0.000000000e+00    0.000000000e+00
      330500000   -1.283878833e-01   -9.415114522e-01   -1.066084951e-05    2.694316208e-06    0.000000000e+00    0.000000000e+00    0.000000000e+00    0.000000000e+00
      337750000   -2.182371467e-01   -9.318947792e-01    9.757466614e-06   -8.955597878e-06    0.000000000e+00    0.000000000e+00    0.000000000e+00    0.000000000e+00
      345000000   -3.080978692e-01   -9.138247967e-01    4.467368126e-05    8.095987141e-06    0.000000000e+00    0.000000000e+00    0.000000000e+00    0.000000000e+00
      352250000   -3.957677186e-01   -8.876482248e-01   -3.085471690e-05    1.993495971e-05    0.000000000e+00    0.000000000e+00    0.000000000e+00    0.000000000e+00
      359500000   -4.805842340e-01   -8.538434505e-01    2.763792872e-05    5.663372576e-06    0.000000000e+00    0.000000000e+00    0.000000000e+00    0.000000000e+00
      366750000   -5.624545813e-01   -8.102956414e-01   -4.064291716e-05   -2.153031528e-05    0.000000000e+00    0.000000000e+00    0.000000000e+00    0.000000000e+00
      374000000   -6.410143375e-01   -7.607256174e-01   -1.853331923e-06    7.215887308e-06    0.000000000e+00    0.000000000e+00    0.000000000e+00    0.000000000e+00
      381250000   -7.153319120e-01   -7.010931969e-01    1.488439739e-05    1.745671034e-05    0.000000000e+00    0.000000000e+00    0.000000000e+00    0.000000000e+00
      388500000   -7.831947803e-01   -6.349864006e-01   -1.038331538e-05    2.615340054e-05    0.000000000e+00    0.000000000e+00    0.000000000e+00    0.000000000e+00
      395750000   -8.451707363e-01   -5.625922084e-01   -2.438016236e-05   -2.694502473e-05    0.000000000e+00    0.000000000e+00    0.000000000e+00    0.000000000e+00
      403000000   -8.994395733e-01   -4.824385643e-01    2.150423825e-05   -3.161653876e-05    0.000000000e+00    0.000000000e+00    0.000000000e+00    0.000000000e+00
      410250000   -9.470035434e-01   -3.958777487e-01    2.666004002e-05   -4.375260323e-05    0.000000000e+00    0.000000000e+00    0.000000000e+00    0.000000000e+00
      417500000   -9.844608307e-01   -3.041867912e-01   -4.007574171e-05   -3.288313746e-05    0.000000000e+00    0.000000000e+00    0.000000000e+00    0.000000000e+00
      424750000   -1.012396336e+00   -2.082719952e-01    2.545583993e-05    5.681067705e-07    0.000000000e+00    0.000000000e+00    0.000000000e+00    0.000000000e+00
      432000000   -1.030248642e+00   -1.081088409e-01   -1.231953502e-05   -3.621820360e-05    0.000000000e+00    0.000000000e+00    0.000000000e+00    0.000000000e+00
      439250000   -1.037252665e+00   -5.663801916e-03    1.087412238e-05    1.312606037e-05    0.000000000e+00    0.000000000e+00    0.000000000e+00    0.000000000e+00
      446500000   -1.032941341e+00    9.706047177e-02    2.817343920e-05   -2.734735608e-05    0.000000000e+00    0.000000000e+00    0.000000000e+00    0.000000000e+00
      453750000   -1.017120361e+00    2.017019987e-01   -9.925104678e-06   -3.505591303e-05    0.000000000e+00    0.000000000e+00    0.000000000e+00    0.000000000e+00
      461000000   -9.887965322e-01    3.032320440e-01   -2.230610698e-05    8.838251233e-06    0.000000000e+00    0.000000000e+00    0.000000000e+00    0.000000000e+00
      468250000   -9.493145347e-01    4.014226794e-01   -9.519979358e-06    3.630574793e-05    0.000000000e+00    0.000000000e+00    0.000000000e+00    0.000000000e+00
      475500000   -8.985484838e-01    4.961685836e-01   -2.888031304e-06    1.339893788e-05    0.000000000e+00    0.000000000e+00    0.000000000e+00    0.000000000e+00
      482750000   -8.371281028e-01    5.840846300e-01    9.763985872e-06   -2.787820995e-05    0.000000000e+00    0.000000000e+00    0.000000000e+00    0.000000000e+00
      490000000   -7.653132677e-01    6.646775603e-01   -2.795178443e-05   -5.118548870e-06    0.000000000e+00    0.000000000e+00    0.000000000e+00    0.000000000e+00
      497250000   -6.850972176e-01    7.361658812e-01    1.825671643e-05   -2.880953252e-05    0.000000000e+00    0.000000000e+00    0.000000000e+00    0.000000000e+00
      504500000   -5.965386033e-01    7.987449765e-01   -2.137850970e-05    2.414733171e-05    0.000000000e+00    0.000000000e+00    0.000000000e+00    0.000000000e+00
      511750000   -5.022169948e-01    8.513759971e-01    1.299194992e-06   -5.078501999e-06    0.000000000e+00    0.000000000e+00    0.000000000e+00    0.000000000e+00
      519000000   -4.023429751e-01    8.912758231e-01   -8.221715689e-06   -1.744460315e-05    0.000000000e+00    0.000000000e+00    0.000000000e+00    0.000000000e+00
      526250000   -2.983420193e-01    9.202744365e-01    2.540834248e-05    9.167008102e-06    0.000000000e+00    0.000000000e+00    0.000000000e+00    0.000000000e+00
      533500000   -1.929218024e-01    9.369968772e-01   -1.387484372e-05   -2.901535481e-05    0.000000000e+00    0.000000000e+00    0.000000000e+00    0.000000000e+00
      540750000   -8.636739850e-02    9.417660236e-01   -2.492126077e-05    4.748813808e-06    0.000000000e+00    0.000000000e+00    0.000000000e+00    0.000000000e+00
      548000000    1.958595216e-02    9.344794154e-01    2.369657159e-05   -2.914108336e-06    0.000000000e+00    0.000000000e+00    0.000000000e+00    0.000000000e+00
      555250000    1.223326176e-01    9.164507985e-01    4.183501005e-06   -3.189966083e-05    0.000000000e+00    0.000000000e+00    0.000000000e+00    0.000000000e+00
      562500000    2.221662402e-01    8.865130544e-01   -2.909637988e-05    9.359791875e-06    0.000000000e+00    0.000000000e+00    0.000000000e+00    0.000000000e+00
      569750000    3.187269270e-01    8.471505046e-01    7.535330951e-06    1.124478877e-05    0.000000000e+00    0.000000000e+00    0.000000000e+00    0.000000000e+00
      577000000    4.083853960e-01    7.983160019e-01    5.749054253e-06   -3.785733134e-05    0.000000000e+00    0.000000000e+00    0.000000000e+00    0.000000000e+00
      584250000    4.934985638e-01    7.409910560e-01    9.520910680e-06    4.591420293e-07    0.000000000e+00    0.000000000e+00    0.000000000e+00    0.000000000e+00
      591500000    5.705461502e-01    6.751060486e-01   -1.084618270e-05   -2.471078187e-05    0.000000000e+00    0.000000000e+00    0.000000000e+00    0.000000000e+00
      598750000    6.404441595e-01    6.019157767e-01    1.191999763e-05    2.332404256e-05    0.000000000e+00    0.000000000e+00    0.000000000e+00    0.000000000e+00
      606000000    7.019555569e-01    5.236346126e-01    1.476891339e-05   -1.647509634e-06    0.000000000e+00    0.000000000e+00    0.000000000e+00    0.000000000e+00
      613250000    7.550078034e-01    4.393117130e-01   -1.564342529e-05   -3.441795707e-05    0.000000000e+00    0.000000000e+00    0.000000000e+00    0.000000000e+00
      620500000    8.003214598e-01    3.499099910e-01    3.016740084e-05    7.739290595e-06    0.000000000e+00    0.000000000e+00    0.000000000e+00    0.000000000e+00
      627750000    8.357477188e-01    2.577078640e-01   -7.508322597e-06   -3.519747406e-05    0.000000000e+00    0.000000000e+00    0.000000000e+00    0.000000000e+00
      635000000    8.616138697e-01    1.622232646e-01   -8.776783943e-06   -3.430712968e-05    0.000000000e+00    0.000000000e+00    0.000000000e+00    0.000000000e+00
      642250000    8.781867027e-01    6.426126510e-02    5.401670933e-07    3.270246089e-05    0.000000000e+00    0.000000000e+00    0.000000000e+00    0.000000000e+00
      649500000    8.853209019e-01   -3.491283953e-02    1.992564648e-05   -1.406483352e-05    0.000000000e+00    0.000000000e+00    0.000000000e+00    0.000000000e+00
      656750000    8.828541636e-01   -1.334276646e-01   -1.435820013e-05    1.351162791e-05    0.000000000e+00    0.000000000e+00    0.000000000e+00    0.000000000e+00
      664000000    8.701816201e-01   -2.326730192e-01   -1.758243889e-05    4.880409688e-05    0.000000000e+00    0.000000000e+00    0.000000000e+00    0.000000000e+00
      671250000    8.471736908e-01   -3.302631080e-01    1.129135489e-05   -2.682209015e-06    0.000000000e+00    0.000000000e+00    0.000000000e+00    0.000000000e+00
      678500000    8.159442544e-01   -4.256634414e-01    1.161359251e-06    1.787766814e-05    0.000000000e+00    0.000000000e+00    0.000000000e+00    0.000000000e+00
      685750000    7.731459141e-01   -5.192594528e-01    6.478279829e-06    3.247521818e-06    0.000000000e+00    0.000000000e+00    0.000000000e+00    0.000000000e+00
      693000000    7.221466303e-01   -6.066108942e-01   -1.601874828e-05    2.065673470e-06    0.000000000e+00    0.000000000e+00    0.000000000e+00    0.000000000e+00
      700250000    6.614298224e-01   -6.907874346e-01    3.275740892e-05   -8.762814105e-06    0.000000000e+00    0.000000000e+00    0.000000000e+00    0.000000000e+00
      707500000    5.922046900e-01   -7.680141926e-01    1.290533692e-05    1.018028706e-05    0.000000000e+00    0.000000000e+00    0.000000000e+00    0.000000000e+00
      714750000    5.115866065e-01   -8.388261199e-01    1.681782305e-05    1.392979175e-05    0.000000000e+00    0.000000000e+00    0.000000000e+00    0.000000000e+00
      722000000    4.245556295e-01   -9.023143053e-01   -3.529712558e-06   -1.172628254e-05    0.000000000e+00    0.000000000e+00    0.000000000e+00    0.000000000e+00
      729250000    3.310332000e-01   -9.544462562e-01   -1.749396324e-05   -3.406777978e-06    0.000000000e+00    0.000000000e+00    0.000000000e+00    0.000000000e+00
      736500000    2.309914529e-01   -9.972030520e-01   -1.074746251e-06    2.564582974e-05    0.000000000e+00    0.000000000e+00    0.000000000e+00    0.000000000e+00
      743750000    1.241592392e-01   -1.028907657e+00    1.048948616e-05    9.510666132e-06    0.000000000e+00    0.000000000e+00    0.000000000e+00    0.000000000e+00
      751000000    1.436589099e-02   -1.048827410e+00    1.699663699e-06   -4.970841110e-05    0.000000000e+00    0.000000000e+00    0.000000000e+00    0.000000000e+00
      758250000   -9.879945219e-02   -1.054403782e+00   -9.583309293e-06   -4.176888615e-05    0.000000000e+00    0.000000000e+00    0.000000000e+00    0.000000000e+00
      765500000   -2.113966793e-01   -1.047035813e+00   -1.138728112e-05    3.267265856e-05    0.000000000e+00    0.000000000e+00    0.000000000e+00    0.000000000e+00
      772750000   -3.261313140e-01   -1.025611162e+00    4.032626748e-07    2.007931471e-05    0.000000000e+00    0.000000000e+00    0.000000000e+00    0.000000000e+00
      780000000   -4.352805018e-01   -9.920654297e-01   -3.566965461e-06   -2.629868686e-05    0.000000000e+00    0.000000000e+00    0.000000000e+00    0.000000000e+00
      787250000   -5.419512987e-01   -9.419208169e-01    5.580764264e-05   -1.767557114e-05    0.000000000e+00    0.000000000e+00    0.000000000e+00    0.000000000e+00
      794500000   -6.414030194e-01   -8.817600012e-01   -5.114637315e-05   -1.282151788e-05    0.000000000e+00    0.000000000e+00    0.000000000e+00    0.000000000e+00
      801750000   -7.323347926e-01   -8.078659773e-01    2.843048424e-05    4.004500806e-05    0.000000000e+00    0.000000000e+00    0.000000000e+00    0.000000000e+00
      809000000   -8.134123087e-01   -7.239851356e-01   -1.759547740e-05    1.982040703e-05    0.000000000e+00    0.000000000e+00    0.000000000e+00    0.000000000e+00
      816250000   -8.827633262e-01   -6.302058697e-01    2.103112638e-05    7.873401046e-06    0.000000000e+00    0.000000000e+00    0.000000000e+00    0.000000000e+00
      823500000   -9.400882721e-01   -5.299039483e-01    2.322439104e-05   -2.053566277e-05    0.000000000e+00    0.000000000e+00    0.000000000e+00    0.000000000e+00
      830750000   -9.835851192e-01   -4.261127412e-01    5.482789129e-05    3.551691771e-05    0.000000000e+00    0.000000000e+00    0.000000000e+00    0.000000000e+00
      838000000   -1.013498783e+00   -3.172305822e-01   -5.562789738e-06    4.369486123e-05    0.000000000e+00    0.000000000e+00    0.000000000e+00    0.000000000e+00
      845250000   -1.030924082e+00   -2.075102478e-01   -2.881884575e-05    7.951632142e-06    0.000000000e+00    0.000000000e+00    0.000000000e+00    0.000000000e+00
      852500000   -1.034153461e+00   -9.789623320e-02   -7.635913789e-06    4.720129073e-05    0.000000000e+00    0.000000000e+00    0.000000000e+00    0.000000000e+00
      859750000   -1.025049567e+00    8.469576016e-03    4.159286618e-05    7.403083146e-06    0.000000000e+00    0.000000000e+00    0.000000000e+00    0.000000000e+00
      867000000   -1.003320098e+00    1.146707311e-01   -1.734867692e-05    1.220963895e-05    0.000000000e+00    0.000000000e+00    0.000000000e+00    0.000000000e+00
      874250000   -9.713937044e-01    2.126377523e-01    3.690645099e-05    2.691894770e-05    0.000000000e+00    0.000000000e+00    0.000000000e+00    0.000000000e+00
      881500000   -9.295310378e-01    3.065518439e-01   -1.344922930e-05   -2.032052726e-05    0.000000000e+00    0.000000000e+00    0.000000000e+00    0.000000000e+00
      888750000   -8.784341216e-01    3.916670084e-01    2.525094897e-05   -5.665235221e-06    0.000000000e+00    0.000000000e+00    0.000000000e+00    0.000000000e+00
      896000000   -8.201771379e-01    4.701643586e-01   -8.367933333e-06    1.842249185e-05    0.000000000e+00    0.000000000e+00    0.000000000e+00    0.000000000e+00
      903250000   -7.550323606e-01    5.416257381e-01    2.009794116e-05    6.761401892e-07    0.000000000e+00    0.000000000e+00    0.000000000e+00    0.000000000e+00
      910500000   -6.841197014e-01    6.042923927e-01   -2.679694444e-05    1.356471330e-05    0.000000000e+00    0.000000000e+00    0.000000000e+00    0.000000000e+00
      917750000   -6.088165045e-01    6.586462259e-01    1.293607056e-05   -1.519918442e-06    0.000000000e+00    0.000000000e+00    0.000000000e+00    0.000000000e+00
      925000000   -5.313794017e-01    7.036838531e-01   -4.182569683e-05   -6.222166121e-06    0.000000000e+00    0.000000000e+00    0.000000000e+00    0.000000000e+00
      932250000   -4.491824508e-01    7.424548864e-01    7.024034858e-06    2.197083086e-05    0.000000000e+00    0.000000000e+00    0.000000000e+00    0.000000000e+00
      939500000   -3.676686585e-01    7.714139819e-01   -6.915070117e-06    3.352761269e-08    0.000000000e+00    0.000000000e+00    0.000000000e+00    0.000000000e+00
      946750000   -2.847254872e-01    7.930908203e-01   -4.032533616e-05   -3.555975854e-05    0.000000000e+00    0.000000000e+00    0.000000000e+00    0.000000000e+00
      954000000   -1.992053688e-01    8.081226945e-01   -1.974962652e-05   -1.297891140e-05    0.000000000e+00    0.000000000e+00    0.000000000e+00    0.000000000e+00
      961250000   -1.169424951e-01    8.133866787e-01    1.503434032e-05   -6.883405149e-06    0.000000000e+00    0.000000000e+00    0.000000000e+00    0.000000000e+00
      968500000   -3.159196675e-02    8.122537136e-01    4.398636520e-06   -1.015700400e-05    0.000000000e+00    0.000000000e+00    0.000000000e+00    0.000000000e+00
      975750000    5.041577667e-02    8.044961095e-01   -1.272372901e-05   -2.800486982e-06    0.000000000e+00    0.000000000e+00    0.000000000e+00    0.000000000e+00
      983000000    1.319387853e-01    7.896331549e-01    1.206342131e-05    1.635774970e-05    0.000000000e+00    0.000000000e+00    0.000000000e+00    0.000000000e+00
      990250000    2.116543651e-01    7.680036426e-01   -2.617016435e-06    2.226326615e-05    0.000000000e+00    0.000000000e+00    0.000000000e+00    0.000000000e+00
      997500000    2.891444862e-01    7.398841381e-01   -2.870429307e-05    1.272931695e-05    0.000000000e+00    0.000000000e+00    0.000000000e+00    0.000000000e+00
     1004750000    3.631378412e-01    7.058944702e-01   -2.506095916e-05   -7.196329534e-06    0.000000000e+00    0.000000000e+00    0.000000000e+00    0.000000000e+00
     1012000000    4.350386262e-01    6.639877558e-01   -9.044073522e-06   -5.951151252e-06    0.000000000e+00    0.000000000e+00    0.000000000e+00    0.000000000e+00
     1019250000    5.019251108e-01    6.175759435e-01   -6.183981895e-07    1.745577902e-05    0.000000000e+00    0.000000000e+00    0.000000000e+00    0.000000000e+00
     1026500000    5.663410425e-01    5.649124980e-01    4.636123776e-05    2.109445632e-06    0.000000000e+00    0.000000000e+00    0.000000000e+00    0.000000000e+00
     1033750000    6.269803643e-01    5.048775077e-01   -3.736466169e-05   -4.463642836e-05    0.000000000e+00    0.000000000e+00    0.000000000e+00    0.000000000e+00
     1041000000    6.815810800e-01    4.399581254e-01   -2.203974873e-05   -6.923452020e-06    0.000000000e+00    0.000000000e+00    0.000000000e+00    0.000000000e+00
