! NanoVNA-App by OneOfEleven et al v1.1.209 (+OD15) 
! Date: 2024-07-30 15:11:41
! Start: 200MHz Stop: 6GHz Points: 801
! S-Parameter data: F S11 S21 S12 S22
# Hz S RI R 50
!     Frequency           S11_Real           S11_Imag           S21_Real           S21_Imag           S12_Real           S12_Imag           S22_Real           S22_Imag
      200000000    8.883331418e-01    2.076158077e-01    1.053698361e-05    1.616775990e-05    0.000000000e+00    0.000000000e+00    0.000000000e+00    0.000000000e+00
      207250000    9.042448997e-01    1.000231802e-01   -1.132488251e-05   -7.422640920e-07    0.000000000e+00    0.000000000e+00    0.000000000e+00    0.000000000e+00
      214500000    9.079493880e-01   -7.314582355e-03    1.640524715e-05    9.961426258e-06    0.000000000e+00    0.000000000e+00    0.000000000e+00    0.000000000e+00
      221750000    8.987459540e-01   -1.138112471e-01   -1.152511686e-05    1.903623343e-06    0.000000000e+00    0.000000000e+00    0.000000000e+00    0.000000000e+00
      229000000    8.780419827e-01   -2.165282071e-01   -7.624737918e-06   -1.835078001e-05    0.000000000e+00    0.000000000e+00    0.000000000e+00    0.000000000e+00
      236250000    8.461315632e-01   -3.159592748e-01   -3.637932241e-05    2.013519406e-06    0.000000000e+00    0.000000000e+00    0.000000000e+00    0.000000000e+00
      243500000    8.054433465e-01   -4.089424610e-01    1.465994865e-05    1.011136919e-05    0.000000000e+00    0.000000000e+00    0.000000000e+00    0.000000000e+00
      250750000    7.550273538e-01   -4.966638982e-01   -2.434663475e-05    6.075948477e-06    0.000000000e+00    0.000000000e+00    0.000000000e+00    0.000000000e+00
      258000000    6.965395212e-01   -5.773395300e-01   -3.815628588e-05    1.347437501e-05    0.000000000e+00    0.000000000e+00    0.000000000e+00    0.000000000e+00
      265250000    6.313791275e-01   -6.499820352e-01   -7.124617696e-06   -6.043352187e-06    0.000000000e+00    0.000000000e+00    0.000000000e+00    0.000000000e+00
      272500000    5.601763129e-01   -7.156109810e-01    4.976987839e-06    5.985610187e-06    0.000000000e+00    0.000000000e+00    0.000000000e+00    0.000000000e+00
      279750000    4.841113687e-01   -7.721726894e-01   -3.506243229e-05    2.251844853e-05    0.000000000e+00    0.000000000e+00    0.000000000e+00    0.000000000e+00
      287000000    4.031114876e-01   -8.222738504e-01    3.010965884e-06    1.662597060e-05    0.000000000e+00    0.000000000e+00    0.000000000e+00    0.000000000e+00
      294250000    3.194599450e-01   -8.630256653e-01   -4.727393389e-05    4.192814231e-06    0.000000000e+00    0.000000000e+00    0.000000000e+00    0.000000000e+00
      301500000    2.321541011e-01   -8.953589797e-01    2.655200660e-06   -1.478008926e-06    0.000000000e+00    0.000000000e+00    0.000000000e+00    0.000000000e+00
      308750000    1.437969208e-01   -9.199599028e-01    9.875744581e-06    1.278240234e-05    0.000000000e+00    0.000000000e+00    0.000000000e+00    0.000000000e+00
      316000000    5.367380008e-02   -9.353429675e-01    1.860968769e-05   -1.162756234e-05    0.000000000e+00    0.000000000e+00    0.000000000e+00    0.000000000e+00
      323250000   -3.730136529e-02   -9.424385428e-01   -2.354569733e-05   -4.095770419e-05    0.000000000e+00    0.000000000e+00    0.000000000e+00    0.000000000e+00
      330500000   -1.282523870e-01   -9.408313632e-01   -1.096166670e-06    1.046620309e-05    0.000000000e+00    0.000000000e+00    0.000000000e+00    0.000000000e+00
      337750000   -2.184561193e-01   -9.318448901e-01   -9.808689356e-06    7.204711437e-06    0.000000000e+00    0.000000000e+00    0.000000000e+00    0.000000000e+00
      345000000   -3.081072271e-01   -9.138640761e-01    1.871027052e-06   -1.314841211e-05    0.000000000e+00    0.000000000e+00    0.000000000e+00    0.000000000e+00
      352250000   -3.954622149e-01   -8.878989220e-01    8.703209460e-06   -5.183741450e-06    0.000000000e+00    0.000000000e+00    0.000000000e+00    0.000000000e+00
      359500000   -4.808542430e-01   -8.531054258e-01    9.884126484e-06   -1.806579530e-05    0.000000000e+00    0.000000000e+00    0.000000000e+00    0.000000000e+00
      366750000   -5.630710125e-01   -8.112255335e-01    4.080124199e-06    1.419801265e-05    0.000000000e+00    0.000000000e+00    0.000000000e+00    0.000000000e+00
      374000000   -6.411806941e-01   -7.603673339e-01   -2.003647387e-05    8.675269783e-06    0.000000000e+00    0.000000000e+00    0.000000000e+00    0.000000000e+00
      381250000   -7.148377299e-01   -7.015274763e-01   -2.210959792e-05    1.384876668e-05    0.000000000e+00    0.000000000e+00    0.000000000e+00    0.000000000e+00
      388500000   -7.829139233e-01   -6.363658905e-01   -1.498498023e-05   -2.674199641e-05    0.000000000e+00    0.000000000e+00    0.000000000e+00    0.000000000e+00
      395750000   -8.454096913e-01   -5.624992847e-01    4.535540938e-06   -1.133419573e-06    0.000000000e+00    0.000000000e+00    0.000000000e+00    0.000000000e+00
      403000000   -8.997911215e-01   -4.825193584e-01   -1.104269177e-05   -1.156702638e-06    0.000000000e+00    0.000000000e+00    0.000000000e+00    0.000000000e+00
      410250000   -9.463709593e-01   -3.954920471e-01   -2.127606422e-05   -5.383044481e-06    0.000000000e+00    0.000000000e+00    0.000000000e+00    0.000000000e+00
      417500000   -9.844710827e-01   -3.052377105e-01   -1.971703023e-05   -4.232861102e-06    0.000000000e+00    0.000000000e+00    0.000000000e+00    0.000000000e+00
      424750000   -1.012149453e+00   -2.075199187e-01   -1.946743578e-05    1.114886254e-05    0.000000000e+00    0.000000000e+00    0.000000000e+00    0.000000000e+00
      432000000   -1.030207753e+00   -1.076585203e-01    3.114622086e-05    2.037640661e-05    0.000000000e+00    0.000000000e+00    0.000000000e+00    0.000000000e+00
      439250000   -1.037329793e+00   -5.910939537e-03   -1.176353544e-05   -1.972913742e-05    0.000000000e+00    0.000000000e+00    0.000000000e+00    0.000000000e+00
      446500000   -1.032702923e+00    9.720443189e-02    1.163408160e-05   -3.650225699e-05    0.000000000e+00    0.000000000e+00    0.000000000e+00    0.000000000e+00
      453750000   -1.016374826e+00    2.019110769e-01    8.248724043e-06    5.270354450e-06    0.000000000e+00    0.000000000e+00    0.000000000e+00    0.000000000e+00
      461000000   -9.882235527e-01    3.029026985e-01   -2.918019891e-05   -1.254770905e-05    0.000000000e+00    0.000000000e+00    0.000000000e+00    0.000000000e+00
      468250000   -9.500703812e-01    4.017854333e-01    2.950150520e-05   -3.100745380e-05    0.000000000e+00    0.000000000e+00    0.000000000e+00    0.000000000e+00
      475500000   -8.984264135e-01    4.961889088e-01    1.533981413e-05   -4.603434354e-05    0.000000000e+00    0.000000000e+00    0.000000000e+00    0.000000000e+00
      482750000   -8.368976712e-01    5.844434500e-01    2.515595406e-05    3.278627992e-05    0.000000000e+00    0.000000000e+00    0.000000000e+00    0.000000000e+00
      490000000   -7.651917338e-01    6.649063826e-01    1.000985503e-05   -3.121886402e-05    0.000000000e+00    0.000000000e+00    0.000000000e+00    0.000000000e+00
      497250000   -6.854223609e-01    7.367098331e-01   -2.522021532e-06   -5.196779966e-07    0.000000000e+00    0.000000000e+00    0.000000000e+00    0.000000000e+00
      504500000   -5.962746143e-01    7.987924814e-01    5.885958672e-07   -2.568215132e-05    0.000000000e+00    0.000000000e+00    0.000000000e+00    0.000000000e+00
      511750000   -5.019587278e-01    8.507465720e-01   -4.059355706e-05   -1.113116741e-05    0.000000000e+00    0.000000000e+00    0.000000000e+00    0.000000000e+00
      519000000   -4.023438692e-01    8.907936811e-01   -1.464970410e-06   -3.666244447e-05    0.000000000e+00    0.000000000e+00    0.000000000e+00    0.000000000e+00
      526250000   -2.989020944e-01    9.198460579e-01   -1.223385334e-05   -3.046728671e-05    0.000000000e+00    0.000000000e+00    0.000000000e+00    0.000000000e+00
      533500000   -1.927466542e-01    9.370863438e-01    1.123826951e-05    4.508532584e-05    0.000000000e+00    0.000000000e+00    0.000000000e+00    0.000000000e+00
      540750000   -8.672565967e-02    9.415857792e-01    5.184113979e-05   -3.024656326e-05    0.000000000e+00    0.000000000e+00    0.000000000e+00    0.000000000e+00
      548000000    1.875785738e-02    9.348381162e-01    1.703388989e-06   -3.399048001e-05    0.000000000e+00    0.000000000e+00    0.000000000e+00    0.000000000e+00
      555250000    1.226952299e-01    9.164808393e-01    1.689512283e-05   -3.503635526e-05    0.000000000e+00    0.000000000e+00    0.000000000e+00    0.000000000e+00
      562500000    2.225505263e-01    8.869754076e-01   -4.321336746e-06    2.253800631e-06    0.000000000e+00    0.000000000e+00    0.000000000e+00    0.000000000e+00
      569750000    3.188078403e-01    8.473244309e-01    2.144183964e-05    1.904275268e-05    0.000000000e+00    0.000000000e+00    0.000000000e+00    0.000000000e+00
      577000000    4.083579779e-01    7.980804443e-01   -3.846362233e-07   -9.770505130e-06    0.000000000e+00    0.000000000e+00    0.000000000e+00    0.000000000e+00
      584250000    4.927120805e-01    7.412863374e-01   -2.196803689e-05   -3.363750875e-05    0.000000000e+00    0.000000000e+00    0.000000000e+00    0.000000000e+00
      591500000    5.706560612e-01    6.754006147e-01    1.462362707e-05   -1.565087587e-05    0.000000000e+00    0.000000000e+00    0.000000000e+00    0.000000000e+00
      598750000    6.404790282e-01    6.023522019e-01    9.752810001e-06   -2.656225115e-05    0.000000000e+00    0.000000000e+00    0.000000000e+00    0.000000000e+00
      606000000    7.019031644e-01    5.234554410e-01   -5.408190191e-06    1.655053347e-05    0.000000000e+00    0.000000000e+00    0.000000000e+00    0.000000000e+00
      613250000    7.551356554e-01    4.395927191e-01   -4.745088518e-06   -5.697458982e-05    0.000000000e+00    0.000000000e+00    0.000000000e+00    0.000000000e+00
      620500000    8.003423810e-01    3.501439393e-01   -1.887045801e-05    9.946525097e-06    0.000000000e+00    0.000000000e+00    0.000000000e+00    0.000000000e+00
      627750000    8.351518512e-01    2.570610344e-01   -7.850117981e-06   -1.969374716e-05    0.000000000e+00    0.000000000e+00    0.000000000e+00    0.000000000e+00
      635000000    8.619242311e-01    1.626712531e-01   -6.910413504e-07    4.306435585e-06    0.000000000e+00    0.000000000e+00    0.000000000e+00    0.000000000e+00
      642250000    8.782501221e-01    6.400293112e-02    6.444752216e-07    5.178153515e-07    0.000000000e+00    0.000000000e+00    0.000000000e+00    0.000000000e+00
      649500000    8.853346109e-01   -3.436526656e-02    2.908706665e-05    3.623031080e-05    0.000000000e+00    0.000000000e+00    0.000000000e+00    0.000000000e+00
      656750000    8.821182251e-01   -1.338391304e-01   -5.914457142e-05    4.339031875e-06    0.000000000e+00    0.000000000e+00    0.000000000e+00    0.000000000e+00
      664000000    8.699172139e-01   -2.323993146e-01    3.474950790e-05    1.141708344e-05    0.000000000e+00    0.000000000e+00    0.000000000e+00    0.000000000e+00
      671250000    8.479123712e-01   -3.303195536e-01   -4.400406033e-05    2.594664693e-06    0.000000000e+00    0.000000000e+00    0.000000000e+00    0.000000000e+00
      678500000    8.156192303e-01   -4.260337353e-01    1.350417733e-07    2.278201282e-05    0.000000000e+00    0.000000000e+00    0.000000000e+00    0.000000000e+00
      685750000    7.727603316e-01   -5.190235376e-01    8.386559784e-06   -6.114132702e-06    0.000000000e+00    0.000000000e+00    0.000000000e+00    0.000000000e+00
      693000000    7.224994302e-01   -6.064767838e-01    3.737676889e-05   -1.105107367e-05    0.000000000e+00    0.000000000e+00    0.000000000e+00    0.000000000e+00
      700250000    6.605632305e-01   -6.915162206e-01   -2.853479236e-05    3.146752715e-05    0.000000000e+00    0.000000000e+00    0.000000000e+00    0.000000000e+00
      707500000    5.919152498e-01   -7.679431438e-01    2.099573612e-05   -1.744925976e-05    0.000000000e+00    0.000000000e+00    0.000000000e+00    0.000000000e+00
      714750000    5.114856362e-01   -8.394340277e-01    1.833960414e-05    6.814487278e-06    0.000000000e+00    0.000000000e+00    0.000000000e+00    0.000000000e+00
      722000000    4.264940023e-01   -9.010721445e-01   -9.313225746e-09    1.753028482e-05    0.000000000e+00    0.000000000e+00    0.000000000e+00    0.000000000e+00
      729250000    3.310662508e-01   -9.546457529e-01   -2.931617200e-05   -3.645196557e-06    0.000000000e+00    0.000000000e+00    0.000000000e+00    0.000000000e+00
      736500000    2.306548655e-01   -9.971073270e-01    7.933937013e-05   -1.439638436e-05    0.000000000e+00    0.000000000e+00    0.000000000e+00    0.000000000e+00
      743750000    1.247599274e-01   -1.028738260e+00   -1.654215157e-05    7.879920304e-06    0.000000000e+00    0.000000000e+00    0.000000000e+00    0.000000000e+00
      751000000    1.367636863e-02   -1.047570705e+00   -8.069910109e-06    1.731701195e-05    0.000000000e+00    0.000000000e+00    0.000000000e+00    0.000000000e+00
      758250000   -9.980692714e-02   -1.054191113e+00    1.939758658e-05   -7.485039532e-06    0.000000000e+00    0.000000000e+00    0.000000000e+00    0.000000000e+00
      765500000   -2.126945555e-01   -1.046825767e+00   -3.739260137e-06   -1.459382474e-05    0.000000000e+00    0.000000000e+00    0.000000000e+00    0.000000000e+00
      772750000   -3.248466253e-01   -1.026304245e+00    2.616085112e-06    2.394989133e-05    0.000000000e+00    0.000000000e+00    0.000000000e+00    0.000000000e+00
      780000000   -4.348529577e-01   -9.917484522e-01    2.026464790e-05   -3.319885582e-05    0.000000000e+00    0.000000000e+00    0.000000000e+00    0.000000000e+00
      787250000   -5.425381660e-01   -9.422033429e-01   -2.480763942e-05    2.123042941e-05    0.000000000e+00    0.000000000e+00    0.000000000e+00    0.000000000e+00
      794500000   -6.412526965e-01   -8.804305792e-01   -3.500003368e-05    2.921186388e-05    0.000000000e+00    0.000000000e+00    0.000000000e+00    0.000000000e+00
      801750000   -7.331793308e-01   -8.076176047e-01   -1.373700798e-05   -1.771375537e-05    0.000000000e+00    0.000000000e+00    0.000000000e+00    0.000000000e+00
      809000000   -8.136949539e-01   -7.233291864e-01   -4.424061626e-05   -4.268344492e-05    0.000000000e+00    0.000000000e+00    0.000000000e+00    0.000000000e+00
      816250000   -8.832936883e-01   -6.305535436e-01    4.810281098e-06   -1.434888691e-05    0.000000000e+00    0.000000000e+00    0.000000000e+00    0.000000000e+00
      823500000   -9.393326640e-01   -5.313298702e-01   -1.318007708e-05   -2.448819578e-05    0.000000000e+00    0.000000000e+00    0.000000000e+00    0.000000000e+00
      830750000   -9.837238789e-01   -4.263713360e-01    3.547780216e-05    1.669302583e-05    0.000000000e+00    0.000000000e+00    0.000000000e+00    0.000000000e+00
      838000000   -1.013738990e+00   -3.174562454e-01    3.660749644e-05    2.843141556e-05    0.000000000e+00    0.000000000e+00    0.000000000e+00    0.000000000e+00
      845250000   -1.030966282e+00   -2.075701356e-01    3.031175584e-05    2.547260374e-05    0.000000000e+00    0.000000000e+00    0.000000000e+00    0.000000000e+00
      852500000   -1.034345984e+00   -9.789646417e-02    2.981536090e-05    7.632188499e-06    0.000000000e+00    0.000000000e+00    0.000000000e+00    0.000000000e+00
      859750000   -1.024945617e+00    8.848070167e-03    4.949979484e-06    1.151487231e-05    0.000000000e+00    0.000000000e+00    0.000000000e+00    0.000000000e+00
      867000000   -1.003624558e+00    1.145616099e-01   -2.470053732e-05   -1.420266926e-06    0.000000000e+00    0.000000000e+00    0.000000000e+00    0.000000000e+00
      874250000   -9.713418484e-01    2.125460953e-01    1.269672066e-05    2.857856452e-05    0.000000000e+00    0.000000000e+00    0.000000000e+00    0.000000000e+00
      881500000   -9.299674630e-01    3.064479828e-01    2.576969564e-06   -1.703016460e-05    0.000000000e+00    0.000000000e+00    0.000000000e+00    0.000000000e+00
      888750000   -8.788111210e-01    3.912817538e-01   -3.548339009e-05   -2.885237336e-06    0.000000000e+00    0.000000000e+00    0.000000000e+00    0.000000000e+00
      896000000   -8.205828071e-01    4.702047408e-01    1.338310540e-06   -2.502463758e-05    0.000000000e+00    0.000000000e+00    0.000000000e+00    0.000000000e+00
      903250000   -7.554411292e-01    5.403430462e-01   -2.042762935e-05   -3.566965461e-07    0.000000000e+00    0.000000000e+00    0.000000000e+00    0.000000000e+00
      910500000   -6.835062504e-01    6.048838496e-01   -6.432645023e-06    1.393165439e-05    0.000000000e+00    0.000000000e+00    0.000000000e+00    0.000000000e+00
      917750000   -6.091371179e-01    6.579102278e-01   -1.996755600e-05    4.919525236e-05    0.000000000e+00    0.000000000e+00    0.000000000e+00    0.000000000e+00
      925000000   -5.307402611e-01    7.040419579e-01    6.414949894e-06    4.225037992e-05    0.000000000e+00    0.000000000e+00    0.000000000e+00    0.000000000e+00
      932250000   -4.502775669e-01    7.423824668e-01    8.281320333e-06    1.500174403e-05    0.000000000e+00    0.000000000e+00    0.000000000e+00    0.000000000e+00
      939500000   -3.674219549e-01    7.715951204e-01    2.661626786e-05   -6.360933185e-06    0.000000000e+00    0.000000000e+00    0.000000000e+00    0.000000000e+00
      946750000   -2.851502895e-01    7.930704355e-01   -3.470107913e-06    1.072883606e-05    0.000000000e+00    0.000000000e+00    0.000000000e+00    0.000000000e+00
      954000000   -1.987882107e-01    8.073189855e-01    2.779252827e-05    4.420801997e-05    0.000000000e+00    0.000000000e+00    0.000000000e+00    0.000000000e+00
      961250000   -1.165649071e-01    8.126585484e-01   -5.473382771e-06    1.144595444e-06    0.000000000e+00    0.000000000e+00    0.000000000e+00    0.000000000e+00
      968500000   -3.061016090e-02    8.123362064e-01    2.420507371e-06   -1.317169517e-05    0.000000000e+00    0.000000000e+00    0.000000000e+00    0.000000000e+00
      975750000    5.061803013e-02    8.043969274e-01   -1.331791282e-06    1.385156065e-05    0.000000000e+00    0.000000000e+00    0.000000000e+00    0.000000000e+00
      983000000    1.322509646e-01    7.896766067e-01   -3.743916750e-06    1.272745430e-05    0.000000000e+00    0.000000000e+00    0.000000000e+00    0.000000000e+00
      990250000    2.104878426e-01    7.684250474e-01    8.895061910e-06   -1.882575452e-05    0.000000000e+00    0.000000000e+00    0.000000000e+00    0.000000000e+00
      997500000    2.874141634e-01    7.401286960e-01   -5.328841507e-05    3.185775131e-05    0.000000000e+00    0.000000000e+00    0.000000000e+00    0.000000000e+00
     1004750000    3.617330194e-01    7.062005401e-01    1.513492316e-05   -2.915784717e-05    0.000000000e+00    0.000000000e+00    0.000000000e+00    0.000000000e+00
     1012000000    4.343800247e-01    6.647223830e-01   -2.786517143e-06    3.208406270e-05    0.000000000e+00    0.000000000e+00    0.000000000e+00    0.000000000e+00
     1019250000    5.018409491e-01    6.176066995e-01    2.586282790e-06   -2.976600081e-05    0.000000000e+00    0.000000000e+00    0.000000000e+00    0.000000000e+00
     1026500000    5.666670799e-01    5.649341345e-01   -6.885267794e-06   -2.047698945e-05    0.000000000e+00    0.000000000e+00    0.000000000e+00    0.000000000e+00
     1033750000    6.272453666e-01    5.043374300e-01    9.240582585e-06   -1.840572804e-05    0.000000000e+00    0.000000000e+00    0.000000000e+00    0.000000000e+00
     1041000000    6.807460785e-01    4.414711297e-01   -4.438683391e-06   -2.267211676e-05    0.000000000e+00    0.000000000e+00    0.000000000e+00    0.000000000e+00
