! NanoVNA-App by OneOfEleven et al v1.1.209 (+OD15) 
! Date: 2024-07-30 15:11:44
! Start: 200MHz Stop: 6GHz Points: 801
! S-Parameter data: F S11 S21 S12 S22
# Hz S RI R 50
!     Frequency           S11_Real           S11_Imag           S21_Real           S21_Imag           S12_Real           S12_Imag           S22_Real           S22_Imag
      200000000    8.878545761e-01    2.076350898e-01    9.865500033e-06   -1.493189484e-05    0.000000000e+00    0.000000000e+00    0.000000000e+00    0.000000000e+00
      207250000    9.042667747e-01    1.000978425e-01   -6.729736924e-06    2.475641668e-05    0.000000000e+00    0.000000000e+00    0.000000000e+00    0.000000000e+00
      214500000    9.079771638e-01   -7.212432101e-03   -1.580175012e-05    7.307156920e-06    0.000000000e+00    0.000000000e+00    0.000000000e+00    0.000000000e+00
      221750000    8.983387351e-01   -1.136975139e-01    2.008955926e-05   -7.272697985e-06    0.000000000e+00    0.000000000e+00    0.000000000e+00    0.000000000e+00
      229000000    8.784178495e-01   -2.167801261e-01   -1.514982432e-05    1.851096749e-05    0.000000000e+00    0.000000000e+00    0.000000000e+00    0.000000000e+00
      236250000    8.457362056e-01   -3.160288632e-01    7.057562470e-06   -1.643411815e-05    0.000000000e+00    0.000000000e+00    0.000000000e+00    0.000000000e+00
      243500000    8.050803542e-01   -4.094478786e-01    1.944042742e-05   -9.277835488e-06    0.000000000e+00    0.000000000e+00    0.000000000e+00    0.000000000e+00
      250750000    7.547453642e-01   -4.967474937e-01    5.749985576e-06    1.219194382e-05    0.000000000e+00    0.000000000e+00    0.000000000e+00    0.000000000e+00
      258000000    6.965237856e-01   -5.772976875e-01    1.398008317e-05   -1.531466842e-05    0.000000000e+00    0.000000000e+00    0.000000000e+00    0.000000000e+00
      265250000    6.317854524e-01   -6.501401663e-01    2.927146852e-06    1.462176442e-07    0.000000000e+00    0.000000000e+00    0.000000000e+00    0.000000000e+00
      272500000    5.604959726e-01   -7.158443332e-01    1.993961632e-06   -6.475485861e-06    0.000000000e+00    0.000000000e+00    0.000000000e+00    0.000000000e+00
      279750000    4.837816954e-01   -7.725242972e-01    1.065339893e-05   -1.226738095e-05    0.000000000e+00    0.000000000e+00    0.000000000e+00    0.000000000e+00
      287000000    4.034213722e-01   -8.220135570e-01   -2.887099981e-08   -2.346187830e-05    0.000000000e+00    0.000000000e+00    0.000000000e+00    0.000000000e+00
      294250000    3.192608058e-01   -8.629016876e-01   -1.524016261e-05   -1.429859549e-05    0.000000000e+00    0.000000000e+00    0.000000000e+00    0.000000000e+00
      301500000    2.320246398e-01   -8.951489925e-01   -4.461035132e-06   -2.268794924e-05    0.000000000e+00    0.000000000e+00    0.000000000e+00    0.000000000e+00
      308750000    1.440222710e-01   -9.195470214e-01   -7.646158338e-07    1.897849143e-05    0.000000000e+00    0.000000000e+00    0.000000000e+00    0.000000000e+00
      316000000    5.353725329e-02   -9.354262948e-01   -6.918795407e-06    3.102887422e-05    0.000000000e+00    0.000000000e+00    0.000000000e+00    0.000000000e+00
      323250000   -3.745267540e-02   -9.420828223e-01   -3.591179848e-06    1.633632928e-05    0.000000000e+00    0.000000000e+00    0.000000000e+00    0.000000000e+00
      330500000   -1.284933239e-01   -9.413713813e-01    8.533708751e-06    2.244487405e-06    0.000000000e+00    0.000000000e+00    0.000000000e+00    0.000000000e+00
      337750000   -2.181325853e-01   -9.320234656e-01   -5.587935448e-08   -1.410208642e-05    0.000000000e+00    0.000000000e+00    0.000000000e+00    0.000000000e+00
      345000000   -3.084846735e-01   -9.137116075e-01   -1.347903162e-05    9.995885193e-06    0.000000000e+00    0.000000000e+00    0.000000000e+00    0.000000000e+00
      352250000   -3.954634368e-01   -8.876625299e-01    4.472211003e-06    1.531746238e-05    0.000000000e+00    0.000000000e+00    0.000000000e+00    0.000000000e+00
      359500000   -4.808643758e-01   -8.532178998e-01    7.282011211e-06   -1.320149750e-05    0.000000000e+00    0.000000000e+00    0.000000000e+00    0.000000000e+00
      366750000   -5.627678633e-01   -8.100890517e-01   -3.663264215e-05   -8.335337043e-06    0.000000000e+00    0.000000000e+00    0.000000000e+00    0.000000000e+00
      374000000   -6.408612132e-01   -7.604416609e-01    1.066923141e-05    2.224929631e-05    0.000000000e+00    0.000000000e+00    0.000000000e+00    0.000000000e+00
      381250000   -7.150388360e-01   -7.017943263e-01    1.242011786e-05    6.200745702e-06    0.000000000e+00    0.000000000e+00    0.000000000e+00    0.000000000e+00
      388500000   -7.829213142e-01   -6.360362172e-01   -1.778826118e-07   -1.591350883e-05    0.000000000e+00    0.000000000e+00    0.000000000e+00    0.000000000e+00
      395750000   -8.453709483e-01   -5.626991987e-01    2.170633525e-05    1.895241439e-06    0.000000000e+00    0.000000000e+00    0.000000000e+00    0.000000000e+00
      403000000   -8.995837569e-01   -4.819427729e-01    1.487322152e-06   -1.154001802e-05    0.000000000e+00    0.000000000e+00    0.000000000e+00    0.000000000e+00
      410250000   -9.462715387e-01   -3.951751590e-01   -3.076065332e-05   -9.819865227e-06    0.000000000e+00    0.000000000e+00    0.000000000e+00    0.000000000e+00
      417500000   -9.845311046e-01   -3.049177527e-01    1.404061913e-05    2.768542618e-05    0.000000000e+00    0.000000000e+00    0.000000000e+00    0.000000000e+00
      424750000   -1.012517214e+00   -2.068094909e-01    4.358589649e-06   -7.310882211e-06    0.000000000e+00    0.000000000e+00    0.000000000e+00    0.000000000e+00
      432000000   -1.030412316e+00   -1.081564724e-01   -1.364294440e-05    4.685483873e-06    0.000000000e+00    0.000000000e+00    0.000000000e+00    0.000000000e+00
      439250000   -1.037522316e+00   -5.837343633e-03    6.005167961e-06   -1.287180930e-05    0.000000000e+00    0.000000000e+00    0.000000000e+00    0.000000000e+00
      446500000   -1.032403946e+00    9.730024636e-02   -2.629123628e-05   -1.500360668e-05    0.000000000e+00    0.000000000e+00    0.000000000e+00    0.000000000e+00
      453750000   -1.017506957e+00    2.010173500e-01   -1.229811460e-05    1.560989767e-05    0.000000000e+00    0.000000000e+00    0.000000000e+00    0.000000000e+00
      461000000   -9.882295728e-01    3.031909168e-01   -6.345100701e-06   -1.916289330e-05    0.000000000e+00    0.000000000e+00    0.000000000e+00    0.000000000e+00
      468250000   -9.493557811e-01    4.014788568e-01    2.737715840e-05   -6.539747119e-06    0.000000000e+00    0.000000000e+00    0.000000000e+00    0.000000000e+00
      475500000   -8.982290626e-01    4.966790974e-01    2.135988325e-05    1.497566700e-05    0.000000000e+00    0.000000000e+00    0.000000000e+00    0.000000000e+00
      482750000   -8.366647959e-01    5.842169523e-01    1.431629062e-05   -2.638436854e-05    0.000000000e+00    0.000000000e+00    0.000000000e+00    0.000000000e+00
      490000000   -7.655454278e-01    6.649181843e-01   -7.012858987e-06    6.766989827e-06    0.000000000e+00    0.000000000e+00    0.000000000e+00    0.000000000e+00
      497250000   -6.853486300e-01    7.370911241e-01   -1.952983439e-06    1.573842019e-05    0.000000000e+00    0.000000000e+00    0.000000000e+00    0.000000000e+00
      504500000   -5.972048044e-01    7.992699146e-01   -5.471520126e-06    1.595821232e-05    0.000000000e+00    0.000000000e+00    0.000000000e+00    0.000000000e+00
      511750000   -5.017681122e-01    8.511056900e-01    2.619344741e-05   -2.990663052e-05    0.000000000e+00    0.000000000e+00    0.000000000e+00    0.000000000e+00
      519000000   -4.025447965e-01    8.916211724e-01   -2.153590322e-05   -1.659244299e-05    0.000000000e+00    0.000000000e+00    0.000000000e+00    0.000000000e+00
      526250000   -2.990821600e-01    9.198706746e-01   -2.882536501e-05   -1.930817962e-05    0.000000000e+00    0.000000000e+00    0.000000000e+00    0.000000000e+00
      533500000   -1.930593252e-01    9.369648695e-01    9.403564036e-06    1.389812678e-05    0.000000000e+00    0.000000000e+00    0.000000000e+00    0.000000000e+00
      540750000   -8.674138784e-02    9.412371516e-01   -3.867596388e-05   -2.476386726e-06    0.000000000e+00    0.000000000e+00    0.000000000e+00    0.000000000e+00
      548000000    1.902804896e-02    9.346961379e-01   -3.946386278e-05    1.807510853e-05    0.000000000e+00    0.000000000e+00    0.000000000e+00    0.000000000e+00
      555250000    1.221556664e-01    9.160614014e-01   -7.147900760e-06    6.240792572e-06    0.000000000e+00    0.000000000e+00    0.000000000e+00    0.000000000e+00
      562500000    2.228772193e-01    8.862890005e-01   -2.044253051e-06   -2.018734813e-05    0.000000000e+00    0.000000000e+00    0.000000000e+00    0.000000000e+00
      569750000    3.178786635e-01    8.476698995e-01    6.890855730e-06   -2.511776984e-06    0.000000000e+00    0.000000000e+00    0.000000000e+00    0.000000000e+00
      577000000    4.084067643e-01    7.982209325e-01   -1.795403659e-05   -4.007481039e-05    0.000000000e+00    0.000000000e+00    0.000000000e+00    0.000000000e+00
      584250000    4.931371212e-01    7.411996722e-01   -1.009926200e-05   -9.040348232e-06    0.000000000e+00    0.000000000e+00    0.000000000e+00    0.000000000e+00
      591500000    5.705502629e-01    6.745966077e-01    5.090236664e-05    3.914348781e-06    0.000000000e+00    0.000000000e+00    0.000000000e+00    0.000000000e+00
      598750000    6.405709982e-01    6.012672782e-01    2.420041710e-05    1.058820635e-05    0.000000000e+00    0.000000000e+00    0.000000000e+00    0.000000000e+00
      606000000    7.022156715e-01    5.232617259e-01    2.170354128e-05   -2.514198422e-05    0.000000000e+00    0.000000000e+00    0.000000000e+00    0.000000000e+00
      613250000    7.551615834e-01    4.395027161e-01   -2.048350871e-05   -3.537163138e-06    0.000000000e+00    0.000000000e+00    0.000000000e+00    0.000000000e+00
      620500000    8.003985882e-01    3.500930071e-01   -2.012494951e-05   -1.712422818e-05    0.000000000e+00    0.000000000e+00    0.000000000e+00    0.000000000e+00
      627750000    8.357698917e-01    2.571551502e-01    8.248724043e-06   -9.899958968e-06    0.000000000e+00    0.000000000e+00    0.000000000e+00    0.000000000e+00
      635000000    8.616536856e-01    1.623456031e-01   -1.412723213e-05    1.577101648e-05    0.000000000e+00    0.000000000e+00    0.000000000e+00    0.000000000e+00
      642250000    8.783179522e-01    6.432867050e-02    1.923274249e-05   -9.548850358e-06    0.000000000e+00    0.000000000e+00    0.000000000e+00    0.000000000e+00
      649500000    8.852608204e-01   -3.499822319e-02   -1.842156053e-05   -4.334375262e-06    0.000000000e+00    0.000000000e+00    0.000000000e+00    0.000000000e+00
      656750000    8.824537396e-01   -1.338721216e-01   -2.872571349e-05   -1.750886440e-06    0.000000000e+00    0.000000000e+00    0.000000000e+00    0.000000000e+00
      664000000    8.702289462e-01   -2.325778753e-01   -1.456588507e-05   -1.039914787e-05    0.000000000e+00    0.000000000e+00    0.000000000e+00    0.000000000e+00
      671250000    8.480050564e-01   -3.301302195e-01   -1.893192530e-05   -1.597963274e-05    0.000000000e+00    0.000000000e+00    0.000000000e+00    0.000000000e+00
      678500000    8.153274655e-01   -4.255353808e-01   -1.311488450e-05    5.031935871e-06    0.000000000e+00    0.000000000e+00    0.000000000e+00    0.000000000e+00
      685750000    7.734587789e-01   -5.182721615e-01   -7.512047887e-06    3.307126462e-05    0.000000000e+00    0.000000000e+00    0.000000000e+00    0.000000000e+00
      693000000    7.222329378e-01   -6.065865755e-01   -8.840113878e-06    1.216959208e-05    0.000000000e+00    0.000000000e+00    0.000000000e+00    0.000000000e+00
      700250000    6.611878276e-01   -6.902995110e-01   -8.793547750e-06    1.479964703e-05    0.000000000e+00    0.000000000e+00    0.000000000e+00    0.000000000e+00
      707500000    5.908034444e-01   -7.679719329e-01    7.803551853e-06   -2.399552613e-05    0.000000000e+00    0.000000000e+00    0.000000000e+00    0.000000000e+00
      714750000    5.123322606e-01   -8.387380242e-01   -3.280676901e-05    8.994713426e-06    0.000000000e+00    0.000000000e+00    0.000000000e+00    0.000000000e+00
      722000000    4.240776002e-01   -9.022222757e-01   -3.765709698e-05   -1.187808812e-05    0.000000000e+00    0.000000000e+00    0.000000000e+00    0.000000000e+00
      729250000    3.311225176e-01   -9.541603327e-01   -4.123803228e-05    2.887565643e-05    0.000000000e+00    0.000000000e+00    0.000000000e+00    0.000000000e+00
      736500000    2.311660349e-01   -9.970759749e-01   -2.514943480e-05   -4.889070988e-05    0.000000000e+00    0.000000000e+00    0.000000000e+00    0.000000000e+00
      743750000    1.249640062e-01   -1.028866410e+00    1.519080251e-05    8.892267942e-06    0.000000000e+00    0.000000000e+00    0.000000000e+00    0.000000000e+00
      751000000    1.442668401e-02   -1.048937917e+00   -8.703209460e-06   -4.743225873e-06    0.000000000e+00    0.000000000e+00    0.000000000e+00    0.000000000e+00
      758250000   -9.855031222e-02   -1.054224372e+00    1.504644752e-05    1.234281808e-05    0.000000000e+00    0.000000000e+00    0.000000000e+00    0.000000000e+00
      765500000   -2.126438916e-01   -1.047152996e+00   -1.697894186e-05   -1.012347639e-06    0.000000000e+00    0.000000000e+00    0.000000000e+00    0.000000000e+00
      772750000   -3.254511654e-01   -1.026194453e+00   -4.686694592e-05    3.449898213e-05    0.000000000e+00    0.000000000e+00    0.000000000e+00    0.000000000e+00
      780000000   -4.350096285e-01   -9.914656281e-01    1.860689372e-05    3.299489617e-05    0.000000000e+00    0.000000000e+00    0.000000000e+00    0.000000000e+00
      787250000   -5.430942774e-01   -9.429242015e-01    8.067116141e-06    5.525536835e-06    0.000000000e+00    0.000000000e+00    0.000000000e+00    0.000000000e+00
      794500000   -6.413708329e-01   -8.805404305e-01    1.087132841e-05    1.073908061e-05    0.000000000e+00    0.000000000e+00    0.000000000e+00    0.000000000e+00
      801750000   -7.327550650e-01   -8.073125482e-01   -9.004026651e-06   -1.636240631e-05    0.000000000e+00    0.000000000e+00    0.000000000e+00    0.000000000e+00
      809000000   -8.136070967e-01   -7.235764861e-01   -5.543231964e-06   -6.172806025e-06    0.000000000e+00    0.000000000e+00    0.000000000e+00    0.000000000e+00
      816250000   -8.828132153e-01   -6.305841208e-01    2.163089812e-05    1.991167665e-05    0.000000000e+00    0.000000000e+00    0.000000000e+00    0.000000000e+00
      823500000   -9.402037859e-01   -5.305185914e-01   -1.172814518e-05    1.463480294e-05    0.000000000e+00    0.000000000e+00    0.000000000e+00    0.000000000e+00
      830750000   -9.837574959e-01   -4.263192117e-01   -1.774821430e-05   -3.854278475e-05    0.000000000e+00    0.000000000e+00    0.000000000e+00    0.000000000e+00
      838000000   -1.013970375e+00   -3.179140985e-01    3.111548722e-05    3.470201045e-05    0.000000000e+00    0.000000000e+00    0.000000000e+00    0.000000000e+00
      845250000   -1.030177116e+00   -2.071258426e-01    2.853758633e-05    2.157222480e-05    0.000000000e+00    0.000000000e+00    0.000000000e+00    0.000000000e+00
      852500000   -1.034236908e+00   -9.764775634e-02   -3.918446600e-05    6.013549864e-06    0.000000000e+00    0.000000000e+00    0.000000000e+00    0.000000000e+00
      859750000   -1.024946570e+00    8.150313050e-03    6.841495633e-06    1.377798617e-05    0.000000000e+00    0.000000000e+00    0.000000000e+00    0.000000000e+00
      867000000   -1.004256606e+00    1.144023538e-01    2.185348421e-05   -3.039836884e-06    0.000000000e+00    0.000000000e+00    0.000000000e+00    0.000000000e+00
      874250000   -9.717884064e-01    2.123733163e-01   -1.970678568e-06    3.246217966e-05    0.000000000e+00    0.000000000e+00    0.000000000e+00    0.000000000e+00
      881500000   -9.291322231e-01    3.060401082e-01   -3.288406879e-05    2.630706877e-05    0.000000000e+00    0.000000000e+00    0.000000000e+00    0.000000000e+00
      888750000   -8.789637089e-01    3.917295635e-01   -1.296401024e-06   -1.670978963e-05    0.000000000e+00    0.000000000e+00    0.000000000e+00    0.000000000e+00
      896000000   -8.199911714e-01    4.704406559e-01   -1.853331923e-05   -3.582797945e-06    0.000000000e+00    0.000000000e+00    0.000000000e+00    0.000000000e+00
      903250000   -7.555930614e-01    5.407215953e-01    2.243835479e-05    2.602767199e-05    0.000000000e+00    0.000000000e+00    0.000000000e+00    0.000000000e+00
      910500000   -6.839129925e-01    6.046162844e-01    2.306047827e-05   -6.317161024e-06    0.000000000e+00    0.000000000e+00    0.000000000e+00    0.000000000e+00
      917750000   -6.095269322e-01    6.585414410e-01    2.097524703e-05    2.051703632e-05    0.000000000e+00    0.000000000e+00    0.000000000e+00    0.000000000e+00
      925000000   -5.324376225e-01    7.034727335e-01    2.121552825e-05    1.639593393e-05    0.000000000e+00    0.000000000e+00    0.000000000e+00    0.000000000e+00
      932250000   -4.500914216e-01    7.419670820e-01   -2.570450306e-07    7.768161595e-06    0.000000000e+00    0.000000000e+00    0.000000000e+00    0.000000000e+00
      939500000   -3.677622974e-01    7.716352344e-01   -1.626089215e-06    4.221685231e-06    0.000000000e+00    0.000000000e+00    0.000000000e+00    0.000000000e+00
      946750000   -2.854985297e-01    7.926105857e-01    2.205651253e-05   -7.783062756e-06    0.000000000e+00    0.000000000e+00    0.000000000e+00    0.000000000e+00
      954000000   -1.982834339e-01    8.067207336e-01   -1.091510057e-05    1.633539796e-06    0.000000000e+00    0.000000000e+00    0.000000000e+00    0.000000000e+00
      961250000   -1.163550317e-01    8.139584661e-01   -6.235204637e-06    1.615099609e-05    0.000000000e+00    0.000000000e+00    0.000000000e+00    0.000000000e+00
      968500000   -3.116000257e-02    8.121324778e-01    8.602626622e-06    4.964880645e-06    0.000000000e+00    0.000000000e+00    0.000000000e+00    0.000000000e+00
      975750000    5.056240410e-02    8.043158650e-01    2.708472311e-05    1.903902739e-05    0.000000000e+00    0.000000000e+00    0.000000000e+00    0.000000000e+00
      983000000    1.322418898e-01    7.895782590e-01    1.558847725e-05   -2.870149910e-05    0.000000000e+00    0.000000000e+00    0.000000000e+00    0.000000000e+00
      990250000    2.107388228e-01    7.681794167e-01    1.336447895e-06   -8.473172784e-06    0.000000000e+00    0.000000000e+00    0.000000000e+00    0.000000000e+00
      997500000    2.882295251e-01    7.399968505e-01    2.130120993e-05    1.141242683e-05    0.000000000e+00    0.000000000e+00    0.000000000e+00    0.000000000e+00
     1004750000    3.622187376e-01    7.053550482e-01   -2.851430327e-05    2.406258136e-05    0.000000000e+00    0.000000000e+00    0.000000000e+00    0.000000000e+00
     1012000000    4.344875515e-01    6.644005179e-01   -4.221498966e-05    4.476867616e-06    0.000000000e+00    0.000000000e+00    0.000000000e+00    0.000000000e+00
     1019250000    5.022944808e-01    6.170604229e-01   -5.383044481e-07   -4.044454545e-05    0.000000000e+00    0.000000000e+00    0.000000000e+00    0.000000000e+00
     1026500000    5.666592121e-01    5.638894439e-01   -1.663435251e-05    2.172961831e-05    0.000000000e+00    0.000000000e+00    0.000000000e+00    0.000000000e+00
     1033750000    6.271330118e-01    5.042334795e-01   -1.498870552e-05    8.976086974e-06    0.000000000e+00    0.000000000e+00    0.000000000e+00    0.000000000e+00
     1041000000    6.818326116e-01    4.399957955e-01   -5.724467337e-05   -4.201568663e-05    0.000000000e+00    0.000000000e+00    0.000000000e+00    0.000000000e+00
