! NanoVNA-App
! Date: 2024-06-25 16:25:12
! Start: 200.00MHz  Stop: 6.00GHz  Points: 801
! S-Parameter data: F S11
# Hz S RI R 50
Frequency           S1_Real           S1_Imag           S11_Real           S11_Imag           S21_Real           S21_Imag
2.00000000E+8      1.07374182E+9      0.00000000E+0      5.28973135E-1      1.19213650E-1      -8.23475420E-6      2.05794349E-5
2.07250000E+8      1.07374182E+9      0.00000000E+0      5.29986905E-1      2.16624969E-2      2.18991190E-5      -1.38664618E-5
2.14500000E+8      1.07374182E+9      0.00000000E+0      5.29614721E-1      -7.48547266E-2      1.17812306E-5      -4.60073352E-6
2.21750000E+8      1.07374182E+9      0.00000000E+0      5.27277474E-1      -1.80138857E-1      -1.06804073E-5      -1.04336068E-5
2.29000000E+8      1.07374182E+9      0.00000000E+0      5.22830251E-1      -3.06222848E-1      -1.47670507E-5      -1.66269019E-5
2.36250000E+8      1.07374182E+9      0.00000000E+0      5.13258707E-1      -4.76870741E-1      -6.59935176E-6      2.19903886E-5
2.43500000E+8      1.07374182E+9      0.00000000E+0      4.90249809E-1      -7.48441429E-1      2.22865492E-5      3.28514725E-5
2.50750000E+8      1.07374182E+9      0.00000000E+0      4.06767704E-1      -1.33177455E+0      -2.80477107E-5      -3.65450978E-6
2.58000000E+8      1.07374182E+9      0.00000000E+0      -6.11845387E-1      -3.92054624E+0      2.81650573E-5      1.83135271E-5
2.65250000E+8      1.07374182E+9      0.00000000E+0      -4.87242473E-1      3.67024151E+0      -2.59736553E-5      2.39638612E-5
2.72500000E+8      1.07374182E+9      0.00000000E+0      4.06248968E-1      1.28072335E+0      4.69479710E-6      1.17346644E-7
2.79750000E+8      1.07374182E+9      0.00000000E+0      4.87830915E-1      7.12402689E-1      1.65812671E-5      -3.53902578E-6
2.87000000E+8      1.07374182E+9      0.00000000E+0      5.09498331E-1      4.41186912E-1      2.73250043E-5      9.43336636E-6
2.94250000E+8      1.07374182E+9      0.00000000E+0      5.18601927E-1      2.68638460E-1      1.29844993E-5      -5.60441986E-5
3.01500000E+8      1.07374182E+9      0.00000000E+0      5.23075205E-1      1.36523014E-1      -8.83452594E-6      1.19758770E-5
3.08750000E+8      1.07374182E+9      0.00000000E+0      5.25110212E-1      2.08835825E-2      -9.78074968E-6      -2.35205516E-5
3.16000000E+8      1.07374182E+9      0.00000000E+0      5.26034172E-1      -9.24857239E-2      -3.85567546E-6      -4.70504165E-6
3.23250000E+8      1.07374182E+9      0.00000000E+0      5.25469620E-1      -2.18120236E-1      9.77888703E-6      -2.68779695E-6
3.30500000E+8      1.07374182E+9      0.00000000E+0      5.21304221E-1      -3.77620087E-1      -3.37138772E-7      3.86778265E-5
3.37750000E+8      1.07374182E+9      0.00000000E+0      5.06049301E-1      -6.15805291E-1      -1.13174319E-5      -1.75219029E-5
3.45000000E+8      1.07374182E+9      0.00000000E+0      4.43309317E-1      -1.08174809E+0      -1.82567164E-5      -1.09104440E-5
3.52250000E+8      1.07374182E+9      0.00000000E+0      -2.33012679E-1      -2.65791775E+0      -2.45347619E-5      -2.03168020E-5
3.59500000E+8      1.07374182E+9      0.00000000E+0      -2.16396117E+0      3.44220847E+0      -2.79378146E-5      3.71225178E-6
3.66750000E+8      1.07374182E+9      0.00000000E+0      1.63055903E-1      1.25777400E+0      -1.57579780E-5      -1.14729628E-5
3.74000000E+8      1.07374182E+9      0.00000000E+0      3.56996064E-1      6.74616089E-1      1.55754387E-5      -4.47994098E-5
3.81250000E+8      1.07374182E+9      0.00000000E+0      4.11776125E-1      4.01415173E-1      2.54251063E-6      3.10856849E-5
3.88500000E+8      1.07374182E+9      0.00000000E+0      4.32490607E-1      2.28611946E-1      2.22772360E-5      -4.56999987E-6
3.95750000E+8      1.07374182E+9      0.00000000E+0      4.39281506E-1      9.48181088E-2      -3.01152468E-5      -2.93264166E-5
4.03000000E+8      1.07374182E+9      0.00000000E+0      4.37361450E-1      -2.32737358E-2      -3.00314277E-5      -4.20026481E-7
4.10250000E+8      1.07374182E+9      0.00000000E+0      4.26747149E-1      -1.42973671E-1      -7.44219869E-6      -1.47344545E-5
4.17500000E+8      1.07374182E+9      0.00000000E+0      4.03293838E-1      -2.76170155E-1      3.08156013E-5      1.43898651E-5
4.24750000E+8      1.07374182E+9      0.00000000E+0      3.53849152E-1      -4.47369965E-1      9.46875662E-6      -1.17057934E-5
4.32000000E+8      1.07374182E+9      0.00000000E+0      2.37849815E-1      -6.98095579E-1      -3.31802294E-5      -2.22194940E-5
4.39250000E+8      1.07374182E+9      0.00000000E+0      -1.20341543E-1      -1.12402403E+0      1.63493678E-5      -7.77095556E-6
4.46500000E+8      1.07374182E+9      0.00000000E+0      -1.77138120E+0      -1.37111188E+0      1.21872872E-5      -1.52066350E-5
4.53750000E+8      1.07374182E+9      0.00000000E+0      -1.33432206E+0      1.74278962E+0      2.23983079E-6      -2.29803845E-5
4.61000000E+8      1.07374182E+9      0.00000000E+0      9.00790675E-2      1.18968613E+0      -1.63912773E-6      3.83900478E-5
4.68250000E+8      1.07374182E+9      0.00000000E+0      3.67759862E-1      7.42634455E-1      1.27591193E-5      -3.63374129E-5
4.75500000E+8      1.07374182E+9      0.00000000E+0      4.53317566E-1      4.88087592E-1      -2.68965960E-6      -2.77403742E-5
4.82750000E+8      1.07374182E+9      0.00000000E+0      4.89967378E-1      3.22079407E-1      2.75103375E-5      3.68906185E-5
4.90000000E+8      1.07374182E+9      0.00000000E+0      5.08991360E-1      1.96394937E-1      -2.24597752E-5      2.70567834E-5
4.97250000E+8      1.07374182E+9      0.00000000E+0      5.21242915E-1      8.99536613E-2      3.16733494E-5      -6.61984086E-6
5.04500000E+8      1.07374182E+9      0.00000000E+0      5.30240199E-1      -8.56025466E-3      9.72766429E-6      1.74334273E-5
5.11750000E+8      1.07374182E+9      0.00000000E+0      5.39645809E-1      -1.08307956E-1      5.87208197E-5      5.29456884E-6
5.19000000E+8      1.07374182E+9      0.00000000E+0      5.51414654E-1      -2.19425567E-1      1.22990459E-5      1.43107027E-5
5.26250000E+8      1.07374182E+9      0.00000000E+0      5.69295763E-1      -3.55980076E-1      -9.64198261E-6      3.73190269E-5
5.33500000E+8      1.07374182E+9      0.00000000E+0      6.05984407E-1      -5.45374361E-1      5.19128516E-5      1.55530870E-7
5.40750000E+8      1.07374182E+9      0.00000000E+0      7.01345955E-1      -8.57909285E-1      -4.35858965E-6      -1.77919865E-5
5.48000000E+8      1.07374182E+9      0.00000000E+0      1.10512823E+0      -1.48800861E+0      1.20345503E-5      -4.66816127E-5
5.55250000E+8      1.07374182E+9      0.00000000E+0      4.01063786E+0      -1.58206329E+0      -2.26125121E-6      5.46500087E-6
5.62500000E+8      1.07374182E+9      0.00000000E+0      1.90772204E+0      1.77679476E+0      -1.29733235E-6      -4.63146716E-6
5.69750000E+8      1.07374182E+9      0.00000000E+0      9.46251967E-1      1.02415141E+0      2.36742198E-6      1.45090744E-5
5.77000000E+8      1.07374182E+9      0.00000000E+0      7.39217587E-1      6.42774518E-1      1.39474869E-5      -1.12280250E-5
5.84250000E+8      1.07374182E+9      0.00000000E+0      6.66719461E-1      4.25302565E-1      9.96422023E-6      -6.51925802E-9
5.91500000E+8      1.07374182E+9      0.00000000E+0      6.33428377E-1      2.76693497E-1      1.62795186E-6      -1.92811713E-5
5.98750000E+8      1.07374182E+9      0.00000000E+0      6.15413771E-1      1.60154173E-1      1.14804134E-5      2.95154750E-5
6.06000000E+8      1.07374182E+9      0.00000000E+0      6.05524216E-1      6.01459000E-2      -7.59027898E-6      1.44513324E-5
6.13250000E+8      1.07374182E+9      0.00000000E+0      6.00953739E-1      -3.53166031E-2      4.11318615E-5      9.64291394E-6
6.20500000E+8      1.07374182E+9      0.00000000E+0      5.99668752E-1      -1.35533293E-1      6.93835318E-7      4.15928662E-6
6.27750000E+8      1.07374182E+9      0.00000000E+0      6.02139641E-1      -2.49615819E-1      2.28369609E-5      4.20855358E-5
6.35000000E+8      1.07374182E+9      0.00000000E+0      6.07981320E-1      -3.95405974E-1      1.27218664E-5      -3.23988497E-5
6.42250000E+8      1.07374182E+9      0.00000000E+0      6.20727745E-1      -6.12012657E-1      -2.23051757E-6      -1.68867409E-5
6.49500000E+8      1.07374182E+9      0.00000000E+0      6.43865152E-1      -1.01944991E+0      3.42261046E-6      4.98164445E-6
6.56750000E+8      1.07374182E+9      0.00000000E+0      6.51008244E-1      -2.25407774E+0      -9.01427120E-6      7.93114305E-6
6.64000000E+8      1.07374182E+9      0.00000000E+0      -8.96653890E+0      1.13254677E+1      1.91191211E-5      -2.57464126E-5
6.71250000E+8      1.07374182E+9      0.00000000E+0      1.64878080E-1      1.72371646E+0      2.81911343E-5      -2.89455056E-6
6.78500000E+8      1.07374182E+9      0.00000000E+0      3.60111262E-1      8.48920580E-1      7.86129385E-6      -3.70666385E-7
6.85750000E+8      1.07374182E+9      0.00000000E+0      4.14493512E-1      5.11895977E-1      -1.74259767E-5      -8.38190317E-6
6.93000000E+8      1.07374182E+9      0.00000000E+0      4.36109096E-1      3.13652544E-1      2.73464248E-5      -5.71552664E-6
7.00250000E+8      1.07374182E+9      0.00000000E+0      4.43590789E-1      1.73003817E-1      -2.11782753E-6      -2.46362761E-5
7.07500000E+8      1.07374182E+9      0.00000000E+0      4.41946484E-1      5.72134344E-2      1.89654529E-5      -3.05380672E-6
7.14750000E+8      1.07374182E+9      0.00000000E+0      4.31701026E-1      -4.96259525E-2      -3.04942951E-5      -1.76522881E-5
7.22000000E+8      1.07374182E+9      0.00000000E+0      4.10187975E-1      -1.57782551E-1      -1.77780166E-5      -3.60459089E-5
7.29250000E+8      1.07374182E+9      0.00000000E+0      3.69146404E-1      -2.76017172E-1      -4.14159149E-6      3.01748514E-7
7.36500000E+8      1.07374182E+9      0.00000000E+0      2.89139545E-1      -4.14684116E-1      -2.02255324E-5      -1.38487667E-5
7.43750000E+8      1.07374182E+9      0.00000000E+0      1.21033357E-1      -5.74783839E-1      -2.77170911E-5      4.40608710E-6
7.51000000E+8      1.07374182E+9      0.00000000E+0      -2.45393443E-1      -6.77878686E-1      1.18901953E-5      7.61263072E-6
7.58250000E+8      1.07374182E+9      0.00000000E+0      -7.79598689E-1      -3.47651553E-1      -2.37487257E-5      -3.63215804E-8
7.65500000E+8      1.07374182E+9      0.00000000E+0      -6.69834278E-1      3.83242141E-1      -1.77416950E-5      -1.08545646E-5
7.72750000E+8      1.07374182E+9      0.00000000E+0      -1.81588820E-1      5.57556371E-1      -1.26203522E-5      -1.58743933E-5
7.80000000E+8      1.07374182E+9      0.00000000E+0      9.87531594E-2      4.57913525E-1      -2.34702602E-5      -1.74902380E-5
7.87250000E+8      1.07374182E+9      0.00000000E+0      2.43411381E-1      3.27752679E-1      -2.31554732E-5      -4.57186252E-6
7.94500000E+8      1.07374182E+9      0.00000000E+0      3.16606527E-1      2.12835704E-1      1.75023451E-5      2.03689560E-5
8.01750000E+8      1.07374182E+9      0.00000000E+0      3.58133499E-1      1.09750748E-1      3.29222530E-6      -3.29548493E-5
8.09000000E+8      1.07374182E+9      0.00000000E+0      3.80668246E-1      1.25964474E-2      -9.32067633E-6      2.40653753E-6
8.16250000E+8      1.07374182E+9      0.00000000E+0      3.92217180E-1      -8.49304332E-2      1.82902440E-5      -3.98578122E-5
8.23500000E+8      1.07374182E+9      0.00000000E+0      3.94242665E-1      -1.92426020E-1      -5.15123829E-5      3.04458663E-5
8.30750000E+8      1.07374182E+9      0.00000000E+0      3.86119222E-1      -3.18975067E-1      -1.78050250E-5      1.53956935E-5
8.38000000E+8      1.07374182E+9      0.00000000E+0      3.59275448E-1      -4.90994132E-1      -2.09324062E-5      4.30932269E-5
8.45250000E+8      1.07374182E+9      0.00000000E+0      2.90780320E-1      -7.65241328E-1      -2.02562660E-6      1.25914812E-6
8.52500000E+8      1.07374182E+9      0.00000000E+0      5.76614988E-2      -1.34454353E+0      -2.38530338E-5      2.84584239E-5
8.59750000E+8      1.07374182E+9      0.00000000E+0      -2.07962211E+0      -3.22322229E+0      -2.17212364E-5      9.24803317E-6
8.67000000E+8      1.07374182E+9      0.00000000E+0      -5.28963752E-1      3.07661458E+0      3.97795811E-5      1.72033906E-5
8.74250000E+8      1.07374182E+9      0.00000000E+0      4.41093749E-1      1.22695821E+0      -2.78614461E-5      1.83414668E-5
8.81500000E+8      1.07374182E+9      0.00000000E+0      5.21622773E-1      6.82440264E-1      -6.00796193E-6      2.06343830E-5
8.88750000E+8      1.07374182E+9      0.00000000E+0      5.36371286E-1      4.17242579E-1      4.24757600E-5      6.89346343E-5
8.96000000E+8      1.07374182E+9      0.00000000E+0      5.41323834E-1      2.43214813E-1      -7.37328082E-6      3.25301662E-5
9.03250000E+8      1.07374182E+9      0.00000000E+0      5.43915622E-1      1.08258492E-1      -6.54533505E-6      2.27354467E-5
9.10500000E+8      1.07374182E+9      0.00000000E+0      5.44816551E-1      -1.52022488E-2      -3.36654484E-5      -2.08811834E-5
9.17750000E+8      1.07374182E+9      0.00000000E+0      5.47778561E-1      -1.37798808E-1      -2.08336860E-5      4.62923199E-5
9.25000000E+8      1.07374182E+9      0.00000000E+0      5.51549790E-1      -2.78848647E-1      -6.97746873E-6      3.03052366E-5
9.32250000E+8      1.07374182E+9      0.00000000E+0      5.58911970E-1      -4.71325765E-1      -3.21492553E-6      4.99095768E-6
9.39500000E+8      1.07374182E+9      0.00000000E+0      5.74153191E-1      -7.84101996E-1      -3.95812094E-6      -1.77454203E-5
9.46750000E+8      1.07374182E+9      0.00000000E+0      6.18252224E-1      -1.51410297E+0      2.39713117E-5      -5.24902716E-5
9.54000000E+8      1.07374182E+9      0.00000000E+0      1.11709725E+0      -7.04097636E+0      -4.56767157E-5      -3.94396484E-5
9.61250000E+8      1.07374182E+9      0.00000000E+0      3.69031992E-1      2.92660116E+0      -1.63996592E-5      1.97784975E-5
9.68500000E+8      1.07374182E+9      0.00000000E+0      4.46864949E-1      1.15740291E+0      9.85339284E-7      1.01523474E-5
9.75750000E+8      1.07374182E+9      0.00000000E+0      4.66091232E-1      6.82767311E-1      3.39932740E-7      8.30739737E-6
9.83000000E+8      1.07374182E+9      0.00000000E+0      4.73613812E-1      4.41666968E-1      4.93507832E-6      2.01230869E-5
9.90250000E+8      1.07374182E+9      0.00000000E+0      4.74484879E-1      2.84283721E-1      -1.70720741E-5      -1.17560849E-5
9.97500000E+8      1.07374182E+9      0.00000000E+0      4.72061285E-1      1.65287238E-1      -2.03466043E-5      -1.89160928E-5
1.00475000E+9      1.07374182E+9      0.00000000E+0      4.65659076E-1      6.48445795E-2      9.43057239E-6      2.93301418E-5
1.01200000E+9      1.07374182E+9      0.00000000E+0      4.54721666E-1      -2.84021242E-2      2.38111243E-5      -3.88259068E-5
1.01925000E+9      1.07374182E+9      0.00000000E+0      4.37235526E-1      -1.21634874E-1      -1.19218603E-5      5.60320914E-5
1.02650000E+9      1.07374182E+9      0.00000000E+0      4.08672861E-1      -2.21330855E-1      -4.07574698E-5      -1.59014016E-5
1.03375000E+9      1.07374182E+9      0.00000000E+0      3.58977630E-1      -3.35776230E-1      -8.66223127E-6      -2.34125182E-5
1.04100000E+9      1.07374182E+9      0.00000000E+0      2.68746102E-1      -4.67803575E-1      -1.38115138E-6      3.89907509E-5
1.04825000E+9      1.07374182E+9      0.00000000E+0      8.96558364E-2      -6.16764030E-1      5.18746674E-6      -2.09454447E-5
1.05550000E+9      1.07374182E+9      0.00000000E+0      -2.70634691E-1      -6.95209946E-1      -6.01960346E-5      3.39001417E-6
1.06275000E+9      1.07374182E+9      0.00000000E+0      -7.46481892E-1      -3.89987592E-1      7.27735460E-6      7.75791705E-7
1.07000000E+9      1.07374182E+9      0.00000000E+0      -7.06479433E-1      2.57513073E-1      6.11972064E-6      1.05267391E-5
1.07725000E+9      1.07374182E+9      0.00000000E+0      -3.01264870E-1      4.84433994E-1      -4.53190878E-5      1.38469040E-5
1.08450000E+9      1.07374182E+9      0.00000000E+0      -1.55752568E-2      4.33060654E-1      1.65682286E-6      3.90689820E-6
1.09175000E+9      1.07374182E+9      0.00000000E+0      1.29446902E-1      3.30616070E-1      -2.74181366E-5      3.86666507E-5
1.09900000E+9      1.07374182E+9      0.00000000E+0      2.05202897E-1      2.27570710E-1      -4.02694568E-5      -2.14017928E-5
1.10625000E+9      1.07374182E+9      0.00000000E+0      2.41743103E-1      1.36198855E-1      -5.95767051E-6      -3.83332372E-6
1.11350000E+9      1.07374182E+9      0.00000000E+0      2.54132763E-1      5.23584926E-2      -3.29473987E-5      2.84006819E-5
1.12075000E+9      1.07374182E+9      0.00000000E+0      2.48011920E-1      -2.45458915E-2      -7.75791705E-6      -1.83098018E-6
1.12800000E+9      1.07374182E+9      0.00000000E+0      2.23258205E-1      -9.88322581E-2      2.51214951E-5      -7.82404095E-6
1.13525000E+9      1.07374182E+9      0.00000000E+0      1.77128705E-1      -1.67873843E-1      1.36438757E-5      -1.45006925E-6
1.14250000E+9      1.07374182E+9      0.00000000E+0      1.03897925E-1      -2.27645423E-1      3.96184623E-6      -1.06450170E-5
1.14975000E+9      1.07374182E+9      0.00000000E+0      -8.95566214E-3      -2.63597850E-1      2.95871869E-5      -2.30055302E-5
1.15700000E+9      1.07374182E+9      0.00000000E+0      -1.53273949E-1      -2.41914088E-1      4.82145697E-5      -4.13525850E-5
1.16425000E+9      1.07374182E+9      0.00000000E+0      -2.90403669E-1      -1.17754301E-1      -3.79728153E-5      2.37114727E-5
1.17150000E+9      1.07374182E+9      0.00000000E+0      -3.20401826E-1      9.01914804E-2      3.85856256E-5      -2.99988315E-5
1.17875000E+9      1.07374182E+9      0.00000000E+0      -2.07331338E-1      2.66758043E-1      1.45900995E-5      -3.53995711E-6
1.18600000E+9      1.07374182E+9      0.00000000E+0      -3.84623006E-2      3.28221396E-1      -2.30353326E-5      1.84690580E-5
1.19325000E+9      1.07374182E+9      0.00000000E+0      1.05109338E-1      3.02972839E-1      -1.33896247E-5      -8.22357833E-7
1.20050000E+9      1.07374182E+9      0.00000000E+0      2.06679284E-1      2.37837373E-1      -1.99601054E-5      -4.59142029E-6
1.20775000E+9      1.07374182E+9      0.00000000E+0      2.71089400E-1      1.61309936E-1      2.67615542E-5      2.17305496E-5
1.21500000E+9      1.07374182E+9      0.00000000E+0      3.13520808E-1      7.66218142E-2      1.15605071E-5      -1.32890418E-5
1.22225000E+9      1.07374182E+9      0.00000000E+0      3.37882039E-1      -9.49195523E-3      -4.53582034E-5      -1.88816339E-5
1.22950000E+9      1.07374182E+9      0.00000000E+0      3.49901179E-1      -1.03138082E-1      1.07120723E-5      -2.59838998E-6
1.23675000E+9      1.07374182E+9      0.00000000E+0      3.49152045E-1      -2.10142885E-1      1.67181715E-5      -2.86092982E-5
1.24400000E+9      1.07374182E+9      0.00000000E+0      3.33663113E-1      -3.40128210E-1      -5.95673919E-6      1.92532316E-5
1.25125000E+9      1.07374182E+9      0.00000000E+0      2.89718497E-1      -5.19609206E-1      8.17701221E-7      -2.55461782E-5
1.25850000E+9      1.07374182E+9      0.00000000E+0      1.70601573E-1      -8.02004062E-1      2.47834250E-5      -2.47750431E-5
1.26575000E+9      1.07374182E+9      0.00000000E+0      -2.36155761E-1      -1.31831278E+0      -2.48793513E-5      3.85884196E-5
1.27300000E+9      1.07374182E+9      0.00000000E+0      -2.44575821E+0      -1.46282480E+0      -1.28848478E-5      8.48369673E-5
1.28025000E+9      1.07374182E+9      0.00000000E+0      -1.10086719E+0      1.84748146E+0      1.08182430E-5      1.98464841E-5
1.28750000E+9      1.07374182E+9      0.00000000E+0      5.05646996E-2      1.11472650E+0      2.25920230E-5      -2.92947516E-5
1.29475000E+9      1.07374182E+9      0.00000000E+0      2.73272898E-1      6.83712663E-1      -2.96616927E-5      8.63056630E-6
