! NanoVNA-App
! Date: 2024-06-25 16:25:17
! Start: 200.00MHz  Stop: 6.00GHz  Points: 801
! S-Parameter data: F S11
# Hz S RI R 50
Frequency           S1_Real           S1_Imag           S11_Real           S11_Imag           S21_Real           S21_Imag
2.00000000E+8      1.07374182E+9      0.00000000E+0      5.29079460E-1      1.19124280E-1      8.56723636E-6      -3.02242115E-5
2.07250000E+8      1.07374182E+9      0.00000000E+0      5.30145963E-1      2.15075827E-2      -2.05924734E-5      -1.14403665E-5
2.14500000E+8      1.07374182E+9      0.00000000E+0      5.29736514E-1      -7.50424154E-2      5.34672290E-6      3.72249633E-6
2.21750000E+8      1.07374182E+9      0.00000000E+0      5.26955997E-1      -1.80260120E-1      1.03246421E-5      -1.02659687E-5
2.29000000E+8      1.07374182E+9      0.00000000E+0      5.22799390E-1      -3.05980631E-1      1.66036189E-5      -1.95549801E-5
2.36250000E+8      1.07374182E+9      0.00000000E+0      5.13564551E-1      -4.76873261E-1      1.28913671E-5      6.28083944E-6
2.43500000E+8      1.07374182E+9      0.00000000E+0      4.91173984E-1      -7.47907083E-1      -8.26735049E-6      1.58585608E-5
2.50750000E+8      1.07374182E+9      0.00000000E+0      4.05617971E-1      -1.33369386E+0      -8.51415098E-6      -2.24299729E-5
2.58000000E+8      1.07374182E+9      0.00000000E+0      -6.09739638E-1      -3.92768305E+0      7.72997737E-7      2.51224265E-5
2.65250000E+8      1.07374182E+9      0.00000000E+0      -5.03202378E-1      3.65765989E+0      1.60476193E-5      3.54554504E-6
2.72500000E+8      1.07374182E+9      0.00000000E+0      4.05694751E-1      1.27746987E+0      3.28104943E-6      3.75136733E-6
2.79750000E+8      1.07374182E+9      0.00000000E+0      4.87766856E-1      7.12601046E-1      -4.67896461E-6      -3.39467078E-6
2.87000000E+8      1.07374182E+9      0.00000000E+0      5.09229523E-1      4.40998664E-1      -8.56164843E-6      2.94791535E-5
2.94250000E+8      1.07374182E+9      0.00000000E+0      5.18586941E-1      2.68732215E-1      -2.03317031E-5      -1.28168613E-5
3.01500000E+8      1.07374182E+9      0.00000000E+0      5.23118537E-1      1.36499137E-1      -2.44313851E-5      -1.02818012E-6
3.08750000E+8      1.07374182E+9      0.00000000E+0      5.25247942E-1      2.10254501E-2      -1.88127160E-6      -3.59695405E-5
3.16000000E+8      1.07374182E+9      0.00000000E+0      5.26307515E-1      -9.24121067E-2      2.98023224E-6      8.88761133E-6
3.23250000E+8      1.07374182E+9      0.00000000E+0      5.25298921E-1      -2.18376548E-1      3.48426402E-5      -2.39443034E-6
3.30500000E+8      1.07374182E+9      0.00000000E+0      5.21418912E-1      -3.77657616E-1      -9.16142017E-6      1.04680657E-6
3.37750000E+8      1.07374182E+9      0.00000000E+0      5.07120049E-1      -6.15430329E-1      9.02451575E-7      3.07615846E-5
3.45000000E+8      1.07374182E+9      0.00000000E+0      4.42530715E-1      -1.08266020E+0      -2.02450901E-5      -2.44425610E-5
3.52250000E+8      1.07374182E+9      0.00000000E+0      -2.18980477E-1      -2.65624826E+0      2.04751268E-5      -6.63939863E-6
3.59500000E+8      1.07374182E+9      0.00000000E+0      -2.14964491E+0      3.43591227E+0      2.23955140E-5      -4.25614417E-6
3.66750000E+8      1.07374182E+9      0.00000000E+0      1.63109219E-1      1.25897655E+0      -3.42456624E-5      2.81138346E-5
3.74000000E+8      1.07374182E+9      0.00000000E+0      3.56636223E-1      6.74532074E-1      1.18603930E-5      -1.73170120E-5
3.81250000E+8      1.07374182E+9      0.00000000E+0      4.12332004E-1      4.01748615E-1      -1.60764903E-5      -5.21168113E-5
3.88500000E+8      1.07374182E+9      0.00000000E+0      4.31969324E-1      2.28298277E-1      9.64757055E-6      -7.58934766E-6
3.95750000E+8      1.07374182E+9      0.00000000E+0      4.39148769E-1      9.50232108E-2      -8.08667392E-6      1.58715993E-5
4.03000000E+8      1.07374182E+9      0.00000000E+0      4.37290975E-1      -2.35373246E-2      5.65126538E-6      -3.79048288E-7
4.10250000E+8      1.07374182E+9      0.00000000E+0      4.26593461E-1      -1.42336846E-1      -9.24430788E-6      1.42324716E-5
4.17500000E+8      1.07374182E+9      0.00000000E+0      4.02993410E-1      -2.76721618E-1      2.53440812E-5      -1.03218481E-5
4.24750000E+8      1.07374182E+9      0.00000000E+0      3.54148016E-1      -4.47528627E-1      -1.48080289E-7      3.19238752E-5
4.32000000E+8      1.07374182E+9      0.00000000E+0      2.39241630E-1      -6.98034774E-1      -1.92243606E-5      -1.68923289E-5
4.39250000E+8      1.07374182E+9      0.00000000E+0      -1.18163511E-1      -1.12322815E+0      -1.53565779E-5      -4.95743006E-6
4.46500000E+8      1.07374182E+9      0.00000000E+0      -1.78811194E+0      -1.36463875E+0      3.44496220E-6      -1.79503113E-5
4.53750000E+8      1.07374182E+9      0.00000000E+0      -1.35604507E+0      1.73852163E+0      -1.49179250E-5      8.99657607E-7
4.61000000E+8      1.07374182E+9      0.00000000E+0      8.86988560E-2      1.18687822E+0      -4.61544842E-5      2.64169648E-5
4.68250000E+8      1.07374182E+9      0.00000000E+0      3.67542331E-1      7.42789033E-1      -2.02190131E-5      8.57282430E-6
4.75500000E+8      1.07374182E+9      0.00000000E+0      4.53779809E-1      4.88342889E-1      -1.61053613E-5      3.36961821E-5
4.82750000E+8      1.07374182E+9      0.00000000E+0      4.89965858E-1      3.22069924E-1      1.26827508E-5      -1.78534538E-5
4.90000000E+8      1.07374182E+9      0.00000000E+0      5.09024862E-1      1.96461841E-1      1.83479860E-5      -3.05688009E-5
4.97250000E+8      1.07374182E+9      0.00000000E+0      5.21272331E-1      8.99574610E-2      -2.72877514E-6      1.13714486E-6
5.04500000E+8      1.07374182E+9      0.00000000E+0      5.30565835E-1      -8.57772029E-3      5.35789877E-6      -4.30364162E-6
5.11750000E+8      1.07374182E+9      0.00000000E+0      5.39876932E-1      -1.08357477E-1      -3.22703272E-6      -1.60746276E-6
5.19000000E+8      1.07374182E+9      0.00000000E+0      5.51024125E-1      -2.19638097E-1      -6.46524131E-6      -3.31364572E-6
5.26250000E+8      1.07374182E+9      0.00000000E+0      5.69027500E-1      -3.55865568E-1      -3.69548798E-5      -4.63016331E-5
5.33500000E+8      1.07374182E+9      0.00000000E+0      6.05368914E-1      -5.45650379E-1      -1.93156302E-5      -1.29006803E-5
5.40750000E+8      1.07374182E+9      0.00000000E+0      7.02416010E-1      -8.55865307E-1      -1.19209290E-5      3.09702009E-5
5.48000000E+8      1.07374182E+9      0.00000000E+0      1.10206866E+0      -1.49119449E+0      3.04169953E-6      -8.34930688E-6
5.55250000E+8      1.07374182E+9      0.00000000E+0      3.98431712E+0      -1.59654808E+0      2.78390944E-5      1.44690275E-5
5.62500000E+8      1.07374182E+9      0.00000000E+0      1.90777215E+0      1.76738265E+0      3.30619514E-6      2.57631764E-5
5.69750000E+8      1.07374182E+9      0.00000000E+0      9.43925297E-1      1.02369103E+0      -1.17914751E-5      -1.39819458E-5
5.77000000E+8      1.07374182E+9      0.00000000E+0      7.39817767E-1      6.43780101E-1      -1.16713345E-5      1.41803175E-5
5.84250000E+8      1.07374182E+9      0.00000000E+0      6.67237805E-1      4.25884576E-1      9.68202949E-6      3.46777961E-5
5.91500000E+8      1.07374182E+9      0.00000000E+0      6.33640197E-1      2.77008820E-1      -1.69984996E-5      2.68239528E-5
5.98750000E+8      1.07374182E+9      0.00000000E+0      6.15517897E-1      1.60116310E-1      1.43824145E-5      3.30237672E-5
6.06000000E+8      1.07374182E+9      0.00000000E+0      6.05697358E-1      6.00969176E-2      -1.36718154E-5      -1.29407272E-5
6.13250000E+8      1.07374182E+9      0.00000000E+0      6.00800115E-1      -3.54938500E-2      1.06077641E-5      2.48737633E-5
6.20500000E+8      1.07374182E+9      0.00000000E+0      5.99520908E-1      -1.36130396E-1      4.72059473E-5      1.85985118E-6
6.27750000E+8      1.07374182E+9      0.00000000E+0      6.01976784E-1      -2.50043383E-1      -2.75289640E-5      1.76122412E-5
6.35000000E+8      1.07374182E+9      0.00000000E+0      6.08702339E-1      -3.94984559E-1      1.60094351E-5      -1.13602728E-5
6.42250000E+8      1.07374182E+9      0.00000000E+0      6.20407575E-1      -6.12689394E-1      -1.05919316E-5      -3.15438956E-5
6.49500000E+8      1.07374182E+9      0.00000000E+0      6.44282706E-1      -1.01887445E+0      -8.46292824E-6      -1.66725367E-5
6.56750000E+8      1.07374182E+9      0.00000000E+0      6.53663619E-1      -2.25195634E+0      -7.36210495E-6      1.97580084E-5
6.64000000E+8      1.07374182E+9      0.00000000E+0      -8.78646560E+0      1.12844039E+1      2.60602683E-5      1.82781368E-5
6.71250000E+8      1.07374182E+9      0.00000000E+0      1.62403729E-1      1.72059513E+0      -7.95722008E-6      5.02420589E-5
6.78500000E+8      1.07374182E+9      0.00000000E+0      3.60770916E-1      8.48769503E-1      -4.30373475E-5      -2.17743218E-6
6.85750000E+8      1.07374182E+9      0.00000000E+0      4.15061075E-1      5.10092313E-1      3.14600766E-6      -1.39037147E-5
6.93000000E+8      1.07374182E+9      0.00000000E+0      4.35977031E-1      3.13753300E-1      -5.99585474E-6      3.67099419E-5
7.00250000E+8      1.07374182E+9      0.00000000E+0      4.43553569E-1      1.73030221E-1      -1.28429383E-6      -2.20565125E-5
7.07500000E+8      1.07374182E+9      0.00000000E+0      4.41770194E-1      5.66153895E-2      -2.44295225E-5      4.27979976E-5
7.14750000E+8      1.07374182E+9      0.00000000E+0      4.32052710E-1      -4.90895054E-2      3.50568444E-5      3.71122733E-5
7.22000000E+8      1.07374182E+9      0.00000000E+0      4.10394096E-1      -1.57179455E-1      -6.96582720E-5      -4.28846106E-5
7.29250000E+8      1.07374182E+9      0.00000000E+0      3.69153705E-1      -2.76434329E-1      1.94478780E-5      1.08275563E-5
7.36500000E+8      1.07374182E+9      0.00000000E+0      2.89116345E-1      -4.14811971E-1      1.35963783E-5      -2.34330073E-5
7.43750000E+8      1.07374182E+9      0.00000000E+0      1.21572539E-1      -5.74148231E-1      1.62562355E-5      1.84690580E-5
7.51000000E+8      1.07374182E+9      0.00000000E+0      -2.45983603E-1      -6.78441236E-1      -3.95178795E-5      -1.79279596E-5
7.58250000E+8      1.07374182E+9      0.00000000E+0      -7.79362013E-1      -3.48956960E-1      -1.26762316E-5      -1.56620517E-5
7.65500000E+8      1.07374182E+9      0.00000000E+0      -6.67823288E-1      3.83779895E-1      -5.79198822E-5      6.20912760E-5
7.72750000E+8      1.07374182E+9      0.00000000E+0      -1.82162789E-1      5.57262221E-1      4.65102494E-6      1.72024593E-5
7.80000000E+8      1.07374182E+9      0.00000000E+0      9.89970162E-2      4.58281390E-1      2.37822533E-5      4.50154766E-5
7.87250000E+8      1.07374182E+9      0.00000000E+0      2.43760809E-1      3.28011515E-1      3.19723040E-5      -3.24472785E-6
7.94500000E+8      1.07374182E+9      0.00000000E+0      3.16788902E-1      2.12848809E-1      1.58930197E-5      1.08014792E-5
8.01750000E+8      1.07374182E+9      0.00000000E+0      3.57823399E-1      1.09683895E-1      -7.81379640E-7      8.75443220E-8
8.09000000E+8      1.07374182E+9      0.00000000E+0      3.80816221E-1      1.27025215E-2      3.96557152E-6      2.28080899E-5
8.16250000E+8      1.07374182E+9      0.00000000E+0      3.92310309E-1      -8.51634776E-2      7.76350498E-6      -1.28978863E-5
8.23500000E+8      1.07374182E+9      0.00000000E+0      3.93960250E-1      -1.92295668E-1      1.52913854E-5      -5.86826354E-6
8.30750000E+8      1.07374182E+9      0.00000000E+0      3.85413092E-1      -3.18783597E-1      4.67859209E-5      2.51317397E-5
8.38000000E+8      1.07374182E+9      0.00000000E+0      3.59689996E-1      -4.91600281E-1      -4.97382134E-5      7.92555511E-7
8.45250000E+8      1.07374182E+9      0.00000000E+0      2.90861467E-1      -7.63967030E-1      -4.11178917E-6      3.22284177E-5
8.52500000E+8      1.07374182E+9      0.00000000E+0      6.09461536E-2      -1.34035598E+0      -2.10609287E-5      2.15154141E-5
8.59750000E+8      1.07374182E+9      0.00000000E+0      -2.02407248E+0      -3.22801747E+0      1.49114057E-5      -3.46824527E-6
8.67000000E+8      1.07374182E+9      0.00000000E+0      -5.02234894E-1      3.06302258E+0      1.93277374E-5      1.27088279E-5
8.74250000E+8      1.07374182E+9      0.00000000E+0      4.42371421E-1      1.22898725E+0      5.31310216E-5      -2.43354589E-5
8.81500000E+8      1.07374182E+9      0.00000000E+0      5.20718421E-1      6.81745273E-1      1.57644972E-5      2.92481855E-5
8.88750000E+8      1.07374182E+9      0.00000000E+0      5.36634687E-1      4.18084458E-1      -1.30617991E-5      3.23047861E-5
8.96000000E+8      1.07374182E+9      0.00000000E+0      5.41324235E-1      2.42904507E-1      4.29255888E-5      -2.94735655E-5
9.03250000E+8      1.07374182E+9      0.00000000E+0      5.43386996E-1      1.07976420E-1      -3.49218026E-5      2.11596489E-6
9.10500000E+8      1.07374182E+9      0.00000000E+0      5.45029281E-1      -1.51099494E-2      -6.93183392E-6      -2.50153244E-6
9.17750000E+8      1.07374182E+9      0.00000000E+0      5.47715172E-1      -1.37418980E-1      2.08616257E-7      4.30457294E-6
9.25000000E+8      1.07374182E+9      0.00000000E+0      5.51599835E-1      -2.79284482E-1      -1.90567225E-5      5.80865890E-6
9.32250000E+8      1.07374182E+9      0.00000000E+0      5.58752651E-1      -4.71378535E-1      -2.11689621E-6      -1.46413222E-5
9.39500000E+8      1.07374182E+9      0.00000000E+0      5.74207600E-1      -7.83801749E-1      1.50464475E-5      8.16956162E-6
9.46750000E+8      1.07374182E+9      0.00000000E+0      6.19953765E-1      -1.51271936E+0      -2.27149576E-6      3.53418291E-5
9.54000000E+8      1.07374182E+9      0.00000000E+0      1.10156849E+0      -7.11606104E+0      -1.10920519E-6      2.72123143E-5
9.61250000E+8      1.07374182E+9      0.00000000E+0      3.65743640E-1      2.91823619E+0      5.86919487E-6      -7.88737088E-6
9.68500000E+8      1.07374182E+9      0.00000000E+0      4.46602675E-1      1.15553930E+0      9.99867916E-6      -1.47307292E-5
9.75750000E+8      1.07374182E+9      0.00000000E+0      4.66170927E-1      6.84124012E-1      2.28481367E-5      -1.11311674E-5
9.83000000E+8      1.07374182E+9      0.00000000E+0      4.73417963E-1      4.40142351E-1      -1.13463029E-5      2.95033678E-5
9.90250000E+8      1.07374182E+9      0.00000000E+0      4.74386551E-1      2.84590619E-1      1.13639981E-5      -3.77492979E-5
9.97500000E+8      1.07374182E+9      0.00000000E+0      4.72176302E-1      1.65680637E-1      3.22656706E-5      7.95722008E-6
1.00475000E+9      1.07374182E+9      0.00000000E+0      4.65607401E-1      6.50807490E-2      1.87447295E-5      -5.74439764E-6
1.01200000E+9      1.07374182E+9      0.00000000E+0      4.54907908E-1      -2.85602620E-2      2.91811302E-5      1.17197633E-5
1.01925000E+9      1.07374182E+9      0.00000000E+0      4.36964279E-1      -1.21843749E-1      -1.63279474E-5      2.01836228E-5
1.02650000E+9      1.07374182E+9      0.00000000E+0      4.08812733E-1      -2.21134960E-1      1.84634700E-5      4.74024564E-5
1.03375000E+9      1.07374182E+9      0.00000000E+0      3.59023146E-1      -3.34830946E-1      -1.83824450E-5      -4.04603779E-5
1.04100000E+9      1.07374182E+9      0.00000000E+0      2.68615364E-1      -4.67938578E-1      -3.88110057E-5      -3.63215804E-7
1.04825000E+9      1.07374182E+9      0.00000000E+0      8.81001562E-2      -6.16836206E-1      -1.77472830E-5      1.81971118E-5
1.05550000E+9      1.07374182E+9      0.00000000E+0      -2.69511648E-1      -6.96488665E-1      -4.93116677E-5      -1.42212957E-6
1.06275000E+9      1.07374182E+9      0.00000000E+0      -7.48883367E-1      -3.87787229E-1      1.69677660E-5      2.87406147E-6
1.07000000E+9      1.07374182E+9      0.00000000E+0      -7.12079043E-1      2.52737246E-1      -2.87778676E-7      1.20764598E-5
1.07725000E+9      1.07374182E+9      0.00000000E+0      -3.02066176E-1      4.83796481E-1      4.81195748E-5      7.19260424E-6
1.08450000E+9      1.07374182E+9      0.00000000E+0      -1.51307948E-2      4.33711322E-1      1.94115564E-5      1.32061541E-5
1.09175000E+9      1.07374182E+9      0.00000000E+0      1.29679253E-1      3.29197726E-1      -7.21868128E-6      9.79285687E-6
1.09900000E+9      1.07374182E+9      0.00000000E+0      2.05337091E-1      2.28610083E-1      -8.19191337E-6      1.15856528E-6
1.10625000E+9      1.07374182E+9      0.00000000E+0      2.41345080E-1      1.36716519E-1      1.25365332E-5      -2.40476802E-5
1.11350000E+9      1.07374182E+9      0.00000000E+0      2.54180646E-1      5.24877976E-2      -8.15838575E-6      -9.89064574E-6
1.12075000E+9      1.07374182E+9      0.00000000E+0      2.47941423E-1      -2.47058162E-2      4.54857945E-6      2.92360783E-5
1.12800000E+9      1.07374182E+9      0.00000000E+0      2.23530045E-1      -9.77656618E-2      3.74764204E-6      3.13110650E-6
1.13525000E+9      1.07374182E+9      0.00000000E+0      1.76965865E-1      -1.68449902E-1      -3.62163410E-5      -1.60345808E-5
1.14250000E+9      1.07374182E+9      0.00000000E+0      1.03868014E-1      -2.27451206E-1      1.03805214E-5      -2.42218375E-5
1.14975000E+9      1.07374182E+9      0.00000000E+0      -9.12891908E-3      -2.64002344E-1      -1.02389604E-5      -1.96574256E-5
1.15700000E+9      1.07374182E+9      0.00000000E+0      -1.53005530E-1      -2.41455385E-1      1.09616667E-6      -1.64350495E-5
1.16425000E+9      1.07374182E+9      0.00000000E+0      -2.90746452E-1      -1.16108648E-1      -6.17653131E-6      1.64462253E-5
1.17150000E+9      1.07374182E+9      0.00000000E+0      -3.21242540E-1      8.91705993E-2      -3.11899930E-5      -1.17234886E-5
1.17875000E+9      1.07374182E+9      0.00000000E+0      -2.07331504E-1      2.67136093E-1      2.70670280E-5      -3.71849164E-5
1.18600000E+9      1.07374182E+9      0.00000000E+0      -3.82919534E-2      3.27516347E-1      -1.22850761E-5      -1.13565475E-5
1.19325000E+9      1.07374182E+9      0.00000000E+0      1.04396395E-1      3.03292811E-1      -7.46417791E-5      9.16700810E-6
1.20050000E+9      1.07374182E+9      0.00000000E+0      2.06779218E-1      2.37962415E-1      -5.51156700E-6      1.09337270E-5
1.20775000E+9      1.07374182E+9      0.00000000E+0      2.71463032E-1      1.61061192E-1      -2.05608085E-5      -3.78340483E-5
1.21500000E+9      1.07374182E+9      0.00000000E+0      3.13268097E-1      7.66601383E-2      -1.74418092E-5      -3.94824892E-5
1.22225000E+9      1.07374182E+9      0.00000000E+0      3.37735351E-1      -8.97039889E-3      5.29540703E-5      -1.41067430E-5
1.22950000E+9      1.07374182E+9      0.00000000E+0      3.49666633E-1      -1.03740575E-1      9.38773155E-6      -2.34059989E-5
1.23675000E+9      1.07374182E+9      0.00000000E+0      3.49543876E-1      -2.09526195E-1      -4.50797379E-5      1.02967024E-5
1.24400000E+9      1.07374182E+9      0.00000000E+0      3.33546212E-1      -3.39734325E-1      -3.08519229E-5      2.77347863E-6
1.25125000E+9      1.07374182E+9      0.00000000E+0      2.88671424E-1      -5.20711179E-1      -5.19007444E-5      2.89771706E-5
1.25850000E+9      1.07374182E+9      0.00000000E+0      1.69920408E-1      -8.01844617E-1      -1.53733417E-5      -2.18795612E-5
1.26575000E+9      1.07374182E+9      0.00000000E+0      -2.35436675E-1      -1.31892298E+0      -9.64105129E-6      -1.76355243E-5
1.27300000E+9      1.07374182E+9      0.00000000E+0      -2.49357311E+0      -1.42799978E+0      3.68002802E-5      -9.11206007E-6
1.28025000E+9      1.07374182E+9      0.00000000E+0      -1.10566823E+0      1.85590909E+0      -1.32592395E-5      1.23074278E-5
1.28750000E+9      1.07374182E+9      0.00000000E+0      4.68789009E-2      1.12120742E+0      -2.43382528E-5      2.37068161E-5
1.29475000E+9      1.07374182E+9      0.00000000E+0      2.74255198E-1      6.80313341E-1      -3.29744071E-5      -9.00495797E-6
