! NanoVNA-App
! Date: 2024-06-25 16:50:58
! Start: 200MHz Stop: 1.5GHz Points: 801
! S-Parameter data: F S11 S21 S12 S22
# Hz S RI R 50
!     Frequency           S11_Real           S11_Imag           S21_Real           S21_Imag           S12_Real           S12_Imag           S22_Real           S22_Imag
      200000000   -8.493597507e-01    1.462783813e-01    1.971279562e-04    5.382598829e-05    0.000000000e+00    0.000000000e+00    0.000000000e+00    0.000000000e+00
      201625000   -8.432765007e-01    1.729470640e-01    1.883277000e-04    6.023785681e-05    0.000000000e+00    0.000000000e+00    0.000000000e+00    0.000000000e+00
      203250000   -8.365405202e-01    1.993928999e-01    2.226969809e-04    5.625970880e-05    0.000000000e+00    0.000000000e+00    0.000000000e+00    0.000000000e+00
      204875000   -8.287149072e-01    2.253822684e-01    2.157142007e-04    5.264657011e-05    0.000000000e+00    0.000000000e+00    0.000000000e+00    0.000000000e+00
      206500000   -8.202403188e-01    2.507860959e-01    2.459405514e-04    8.799233183e-05    0.000000000e+00    0.000000000e+00    0.000000000e+00    0.000000000e+00
      208125000   -8.105533123e-01    2.760251164e-01    2.424860286e-04    8.288171375e-05    0.000000000e+00    0.000000000e+00    0.000000000e+00    0.000000000e+00
      209750000   -8.002830744e-01    3.008599579e-01    2.635036944e-04    7.504093082e-05    0.000000000e+00    0.000000000e+00    0.000000000e+00    0.000000000e+00
      211375000   -7.887697220e-01    3.251640201e-01    2.644709894e-04    6.566717639e-05    0.000000000e+00    0.000000000e+00    0.000000000e+00    0.000000000e+00
      213000000   -7.767708898e-01    3.488843739e-01    2.771019354e-04    1.105952033e-04    0.000000000e+00    0.000000000e+00    0.000000000e+00    0.000000000e+00
      214625000   -7.638275027e-01    3.720109165e-01    2.682053018e-04    1.160231404e-04    0.000000000e+00    0.000000000e+00    0.000000000e+00    0.000000000e+00
      216250000   -7.502562404e-01    3.947105110e-01    2.687295782e-04    1.096748820e-04    0.000000000e+00    0.000000000e+00    0.000000000e+00    0.000000000e+00
      217875000   -7.357336879e-01    4.169375002e-01    2.932886127e-04    1.304333564e-04    0.000000000e+00    0.000000000e+00    0.000000000e+00    0.000000000e+00
      219500000   -7.206501961e-01    4.382493496e-01    2.846743446e-04    1.257696131e-04    0.000000000e+00    0.000000000e+00    0.000000000e+00    0.000000000e+00
      221125000   -7.049645782e-01    4.592641592e-01    2.864574199e-04    1.405807125e-04    0.000000000e+00    0.000000000e+00    0.000000000e+00    0.000000000e+00
      222750000   -6.883655190e-01    4.792954624e-01    3.029227664e-04    1.239624544e-04    0.000000000e+00    0.000000000e+00    0.000000000e+00    0.000000000e+00
      224375000   -6.712891459e-01    4.988496006e-01    2.997112460e-04    1.303656754e-04    0.000000000e+00    0.000000000e+00    0.000000000e+00    0.000000000e+00
      226000000   -6.535735726e-01    5.175608397e-01    3.040128795e-04    1.278278651e-04    0.000000000e+00    0.000000000e+00    0.000000000e+00    0.000000000e+00
      227625000   -6.356140971e-01    5.357358456e-01    3.051126841e-04    1.477236219e-04    0.000000000e+00    0.000000000e+00    0.000000000e+00    0.000000000e+00
      229250000   -6.168385744e-01    5.533158183e-01    3.159789194e-04    1.364003692e-04    0.000000000e+00    0.000000000e+00    0.000000000e+00    0.000000000e+00
      230875000   -5.976340175e-01    5.700187683e-01    3.200736537e-04    1.284514001e-04    0.000000000e+00    0.000000000e+00    0.000000000e+00    0.000000000e+00
      232500000   -5.780544877e-01    5.859034657e-01    2.955343807e-04    1.494155586e-04    0.000000000e+00    0.000000000e+00    0.000000000e+00    0.000000000e+00
      234125000   -5.579525828e-01    6.009933949e-01    3.082453040e-04    1.430180419e-04    0.000000000e+00    0.000000000e+00    0.000000000e+00    0.000000000e+00
      235750000   -5.373161435e-01    6.157068014e-01    3.318647505e-04    1.664700685e-04    0.000000000e+00    0.000000000e+00    0.000000000e+00    0.000000000e+00
      237375000   -5.163375735e-01    6.291232109e-01    3.214964527e-04    1.511117152e-04    0.000000000e+00    0.000000000e+00    0.000000000e+00    0.000000000e+00
      239000000   -4.952559471e-01    6.421129704e-01    3.502056643e-04    1.305877959e-04    0.000000000e+00    0.000000000e+00    0.000000000e+00    0.000000000e+00
      240625000   -4.737898707e-01    6.541717649e-01    3.362591378e-04    1.452793367e-04    0.000000000e+00    0.000000000e+00    0.000000000e+00    0.000000000e+00
      242250000   -4.518386126e-01    6.655886769e-01    3.503104672e-04    1.593775378e-04    0.000000000e+00    0.000000000e+00    0.000000000e+00    0.000000000e+00
      243875000   -4.296436906e-01    6.763268113e-01    3.404005838e-04    1.449753327e-04    0.000000000e+00    0.000000000e+00    0.000000000e+00    0.000000000e+00
      245500000   -4.070416689e-01    6.862273216e-01    3.381797287e-04    1.396521111e-04    0.000000000e+00    0.000000000e+00    0.000000000e+00    0.000000000e+00
      247125000   -3.842850029e-01    6.957057714e-01    3.371095518e-04    1.404563372e-04    0.000000000e+00    0.000000000e+00    0.000000000e+00    0.000000000e+00
      248750000   -3.615173101e-01    7.044105530e-01    3.643937816e-04    1.223649451e-04    0.000000000e+00    0.000000000e+00    0.000000000e+00    0.000000000e+00
      250375000   -3.384745717e-01    7.122434974e-01    3.405616153e-04    1.364871714e-04    0.000000000e+00    0.000000000e+00    0.000000000e+00    0.000000000e+00
      252000000   -3.158372641e-01    7.188718319e-01    3.951411345e-04    1.322006574e-04    0.000000000e+00    0.000000000e+00    0.000000000e+00    0.000000000e+00
      253625000   -2.929168642e-01    7.250560522e-01    3.582087229e-04    1.602978009e-04    0.000000000e+00    0.000000000e+00    0.000000000e+00    0.000000000e+00
      255250000   -2.697547674e-01    7.304835320e-01    3.650863364e-04    1.460342028e-04    0.000000000e+00    0.000000000e+00    0.000000000e+00    0.000000000e+00
      256875000   -2.467557788e-01    7.352119684e-01    3.475887934e-04    1.421008055e-04    0.000000000e+00    0.000000000e+00    0.000000000e+00    0.000000000e+00
      258500000   -2.237702310e-01    7.390099168e-01    3.657176858e-04    1.521365775e-04    0.000000000e+00    0.000000000e+00    0.000000000e+00    0.000000000e+00
      260125000   -2.010050714e-01    7.422737479e-01    3.575806622e-04    1.433264988e-04    0.000000000e+00    0.000000000e+00    0.000000000e+00    0.000000000e+00
      261750000   -1.780589223e-01    7.450006008e-01    3.466462367e-04    1.406473166e-04    0.000000000e+00    0.000000000e+00    0.000000000e+00    0.000000000e+00
      263375000   -1.553040445e-01    7.464461923e-01    3.465038026e-04    1.373865816e-04    0.000000000e+00    0.000000000e+00    0.000000000e+00    0.000000000e+00
      265000000   -1.325718313e-01    7.475427985e-01    3.715875209e-04    1.182662745e-04    0.000000000e+00    0.000000000e+00    0.000000000e+00    0.000000000e+00
      266625000   -1.100341454e-01    7.477646470e-01    3.640086506e-04    1.443087822e-04    0.000000000e+00    0.000000000e+00    0.000000000e+00    0.000000000e+00
      268250000   -8.755815029e-02    7.475605011e-01    3.744899295e-04    1.243402803e-04    0.000000000e+00    0.000000000e+00    0.000000000e+00    0.000000000e+00
      269875000   -6.495700032e-02    7.465121150e-01    3.702999093e-04    1.556385105e-04    0.000000000e+00    0.000000000e+00    0.000000000e+00    0.000000000e+00
      271500000   -4.304346815e-02    7.447268367e-01    3.396251122e-04    1.307195198e-04    0.000000000e+00    0.000000000e+00    0.000000000e+00    0.000000000e+00
      273125000   -2.091582306e-02    7.427933812e-01    3.482195025e-04    1.240366837e-04    0.000000000e+00    0.000000000e+00    0.000000000e+00    0.000000000e+00
      274750000    8.069502073e-04    7.400071621e-01    3.413051018e-04    1.375366992e-04    0.000000000e+00    0.000000000e+00    0.000000000e+00    0.000000000e+00
      276375000    2.257187851e-02    7.363571525e-01    3.525812936e-04    1.316645939e-04    0.000000000e+00    0.000000000e+00    0.000000000e+00    0.000000000e+00
      278000000    4.398268834e-02    7.321768999e-01    3.773516510e-04    1.431525016e-04    0.000000000e+00    0.000000000e+00    0.000000000e+00    0.000000000e+00
      279625000    6.494164467e-02    7.277258635e-01    3.547491215e-04    1.357406145e-04    0.000000000e+00    0.000000000e+00    0.000000000e+00    0.000000000e+00
      281250000    8.592604101e-02    7.223449945e-01    3.390220227e-04    1.482120424e-04    0.000000000e+00    0.000000000e+00    0.000000000e+00    0.000000000e+00
      282875000    1.067208350e-01    7.169049382e-01    3.492077522e-04    1.180315012e-04    0.000000000e+00    0.000000000e+00    0.000000000e+00    0.000000000e+00
      284500000    1.270879358e-01    7.105066776e-01    3.444009053e-04    1.169884126e-04    0.000000000e+00    0.000000000e+00    0.000000000e+00    0.000000000e+00
      286125000    1.472825259e-01    7.037539482e-01    3.245982807e-04    1.206359520e-04    0.000000000e+00    0.000000000e+00    0.000000000e+00    0.000000000e+00
      287750000    1.671255976e-01    6.968842149e-01    3.217968042e-04    1.173931087e-04    0.000000000e+00    0.000000000e+00    0.000000000e+00    0.000000000e+00
      289375000    1.866272688e-01    6.886693239e-01    3.174776211e-04    1.209278271e-04    0.000000000e+00    0.000000000e+00    0.000000000e+00    0.000000000e+00
      291000000    1.019929126e-01    6.490780711e-01    4.905177775e-05   -2.810273691e-05    0.000000000e+00    0.000000000e+00    0.000000000e+00    0.000000000e+00
      292625000    1.197830290e-01    6.433108449e-01   -1.231396600e-04    5.269423127e-05    0.000000000e+00    0.000000000e+00    0.000000000e+00    0.000000000e+00
      294250000    1.378796995e-01    6.354178190e-01    3.997964450e-05    8.694228018e-05    0.000000000e+00    0.000000000e+00    0.000000000e+00    0.000000000e+00
      295875000    1.565939188e-01    6.288099885e-01    6.967784884e-06    9.027994383e-05    0.000000000e+00    0.000000000e+00    0.000000000e+00    0.000000000e+00
      297500000    1.738858372e-01    6.211377382e-01   -7.860353799e-05    5.399207657e-05    0.000000000e+00    0.000000000e+00    0.000000000e+00    0.000000000e+00
      299125000    1.910756528e-01    6.127083302e-01   -7.562982501e-05    1.697743137e-04    0.000000000e+00    0.000000000e+00    0.000000000e+00    0.000000000e+00
      300750000    2.075277865e-01    6.044773459e-01   -6.941519678e-05   -4.551577149e-05    0.000000000e+00    0.000000000e+00    0.000000000e+00    0.000000000e+00
      302375000    2.246528417e-01    5.953891277e-01   -9.093138942e-06   -1.071234365e-04    0.000000000e+00    0.000000000e+00    0.000000000e+00    0.000000000e+00
      304000000    2.408602536e-01    5.865452290e-01    2.967495857e-05   -5.366132245e-05    0.000000000e+00    0.000000000e+00    0.000000000e+00    0.000000000e+00
      305625000    2.567507923e-01    5.772794485e-01   -3.505763743e-06    7.665791782e-05    0.000000000e+00    0.000000000e+00    0.000000000e+00    0.000000000e+00
      307250000    2.692544758e-01    5.678377748e-01   -1.717037667e-04   -6.895923434e-05    0.000000000e+00    0.000000000e+00    0.000000000e+00    0.000000000e+00
      308875000    2.869466543e-01    5.564678311e-01   -3.296488285e-05   -5.726917516e-05    0.000000000e+00    0.000000000e+00    0.000000000e+00    0.000000000e+00
      310500000    3.012454212e-01    5.455850363e-01   -1.275609393e-04    6.027194831e-05    0.000000000e+00    0.000000000e+00    0.000000000e+00    0.000000000e+00
      312125000    3.157036006e-01    5.344684720e-01   -6.439470599e-05    1.192296550e-04    0.000000000e+00    0.000000000e+00    0.000000000e+00    0.000000000e+00
      313750000    3.303283751e-01    5.235087276e-01   -6.886655319e-05   -9.232056618e-05    0.000000000e+00    0.000000000e+00    0.000000000e+00    0.000000000e+00
      315375000    3.434002697e-01    5.118640065e-01   -1.172148313e-05   -3.000404467e-05    0.000000000e+00    0.000000000e+00    0.000000000e+00    0.000000000e+00
      317000000    3.566566706e-01    4.998027086e-01   -3.590198685e-05    4.008225005e-05    0.000000000e+00    0.000000000e+00    0.000000000e+00    0.000000000e+00
      318625000    3.691070974e-01    4.875223935e-01    3.357835158e-05    1.065841134e-04    0.000000000e+00    0.000000000e+00    0.000000000e+00    0.000000000e+00
      320250000    3.821175694e-01    4.756714404e-01   -1.145562201e-04    4.290690413e-05    0.000000000e+00    0.000000000e+00    0.000000000e+00    0.000000000e+00
      321875000    3.935855627e-01    4.631363153e-01   -1.407064847e-04    2.911488446e-05    0.000000000e+00    0.000000000e+00    0.000000000e+00    0.000000000e+00
      323500000    4.055831432e-01    4.501681924e-01   -1.880730633e-05    6.761698023e-05    0.000000000e+00    0.000000000e+00    0.000000000e+00    0.000000000e+00
      325125000    4.165809155e-01    4.369003177e-01    1.073626390e-05   -4.718392665e-05    0.000000000e+00    0.000000000e+00    0.000000000e+00    0.000000000e+00
      326750000    4.276618361e-01    4.237581789e-01   -6.931476673e-05   -3.289396045e-05    0.000000000e+00    0.000000000e+00    0.000000000e+00    0.000000000e+00
      328375000    4.380455315e-01    4.103892744e-01   -1.272958179e-04    4.964983600e-05    0.000000000e+00    0.000000000e+00    0.000000000e+00    0.000000000e+00
      330000000    4.477962852e-01    3.966534138e-01   -1.362844050e-04    2.726932871e-05    0.000000000e+00    0.000000000e+00    0.000000000e+00    0.000000000e+00
      331625000    4.575246871e-01    3.830803633e-01   -2.379175930e-05   -1.542693894e-06    0.000000000e+00    0.000000000e+00    0.000000000e+00    0.000000000e+00
      333250000    4.668860137e-01    3.690974116e-01   -1.171312397e-04    6.263258547e-05    0.000000000e+00    0.000000000e+00    0.000000000e+00    0.000000000e+00
      334875000    4.755248427e-01    3.552563488e-01   -1.367342611e-05    1.989940392e-05    0.000000000e+00    0.000000000e+00    0.000000000e+00    0.000000000e+00
      336500000    4.841169715e-01    3.409126699e-01   -2.312661536e-06    6.556423159e-06    0.000000000e+00    0.000000000e+00    0.000000000e+00    0.000000000e+00
      338125000    4.921230674e-01    3.267644048e-01    7.387810183e-05    2.436142859e-05    0.000000000e+00    0.000000000e+00    0.000000000e+00    0.000000000e+00
      339750000    4.997366965e-01    3.124448359e-01   -3.845618630e-05   -4.857236490e-05    0.000000000e+00    0.000000000e+00    0.000000000e+00    0.000000000e+00
      341375000    5.071064830e-01    2.977868319e-01   -1.435081940e-04   -6.659681094e-05    0.000000000e+00    0.000000000e+00    0.000000000e+00    0.000000000e+00
      343000000    5.142527819e-01    2.834329009e-01   -7.110732986e-05   -6.583808135e-05    0.000000000e+00    0.000000000e+00    0.000000000e+00    0.000000000e+00
      344625000    5.208169818e-01    2.686358988e-01   -1.387397933e-04   -1.202260028e-04    0.000000000e+00    0.000000000e+00    0.000000000e+00    0.000000000e+00
      346250000    5.269066691e-01    2.541024685e-01   -9.808615869e-05   -3.107345765e-05    0.000000000e+00    0.000000000e+00    0.000000000e+00    0.000000000e+00
      347875000    5.327417254e-01    2.394303530e-01   -1.139385786e-04   -3.945086428e-05    0.000000000e+00    0.000000000e+00    0.000000000e+00    0.000000000e+00
      349500000    5.383481383e-01    2.244959623e-01    3.357529204e-05   -3.166612078e-05    0.000000000e+00    0.000000000e+00    0.000000000e+00    0.000000000e+00
      351125000    5.432771444e-01    2.097237706e-01    5.473996862e-05   -8.176409756e-05    0.000000000e+00    0.000000000e+00    0.000000000e+00    0.000000000e+00
      352750000    5.481929183e-01    1.948136687e-01   -1.602970297e-04    1.189407631e-04    0.000000000e+00    0.000000000e+00    0.000000000e+00    0.000000000e+00
      354375000    5.527963042e-01    1.799409688e-01   -2.952079194e-05    2.669428795e-05    0.000000000e+00    0.000000000e+00    0.000000000e+00    0.000000000e+00
      356000000    5.567639470e-01    1.647365391e-01    8.112629075e-06   -6.949845556e-06    0.000000000e+00    0.000000000e+00    0.000000000e+00    0.000000000e+00
      357625000    5.604765415e-01    1.500518322e-01   -1.242045109e-04   -2.294993283e-05    0.000000000e+00    0.000000000e+00    0.000000000e+00    0.000000000e+00
      359250000    5.637032390e-01    1.347497404e-01   -1.604882418e-04   -1.655995038e-05    0.000000000e+00    0.000000000e+00    0.000000000e+00    0.000000000e+00
      360875000    5.667940378e-01    1.201467365e-01    5.490373587e-05    7.062568329e-05    0.000000000e+00    0.000000000e+00    0.000000000e+00    0.000000000e+00
      362500000    5.695778131e-01    1.049556732e-01   -3.896705675e-05    9.424501332e-05    0.000000000e+00    0.000000000e+00    0.000000000e+00    0.000000000e+00
      364125000    5.719540119e-01    9.010493010e-02    1.684042672e-06    6.381783169e-05    0.000000000e+00    0.000000000e+00    0.000000000e+00    0.000000000e+00
      365750000    5.740602016e-01    7.533039153e-02   -1.854578841e-05   -8.911129044e-06    0.000000000e+00    0.000000000e+00    0.000000000e+00    0.000000000e+00
      367375000    5.758962631e-01    6.027664989e-02   -2.053455100e-04    3.289389133e-05    0.000000000e+00    0.000000000e+00    0.000000000e+00    0.000000000e+00
      369000000    5.771371722e-01    4.544115439e-02    5.013987175e-05   -5.925791629e-05    0.000000000e+00    0.000000000e+00    0.000000000e+00    0.000000000e+00
      370625000    5.783554316e-01    3.067978472e-02   -1.147145304e-04    6.541215407e-05    0.000000000e+00    0.000000000e+00    0.000000000e+00    0.000000000e+00
      372250000    5.795020461e-01    1.565737650e-02   -1.656740205e-04    9.669777501e-05    0.000000000e+00    0.000000000e+00    0.000000000e+00    0.000000000e+00
      373875000    5.795498490e-01    1.093063387e-03   -8.031888137e-05    2.297217579e-04    0.000000000e+00    0.000000000e+00    0.000000000e+00    0.000000000e+00
      375500000    5.798261166e-01   -1.360301487e-02   -3.228276546e-05    6.518820737e-05    0.000000000e+00    0.000000000e+00    0.000000000e+00    0.000000000e+00
      377125000    5.795384049e-01   -2.856077440e-02   -7.708038902e-05   -7.544643381e-07    0.000000000e+00    0.000000000e+00    0.000000000e+00    0.000000000e+00
      378750000    5.791020393e-01   -4.295297712e-02   -1.557921205e-04    4.257467663e-05    0.000000000e+00    0.000000000e+00    0.000000000e+00    0.000000000e+00
      380375000    5.781452060e-01   -5.766244978e-02   -1.174003992e-04    1.050642750e-04    0.000000000e+00    0.000000000e+00    0.000000000e+00    0.000000000e+00
      382000000    5.770138502e-01   -7.239665836e-02   -2.499459079e-04   -1.005412014e-05    0.000000000e+00    0.000000000e+00    0.000000000e+00    0.000000000e+00
      383625000    5.755614638e-01   -8.669824153e-02   -1.825812360e-04   -3.948645099e-05    0.000000000e+00    0.000000000e+00    0.000000000e+00    0.000000000e+00
      385250000    5.738907456e-01   -1.012279093e-01   -1.298299758e-04    1.481739164e-04    0.000000000e+00    0.000000000e+00    0.000000000e+00    0.000000000e+00
      386875000    5.718643665e-01   -1.156875566e-01    3.134587314e-05    4.717501724e-06    0.000000000e+00    0.000000000e+00    0.000000000e+00    0.000000000e+00
      388500000    5.694698691e-01   -1.296972632e-01   -7.634700887e-05    3.255928823e-05    0.000000000e+00    0.000000000e+00    0.000000000e+00    0.000000000e+00
