! NanoVNA-App
! Date: 2024-06-25 16:51:01
! Start: 200MHz Stop: 1.5GHz Points: 801
! S-Parameter data: F S11 S21 S12 S22
# Hz S RI R 50
!     Frequency           S11_Real           S11_Imag           S21_Real           S21_Imag           S12_Real           S12_Imag           S22_Real           S22_Imag
      200000000   -8.493119478e-01    1.462743431e-01    1.840075129e-04    6.052132812e-05    0.000000000e+00    0.000000000e+00    0.000000000e+00    0.000000000e+00
      201625000   -8.432966471e-01    1.729348749e-01    1.987704163e-04    5.935482841e-05    0.000000000e+00    0.000000000e+00    0.000000000e+00    0.000000000e+00
      203250000   -8.365257382e-01    1.993200183e-01    1.986782736e-04    5.441308531e-05    0.000000000e+00    0.000000000e+00    0.000000000e+00    0.000000000e+00
      204875000   -8.286603093e-01    2.252541184e-01    2.237148146e-04    5.002484249e-05    0.000000000e+00    0.000000000e+00    0.000000000e+00    0.000000000e+00
      206500000   -8.200125098e-01    2.508112490e-01    2.172638779e-04    7.620418182e-05    0.000000000e+00    0.000000000e+00    0.000000000e+00    0.000000000e+00
      208125000   -8.105746508e-01    2.760142982e-01    2.434322378e-04    8.648090443e-05    0.000000000e+00    0.000000000e+00    0.000000000e+00    0.000000000e+00
      209750000   -8.002569079e-01    3.009381294e-01    2.497786481e-04    8.536095265e-05    0.000000000e+00    0.000000000e+00    0.000000000e+00    0.000000000e+00
      211375000   -7.886955142e-01    3.251017630e-01    2.523907169e-04    7.115076733e-05    0.000000000e+00    0.000000000e+00    0.000000000e+00    0.000000000e+00
      213000000   -7.766581774e-01    3.487900198e-01    2.747121034e-04    9.250437142e-05    0.000000000e+00    0.000000000e+00    0.000000000e+00    0.000000000e+00
      214625000   -7.637291551e-01    3.719471991e-01    2.760044008e-04    1.106340860e-04    0.000000000e+00    0.000000000e+00    0.000000000e+00    0.000000000e+00
      216250000   -7.500675321e-01    3.948267996e-01    2.667638764e-04    1.259960845e-04    0.000000000e+00    0.000000000e+00    0.000000000e+00    0.000000000e+00
      217875000   -7.357765436e-01    4.168006182e-01    3.036737908e-04    1.266774052e-04    0.000000000e+00    0.000000000e+00    0.000000000e+00    0.000000000e+00
      219500000   -7.206707597e-01    4.383572042e-01    3.066671197e-04    1.339260198e-04    0.000000000e+00    0.000000000e+00    0.000000000e+00    0.000000000e+00
      221125000   -7.047284245e-01    4.592027664e-01    3.027001512e-04    1.280081051e-04    0.000000000e+00    0.000000000e+00    0.000000000e+00    0.000000000e+00
      222750000   -6.883612275e-01    4.793359339e-01    2.962070866e-04    1.480971696e-04    0.000000000e+00    0.000000000e+00    0.000000000e+00    0.000000000e+00
      224375000   -6.713613272e-01    4.989980459e-01    3.100132162e-04    1.309173531e-04    0.000000000e+00    0.000000000e+00    0.000000000e+00    0.000000000e+00
      226000000   -6.535872817e-01    5.174697638e-01    3.213041928e-04    1.393183047e-04    0.000000000e+00    0.000000000e+00    0.000000000e+00    0.000000000e+00
      227625000   -6.354835629e-01    5.356200933e-01    3.293271293e-04    1.640403352e-04    0.000000000e+00    0.000000000e+00    0.000000000e+00    0.000000000e+00
      229250000   -6.168337464e-01    5.531969666e-01    3.318280797e-04    1.312061795e-04    0.000000000e+00    0.000000000e+00    0.000000000e+00    0.000000000e+00
      230875000   -5.974906087e-01    5.698964000e-01    3.098617308e-04    1.366726792e-04    0.000000000e+00    0.000000000e+00    0.000000000e+00    0.000000000e+00
      232500000   -5.780044198e-01    5.859425068e-01    3.283603874e-04    1.516226039e-04    0.000000000e+00    0.000000000e+00    0.000000000e+00    0.000000000e+00
      234125000   -5.579297543e-01    6.011574268e-01    3.352125059e-04    1.271579240e-04    0.000000000e+00    0.000000000e+00    0.000000000e+00    0.000000000e+00
      235750000   -5.373049378e-01    6.154462099e-01    3.202483931e-04    1.418969041e-04    0.000000000e+00    0.000000000e+00    0.000000000e+00    0.000000000e+00
      237375000   -5.165049434e-01    6.291731596e-01    3.264367697e-04    1.479165658e-04    0.000000000e+00    0.000000000e+00    0.000000000e+00    0.000000000e+00
      239000000   -4.952848554e-01    6.419342160e-01    3.469764197e-04    1.407341479e-04    0.000000000e+00    0.000000000e+00    0.000000000e+00    0.000000000e+00
      240625000   -4.738267958e-01    6.540885568e-01    3.273681796e-04    1.393869316e-04    0.000000000e+00    0.000000000e+00    0.000000000e+00    0.000000000e+00
      242250000   -4.519587755e-01    6.656621099e-01    3.542567138e-04    1.318523573e-04    0.000000000e+00    0.000000000e+00    0.000000000e+00    0.000000000e+00
      243875000   -4.296518564e-01    6.762958765e-01    3.472110548e-04    1.500943181e-04    0.000000000e+00    0.000000000e+00    0.000000000e+00    0.000000000e+00
      245500000   -4.072303772e-01    6.865098476e-01    3.563310311e-04    1.392403647e-04    0.000000000e+00    0.000000000e+00    0.000000000e+00    0.000000000e+00
      247125000   -3.843110204e-01    6.957111955e-01    3.468921932e-04    1.563980186e-04    0.000000000e+00    0.000000000e+00    0.000000000e+00    0.000000000e+00
      248750000   -3.615362942e-01    7.042623758e-01    3.438247077e-04    1.428031974e-04    0.000000000e+00    0.000000000e+00    0.000000000e+00    0.000000000e+00
      250375000   -3.386830389e-01    7.122570276e-01    3.477353312e-04    1.589247549e-04    0.000000000e+00    0.000000000e+00    0.000000000e+00    0.000000000e+00
      252000000   -3.156499267e-01    7.188425660e-01    3.645389515e-04    1.535180199e-04    0.000000000e+00    0.000000000e+00    0.000000000e+00    0.000000000e+00
      253625000   -2.927602530e-01    7.251461744e-01    3.647362173e-04    1.491268049e-04    0.000000000e+00    0.000000000e+00    0.000000000e+00    0.000000000e+00
      255250000   -2.696740329e-01    7.305243611e-01    3.433578531e-04    1.238458790e-04    0.000000000e+00    0.000000000e+00    0.000000000e+00    0.000000000e+00
      256875000   -2.469470650e-01    7.351626158e-01    3.655356122e-04    1.228400506e-04    0.000000000e+00    0.000000000e+00    0.000000000e+00    0.000000000e+00
      258500000   -2.239769846e-01    7.390327454e-01    3.923945769e-04    1.615532819e-04    0.000000000e+00    0.000000000e+00    0.000000000e+00    0.000000000e+00
      260125000   -2.009992599e-01    7.422782183e-01    3.738165833e-04    1.493399177e-04    0.000000000e+00    0.000000000e+00    0.000000000e+00    0.000000000e+00
      261750000   -1.781747043e-01    7.450459599e-01    3.607227700e-04    1.267897023e-04    0.000000000e+00    0.000000000e+00    0.000000000e+00    0.000000000e+00
      263375000   -1.552422047e-01    7.463968992e-01    3.425748728e-04    1.308143692e-04    0.000000000e+00    0.000000000e+00    0.000000000e+00    0.000000000e+00
      265000000   -1.326599717e-01    7.475275397e-01    3.729981545e-04    1.290960354e-04    0.000000000e+00    0.000000000e+00    0.000000000e+00    0.000000000e+00
      266625000   -1.100778133e-01    7.478699088e-01    3.632883308e-04    1.374917192e-04    0.000000000e+00    0.000000000e+00    0.000000000e+00    0.000000000e+00
      268250000   -8.755993098e-02    7.475617528e-01    3.620880598e-04    1.355836575e-04    0.000000000e+00    0.000000000e+00    0.000000000e+00    0.000000000e+00
      269875000   -6.517361104e-02    7.467235327e-01    3.641083313e-04    1.258580742e-04    0.000000000e+00    0.000000000e+00    0.000000000e+00    0.000000000e+00
      271500000   -4.303151742e-02    7.450199127e-01    3.646987316e-04    1.255937241e-04    0.000000000e+00    0.000000000e+00    0.000000000e+00    0.000000000e+00
      273125000   -2.108866163e-02    7.427449226e-01    3.614760935e-04    1.336768182e-04    0.000000000e+00    0.000000000e+00    0.000000000e+00    0.000000000e+00
      274750000    8.892391925e-04    7.399617434e-01    3.624039236e-04    1.424771035e-04    0.000000000e+00    0.000000000e+00    0.000000000e+00    0.000000000e+00
      276375000    2.245940454e-02    7.363621593e-01    3.717441286e-04    1.510410220e-04    0.000000000e+00    0.000000000e+00    0.000000000e+00    0.000000000e+00
      278000000    4.386133701e-02    7.322812676e-01    3.699236258e-04    1.483840024e-04    0.000000000e+00    0.000000000e+00    0.000000000e+00    0.000000000e+00
      279625000    6.499990821e-02    7.277759910e-01    3.607847902e-04    1.245267631e-04    0.000000000e+00    0.000000000e+00    0.000000000e+00    0.000000000e+00
      281250000    8.599655330e-02    7.224919796e-01    3.594663867e-04    1.275282266e-04    0.000000000e+00    0.000000000e+00    0.000000000e+00    0.000000000e+00
      282875000    1.066853553e-01    7.169111967e-01    3.290156892e-04    1.107370699e-04    0.000000000e+00    0.000000000e+00    0.000000000e+00    0.000000000e+00
      284500000    1.270066500e-01    7.105794549e-01    3.163932124e-04    9.416419198e-05    0.000000000e+00    0.000000000e+00    0.000000000e+00    0.000000000e+00
      286125000    1.471548229e-01    7.038721442e-01    3.489752416e-04    1.163657289e-04    0.000000000e+00    0.000000000e+00    0.000000000e+00    0.000000000e+00
      287750000    1.671223789e-01    6.968241334e-01    3.117981541e-04    1.145944843e-04    0.000000000e+00    0.000000000e+00    0.000000000e+00    0.000000000e+00
      289375000    1.865774095e-01    6.886574626e-01    3.210089344e-04    1.084159958e-04    0.000000000e+00    0.000000000e+00    0.000000000e+00    0.000000000e+00
      291000000    1.021920666e-01    6.493595839e-01   -3.858833588e-05   -5.841022721e-05    0.000000000e+00    0.000000000e+00    0.000000000e+00    0.000000000e+00
      292625000    1.206205040e-01    6.420714855e-01    5.567092012e-05    4.241931674e-05    0.000000000e+00    0.000000000e+00    0.000000000e+00    0.000000000e+00
      294250000    1.383178830e-01    6.359331608e-01   -8.403506217e-05    2.611678792e-05    0.000000000e+00    0.000000000e+00    0.000000000e+00    0.000000000e+00
      295875000    1.561321914e-01    6.285064220e-01    7.197183731e-05    4.992973118e-05    0.000000000e+00    0.000000000e+00    0.000000000e+00    0.000000000e+00
      297500000    1.737804562e-01    6.207230687e-01    2.417922396e-08    7.681774150e-05    0.000000000e+00    0.000000000e+00    0.000000000e+00    0.000000000e+00
      299125000    1.910595298e-01    6.131122112e-01   -8.374165191e-05   -6.235426099e-06    0.000000000e+00    0.000000000e+00    0.000000000e+00    0.000000000e+00
      300750000    2.077767551e-01    6.048526764e-01    5.223456810e-06   -1.079629437e-04    0.000000000e+00    0.000000000e+00    0.000000000e+00    0.000000000e+00
      302375000    2.242844850e-01    5.960788727e-01   -3.897628267e-05    6.743655831e-05    0.000000000e+00    0.000000000e+00    0.000000000e+00    0.000000000e+00
      304000000    2.405409068e-01    5.865043402e-01    2.220313036e-05    1.521476224e-05    0.000000000e+00    0.000000000e+00    0.000000000e+00    0.000000000e+00
      305625000    2.567977905e-01    5.771661997e-01   -1.121374007e-04   -5.151667210e-05    0.000000000e+00    0.000000000e+00    0.000000000e+00    0.000000000e+00
      307250000    2.742245197e-01    5.682144165e-01    3.853215094e-05   -3.768960232e-05    0.000000000e+00    0.000000000e+00    0.000000000e+00    0.000000000e+00
      308875000    2.867133617e-01    5.557972193e-01   -1.589244494e-04    8.976081881e-05    0.000000000e+00    0.000000000e+00    0.000000000e+00    0.000000000e+00
      310500000    3.016407490e-01    5.458441973e-01   -3.928417209e-05    1.440238339e-05    0.000000000e+00    0.000000000e+00    0.000000000e+00    0.000000000e+00
      312125000    3.162660599e-01    5.347393751e-01   -2.992406371e-05    1.359563612e-04    0.000000000e+00    0.000000000e+00    0.000000000e+00    0.000000000e+00
      313750000    3.299184144e-01    5.233938098e-01   -9.745643911e-05    3.738624218e-05    0.000000000e+00    0.000000000e+00    0.000000000e+00    0.000000000e+00
      315375000    3.428249657e-01    5.116630197e-01    4.981704114e-05    8.795581380e-05    0.000000000e+00    0.000000000e+00    0.000000000e+00    0.000000000e+00
      317000000    3.565837741e-01    4.999782443e-01   -1.400327455e-04    1.652024075e-04    0.000000000e+00    0.000000000e+00    0.000000000e+00    0.000000000e+00
      318625000    3.691685200e-01    4.876298010e-01   -2.743583991e-06   -4.760924276e-05    0.000000000e+00    0.000000000e+00    0.000000000e+00    0.000000000e+00
      320250000    3.816695213e-01    4.757485092e-01   -1.836486481e-04    7.983943215e-05    0.000000000e+00    0.000000000e+00    0.000000000e+00    0.000000000e+00
      321875000    3.936435878e-01    4.629680216e-01   -1.179319734e-04    2.271470657e-05    0.000000000e+00    0.000000000e+00    0.000000000e+00    0.000000000e+00
      323500000    4.053325653e-01    4.498531520e-01   -1.929422579e-04   -5.547076944e-05    0.000000000e+00    0.000000000e+00    0.000000000e+00    0.000000000e+00
      325125000    4.166623354e-01    4.375000000e-01   -5.349014828e-05   -1.020085983e-04    0.000000000e+00    0.000000000e+00    0.000000000e+00    0.000000000e+00
      326750000    4.275101423e-01    4.239111245e-01   -7.631265908e-05   -7.780461601e-05    0.000000000e+00    0.000000000e+00    0.000000000e+00    0.000000000e+00
      328375000    4.380218685e-01    4.104443491e-01   -1.417436288e-04    1.435102458e-04    0.000000000e+00    0.000000000e+00    0.000000000e+00    0.000000000e+00
      330000000    4.476429224e-01    3.969738483e-01    1.052686639e-04    1.384917687e-05    0.000000000e+00    0.000000000e+00    0.000000000e+00    0.000000000e+00
      331625000    4.575946331e-01    3.832255304e-01   -1.191012343e-04    1.164508139e-04    0.000000000e+00    0.000000000e+00    0.000000000e+00    0.000000000e+00
      333250000    4.666994512e-01    3.693071604e-01    1.367646291e-06    5.992247679e-05    0.000000000e+00    0.000000000e+00    0.000000000e+00    0.000000000e+00
      334875000    4.758282304e-01    3.549176753e-01    2.623026558e-05   -7.389001985e-05    0.000000000e+00    0.000000000e+00    0.000000000e+00    0.000000000e+00
      336500000    4.838481247e-01    3.408740461e-01   -7.924937563e-06    2.471868356e-05    0.000000000e+00    0.000000000e+00    0.000000000e+00    0.000000000e+00
      338125000    4.924352765e-01    3.266135454e-01    7.851342616e-07    3.652683517e-05    0.000000000e+00    0.000000000e+00    0.000000000e+00    0.000000000e+00
      339750000    5.000374913e-01    3.123845160e-01    2.560432404e-05    4.707782864e-06    0.000000000e+00    0.000000000e+00    0.000000000e+00    0.000000000e+00
      341375000    5.073229671e-01    2.976923585e-01   -1.206547768e-05    3.597324394e-05    0.000000000e+00    0.000000000e+00    0.000000000e+00    0.000000000e+00
      343000000    5.142676830e-01    2.833642364e-01   -1.289893262e-04    8.066243754e-05    0.000000000e+00    0.000000000e+00    0.000000000e+00    0.000000000e+00
      344625000    5.206865668e-01    2.687664628e-01   -3.866800398e-05   -3.563682912e-05    0.000000000e+00    0.000000000e+00    0.000000000e+00    0.000000000e+00
      346250000    5.270480514e-01    2.541940510e-01   -2.745403035e-04   -1.160945467e-04    0.000000000e+00    0.000000000e+00    0.000000000e+00    0.000000000e+00
      347875000    5.330551863e-01    2.394009233e-01   -1.283089514e-04    8.813938621e-05    0.000000000e+00    0.000000000e+00    0.000000000e+00    0.000000000e+00
      349500000    5.385144353e-01    2.245193869e-01    6.147543900e-05   -4.545502452e-05    0.000000000e+00    0.000000000e+00    0.000000000e+00    0.000000000e+00
      351125000    5.434044600e-01    2.097985297e-01    2.367531670e-05   -1.277159981e-06    0.000000000e+00    0.000000000e+00    0.000000000e+00    0.000000000e+00
      352750000    5.483652949e-01    1.948651671e-01   -5.307508400e-05    1.492060164e-05    0.000000000e+00    0.000000000e+00    0.000000000e+00    0.000000000e+00
      354375000    5.527008176e-01    1.797196865e-01   -7.256120443e-05   -5.232996773e-05    0.000000000e+00    0.000000000e+00    0.000000000e+00    0.000000000e+00
      356000000    5.566367507e-01    1.650366336e-01    8.269772479e-06   -4.869942131e-05    0.000000000e+00    0.000000000e+00    0.000000000e+00    0.000000000e+00
      357625000    5.605273843e-01    1.500825137e-01   -2.903882341e-05   -7.187682786e-05    0.000000000e+00    0.000000000e+00    0.000000000e+00    0.000000000e+00
      359250000    5.635328293e-01    1.348513961e-01   -1.090627338e-04    6.425946049e-05    0.000000000e+00    0.000000000e+00    0.000000000e+00    0.000000000e+00
      360875000    5.667378306e-01    1.201790869e-01   -5.029404929e-05    2.576681618e-05    0.000000000e+00    0.000000000e+00    0.000000000e+00    0.000000000e+00
      362500000    5.696513653e-01    1.049944684e-01   -8.087162132e-05    1.032796936e-04    0.000000000e+00    0.000000000e+00    0.000000000e+00    0.000000000e+00
      364125000    5.720745325e-01    9.002160281e-02   -1.252851325e-05    5.696122753e-05    0.000000000e+00    0.000000000e+00    0.000000000e+00    0.000000000e+00
      365750000    5.740569234e-01    7.513146847e-02   -1.466422254e-04   -1.457195322e-04    0.000000000e+00    0.000000000e+00    0.000000000e+00    0.000000000e+00
      367375000    5.755395889e-01    6.021621451e-02    6.241890515e-05   -9.067080100e-06    0.000000000e+00    0.000000000e+00    0.000000000e+00    0.000000000e+00
      369000000    5.771884918e-01    4.547337815e-02   -6.761978875e-05   -4.703352897e-05    0.000000000e+00    0.000000000e+00    0.000000000e+00    0.000000000e+00
      370625000    5.784411430e-01    3.049182519e-02   -2.186532365e-04   -1.610265281e-05    0.000000000e+00    0.000000000e+00    0.000000000e+00    0.000000000e+00
      372250000    5.794028640e-01    1.586326770e-02    7.354909030e-05    1.275974937e-04    0.000000000e+00    0.000000000e+00    0.000000000e+00    0.000000000e+00
      373875000    5.796979070e-01    8.998537087e-04   -6.595021114e-05   -1.174639601e-05    0.000000000e+00    0.000000000e+00    0.000000000e+00    0.000000000e+00
      375500000    5.795418620e-01   -1.374478824e-02   -1.161691544e-04   -5.220563253e-05    0.000000000e+00    0.000000000e+00    0.000000000e+00    0.000000000e+00
      377125000    5.795561075e-01   -2.833240852e-02   -7.966862904e-05   -2.449038766e-05    0.000000000e+00    0.000000000e+00    0.000000000e+00    0.000000000e+00
      378750000    5.790982842e-01   -4.306782410e-02   -3.357840615e-05    1.160963366e-04    0.000000000e+00    0.000000000e+00    0.000000000e+00    0.000000000e+00
      380375000    5.782358050e-01   -5.779556185e-02   -1.798852027e-04    8.740720659e-05    0.000000000e+00    0.000000000e+00    0.000000000e+00    0.000000000e+00
      382000000    5.771966577e-01   -7.233807445e-02   -1.658159308e-04   -3.247625045e-06    0.000000000e+00    0.000000000e+00    0.000000000e+00    0.000000000e+00
      383625000    5.754646659e-01   -8.668600023e-02   -7.198304229e-05    8.310031262e-05    0.000000000e+00    0.000000000e+00    0.000000000e+00    0.000000000e+00
      385250000    5.739024878e-01   -1.011394113e-01   -1.007623432e-04    7.712766819e-05    0.000000000e+00    0.000000000e+00    0.000000000e+00    0.000000000e+00
      386875000    5.720028281e-01   -1.154866815e-01   -7.545150584e-05   -9.768387827e-06    0.000000000e+00    0.000000000e+00    0.000000000e+00    0.000000000e+00
      388500000    5.696032643e-01   -1.296982914e-01   -2.103096995e-05    2.224329946e-04    0.000000000e+00    0.000000000e+00    0.000000000e+00    0.000000000e+00
