! NanoVNA-App
! Date: 2024-06-25 16:51:05
! Start: 200MHz Stop: 1.5GHz Points: 801
! S-Parameter data: F S11 S21 S12 S22
# Hz S RI R 50
!     Frequency           S11_Real           S11_Imag           S21_Real           S21_Imag           S12_Real           S12_Imag           S22_Real           S22_Imag
      200000000   -8.493390083e-01    1.463129669e-01    1.751138334e-04    5.770932694e-05    0.000000000e+00    0.000000000e+00    0.000000000e+00    0.000000000e+00
      201625000   -8.433094621e-01    1.729381233e-01    1.785410714e-04    5.179066648e-05    0.000000000e+00    0.000000000e+00    0.000000000e+00    0.000000000e+00
      203250000   -8.366115689e-01    1.992506087e-01    2.237800654e-04    4.935804463e-05    0.000000000e+00    0.000000000e+00    0.000000000e+00    0.000000000e+00
      204875000   -8.287624717e-01    2.252210081e-01    2.278082247e-04    7.928229024e-05    0.000000000e+00    0.000000000e+00    0.000000000e+00    0.000000000e+00
      206500000   -8.200878501e-01    2.508386970e-01    2.496724483e-04    6.299810775e-05    0.000000000e+00    0.000000000e+00    0.000000000e+00    0.000000000e+00
      208125000   -8.105580211e-01    2.759827673e-01    2.480251715e-04    9.226582188e-05    0.000000000e+00    0.000000000e+00    0.000000000e+00    0.000000000e+00
      209750000   -8.001787663e-01    3.008358479e-01    2.706368396e-04    9.589857655e-05    0.000000000e+00    0.000000000e+00    0.000000000e+00    0.000000000e+00
      211375000   -7.887858748e-01    3.250614107e-01    2.511091880e-04    1.021767312e-04    0.000000000e+00    0.000000000e+00    0.000000000e+00    0.000000000e+00
      213000000   -7.767084241e-01    3.488663435e-01    2.817261557e-04    1.040002535e-04    0.000000000e+00    0.000000000e+00    0.000000000e+00    0.000000000e+00
      214625000   -7.638868690e-01    3.720448911e-01    2.700785117e-04    9.841070278e-05    0.000000000e+00    0.000000000e+00    0.000000000e+00    0.000000000e+00
      216250000   -7.500868440e-01    3.947712481e-01    2.868578595e-04    1.172724078e-04    0.000000000e+00    0.000000000e+00    0.000000000e+00    0.000000000e+00
      217875000   -7.357747555e-01    4.168438017e-01    2.837234060e-04    1.130138116e-04    0.000000000e+00    0.000000000e+00    0.000000000e+00    0.000000000e+00
      219500000   -7.205977440e-01    4.381878376e-01    2.842678223e-04    1.014830777e-04    0.000000000e+00    0.000000000e+00    0.000000000e+00    0.000000000e+00
      221125000   -7.049176693e-01    4.591501355e-01    2.848368895e-04    1.265814644e-04    0.000000000e+00    0.000000000e+00    0.000000000e+00    0.000000000e+00
      222750000   -6.883785129e-01    4.792777300e-01    3.077577276e-04    1.151896649e-04    0.000000000e+00    0.000000000e+00    0.000000000e+00    0.000000000e+00
      224375000   -6.713747978e-01    4.988083243e-01    3.173008736e-04    9.327990119e-05    0.000000000e+00    0.000000000e+00    0.000000000e+00    0.000000000e+00
      226000000   -6.537548304e-01    5.176082253e-01    3.380223352e-04    1.384167408e-04    0.000000000e+00    0.000000000e+00    0.000000000e+00    0.000000000e+00
      227625000   -6.355106831e-01    5.356954336e-01    3.260138328e-04    1.374472922e-04    0.000000000e+00    0.000000000e+00    0.000000000e+00    0.000000000e+00
      229250000   -6.168462634e-01    5.532481074e-01    3.090473183e-04    1.236904645e-04    0.000000000e+00    0.000000000e+00    0.000000000e+00    0.000000000e+00
      230875000   -5.976457000e-01    5.699018836e-01    3.113958810e-04    1.273050148e-04    0.000000000e+00    0.000000000e+00    0.000000000e+00    0.000000000e+00
      232500000   -5.779005289e-01    5.858616233e-01    3.114002466e-04    1.499300852e-04    0.000000000e+00    0.000000000e+00    0.000000000e+00    0.000000000e+00
      234125000   -5.579072237e-01    6.008998156e-01    3.263177932e-04    1.341286843e-04    0.000000000e+00    0.000000000e+00    0.000000000e+00    0.000000000e+00
      235750000   -5.371959805e-01    6.155676842e-01    3.354579967e-04    1.459916239e-04    0.000000000e+00    0.000000000e+00    0.000000000e+00    0.000000000e+00
      237375000   -5.165522695e-01    6.290286183e-01    3.463502508e-04    1.379467139e-04    0.000000000e+00    0.000000000e+00    0.000000000e+00    0.000000000e+00
      239000000   -4.953400493e-01    6.420067549e-01    3.396446118e-04    1.481496729e-04    0.000000000e+00    0.000000000e+00    0.000000000e+00    0.000000000e+00
      240625000   -4.738219976e-01    6.541745067e-01    3.434270038e-04    9.992771083e-05    0.000000000e+00    0.000000000e+00    0.000000000e+00    0.000000000e+00
      242250000   -4.518854022e-01    6.656129360e-01    3.427260090e-04    1.463604858e-04    0.000000000e+00    0.000000000e+00    0.000000000e+00    0.000000000e+00
      243875000   -4.297331572e-01    6.763330102e-01    3.488016664e-04    1.300260337e-04    0.000000000e+00    0.000000000e+00    0.000000000e+00    0.000000000e+00
      245500000   -4.070230126e-01    6.862457991e-01    3.289110318e-04    1.421773486e-04    0.000000000e+00    0.000000000e+00    0.000000000e+00    0.000000000e+00
      247125000   -3.844903409e-01    6.956574917e-01    3.530692484e-04    1.326703496e-04    0.000000000e+00    0.000000000e+00    0.000000000e+00    0.000000000e+00
      248750000   -3.614723682e-01    7.042862773e-01    3.762052802e-04    1.477270707e-04    0.000000000e+00    0.000000000e+00    0.000000000e+00    0.000000000e+00
      250375000   -3.386133015e-01    7.121167183e-01    3.691580787e-04    1.448320691e-04    0.000000000e+00    0.000000000e+00    0.000000000e+00    0.000000000e+00
      252000000   -3.156101108e-01    7.189124823e-01    3.839840938e-04    1.206354646e-04    0.000000000e+00    0.000000000e+00    0.000000000e+00    0.000000000e+00
      253625000   -2.927381992e-01    7.251142859e-01    3.764070279e-04    1.395434665e-04    0.000000000e+00    0.000000000e+00    0.000000000e+00    0.000000000e+00
      255250000   -2.698285878e-01    7.304971218e-01    3.634975874e-04    1.263811864e-04    0.000000000e+00    0.000000000e+00    0.000000000e+00    0.000000000e+00
      256875000   -2.468065470e-01    7.350534797e-01    3.572024580e-04    1.740475564e-04    0.000000000e+00    0.000000000e+00    0.000000000e+00    0.000000000e+00
      258500000   -2.238097638e-01    7.391262054e-01    3.669199650e-04    1.433135330e-04    0.000000000e+00    0.000000000e+00    0.000000000e+00    0.000000000e+00
      260125000   -2.010002136e-01    7.422130704e-01    3.648729180e-04    1.313001267e-04    0.000000000e+00    0.000000000e+00    0.000000000e+00    0.000000000e+00
      261750000   -1.780679077e-01    7.449049354e-01    3.720726818e-04    1.248388289e-04    0.000000000e+00    0.000000000e+00    0.000000000e+00    0.000000000e+00
      263375000   -1.553596705e-01    7.465587258e-01    3.566972737e-04    1.384019415e-04    0.000000000e+00    0.000000000e+00    0.000000000e+00    0.000000000e+00
      265000000   -1.326458603e-01    7.475440502e-01    3.498859296e-04    1.434187579e-04    0.000000000e+00    0.000000000e+00    0.000000000e+00    0.000000000e+00
      266625000   -1.102229059e-01    7.477825284e-01    3.556110605e-04    1.249103516e-04    0.000000000e+00    0.000000000e+00    0.000000000e+00    0.000000000e+00
      268250000   -8.752226084e-02    7.475735545e-01    3.675330663e-04    1.370850950e-04    0.000000000e+00    0.000000000e+00    0.000000000e+00    0.000000000e+00
      269875000   -6.518604606e-02    7.464717627e-01    3.674898180e-04    1.149686796e-04    0.000000000e+00    0.000000000e+00    0.000000000e+00    0.000000000e+00
      271500000   -4.297308624e-02    7.448816895e-01    3.562531783e-04    1.396302396e-04    0.000000000e+00    0.000000000e+00    0.000000000e+00    0.000000000e+00
      273125000   -2.094061673e-02    7.426996827e-01    3.724224807e-04    1.346114004e-04    0.000000000e+00    0.000000000e+00    0.000000000e+00    0.000000000e+00
      274750000    8.333664155e-04    7.399626970e-01    3.696224012e-04    1.537145872e-04    0.000000000e+00    0.000000000e+00    0.000000000e+00    0.000000000e+00
      276375000    2.258968167e-02    7.365432978e-01    3.564179642e-04    1.191517003e-04    0.000000000e+00    0.000000000e+00    0.000000000e+00    0.000000000e+00
      278000000    4.382306337e-02    7.324902415e-01    3.425059840e-04    1.275206014e-04    0.000000000e+00    0.000000000e+00    0.000000000e+00    0.000000000e+00
      279625000    6.507855654e-02    7.279222012e-01    3.869379871e-04    1.221242128e-04    0.000000000e+00    0.000000000e+00    0.000000000e+00    0.000000000e+00
      281250000    8.592932671e-02    7.225348949e-01    3.543588682e-04    1.568831212e-04    0.000000000e+00    0.000000000e+00    0.000000000e+00    0.000000000e+00
      282875000    1.064488664e-01    7.168785334e-01    3.296015493e-04    1.519919606e-04    0.000000000e+00    0.000000000e+00    0.000000000e+00    0.000000000e+00
      284500000    1.271152198e-01    7.106999159e-01    3.513494739e-04    1.073197636e-04    0.000000000e+00    0.000000000e+00    0.000000000e+00    0.000000000e+00
      286125000    1.470875144e-01    7.037531137e-01    3.328442108e-04    1.288918138e-04    0.000000000e+00    0.000000000e+00    0.000000000e+00    0.000000000e+00
      287750000    1.672010571e-01    6.968324780e-01    3.324981371e-04    1.420267945e-04    0.000000000e+00    0.000000000e+00    0.000000000e+00    0.000000000e+00
      289375000    1.864265352e-01    6.887667179e-01    3.301402612e-04    1.086392294e-04    0.000000000e+00    0.000000000e+00    0.000000000e+00    0.000000000e+00
      291000000    1.014515832e-01    6.495082974e-01    1.313193789e-04    1.387039520e-04    0.000000000e+00    0.000000000e+00    0.000000000e+00    0.000000000e+00
      292625000    1.204205528e-01    6.427597404e-01   -1.211930357e-04   -2.056935773e-05    0.000000000e+00    0.000000000e+00    0.000000000e+00    0.000000000e+00
      294250000    1.384783685e-01    6.357471943e-01   -8.602474554e-05    7.270432980e-05    0.000000000e+00    0.000000000e+00    0.000000000e+00    0.000000000e+00
      295875000    1.560517401e-01    6.285783052e-01   -1.357105793e-05    4.207793609e-05    0.000000000e+00    0.000000000e+00    0.000000000e+00    0.000000000e+00
      297500000    1.740374565e-01    6.211477518e-01   -8.139117563e-05   -3.780486077e-05    0.000000000e+00    0.000000000e+00    0.000000000e+00    0.000000000e+00
      299125000    1.910393834e-01    6.139095426e-01   -4.267409895e-05   -1.240739402e-05    0.000000000e+00    0.000000000e+00    0.000000000e+00    0.000000000e+00
      300750000    2.081360370e-01    6.042910814e-01    3.698048204e-06    1.278939017e-04    0.000000000e+00    0.000000000e+00    0.000000000e+00    0.000000000e+00
      302375000    2.240408808e-01    5.956357121e-01   -8.233602421e-05   -3.465608825e-05    0.000000000e+00    0.000000000e+00    0.000000000e+00    0.000000000e+00
      304000000    2.407181859e-01    5.868161321e-01   -2.011324250e-05    5.413639155e-05    0.000000000e+00    0.000000000e+00    0.000000000e+00    0.000000000e+00
      305625000    2.560053468e-01    5.770666599e-01   -2.215823952e-05   -2.326288231e-04    0.000000000e+00    0.000000000e+00    0.000000000e+00    0.000000000e+00
      307250000    2.699513435e-01    5.645461082e-01   -8.479823009e-05    2.368546848e-04    0.000000000e+00    0.000000000e+00    0.000000000e+00    0.000000000e+00
      308875000    2.864910364e-01    5.563470125e-01    1.287705254e-05    2.265510266e-04    0.000000000e+00    0.000000000e+00    0.000000000e+00    0.000000000e+00
      310500000    3.014001548e-01    5.458333492e-01   -9.158744797e-05   -2.484261677e-05    0.000000000e+00    0.000000000e+00    0.000000000e+00    0.000000000e+00
      312125000    3.160611391e-01    5.343011618e-01    5.181530469e-06    3.083748743e-05    0.000000000e+00    0.000000000e+00    0.000000000e+00    0.000000000e+00
      313750000    3.297845721e-01    5.237139463e-01   -8.829488070e-05    7.341439778e-05    0.000000000e+00    0.000000000e+00    0.000000000e+00    0.000000000e+00
      315375000    3.436290026e-01    5.119684339e-01   -9.100979514e-05    7.513637684e-05    0.000000000e+00    0.000000000e+00    0.000000000e+00    0.000000000e+00
      317000000    3.568617702e-01    5.002244711e-01   -1.651827479e-04   -2.996550938e-05    0.000000000e+00    0.000000000e+00    0.000000000e+00    0.000000000e+00
      318625000    3.698966503e-01    4.876025021e-01    7.015034498e-05    2.662403131e-05    0.000000000e+00    0.000000000e+00    0.000000000e+00    0.000000000e+00
      320250000    3.817789555e-01    4.754613042e-01   -5.874996714e-05   -1.073183284e-05    0.000000000e+00    0.000000000e+00    0.000000000e+00    0.000000000e+00
      321875000    3.942742050e-01    4.630046189e-01   -1.482019579e-04    2.924237378e-05    0.000000000e+00    0.000000000e+00    0.000000000e+00    0.000000000e+00
      323500000    4.054077566e-01    4.499871135e-01   -8.571505168e-05   -3.748278687e-05    0.000000000e+00    0.000000000e+00    0.000000000e+00    0.000000000e+00
      325125000    4.168392718e-01    4.373412132e-01   -8.588194760e-05   -7.192237535e-05    0.000000000e+00    0.000000000e+00    0.000000000e+00    0.000000000e+00
      326750000    4.274267852e-01    4.236672223e-01   -5.195105769e-05    1.053898632e-05    0.000000000e+00    0.000000000e+00    0.000000000e+00    0.000000000e+00
      328375000    4.377978146e-01    4.105277956e-01   -1.547054853e-04   -3.291981443e-07    0.000000000e+00    0.000000000e+00    0.000000000e+00    0.000000000e+00
      330000000    4.485060871e-01    3.971476555e-01   -1.192764394e-04   -1.780509047e-04    0.000000000e+00    0.000000000e+00    0.000000000e+00    0.000000000e+00
      331625000    4.575277269e-01    3.829723299e-01    1.055135158e-06   -1.687186000e-06    0.000000000e+00    0.000000000e+00    0.000000000e+00    0.000000000e+00
      333250000    4.668267071e-01    3.692027628e-01   -1.478506892e-04   -8.179724682e-05    0.000000000e+00    0.000000000e+00    0.000000000e+00    0.000000000e+00
      334875000    4.757034183e-01    3.550379574e-01   -1.242733706e-04    8.267476005e-06    0.000000000e+00    0.000000000e+00    0.000000000e+00    0.000000000e+00
      336500000    4.841549695e-01    3.411739171e-01   -6.547786325e-05    4.641152555e-05    0.000000000e+00    0.000000000e+00    0.000000000e+00    0.000000000e+00
      338125000    4.924379289e-01    3.267858922e-01   -4.971346061e-05   -1.770740027e-06    0.000000000e+00    0.000000000e+00    0.000000000e+00    0.000000000e+00
      339750000    5.001062155e-01    3.125566840e-01   -8.831555897e-05    4.987946886e-05    0.000000000e+00    0.000000000e+00    0.000000000e+00    0.000000000e+00
      341375000    5.073420405e-01    2.976737916e-01   -1.296511909e-04   -7.136958448e-05    0.000000000e+00    0.000000000e+00    0.000000000e+00    0.000000000e+00
      343000000    5.140990019e-01    2.834414542e-01   -3.664327596e-05   -2.378906356e-05    0.000000000e+00    0.000000000e+00    0.000000000e+00    0.000000000e+00
      344625000    5.207211971e-01    2.687817812e-01    8.899871318e-05   -4.535853441e-05    0.000000000e+00    0.000000000e+00    0.000000000e+00    0.000000000e+00
      346250000    5.267969966e-01    2.542550266e-01   -8.865354903e-05    2.801943083e-05    0.000000000e+00    0.000000000e+00    0.000000000e+00    0.000000000e+00
      347875000    5.327978134e-01    2.395492792e-01   -1.417807216e-04   -9.933037654e-05    0.000000000e+00    0.000000000e+00    0.000000000e+00    0.000000000e+00
      349500000    5.383273363e-01    2.247965485e-01   -2.048773695e-06    3.136003215e-05    0.000000000e+00    0.000000000e+00    0.000000000e+00    0.000000000e+00
      351125000    5.433046222e-01    2.096123695e-01   -1.333100809e-04    6.413455412e-05    0.000000000e+00    0.000000000e+00    0.000000000e+00    0.000000000e+00
      352750000    5.481889844e-01    1.947807521e-01   -6.127008965e-05   -6.265466800e-05    0.000000000e+00    0.000000000e+00    0.000000000e+00    0.000000000e+00
      354375000    5.526850820e-01    1.799343228e-01   -3.299519085e-05   -5.112910003e-05    0.000000000e+00    0.000000000e+00    0.000000000e+00    0.000000000e+00
      356000000    5.565444231e-01    1.651033163e-01    4.409792746e-05   -1.243322185e-04    0.000000000e+00    0.000000000e+00    0.000000000e+00    0.000000000e+00
      357625000    5.604925156e-01    1.500284523e-01   -6.372960343e-05   -1.207947280e-04    0.000000000e+00    0.000000000e+00    0.000000000e+00    0.000000000e+00
      359250000    5.638849735e-01    1.348831952e-01   -1.258306729e-04    5.380344373e-05    0.000000000e+00    0.000000000e+00    0.000000000e+00    0.000000000e+00
      360875000    5.668945312e-01    1.199722290e-01    6.642780500e-05    1.024045632e-04    0.000000000e+00    0.000000000e+00    0.000000000e+00    0.000000000e+00
      362500000    5.695875883e-01    1.050545424e-01   -9.855774260e-05   -2.781570583e-05    0.000000000e+00    0.000000000e+00    0.000000000e+00    0.000000000e+00
      364125000    5.722314715e-01    9.026434273e-02   -7.541540253e-05   -2.968550689e-05    0.000000000e+00    0.000000000e+00    0.000000000e+00    0.000000000e+00
      365750000    5.741597414e-01    7.530179620e-02    2.753082845e-05    6.738333468e-05    0.000000000e+00    0.000000000e+00    0.000000000e+00    0.000000000e+00
      367375000    5.758510232e-01    6.032648310e-02   -3.565677616e-05   -1.138066546e-05    0.000000000e+00    0.000000000e+00    0.000000000e+00    0.000000000e+00
      369000000    5.773799419e-01    4.538498074e-02   -7.634428039e-05   -9.507602044e-06    0.000000000e+00    0.000000000e+00    0.000000000e+00    0.000000000e+00
      370625000    5.784915686e-01    3.066394851e-02   -6.759258395e-05    2.169037180e-05    0.000000000e+00    0.000000000e+00    0.000000000e+00    0.000000000e+00
      372250000    5.791925192e-01    1.554132998e-02   -2.860322711e-04    1.055756366e-04    0.000000000e+00    0.000000000e+00    0.000000000e+00    0.000000000e+00
      373875000    5.797066689e-01    8.979101549e-04    5.693132698e-05   -1.663615149e-05    0.000000000e+00    0.000000000e+00    0.000000000e+00    0.000000000e+00
      375500000    5.796507001e-01   -1.375294663e-02   -4.743501995e-05   -2.669785681e-05    0.000000000e+00    0.000000000e+00    0.000000000e+00    0.000000000e+00
      377125000    5.794583559e-01   -2.840816788e-02   -1.758655999e-04    1.359984599e-04    0.000000000e+00    0.000000000e+00    0.000000000e+00    0.000000000e+00
      378750000    5.787734389e-01   -4.303258285e-02   -9.425049211e-05    1.817447774e-04    0.000000000e+00    0.000000000e+00    0.000000000e+00    0.000000000e+00
      380375000    5.781800151e-01   -5.751033127e-02   -1.276291150e-04    7.086311962e-05    0.000000000e+00    0.000000000e+00    0.000000000e+00    0.000000000e+00
      382000000    5.770335197e-01   -7.230511308e-02   -1.978336804e-04   -1.991327154e-04    0.000000000e+00    0.000000000e+00    0.000000000e+00    0.000000000e+00
      383625000    5.755193830e-01   -8.679790795e-02   -1.016201932e-04    8.287732635e-05    0.000000000e+00    0.000000000e+00    0.000000000e+00    0.000000000e+00
      385250000    5.739511251e-01   -1.011336222e-01   -1.001702985e-04    1.258931734e-04    0.000000000e+00    0.000000000e+00    0.000000000e+00    0.000000000e+00
      386875000    5.719127059e-01   -1.155010983e-01   -1.297318086e-04    9.625469102e-05    0.000000000e+00    0.000000000e+00    0.000000000e+00    0.000000000e+00
      388500000    5.694527626e-01   -1.298190355e-01   -1.062761294e-04    2.054233482e-04    0.000000000e+00    0.000000000e+00    0.000000000e+00    0.000000000e+00
