! NanoVNA-App by OneOfEleven et al v1.1.209 (+OD15) 
! Date: 2024-07-30 15:15:21
! Start: 200MHz Stop: 6GHz Points: 801
! S-Parameter data: F S11 S21 S12 S22
# Hz S RI R 50
!     Frequency           S11_Real           S11_Imag           S21_Real           S21_Imag           S12_Real           S12_Imag           S22_Real           S22_Imag
      200000000   -1.066276454e-03   -7.223952562e-04   -8.535028428e-06   -2.490674160e-05    0.000000000e+00    0.000000000e+00    0.000000000e+00    0.000000000e+00
      207250000   -1.303999219e-03    1.705619979e-05   -2.552777914e-05    1.446926149e-06    0.000000000e+00    0.000000000e+00    0.000000000e+00    0.000000000e+00
      214500000   -1.577425515e-03    9.576097946e-04   -2.550253339e-05   -2.594188481e-05    0.000000000e+00    0.000000000e+00    0.000000000e+00    0.000000000e+00
      221750000   -1.527067507e-03   -2.706021769e-04    2.677357713e-07   -1.647508384e-06    0.000000000e+00    0.000000000e+00    0.000000000e+00    0.000000000e+00
      229000000   -5.369958235e-04    1.470369985e-03    1.145083615e-06    2.588779353e-05    0.000000000e+00    0.000000000e+00    0.000000000e+00    0.000000000e+00
      236250000   -1.644616947e-03    7.670808118e-04    9.176125786e-06   -4.776637979e-06    0.000000000e+00    0.000000000e+00    0.000000000e+00    0.000000000e+00
      243500000   -1.474166405e-03    7.878271863e-04   -1.655336018e-05   -1.127526139e-05    0.000000000e+00    0.000000000e+00    0.000000000e+00    0.000000000e+00
      250750000   -1.673611929e-03   -5.047272862e-05   -5.277071250e-05    1.154410711e-05    0.000000000e+00    0.000000000e+00    0.000000000e+00    0.000000000e+00
      258000000   -1.167803071e-03    5.501956912e-04    2.829949324e-07   -2.898303137e-06    0.000000000e+00    0.000000000e+00    0.000000000e+00    0.000000000e+00
      265250000   -1.437292551e-03    9.315020288e-04   -2.017136649e-05   -5.120693459e-06    0.000000000e+00    0.000000000e+00    0.000000000e+00    0.000000000e+00
      272500000   -9.349180618e-04    4.079810169e-04    1.090359092e-05    4.155845818e-05    0.000000000e+00    0.000000000e+00    0.000000000e+00    0.000000000e+00
      279750000    1.220044214e-04   -1.483815049e-05   -2.025132380e-05   -9.727985343e-06    0.000000000e+00    0.000000000e+00    0.000000000e+00    0.000000000e+00
      287000000   -1.143900910e-03    1.557801879e-04    1.892970249e-05   -9.845255136e-07    0.000000000e+00    0.000000000e+00    0.000000000e+00    0.000000000e+00
      294250000   -4.945289111e-04    1.736385457e-05   -1.857117968e-05    1.250294827e-05    0.000000000e+00    0.000000000e+00    0.000000000e+00    0.000000000e+00
      301500000   -6.562435301e-04    6.992811686e-04    7.244394055e-06   -1.494169965e-06    0.000000000e+00    0.000000000e+00    0.000000000e+00    0.000000000e+00
      308750000   -1.043482916e-03   -1.038237591e-03    1.166736274e-05   -9.884156498e-06    0.000000000e+00    0.000000000e+00    0.000000000e+00    0.000000000e+00
      316000000   -1.145925256e-03    4.207935999e-04    8.847743629e-06    2.081781895e-05    0.000000000e+00    0.000000000e+00    0.000000000e+00    0.000000000e+00
      323250000   -4.549682781e-04    5.374807515e-04   -9.375693480e-06   -1.544784027e-05    0.000000000e+00    0.000000000e+00    0.000000000e+00    0.000000000e+00
      330500000   -1.275220653e-03    2.714464208e-04    2.398759898e-05   -2.952866271e-05    0.000000000e+00    0.000000000e+00    0.000000000e+00    0.000000000e+00
      337750000   -1.076322398e-03   -9.662567754e-05    2.617084647e-05    1.887125109e-06    0.000000000e+00    0.000000000e+00    0.000000000e+00    0.000000000e+00
      345000000    5.515400553e-04   -1.014210517e-03   -5.853015409e-06    1.179898936e-05    0.000000000e+00    0.000000000e+00    0.000000000e+00    0.000000000e+00
      352250000   -8.842325769e-04    4.350818017e-06   -6.007891352e-05    2.602455243e-05    0.000000000e+00    0.000000000e+00    0.000000000e+00    0.000000000e+00
      359500000   -1.041639014e-03   -3.241467130e-05   -4.554960924e-06   -1.581471042e-05    0.000000000e+00    0.000000000e+00    0.000000000e+00    0.000000000e+00
      366750000   -1.256971038e-03    1.091596641e-04    3.824388477e-05    2.433843474e-05    0.000000000e+00    0.000000000e+00    0.000000000e+00    0.000000000e+00
      374000000   -8.421529783e-04    2.562666486e-04    2.425543244e-05   -3.108071178e-05    0.000000000e+00    0.000000000e+00    0.000000000e+00    0.000000000e+00
      381250000   -3.736517101e-04   -6.977894809e-04   -1.545829582e-05   -1.379240075e-05    0.000000000e+00    0.000000000e+00    0.000000000e+00    0.000000000e+00
      388500000   -8.047341835e-04    2.719168551e-04    1.401529062e-05   -1.579365744e-05    0.000000000e+00    0.000000000e+00    0.000000000e+00    0.000000000e+00
      395750000   -2.699651523e-04   -2.146167972e-04   -1.603924829e-05    1.422140122e-05    0.000000000e+00    0.000000000e+00    0.000000000e+00    0.000000000e+00
      403000000   -1.071597333e-03   -1.014021618e-04    8.991581126e-06   -3.261281563e-06    0.000000000e+00    0.000000000e+00    0.000000000e+00    0.000000000e+00
      410250000   -9.254754987e-04    1.757269492e-04    1.815904398e-05    1.150029402e-05    0.000000000e+00    0.000000000e+00    0.000000000e+00    0.000000000e+00
      417500000   -1.103388844e-03   -1.300725708e-04   -1.459551277e-05   -3.221613588e-05    0.000000000e+00    0.000000000e+00    0.000000000e+00    0.000000000e+00
      424750000   -8.130280185e-05    1.193735516e-04    2.207083526e-05   -1.858767973e-05    0.000000000e+00    0.000000000e+00    0.000000000e+00    0.000000000e+00
      432000000   -1.129515818e-03   -5.157254782e-05   -4.082119995e-05    1.506242256e-06    0.000000000e+00    0.000000000e+00    0.000000000e+00    0.000000000e+00
      439250000   -1.440657419e-03    4.130178422e-05    1.634914588e-05    4.427921886e-05    0.000000000e+00    0.000000000e+00    0.000000000e+00    0.000000000e+00
      446500000   -8.438599179e-04   -1.572768997e-05    3.307700172e-05   -1.061450462e-06    0.000000000e+00    0.000000000e+00    0.000000000e+00    0.000000000e+00
      453750000   -7.274748059e-04    5.670086830e-04   -2.070238588e-05    3.003572829e-06    0.000000000e+00    0.000000000e+00    0.000000000e+00    0.000000000e+00
      461000000   -1.558231772e-03    1.183321350e-03    3.977531742e-05   -3.285100775e-06    0.000000000e+00    0.000000000e+00    0.000000000e+00    0.000000000e+00
      468250000   -1.165387337e-03   -2.160572876e-06   -2.350391514e-05    7.872339665e-06    0.000000000e+00    0.000000000e+00    0.000000000e+00    0.000000000e+00
      475500000   -9.042040328e-04    5.896521616e-04    5.936223715e-06    7.985684533e-06    0.000000000e+00    0.000000000e+00    0.000000000e+00    0.000000000e+00
      482750000   -1.151396427e-03    9.739478119e-04   -7.583219485e-06   -5.478981166e-06    0.000000000e+00    0.000000000e+00    0.000000000e+00    0.000000000e+00
      490000000   -3.920932650e-04    6.695853663e-04    1.044411692e-05    3.757010199e-05    0.000000000e+00    0.000000000e+00    0.000000000e+00    0.000000000e+00
      497250000   -2.252063423e-04   -3.369193291e-04    1.669879930e-05    3.119330358e-05    0.000000000e+00    0.000000000e+00    0.000000000e+00    0.000000000e+00
      504500000   -9.028588538e-04   -4.616708029e-04    1.940317088e-05   -4.346523565e-05    0.000000000e+00    0.000000000e+00    0.000000000e+00    0.000000000e+00
      511750000   -8.515388472e-04    4.771299136e-04   -3.638021099e-06    2.682021841e-05    0.000000000e+00    0.000000000e+00    0.000000000e+00    0.000000000e+00
      519000000   -3.729311575e-04   -1.499823993e-04   -1.694961952e-06   -9.294570191e-06    0.000000000e+00    0.000000000e+00    0.000000000e+00    0.000000000e+00
      526250000   -6.128591485e-04    5.663242191e-04    2.592209739e-06    2.069191214e-05    0.000000000e+00    0.000000000e+00    0.000000000e+00    0.000000000e+00
      533500000   -6.481328746e-04    5.041235127e-04   -4.632422133e-06    9.768077689e-07    0.000000000e+00    0.000000000e+00    0.000000000e+00    0.000000000e+00
      540750000   -1.098547946e-03   -1.780426974e-04   -1.398892073e-05    4.879483822e-05    0.000000000e+00    0.000000000e+00    0.000000000e+00    0.000000000e+00
      548000000   -1.178992796e-03    5.701088230e-04   -1.537509178e-07   -4.681679275e-05    0.000000000e+00    0.000000000e+00    0.000000000e+00    0.000000000e+00
      555250000   -1.152998535e-03    5.443638656e-05    3.057441063e-05   -2.332099029e-05    0.000000000e+00    0.000000000e+00    0.000000000e+00    0.000000000e+00
      562500000   -9.660815122e-04    5.504126311e-04   -4.957606052e-06    2.590108306e-05    0.000000000e+00    0.000000000e+00    0.000000000e+00    0.000000000e+00
      569750000   -1.158644329e-03    5.642912583e-04    2.176238741e-05   -1.928843267e-05    0.000000000e+00    0.000000000e+00    0.000000000e+00    0.000000000e+00
      577000000   -1.131375786e-03    1.961959788e-04    1.739519939e-05    1.246413649e-05    0.000000000e+00    0.000000000e+00    0.000000000e+00    0.000000000e+00
      584250000   -1.187544200e-03   -1.633038664e-05    4.467725012e-05    2.360534745e-05    0.000000000e+00    0.000000000e+00    0.000000000e+00    0.000000000e+00
      591500000   -8.145986940e-04    5.424587871e-04    3.157490255e-06   -1.377093781e-06    0.000000000e+00    0.000000000e+00    0.000000000e+00    0.000000000e+00
      598750000   -1.009689877e-03    4.382572079e-04    2.804153883e-05   -2.370504444e-05    0.000000000e+00    0.000000000e+00    0.000000000e+00    0.000000000e+00
      606000000   -1.183182932e-03    2.910532930e-04   -2.382096500e-05   -2.946437598e-05    0.000000000e+00    0.000000000e+00    0.000000000e+00    0.000000000e+00
      613250000   -1.109207980e-03    5.264120991e-04    6.491719432e-06   -3.424003808e-05    0.000000000e+00    0.000000000e+00    0.000000000e+00    0.000000000e+00
      620500000   -8.625535411e-04    2.818897483e-04   -2.166237027e-05   -1.833304668e-05    0.000000000e+00    0.000000000e+00    0.000000000e+00    0.000000000e+00
      627750000   -7.987315767e-04   -2.008020674e-04   -2.322081855e-05   -7.906006431e-06    0.000000000e+00    0.000000000e+00    0.000000000e+00    0.000000000e+00
      635000000   -6.456635310e-04    5.952911306e-05    3.159869448e-05   -5.459050044e-06    0.000000000e+00    0.000000000e+00    0.000000000e+00    0.000000000e+00
      642250000   -3.072864492e-04    1.993408659e-04    3.137160320e-06   -1.091238846e-05    0.000000000e+00    0.000000000e+00    0.000000000e+00    0.000000000e+00
      649500000   -1.386819291e-03    2.516405366e-04    1.539595132e-06    2.394789772e-05    0.000000000e+00    0.000000000e+00    0.000000000e+00    0.000000000e+00
      656750000   -1.297013252e-03    1.524575691e-05    3.669617945e-05    4.868677479e-06    0.000000000e+00    0.000000000e+00    0.000000000e+00    0.000000000e+00
      664000000   -1.301976037e-03    4.462265060e-04    4.225041266e-06   -1.096731194e-05    0.000000000e+00    0.000000000e+00    0.000000000e+00    0.000000000e+00
      671250000   -4.994182382e-04   -1.039436611e-04    7.787252798e-06    1.094470281e-05    0.000000000e+00    0.000000000e+00    0.000000000e+00    0.000000000e+00
      678500000   -1.290019718e-03    5.370837171e-04    3.952427141e-05    5.424291771e-07    0.000000000e+00    0.000000000e+00    0.000000000e+00    0.000000000e+00
      685750000   -6.408590125e-04   -2.229287202e-04   -4.459794582e-06    3.299948003e-05    0.000000000e+00    0.000000000e+00    0.000000000e+00    0.000000000e+00
      693000000   -2.102493541e-03   -1.282720914e-04    3.162484427e-05    3.510963870e-05    0.000000000e+00    0.000000000e+00    0.000000000e+00    0.000000000e+00
      700250000   -1.120688277e-03    2.504141012e-04   -1.096354708e-06    3.948761787e-06    0.000000000e+00    0.000000000e+00    0.000000000e+00    0.000000000e+00
      707500000   -1.830014808e-04    7.590684254e-05   -7.575887594e-06   -3.468645082e-05    0.000000000e+00    0.000000000e+00    0.000000000e+00    0.000000000e+00
      714750000   -1.565112383e-03    2.891756303e-04   -4.216366051e-06   -5.521054391e-06    0.000000000e+00    0.000000000e+00    0.000000000e+00    0.000000000e+00
      722000000   -6.597618340e-04    8.792819244e-06   -1.754185178e-05   -3.679329166e-05    0.000000000e+00    0.000000000e+00    0.000000000e+00    0.000000000e+00
      729250000   -1.421323628e-03   -2.410037632e-05   -1.109331697e-05    1.069877362e-05    0.000000000e+00    0.000000000e+00    0.000000000e+00    0.000000000e+00
      736500000   -6.641760701e-04   -1.412127604e-04   -5.505843365e-05   -3.954049680e-05    0.000000000e+00    0.000000000e+00    0.000000000e+00    0.000000000e+00
      743750000   -1.268235850e-03    2.008125448e-04   -9.981881703e-06   -2.054978177e-05    0.000000000e+00    0.000000000e+00    0.000000000e+00    0.000000000e+00
      751000000   -1.220020233e-03    2.868880401e-04    2.109900925e-05   -1.746054841e-05    0.000000000e+00    0.000000000e+00    0.000000000e+00    0.000000000e+00
      758250000   -1.016985741e-03    2.267629316e-04   -3.213136006e-05   -4.857626482e-05    0.000000000e+00    0.000000000e+00    0.000000000e+00    0.000000000e+00
      765500000   -1.208660542e-03    8.969893679e-05   -3.068551814e-05   -5.159351076e-06    0.000000000e+00    0.000000000e+00    0.000000000e+00    0.000000000e+00
      772750000   -5.473764031e-04   -9.728712030e-05    2.572090125e-06   -2.332912482e-05    0.000000000e+00    0.000000000e+00    0.000000000e+00    0.000000000e+00
      780000000   -1.038425486e-03   -2.474451612e-04    3.128295134e-07   -4.895607617e-06    0.000000000e+00    0.000000000e+00    0.000000000e+00    0.000000000e+00
      787250000   -1.540202880e-03    8.892125916e-04   -3.745948925e-05    5.698394489e-06    0.000000000e+00    0.000000000e+00    0.000000000e+00    0.000000000e+00
      794500000   -1.247984939e-03    1.386530639e-04   -5.107015750e-05   -8.419926417e-06    0.000000000e+00    0.000000000e+00    0.000000000e+00    0.000000000e+00
      801750000   -1.387575758e-03    3.784491855e-04   -1.325951507e-05   -3.561487028e-05    0.000000000e+00    0.000000000e+00    0.000000000e+00    0.000000000e+00
      809000000   -4.483736411e-04    3.513817501e-04   -1.489959232e-05    1.510249967e-05    0.000000000e+00    0.000000000e+00    0.000000000e+00    0.000000000e+00
      816250000   -8.426707354e-04    1.173845667e-04    5.176182640e-06    3.458510037e-06    0.000000000e+00    0.000000000e+00    0.000000000e+00    0.000000000e+00
      823500000   -5.859331577e-04    3.996434971e-04   -5.839167898e-06   -6.012387075e-06    0.000000000e+00    0.000000000e+00    0.000000000e+00    0.000000000e+00
      830750000   -1.090911916e-03    3.577381431e-04    5.689070804e-06    5.268410678e-05    0.000000000e+00    0.000000000e+00    0.000000000e+00    0.000000000e+00
      838000000   -8.900761604e-04    4.805153294e-04    3.346917219e-05    2.456248149e-05    0.000000000e+00    0.000000000e+00    0.000000000e+00    0.000000000e+00
      845250000   -1.349521102e-03    6.299203378e-04   -3.160583219e-05    2.722277895e-05    0.000000000e+00    0.000000000e+00    0.000000000e+00    0.000000000e+00
      852500000   -8.307541721e-04    2.718272735e-04   -2.483952267e-05   -1.342140149e-05    0.000000000e+00    0.000000000e+00    0.000000000e+00    0.000000000e+00
      859750000   -3.082872136e-04   -1.650030754e-04    4.364133929e-06   -5.950842024e-06    0.000000000e+00    0.000000000e+00    0.000000000e+00    0.000000000e+00
      867000000   -6.243708776e-04   -1.723597234e-04    2.612147455e-06    3.465225745e-06    0.000000000e+00    0.000000000e+00    0.000000000e+00    0.000000000e+00
      874250000   -2.679691243e-04    2.756651666e-04    5.149217941e-06   -1.331516251e-05    0.000000000e+00    0.000000000e+00    0.000000000e+00    0.000000000e+00
      881500000   -8.690227987e-04    3.675339394e-04    2.629252413e-05   -4.189279935e-05    0.000000000e+00    0.000000000e+00    0.000000000e+00    0.000000000e+00
      888750000   -8.578077541e-04    2.956581884e-04   -1.279199296e-05   -4.147268555e-06    0.000000000e+00    0.000000000e+00    0.000000000e+00    0.000000000e+00
      896000000   -7.877229364e-04    6.357270468e-05   -5.458658052e-05    2.264659634e-05    0.000000000e+00    0.000000000e+00    0.000000000e+00    0.000000000e+00
      903250000   -1.274084207e-03    4.717493721e-04   -3.329378160e-05    1.491600779e-05    0.000000000e+00    0.000000000e+00    0.000000000e+00    0.000000000e+00
      910500000    3.263549297e-05   -1.444755326e-04    2.139887783e-06    2.042310552e-05    0.000000000e+00    0.000000000e+00    0.000000000e+00    0.000000000e+00
      917750000   -3.870563523e-04   -1.290796936e-04   -2.205159035e-05    1.357169458e-05    0.000000000e+00    0.000000000e+00    0.000000000e+00    0.000000000e+00
      925000000   -1.033790526e-03    4.299391367e-05   -2.662499355e-06   -2.975967982e-05    0.000000000e+00    0.000000000e+00    0.000000000e+00    0.000000000e+00
      932250000    2.710642912e-05    6.238401693e-05    3.870364526e-05   -4.123713370e-05    0.000000000e+00    0.000000000e+00    0.000000000e+00    0.000000000e+00
      939500000   -1.053384389e-03    1.536346244e-04    2.029525967e-05   -3.475173435e-05    0.000000000e+00    0.000000000e+00    0.000000000e+00    0.000000000e+00
      946750000   -1.050360617e-03    1.680116693e-04   -3.888342690e-06    1.019707997e-05    0.000000000e+00    0.000000000e+00    0.000000000e+00    0.000000000e+00
      954000000    7.121918024e-04   -1.476110046e-04    1.296573191e-05   -4.453417932e-05    0.000000000e+00    0.000000000e+00    0.000000000e+00    0.000000000e+00
      961250000   -8.596930420e-04   -8.836572670e-05    8.527335922e-06   -9.032779417e-06    0.000000000e+00    0.000000000e+00    0.000000000e+00    0.000000000e+00
      968500000   -1.748818671e-03   -5.616059570e-05    5.026557801e-07   -1.039449398e-05    0.000000000e+00    0.000000000e+00    0.000000000e+00    0.000000000e+00
      975750000   -1.169127761e-03    3.482090542e-04   -2.178808245e-05    2.224966380e-07    0.000000000e+00    0.000000000e+00    0.000000000e+00    0.000000000e+00
      983000000   -5.170384538e-04    3.315270296e-04    1.242031340e-05   -2.298854270e-05    0.000000000e+00    0.000000000e+00    0.000000000e+00    0.000000000e+00
      990250000   -9.866222972e-04    3.460981825e-04    8.621188499e-06   -8.025676834e-06    0.000000000e+00    0.000000000e+00    0.000000000e+00    0.000000000e+00
      997500000   -5.634981790e-04    9.652807057e-05    1.641455674e-05   -4.245193122e-05    0.000000000e+00    0.000000000e+00    0.000000000e+00    0.000000000e+00
     1004750000   -1.288862666e-03    2.506622986e-04    1.604932004e-05   -6.830305779e-07    0.000000000e+00    0.000000000e+00    0.000000000e+00    0.000000000e+00
     1012000000   -1.712380559e-03    2.026416405e-05   -2.573122629e-06   -2.378699719e-05    0.000000000e+00    0.000000000e+00    0.000000000e+00    0.000000000e+00
     1019250000   -1.582149067e-03   -1.152165933e-04   -1.009939115e-05   -1.702520240e-05    0.000000000e+00    0.000000000e+00    0.000000000e+00    0.000000000e+00
     1026500000   -1.226386405e-03    3.478312283e-04   -3.041797527e-06   -1.025137863e-05    0.000000000e+00    0.000000000e+00    0.000000000e+00    0.000000000e+00
     1033750000   -1.639615046e-03   -2.732462599e-04   -3.654963439e-05    2.337925616e-05    0.000000000e+00    0.000000000e+00    0.000000000e+00    0.000000000e+00
     1041000000   -1.402899623e-03    8.839400107e-05    1.585474820e-06    5.228187547e-06    0.000000000e+00    0.000000000e+00    0.000000000e+00    0.000000000e+00
