! NanoVNA-App by OneOfEleven et al v1.1.209 (+OD15) 
! Date: 2024-07-30 15:14:17
! Start: 200MHz Stop: 6GHz Points: 801
! S-Parameter data: F S11 S21 S12 S22
# Hz S RI R 50
!     Frequency           S11_Real           S11_Imag           S21_Real           S21_Imag           S12_Real           S12_Imag           S22_Real           S22_Imag
      200000000   -6.503255463e-06    8.846738638e-05   -1.513834741e-05    3.500198773e-06    0.000000000e+00    0.000000000e+00    0.000000000e+00    0.000000000e+00
      207250000   -1.236120472e-03    7.504450041e-04    5.754150152e-06   -2.426413266e-05    0.000000000e+00    0.000000000e+00    0.000000000e+00    0.000000000e+00
      214500000   -1.341081690e-03    2.564974420e-04   -4.181389522e-05   -2.795460387e-05    0.000000000e+00    0.000000000e+00    0.000000000e+00    0.000000000e+00
      221750000   -1.391783589e-03    1.416962477e-03    1.992702346e-05    2.879414751e-06    0.000000000e+00    0.000000000e+00    0.000000000e+00    0.000000000e+00
      229000000   -8.172860544e-05   -1.023385557e-03   -7.614930382e-06    1.009726566e-05    0.000000000e+00    0.000000000e+00    0.000000000e+00    0.000000000e+00
      236250000   -2.839842928e-04   -7.071702858e-04    3.011474473e-05    4.252560302e-06    0.000000000e+00    0.000000000e+00    0.000000000e+00    0.000000000e+00
      243500000   -9.554306744e-04    7.247910835e-04   -1.754159712e-05    2.585857146e-05    0.000000000e+00    0.000000000e+00    0.000000000e+00    0.000000000e+00
      250750000   -1.520570077e-04    6.859620917e-04    3.214110848e-06   -1.436090497e-05    0.000000000e+00    0.000000000e+00    0.000000000e+00    0.000000000e+00
      258000000   -1.676804619e-03    6.294692284e-04   -2.952249815e-05   -2.703267637e-05    0.000000000e+00    0.000000000e+00    0.000000000e+00    0.000000000e+00
      265250000   -1.156493323e-03    6.826973404e-04    5.628211056e-06   -1.355734003e-05    0.000000000e+00    0.000000000e+00    0.000000000e+00    0.000000000e+00
      272500000   -3.675199696e-05    9.007113404e-04    7.601016478e-06    9.643929843e-06    0.000000000e+00    0.000000000e+00    0.000000000e+00    0.000000000e+00
      279750000   -7.875311421e-04    1.340901130e-03   -2.030345058e-05   -2.229158054e-05    0.000000000e+00    0.000000000e+00    0.000000000e+00    0.000000000e+00
      287000000   -1.145274960e-03   -4.181776239e-05    8.427356988e-06   -1.945473559e-05    0.000000000e+00    0.000000000e+00    0.000000000e+00    0.000000000e+00
      294250000   -1.688656048e-03    5.151624209e-04   -9.605500964e-06   -2.044070243e-05    0.000000000e+00    0.000000000e+00    0.000000000e+00    0.000000000e+00
      301500000   -5.329783307e-04    6.512601976e-04    4.017260380e-06    9.313949704e-06    0.000000000e+00    0.000000000e+00    0.000000000e+00    0.000000000e+00
      308750000   -9.157003369e-04   -7.910247950e-05    7.552769148e-06   -1.361223440e-05    0.000000000e+00    0.000000000e+00    0.000000000e+00    0.000000000e+00
      316000000   -1.351662446e-03   -2.967396576e-04   -2.563712042e-05   -2.560770736e-05    0.000000000e+00    0.000000000e+00    0.000000000e+00    0.000000000e+00
      323250000   -4.857297754e-04   -7.816755533e-05    2.537566070e-05    1.225650431e-05    0.000000000e+00    0.000000000e+00    0.000000000e+00    0.000000000e+00
      330500000   -4.085311084e-04   -2.141575533e-04    2.811984996e-05   -1.355184941e-05    0.000000000e+00    0.000000000e+00    0.000000000e+00    0.000000000e+00
      337750000   -9.088086081e-04    3.384111333e-04    3.672857929e-05   -5.391808372e-05    0.000000000e+00    0.000000000e+00    0.000000000e+00    0.000000000e+00
      345000000   -5.494892830e-04    2.752644941e-04    1.438933032e-05   -8.034583516e-06    0.000000000e+00    0.000000000e+00    0.000000000e+00    0.000000000e+00
      352250000   -8.519482799e-04   -6.157140597e-04   -8.431160495e-06    1.071417500e-05    0.000000000e+00    0.000000000e+00    0.000000000e+00    0.000000000e+00
      359500000   -8.796675247e-04   -2.644766937e-04   -5.830865575e-06   -5.802107808e-07    0.000000000e+00    0.000000000e+00    0.000000000e+00    0.000000000e+00
      366750000   -1.158211846e-03    6.725309504e-05   -2.451606997e-05    3.110530088e-05    0.000000000e+00    0.000000000e+00    0.000000000e+00    0.000000000e+00
      374000000   -2.909076466e-05   -4.591692414e-04   -3.265339910e-05   -6.470445442e-06    0.000000000e+00    0.000000000e+00    0.000000000e+00    0.000000000e+00
      381250000   -1.405406627e-03    8.613096725e-05   -4.026449460e-05    1.746997805e-05    0.000000000e+00    0.000000000e+00    0.000000000e+00    0.000000000e+00
      388500000   -5.441782996e-04    1.049074344e-04    2.945190863e-05   -2.848857912e-05    0.000000000e+00    0.000000000e+00    0.000000000e+00    0.000000000e+00
      395750000   -3.186284739e-04   -5.360257346e-04   -1.259986220e-05    1.437873107e-05    0.000000000e+00    0.000000000e+00    0.000000000e+00    0.000000000e+00
      403000000   -3.740447573e-04   -3.538386372e-04    4.176014409e-05   -8.773453374e-06    0.000000000e+00    0.000000000e+00    0.000000000e+00    0.000000000e+00
      410250000   -6.556717562e-04   -2.410115412e-04   -9.140172551e-06   -1.455491110e-05    0.000000000e+00    0.000000000e+00    0.000000000e+00    0.000000000e+00
      417500000   -3.876778646e-04    4.371338000e-04   -1.504830288e-05    4.432094647e-05    0.000000000e+00    0.000000000e+00    0.000000000e+00    0.000000000e+00
      424750000   -1.053566928e-03   -6.845886237e-04    2.522700743e-05   -4.444720162e-06    0.000000000e+00    0.000000000e+00    0.000000000e+00    0.000000000e+00
      432000000   -7.360331365e-04   -7.099268259e-04   -1.269862605e-05    6.276444537e-07    0.000000000e+00    0.000000000e+00    0.000000000e+00    0.000000000e+00
      439250000   -1.447992283e-03    2.681582700e-04    3.229834647e-06   -4.003266895e-06    0.000000000e+00    0.000000000e+00    0.000000000e+00    0.000000000e+00
      446500000   -6.017780834e-05    1.965278061e-04    4.612459634e-06   -1.187710495e-05    0.000000000e+00    0.000000000e+00    0.000000000e+00    0.000000000e+00
      453750000   -8.540839190e-04   -4.962258972e-04   -1.345007058e-05    2.062440217e-05    0.000000000e+00    0.000000000e+00    0.000000000e+00    0.000000000e+00
      461000000   -1.369707519e-03    1.108094119e-03    3.433847451e-05   -2.622966713e-05    0.000000000e+00    0.000000000e+00    0.000000000e+00    0.000000000e+00
      468250000   -8.125470486e-04    3.182134824e-04    3.021478005e-05    1.404332033e-05    0.000000000e+00    0.000000000e+00    0.000000000e+00    0.000000000e+00
      475500000   -7.649785257e-04    7.255655364e-04    8.231825745e-07    1.914852328e-05    0.000000000e+00    0.000000000e+00    0.000000000e+00    0.000000000e+00
      482750000   -3.281777317e-04    5.687267403e-04    4.121921302e-05   -1.219951628e-05    0.000000000e+00    0.000000000e+00    0.000000000e+00    0.000000000e+00
      490000000    4.962979074e-05    1.519391662e-04    2.794288412e-05    5.810988455e-07    0.000000000e+00    0.000000000e+00    0.000000000e+00    0.000000000e+00
      497250000   -1.160986067e-04   -2.380589140e-04    1.593233173e-05    5.211954317e-07    0.000000000e+00    0.000000000e+00    0.000000000e+00    0.000000000e+00
      504500000   -3.266779822e-04   -6.104850327e-04   -1.702737063e-05   -2.269277866e-05    0.000000000e+00    0.000000000e+00    0.000000000e+00    0.000000000e+00
      511750000   -5.835794145e-04    1.505240361e-04   -8.243438060e-06    3.144263019e-06    0.000000000e+00    0.000000000e+00    0.000000000e+00    0.000000000e+00
      519000000   -9.676186019e-04    3.961820039e-04    5.825585686e-05    7.499530170e-07    0.000000000e+00    0.000000000e+00    0.000000000e+00    0.000000000e+00
      526250000   -7.594294148e-04    4.802248150e-04   -2.775039866e-05    1.262131377e-06    0.000000000e+00    0.000000000e+00    0.000000000e+00    0.000000000e+00
      533500000   -9.162449714e-05    2.932537172e-04   -1.758443796e-05    9.676219634e-06    0.000000000e+00    0.000000000e+00    0.000000000e+00    0.000000000e+00
      540750000   -3.640014620e-04    2.614528057e-04    3.696340718e-05    9.992686500e-07    0.000000000e+00    0.000000000e+00    0.000000000e+00    0.000000000e+00
      548000000   -3.764100984e-05   -1.592879707e-04   -4.389222522e-05    1.266181152e-05    0.000000000e+00    0.000000000e+00    0.000000000e+00    0.000000000e+00
      555250000   -6.990773254e-04    7.534406905e-05   -4.314976195e-06   -4.489257662e-06    0.000000000e+00    0.000000000e+00    0.000000000e+00    0.000000000e+00
      562500000   -7.601067773e-04    4.753530084e-04    1.167738446e-06    1.466074809e-05    0.000000000e+00    0.000000000e+00    0.000000000e+00    0.000000000e+00
      569750000   -1.041717012e-03    2.227116347e-04    3.650701183e-05   -2.750253225e-05    0.000000000e+00    0.000000000e+00    0.000000000e+00    0.000000000e+00
      577000000   -4.228309263e-04    2.314787271e-04   -1.045246245e-05   -5.576100011e-05    0.000000000e+00    0.000000000e+00    0.000000000e+00    0.000000000e+00
      584250000   -1.668639365e-03    2.203407203e-04   -1.512452218e-05   -1.939557296e-05    0.000000000e+00    0.000000000e+00    0.000000000e+00    0.000000000e+00
      591500000    3.284420236e-04    9.434726671e-04    3.354727232e-05    6.867540378e-06    0.000000000e+00    0.000000000e+00    0.000000000e+00    0.000000000e+00
      598750000   -4.937867052e-04   -2.999082208e-04    3.322017392e-06    4.931292096e-06    0.000000000e+00    0.000000000e+00    0.000000000e+00    0.000000000e+00
      606000000   -1.010863343e-03    2.561446163e-04   -5.594768299e-05    1.810017238e-05    0.000000000e+00    0.000000000e+00    0.000000000e+00    0.000000000e+00
      613250000   -7.793611730e-04    1.806262881e-04   -1.918078306e-05    2.363235762e-05    0.000000000e+00    0.000000000e+00    0.000000000e+00    0.000000000e+00
      620500000   -1.546668122e-03    4.012587015e-04   -1.191486899e-05   -3.651636507e-05    0.000000000e+00    0.000000000e+00    0.000000000e+00    0.000000000e+00
      627750000   -7.481039502e-04    5.689575919e-04   -1.095169955e-05   -1.713255551e-05    0.000000000e+00    0.000000000e+00    0.000000000e+00    0.000000000e+00
      635000000   -6.693530013e-04    6.012015510e-04   -2.496965863e-05    3.675972766e-05    0.000000000e+00    0.000000000e+00    0.000000000e+00    0.000000000e+00
      642250000   -1.104350900e-03    2.898789244e-04   -2.238315028e-05   -2.749371924e-05    0.000000000e+00    0.000000000e+00    0.000000000e+00    0.000000000e+00
      649500000   -9.425313328e-04    1.777037542e-04    6.310403478e-06    1.513297889e-06    0.000000000e+00    0.000000000e+00    0.000000000e+00    0.000000000e+00
      656750000   -1.411224017e-03    1.101532253e-04   -5.049001993e-05    3.493820623e-05    0.000000000e+00    0.000000000e+00    0.000000000e+00    0.000000000e+00
      664000000   -7.617427618e-04    1.873609290e-04    2.517905523e-05    2.025626054e-05    0.000000000e+00    0.000000000e+00    0.000000000e+00    0.000000000e+00
      671250000   -1.277141273e-03    2.968194894e-04    8.852676729e-06    1.833662463e-05    0.000000000e+00    0.000000000e+00    0.000000000e+00    0.000000000e+00
      678500000   -1.003676327e-03    3.644834214e-04    3.560536061e-05   -1.298678853e-05    0.000000000e+00    0.000000000e+00    0.000000000e+00    0.000000000e+00
      685750000   -1.140711131e-03    3.011385561e-04   -5.238019730e-05   -3.715029743e-05    0.000000000e+00    0.000000000e+00    0.000000000e+00    0.000000000e+00
      693000000   -7.634806680e-04   -2.789729115e-05   -6.243503776e-06   -2.524868614e-05    0.000000000e+00    0.000000000e+00    0.000000000e+00    0.000000000e+00
      700250000   -1.051316503e-03    2.454926289e-05    2.797256639e-05   -2.651649538e-06    0.000000000e+00    0.000000000e+00    0.000000000e+00    0.000000000e+00
      707500000   -7.524244720e-04   -1.651295315e-04    2.132067675e-05    7.650448424e-06    0.000000000e+00    0.000000000e+00    0.000000000e+00    0.000000000e+00
      714750000   -2.711593988e-04   -2.257850865e-04   -1.524504660e-05   -5.338413757e-06    0.000000000e+00    0.000000000e+00    0.000000000e+00    0.000000000e+00
      722000000   -1.006315928e-03   -3.884341568e-04   -2.003044028e-05   -1.606756086e-05    0.000000000e+00    0.000000000e+00    0.000000000e+00    0.000000000e+00
      729250000   -2.905062574e-04    1.272385907e-05   -2.906112604e-05   -4.352162648e-07    0.000000000e+00    0.000000000e+00    0.000000000e+00    0.000000000e+00
      736500000   -3.154229198e-04   -2.749919367e-04   -1.496817367e-05   -3.166383613e-05    0.000000000e+00    0.000000000e+00    0.000000000e+00    0.000000000e+00
      743750000   -5.468646414e-04   -3.059497103e-04    1.715785061e-07    1.406439424e-05    0.000000000e+00    0.000000000e+00    0.000000000e+00    0.000000000e+00
      751000000   -6.533421110e-04    6.071298267e-04    4.803246338e-05    1.959770452e-05    0.000000000e+00    0.000000000e+00    0.000000000e+00    0.000000000e+00
      758250000   -8.867787546e-04    2.577169798e-04    1.467701622e-05   -1.958369830e-05    0.000000000e+00    0.000000000e+00    0.000000000e+00    0.000000000e+00
      765500000   -8.744242950e-04   -1.308047213e-04    1.782000800e-05    1.399267967e-05    0.000000000e+00    0.000000000e+00    0.000000000e+00    0.000000000e+00
      772750000   -9.829699993e-04   -3.495509372e-05    8.596500265e-06   -5.377874913e-06    0.000000000e+00    0.000000000e+00    0.000000000e+00    0.000000000e+00
      780000000   -3.454592079e-04    5.445805145e-04   -4.414934665e-05   -1.729914948e-05    0.000000000e+00    0.000000000e+00    0.000000000e+00    0.000000000e+00
      787250000   -1.046948950e-03    4.154960916e-04    4.484832971e-06    5.886709573e-07    0.000000000e+00    0.000000000e+00    0.000000000e+00    0.000000000e+00
      794500000   -7.301597507e-04   -1.501273218e-04    3.550558631e-06    7.981896488e-06    0.000000000e+00    0.000000000e+00    0.000000000e+00    0.000000000e+00
      801750000   -6.713450421e-04    3.455911647e-04   -3.402703805e-05   -8.920228538e-06    0.000000000e+00    0.000000000e+00    0.000000000e+00    0.000000000e+00
      809000000   -2.649821981e-04    1.879088086e-04   -9.619034245e-06    1.148518186e-05    0.000000000e+00    0.000000000e+00    0.000000000e+00    0.000000000e+00
      816250000   -3.620032512e-04    1.969232108e-05    1.061976945e-05    7.673725122e-06    0.000000000e+00    0.000000000e+00    0.000000000e+00    0.000000000e+00
      823500000   -7.466931129e-04    6.512791733e-04    1.143342251e-05   -1.659216832e-05    0.000000000e+00    0.000000000e+00    0.000000000e+00    0.000000000e+00
      830750000   -5.065324367e-04   -1.299043943e-04    2.343165079e-06   -6.458684311e-06    0.000000000e+00    0.000000000e+00    0.000000000e+00    0.000000000e+00
      838000000   -1.909975617e-05   -3.208908311e-05   -7.265934528e-06   -9.655943359e-06    0.000000000e+00    0.000000000e+00    0.000000000e+00    0.000000000e+00
      845250000   -4.693647206e-04    1.961796515e-04   -2.601144297e-05   -1.404047816e-05    0.000000000e+00    0.000000000e+00    0.000000000e+00    0.000000000e+00
      852500000   -7.276480319e-04    3.237671917e-04   -2.741833123e-05   -1.923469790e-05    0.000000000e+00    0.000000000e+00    0.000000000e+00    0.000000000e+00
      859750000   -7.347870851e-04    1.257257536e-04   -9.548070011e-06   -1.682085895e-05    0.000000000e+00    0.000000000e+00    0.000000000e+00    0.000000000e+00
      867000000   -1.929054415e-04   -6.496167043e-05    2.987200605e-05   -2.082663741e-05    0.000000000e+00    0.000000000e+00    0.000000000e+00    0.000000000e+00
      874250000   -2.143447637e-04    2.640972671e-04   -2.597111234e-05    1.165456069e-05    0.000000000e+00    0.000000000e+00    0.000000000e+00    0.000000000e+00
      881500000   -7.670486812e-04    5.141065776e-05    1.808199158e-05   -2.349199713e-05    0.000000000e+00    0.000000000e+00    0.000000000e+00    0.000000000e+00
      888750000   -5.597792915e-04    2.955520758e-04    3.204159657e-05    1.396166863e-05    0.000000000e+00    0.000000000e+00    0.000000000e+00    0.000000000e+00
      896000000   -2.816460037e-04   -5.566235268e-05    7.604777238e-06   -5.698922223e-07    0.000000000e+00    0.000000000e+00    0.000000000e+00    0.000000000e+00
      903250000    2.055673103e-04   -1.638177055e-04   -1.066055393e-05   -2.515011147e-06    0.000000000e+00    0.000000000e+00    0.000000000e+00    0.000000000e+00
      910500000   -4.722862504e-04    4.354779376e-04    3.670414662e-05    4.523872121e-05    0.000000000e+00    0.000000000e+00    0.000000000e+00    0.000000000e+00
      917750000    4.132839967e-05    4.899684063e-05   -3.312393164e-05   -2.436214288e-07    0.000000000e+00    0.000000000e+00    0.000000000e+00    0.000000000e+00
      925000000   -6.994751166e-04    1.066568711e-05    4.148170774e-06   -3.114232641e-06    0.000000000e+00    0.000000000e+00    0.000000000e+00    0.000000000e+00
      932250000   -8.171710069e-04   -1.608500170e-04    8.743443686e-06    2.995880550e-06    0.000000000e+00    0.000000000e+00    0.000000000e+00    0.000000000e+00
      939500000   -1.023412216e-03    4.586731375e-04    1.112979862e-05   -1.141202119e-05    0.000000000e+00    0.000000000e+00    0.000000000e+00    0.000000000e+00
      946750000   -6.631157157e-05    2.309708361e-04    1.882966717e-05   -1.906137368e-05    0.000000000e+00    0.000000000e+00    0.000000000e+00    0.000000000e+00
      954000000    5.717631575e-05   -3.584173683e-04   -2.442531877e-05    4.623189852e-06    0.000000000e+00    0.000000000e+00    0.000000000e+00    0.000000000e+00
      961250000   -3.729532764e-04   -2.585264738e-04   -2.118740667e-05    4.796005669e-05    0.000000000e+00    0.000000000e+00    0.000000000e+00    0.000000000e+00
      968500000   -1.238812692e-03    1.961599992e-05    1.716956285e-05   -2.790805775e-05    0.000000000e+00    0.000000000e+00    0.000000000e+00    0.000000000e+00
      975750000   -1.183055108e-03   -6.850651516e-06    2.378342833e-05   -1.201515079e-05    0.000000000e+00    0.000000000e+00    0.000000000e+00    0.000000000e+00
      983000000   -4.835832515e-04    4.072913143e-04    1.836969204e-05    1.568802509e-05    0.000000000e+00    0.000000000e+00    0.000000000e+00    0.000000000e+00
      990250000   -1.310481573e-03    2.375049226e-04   -1.675281965e-05    5.711310223e-06    0.000000000e+00    0.000000000e+00    0.000000000e+00    0.000000000e+00
      997500000   -1.285538427e-03   -2.816395681e-05    2.157418021e-05   -1.128506119e-05    0.000000000e+00    0.000000000e+00    0.000000000e+00    0.000000000e+00
     1004750000   -9.808795294e-04    2.256269072e-04   -3.984073555e-05   -8.302533388e-06    0.000000000e+00    0.000000000e+00    0.000000000e+00    0.000000000e+00
     1012000000   -1.138385735e-03    6.801183190e-05   -3.346791118e-06    3.773661956e-05    0.000000000e+00    0.000000000e+00    0.000000000e+00    0.000000000e+00
     1019250000   -1.584819518e-03    4.200167605e-04   -3.240011574e-05   -4.367584097e-06    0.000000000e+00    0.000000000e+00    0.000000000e+00    0.000000000e+00
     1026500000   -6.727792206e-04    3.299973032e-04    1.630756014e-05    1.176208480e-05    0.000000000e+00    0.000000000e+00    0.000000000e+00    0.000000000e+00
     1033750000   -1.552488189e-03    2.712126661e-05    2.967860746e-05    3.699049557e-05    0.000000000e+00    0.000000000e+00    0.000000000e+00    0.000000000e+00
     1041000000   -1.037643873e-03    1.766385249e-04    3.861486420e-08    2.118728116e-05    0.000000000e+00    0.000000000e+00    0.000000000e+00    0.000000000e+00
