! NanoVNA-App by OneOfEleven et al v1.1.209 (+OD15) 
! Date: 2024-07-30 15:08:49
! Start: 200MHz Stop: 6GHz Points: 801
! S-Parameter data: F S11 S21 S12 S22
# Hz S RI R 50
!     Frequency           S11_Real           S11_Imag           S21_Real           S21_Imag           S12_Real           S12_Imag           S22_Real           S22_Imag
      200000000    1.001567006e+00    1.355500775e-03    2.418783151e-05   -3.819629273e-05    0.000000000e+00    0.000000000e+00    0.000000000e+00    0.000000000e+00
      207250000    9.993573427e-01   -1.177445054e-03    2.128217966e-05    8.465116480e-06    0.000000000e+00    0.000000000e+00    0.000000000e+00    0.000000000e+00
      214500000    9.987605214e-01    5.533866351e-04   -3.371244384e-05    4.643055490e-06    0.000000000e+00    0.000000000e+00    0.000000000e+00    0.000000000e+00
      221750000    1.000035048e+00   -1.066417550e-03   -1.418152260e-05    1.354714459e-05    0.000000000e+00    0.000000000e+00    0.000000000e+00    0.000000000e+00
      229000000    1.002881765e+00   -2.420688979e-03    3.487283175e-05    8.488834283e-06    0.000000000e+00    0.000000000e+00    0.000000000e+00    0.000000000e+00
      236250000    1.005801320e+00   -3.233950585e-03    1.905363388e-05   -7.744664799e-06    0.000000000e+00    0.000000000e+00    0.000000000e+00    0.000000000e+00
      243500000    9.981191158e-01    3.068713471e-03   -1.208833396e-06   -1.030198382e-05    0.000000000e+00    0.000000000e+00    0.000000000e+00    0.000000000e+00
      250750000    9.963510036e-01    1.983527793e-03   -2.592189958e-05   -2.415406016e-05    0.000000000e+00    0.000000000e+00    0.000000000e+00    0.000000000e+00
      258000000    1.001831293e+00    3.183884546e-03    7.230937626e-06    4.400442049e-05    0.000000000e+00    0.000000000e+00    0.000000000e+00    0.000000000e+00
      265250000    9.997549653e-01    1.168225775e-03   -2.040781510e-05   -1.844885992e-05    0.000000000e+00    0.000000000e+00    0.000000000e+00    0.000000000e+00
      272500000    9.971458316e-01   -2.864377166e-04   -2.014487291e-05    2.612469689e-05    0.000000000e+00    0.000000000e+00    0.000000000e+00    0.000000000e+00
      279750000    9.983983040e-01    1.617350616e-03   -1.259576038e-05   -3.568497050e-05    0.000000000e+00    0.000000000e+00    0.000000000e+00    0.000000000e+00
      287000000    1.003128290e+00   -2.862420399e-03   -3.134063081e-05    6.171163932e-06    0.000000000e+00    0.000000000e+00    0.000000000e+00    0.000000000e+00
      294250000    1.000594139e+00    1.210294664e-03   -1.031883312e-05   -7.094872217e-06    0.000000000e+00    0.000000000e+00    0.000000000e+00    0.000000000e+00
      301500000    1.000528097e+00   -1.153681427e-03    1.053026699e-05   -2.411906280e-05    0.000000000e+00    0.000000000e+00    0.000000000e+00    0.000000000e+00
      308750000    9.995485544e-01    6.326959701e-04   -1.731630073e-05    1.080338461e-05    0.000000000e+00    0.000000000e+00    0.000000000e+00    0.000000000e+00
      316000000    1.000891566e+00    2.342710795e-04   -1.086143857e-05   -1.381815127e-05    0.000000000e+00    0.000000000e+00    0.000000000e+00    0.000000000e+00
      323250000    1.001386046e+00   -9.616186144e-04   -3.569823321e-06   -1.232041632e-05    0.000000000e+00    0.000000000e+00    0.000000000e+00    0.000000000e+00
      330500000    1.001753807e+00   -1.518119592e-03   -1.860829434e-05    3.325348735e-05    0.000000000e+00    0.000000000e+00    0.000000000e+00    0.000000000e+00
      337750000    1.000689983e+00   -2.208795631e-03    2.711532034e-05   -1.729421456e-05    0.000000000e+00    0.000000000e+00    0.000000000e+00    0.000000000e+00
      345000000    1.002207756e+00    3.812034265e-04    1.845360202e-05   -2.715659139e-05    0.000000000e+00    0.000000000e+00    0.000000000e+00    0.000000000e+00
      352250000    1.002218843e+00   -9.952926775e-04   -4.103975880e-05    2.145349572e-05    0.000000000e+00    0.000000000e+00    0.000000000e+00    0.000000000e+00
      359500000    1.000095844e+00   -2.585861599e-03   -1.022389279e-05   -1.188361239e-06    0.000000000e+00    0.000000000e+00    0.000000000e+00    0.000000000e+00
      366750000    1.000638962e+00   -3.343747230e-03    5.562883416e-06    1.069915743e-05    0.000000000e+00    0.000000000e+00    0.000000000e+00    0.000000000e+00
      374000000    9.979337454e-01    1.069057151e-03   -1.677797445e-05   -1.149214495e-05    0.000000000e+00    0.000000000e+00    0.000000000e+00    0.000000000e+00
      381250000    9.979756474e-01    1.495013013e-03   -4.496178371e-05   -7.604117400e-06    0.000000000e+00    0.000000000e+00    0.000000000e+00    0.000000000e+00
      388500000    1.001836419e+00   -1.384635223e-03   -1.053903452e-05   -1.749694457e-05    0.000000000e+00    0.000000000e+00    0.000000000e+00    0.000000000e+00
      395750000    1.003142357e+00   -1.495361794e-03   -1.518888166e-05   -3.208037378e-05    0.000000000e+00    0.000000000e+00    0.000000000e+00    0.000000000e+00
      403000000    9.995948672e-01    5.048083258e-04   -1.254773815e-05    6.668999413e-05    0.000000000e+00    0.000000000e+00    0.000000000e+00    0.000000000e+00
      410250000    1.000602245e+00    3.295148781e-04   -2.308715739e-05    2.183383731e-05    0.000000000e+00    0.000000000e+00    0.000000000e+00    0.000000000e+00
      417500000    1.002363801e+00   -1.616714173e-03    4.181697477e-06    2.789058271e-05    0.000000000e+00    0.000000000e+00    0.000000000e+00    0.000000000e+00
      424750000    9.984086156e-01   -5.376884947e-04   -2.165553087e-05    3.499814557e-05    0.000000000e+00    0.000000000e+00    0.000000000e+00    0.000000000e+00
      432000000    1.001710176e+00   -1.281110162e-04   -3.359917855e-06    1.785536006e-05    0.000000000e+00    0.000000000e+00    0.000000000e+00    0.000000000e+00
      439250000    1.001628757e+00    1.103395247e-03    2.121580110e-06   -8.067552699e-06    0.000000000e+00    0.000000000e+00    0.000000000e+00    0.000000000e+00
      446500000    1.000165820e+00    6.312362966e-04   -1.394884293e-05    8.843481737e-06    0.000000000e+00    0.000000000e+00    0.000000000e+00    0.000000000e+00
      453750000    1.001083016e+00   -1.779746497e-03   -9.516530554e-05    2.042797496e-05    0.000000000e+00    0.000000000e+00    0.000000000e+00    0.000000000e+00
      461000000    9.999938607e-01   -5.333143054e-04    1.261208035e-05   -2.637878060e-05    0.000000000e+00    0.000000000e+00    0.000000000e+00    0.000000000e+00
      468250000    9.995344877e-01    1.717620180e-04    1.149238960e-05    2.540824062e-05    0.000000000e+00    0.000000000e+00    0.000000000e+00    0.000000000e+00
      475500000    1.002485156e+00    1.112160739e-03    1.368881749e-05   -3.404126983e-05    0.000000000e+00    0.000000000e+00    0.000000000e+00    0.000000000e+00
      482750000    9.989484549e-01    1.777111669e-03    7.400829418e-06   -4.350320887e-05    0.000000000e+00    0.000000000e+00    0.000000000e+00    0.000000000e+00
      490000000    9.993015528e-01    1.456314232e-03    3.219606879e-05    2.151713488e-05    0.000000000e+00    0.000000000e+00    0.000000000e+00    0.000000000e+00
      497250000    1.000352144e+00   -1.081469585e-03    1.663268813e-05   -9.919837794e-06    0.000000000e+00    0.000000000e+00    0.000000000e+00    0.000000000e+00
      504500000    9.979868531e-01   -7.923286757e-04    2.716898416e-05   -1.402253474e-05    0.000000000e+00    0.000000000e+00    0.000000000e+00    0.000000000e+00
      511750000    1.002237439e+00   -4.175305730e-05    4.259624984e-05   -9.890569345e-06    0.000000000e+00    0.000000000e+00    0.000000000e+00    0.000000000e+00
      519000000    9.999462962e-01    1.726354967e-04    2.554971616e-05    2.076106648e-05    0.000000000e+00    0.000000000e+00    0.000000000e+00    0.000000000e+00
      526250000    1.001164556e+00   -3.225741966e-04   -2.916328049e-05   -4.914364126e-06    0.000000000e+00    0.000000000e+00    0.000000000e+00    0.000000000e+00
      533500000    1.000610471e+00   -1.034315428e-04    5.511765266e-06   -2.266761112e-05    0.000000000e+00    0.000000000e+00    0.000000000e+00    0.000000000e+00
      540750000    9.981540442e-01    9.278945508e-04    5.098531619e-05   -1.329256429e-05    0.000000000e+00    0.000000000e+00    0.000000000e+00    0.000000000e+00
      548000000    1.002880812e+00   -1.121054054e-03   -5.199575025e-05    6.159335953e-06    0.000000000e+00    0.000000000e+00    0.000000000e+00    0.000000000e+00
      555250000    9.985936284e-01   -1.406493102e-04    3.482562170e-05   -4.632127002e-06    0.000000000e+00    0.000000000e+00    0.000000000e+00    0.000000000e+00
      562500000    9.995050430e-01    1.579395379e-03    3.782506974e-05   -2.097913011e-06    0.000000000e+00    0.000000000e+00    0.000000000e+00    0.000000000e+00
      569750000    9.989528656e-01   -3.979396715e-04    9.243440218e-06    1.389422687e-05    0.000000000e+00    0.000000000e+00    0.000000000e+00    0.000000000e+00
      577000000    1.001451015e+00    6.173677975e-04   -1.539956611e-05    1.190725106e-05    0.000000000e+00    0.000000000e+00    0.000000000e+00    0.000000000e+00
      584250000    9.993550181e-01    2.436160110e-03    4.760171214e-05    6.065099114e-06    0.000000000e+00    0.000000000e+00    0.000000000e+00    0.000000000e+00
      591500000    9.976906180e-01    1.570448861e-03    1.246369447e-05    5.322947618e-05    0.000000000e+00    0.000000000e+00    0.000000000e+00    0.000000000e+00
      598750000    1.003026724e+00    1.292776666e-03    1.888082807e-05    5.001324439e-07    0.000000000e+00    0.000000000e+00    0.000000000e+00    0.000000000e+00
      606000000    9.991108179e-01   -2.652600815e-04   -1.193636126e-05   -2.576520455e-05    0.000000000e+00    0.000000000e+00    0.000000000e+00    0.000000000e+00
      613250000    1.000295639e+00   -1.181378611e-03   -1.372130214e-06    1.107620392e-05    0.000000000e+00    0.000000000e+00    0.000000000e+00    0.000000000e+00
      620500000    9.986847639e-01    4.030936398e-04   -4.781883035e-06   -2.218584814e-05    0.000000000e+00    0.000000000e+00    0.000000000e+00    0.000000000e+00
      627750000    1.000108242e+00   -8.418562938e-04   -4.769614861e-06   -3.676006145e-06    0.000000000e+00    0.000000000e+00    0.000000000e+00    0.000000000e+00
      635000000    9.985238314e-01    1.484140405e-03    7.147431916e-06    1.196415178e-05    0.000000000e+00    0.000000000e+00    0.000000000e+00    0.000000000e+00
      642250000    9.981147051e-01    8.177941781e-04   -1.519978196e-05   -1.343904751e-05    0.000000000e+00    0.000000000e+00    0.000000000e+00    0.000000000e+00
      649500000    1.000546932e+00    3.750655651e-06    4.928894668e-06    3.941425166e-05    0.000000000e+00    0.000000000e+00    0.000000000e+00    0.000000000e+00
      656750000    1.000755787e+00   -3.707992437e-04    4.489369167e-05    7.573147286e-06    0.000000000e+00    0.000000000e+00    0.000000000e+00    0.000000000e+00
      664000000    1.000286460e+00   -4.982393002e-04    2.869188211e-05   -2.003478585e-05    0.000000000e+00    0.000000000e+00    0.000000000e+00    0.000000000e+00
      671250000    9.944599271e-01    9.800372645e-04   -1.972679456e-05   -3.595124508e-05    0.000000000e+00    0.000000000e+00    0.000000000e+00    0.000000000e+00
      678500000    1.001643062e+00    8.876800421e-04    3.667258352e-05    1.258597422e-06    0.000000000e+00    0.000000000e+00    0.000000000e+00    0.000000000e+00
      685750000    9.968432784e-01   -3.842279257e-04   -3.349956387e-05    3.053887440e-06    0.000000000e+00    0.000000000e+00    0.000000000e+00    0.000000000e+00
      693000000    1.003009081e+00   -3.597999457e-04    1.666106073e-06    8.875990716e-06    0.000000000e+00    0.000000000e+00    0.000000000e+00    0.000000000e+00
      700250000    1.001704335e+00    4.295182298e-04    3.357357491e-05    1.188325950e-05    0.000000000e+00    0.000000000e+00    0.000000000e+00    0.000000000e+00
      707500000    9.999361634e-01    6.141532212e-04   -4.071313742e-05   -2.101310929e-05    0.000000000e+00    0.000000000e+00    0.000000000e+00    0.000000000e+00
      714750000    1.000253558e+00    6.722610560e-04   -7.747805284e-06    7.862967323e-06    0.000000000e+00    0.000000000e+00    0.000000000e+00    0.000000000e+00
      722000000    9.980310798e-01   -4.994493211e-04   -2.699028300e-05   -6.580164609e-06    0.000000000e+00    0.000000000e+00    0.000000000e+00    0.000000000e+00
      729250000    1.005772471e+00   -3.104349889e-04    2.781811600e-05   -1.009820608e-05    0.000000000e+00    0.000000000e+00    0.000000000e+00    0.000000000e+00
      736500000    1.002327919e+00    2.049521863e-04   -7.042605375e-06   -1.905998579e-05    0.000000000e+00    0.000000000e+00    0.000000000e+00    0.000000000e+00
      743750000    1.001093388e+00   -7.227415335e-05   -3.165816815e-05   -5.066487574e-06    0.000000000e+00    0.000000000e+00    0.000000000e+00    0.000000000e+00
      751000000    1.001185179e+00   -9.546452784e-04   -1.360447550e-05   -4.772023749e-05    0.000000000e+00    0.000000000e+00    0.000000000e+00    0.000000000e+00
      758250000    9.989506602e-01   -9.204811649e-04    1.401679583e-05   -2.482980562e-05    0.000000000e+00    0.000000000e+00    0.000000000e+00    0.000000000e+00
      765500000    1.000968099e+00   -4.415567964e-04    2.705844599e-05   -7.014001312e-06    0.000000000e+00    0.000000000e+00    0.000000000e+00    0.000000000e+00
      772750000    9.990742803e-01    7.330333465e-04    1.514502310e-05   -3.215409379e-05    0.000000000e+00    0.000000000e+00    0.000000000e+00    0.000000000e+00
      780000000    9.964801669e-01   -2.093492221e-04    6.239680260e-06    1.325681114e-05    0.000000000e+00    0.000000000e+00    0.000000000e+00    0.000000000e+00
      787250000    1.001409292e+00   -2.877637744e-04    4.079142855e-06    3.599324191e-05    0.000000000e+00    0.000000000e+00    0.000000000e+00    0.000000000e+00
      794500000    1.000503898e+00    1.810063113e-04    2.592951205e-05    1.429507120e-05    0.000000000e+00    0.000000000e+00    0.000000000e+00    0.000000000e+00
      801750000    1.001161695e+00   -7.210235344e-04   -2.581461922e-05   -1.034797879e-05    0.000000000e+00    0.000000000e+00    0.000000000e+00    0.000000000e+00
      809000000    1.000119805e+00   -9.872381343e-04   -1.840048981e-06   -1.921409785e-05    0.000000000e+00    0.000000000e+00    0.000000000e+00    0.000000000e+00
      816250000    1.002959132e+00    5.343866651e-04   -9.926099665e-06   -2.009017589e-05    0.000000000e+00    0.000000000e+00    0.000000000e+00    0.000000000e+00
      823500000    9.985350966e-01   -6.107623922e-04    1.394235824e-05   -8.438328223e-06    0.000000000e+00    0.000000000e+00    0.000000000e+00    0.000000000e+00
      830750000    1.000048876e+00   -6.144779036e-04    5.178113952e-06   -6.651541298e-06    0.000000000e+00    0.000000000e+00    0.000000000e+00    0.000000000e+00
      838000000    9.993090034e-01    1.237942255e-03   -7.115398603e-06   -3.729652235e-05    0.000000000e+00    0.000000000e+00    0.000000000e+00    0.000000000e+00
      845250000    9.986215234e-01    2.048490103e-03    1.241313566e-05   -9.816993952e-06    0.000000000e+00    0.000000000e+00    0.000000000e+00    0.000000000e+00
      852500000    1.000151277e+00    1.869839616e-04   -5.683252311e-06   -1.649493697e-06    0.000000000e+00    0.000000000e+00    0.000000000e+00    0.000000000e+00
      859750000    1.000906706e+00   -3.709106822e-04    1.250755031e-05    3.910506348e-05    0.000000000e+00    0.000000000e+00    0.000000000e+00    0.000000000e+00
      867000000    1.000421405e+00    3.094220301e-04    2.664033673e-05   -8.581548173e-06    0.000000000e+00    0.000000000e+00    0.000000000e+00    0.000000000e+00
      874250000    1.001659036e+00    3.013293608e-04    4.113463001e-05    3.546500375e-05    0.000000000e+00    0.000000000e+00    0.000000000e+00    0.000000000e+00
      881500000    9.975654483e-01   -5.340117496e-04    1.293722107e-05    1.689707642e-05    0.000000000e+00    0.000000000e+00    0.000000000e+00    0.000000000e+00
      888750000    1.000928879e+00   -1.028082566e-03    3.864866085e-05   -2.150852197e-05    0.000000000e+00    0.000000000e+00    0.000000000e+00    0.000000000e+00
      896000000    1.000340819e+00    4.766153288e-04    4.110396912e-05    3.532622941e-05    0.000000000e+00    0.000000000e+00    0.000000000e+00    0.000000000e+00
      903250000    9.999153614e-01    8.532926440e-04    5.985696703e-07    3.195367390e-05    0.000000000e+00    0.000000000e+00    0.000000000e+00    0.000000000e+00
      910500000    9.997589588e-01    1.409761724e-03   -1.510078982e-05    9.009946552e-06    0.000000000e+00    0.000000000e+00    0.000000000e+00    0.000000000e+00
      917750000    1.000953794e+00    9.582503699e-04   -4.149063534e-05   -3.004875725e-05    0.000000000e+00    0.000000000e+00    0.000000000e+00    0.000000000e+00
      925000000    1.001155376e+00   -3.221192164e-04    4.104285836e-06    1.567166328e-05    0.000000000e+00    0.000000000e+00    0.000000000e+00    0.000000000e+00
      932250000    1.002332211e+00   -2.078893303e-04    3.276222924e-05    3.039320654e-05    0.000000000e+00    0.000000000e+00    0.000000000e+00    0.000000000e+00
      939500000    1.000868678e+00   -4.093399912e-04    1.611646076e-05    2.850447891e-05    0.000000000e+00    0.000000000e+00    0.000000000e+00    0.000000000e+00
      946750000    9.978286624e-01    4.429301771e-04    1.135361072e-05    3.840798308e-05    0.000000000e+00    0.000000000e+00    0.000000000e+00    0.000000000e+00
      954000000    9.993350506e-01   -2.269277320e-04   -1.384452844e-05   -5.630105079e-05    0.000000000e+00    0.000000000e+00    0.000000000e+00    0.000000000e+00
      961250000    1.000152469e+00   -5.877851072e-05   -1.736181503e-06    1.287179839e-05    0.000000000e+00    0.000000000e+00    0.000000000e+00    0.000000000e+00
      968500000    9.989945292e-01   -1.246013329e-03    9.702243005e-06   -1.778735532e-05    0.000000000e+00    0.000000000e+00    0.000000000e+00    0.000000000e+00
      975750000    9.994100928e-01    3.137078011e-06   -1.350015100e-05    6.760933320e-05    0.000000000e+00    0.000000000e+00    0.000000000e+00    0.000000000e+00
      983000000    1.001937389e+00    9.193702863e-05   -1.991292083e-05    2.833651160e-05    0.000000000e+00    0.000000000e+00    0.000000000e+00    0.000000000e+00
      990250000    9.997926354e-01   -2.825505799e-04   -2.930042456e-06   -9.208491974e-06    0.000000000e+00    0.000000000e+00    0.000000000e+00    0.000000000e+00
      997500000    9.973893762e-01    5.168726784e-04   -5.158166459e-05   -3.726894283e-05    0.000000000e+00    0.000000000e+00    0.000000000e+00    0.000000000e+00
     1004750000    1.000012040e+00   -1.905508980e-04    3.044852565e-05    1.777547368e-05    0.000000000e+00    0.000000000e+00    0.000000000e+00    0.000000000e+00
     1012000000    9.998705983e-01   -4.514472676e-04    4.277691187e-05   -1.258913289e-05    0.000000000e+00    0.000000000e+00    0.000000000e+00    0.000000000e+00
     1019250000    9.993856549e-01   -3.302826663e-04    1.034509114e-05   -2.435058093e-07    0.000000000e+00    0.000000000e+00    0.000000000e+00    0.000000000e+00
     1026500000    1.000368118e+00    3.306947183e-04    3.760675099e-05   -2.406322210e-06    0.000000000e+00    0.000000000e+00    0.000000000e+00    0.000000000e+00
     1033750000    9.980629086e-01   -7.014685543e-04   -2.540637979e-05   -1.021170647e-05    0.000000000e+00    0.000000000e+00    0.000000000e+00    0.000000000e+00
     1041000000    9.982719421e-01   -2.728736727e-04    2.901103107e-05    2.209334343e-05    0.000000000e+00    0.000000000e+00    0.000000000e+00    0.000000000e+00
