! NanoVNA-App by OneOfEleven et al v1.1.209 (+OD15) 
! Date: 2024-07-30 15:08:54
! Start: 200MHz Stop: 6GHz Points: 801
! S-Parameter data: F S11 S21 S12 S22
# Hz S RI R 50
!     Frequency           S11_Real           S11_Imag           S21_Real           S21_Imag           S12_Real           S12_Imag           S22_Real           S22_Imag
      200000000    9.993125796e-01    4.313774873e-03   -7.802081200e-06   -2.500824667e-05    0.000000000e+00    0.000000000e+00    0.000000000e+00    0.000000000e+00
      207250000    9.974355102e-01    1.950133592e-03   -1.090871478e-06    1.070783856e-05    0.000000000e+00    0.000000000e+00    0.000000000e+00    0.000000000e+00
      214500000    9.995560050e-01   -5.085067824e-03   -4.848610479e-05   -7.717701919e-06    0.000000000e+00    0.000000000e+00    0.000000000e+00    0.000000000e+00
      221750000    9.997632504e-01    4.516376066e-05    8.887460353e-06    2.964940722e-05    0.000000000e+00    0.000000000e+00    0.000000000e+00    0.000000000e+00
      229000000    9.965690970e-01    2.875271253e-03   -8.908101563e-07   -2.351699322e-06    0.000000000e+00    0.000000000e+00    0.000000000e+00    0.000000000e+00
      236250000    1.007894516e+00   -4.861554131e-03    3.842853403e-05    8.792756489e-06    0.000000000e+00    0.000000000e+00    0.000000000e+00    0.000000000e+00
      243500000    1.001350880e+00   -6.725900806e-03   -2.868863476e-07    1.397582855e-05    0.000000000e+00    0.000000000e+00    0.000000000e+00    0.000000000e+00
      250750000    1.001004577e+00   -1.378776040e-03   -1.856713789e-05   -1.586137842e-05    0.000000000e+00    0.000000000e+00    0.000000000e+00    0.000000000e+00
      258000000    1.000198364e+00   -1.128123840e-03   -3.060629388e-05    3.284352351e-05    0.000000000e+00    0.000000000e+00    0.000000000e+00    0.000000000e+00
      265250000    1.001042366e+00   -1.160073676e-03   -8.258819435e-06   -4.533863830e-06    0.000000000e+00    0.000000000e+00    0.000000000e+00    0.000000000e+00
      272500000    9.995720387e-01   -1.488038106e-03    2.164714897e-05   -1.003681245e-05    0.000000000e+00    0.000000000e+00    0.000000000e+00    0.000000000e+00
      279750000    9.984712601e-01   -1.916674548e-03   -5.865106232e-06   -1.716738916e-05    0.000000000e+00    0.000000000e+00    0.000000000e+00    0.000000000e+00
      287000000    1.001973510e+00   -3.943153657e-03   -2.819312795e-05   -3.784983710e-05    0.000000000e+00    0.000000000e+00    0.000000000e+00    0.000000000e+00
      294250000    9.997347593e-01   -4.487819970e-04    1.442184021e-05    2.347841655e-05    0.000000000e+00    0.000000000e+00    0.000000000e+00    0.000000000e+00
      301500000    1.001616955e+00   -9.315849748e-04   -1.513937968e-05    1.283708298e-05    0.000000000e+00    0.000000000e+00    0.000000000e+00    0.000000000e+00
      308750000    1.001039505e+00   -2.355353674e-03   -1.473377779e-05   -6.199787094e-06    0.000000000e+00    0.000000000e+00    0.000000000e+00    0.000000000e+00
      316000000    9.975656867e-01    8.840843802e-04   -6.185886014e-05    2.137829870e-05    0.000000000e+00    0.000000000e+00    0.000000000e+00    0.000000000e+00
      323250000    9.999012947e-01   -1.918780152e-03   -1.001827422e-05   -2.182183925e-05    0.000000000e+00    0.000000000e+00    0.000000000e+00    0.000000000e+00
      330500000    9.971240163e-01    4.570217803e-03   -1.015371254e-05   -1.076724402e-05    0.000000000e+00    0.000000000e+00    0.000000000e+00    0.000000000e+00
      337750000    1.004058003e+00   -1.263634302e-03    1.088997578e-05   -1.883657387e-05    0.000000000e+00    0.000000000e+00    0.000000000e+00    0.000000000e+00
      345000000    9.999954104e-01   -1.949567464e-03   -3.968160308e-05    8.266534678e-06    0.000000000e+00    0.000000000e+00    0.000000000e+00    0.000000000e+00
      352250000    1.001259327e+00    3.331063199e-04    9.468832104e-06   -2.380751175e-05    0.000000000e+00    0.000000000e+00    0.000000000e+00    0.000000000e+00
      359500000    9.976710677e-01    2.635593410e-04    7.372429991e-06    5.694078027e-06    0.000000000e+00    0.000000000e+00    0.000000000e+00    0.000000000e+00
      366750000    1.001893878e+00   -1.908416627e-03   -1.523445735e-05    2.328392839e-06    0.000000000e+00    0.000000000e+00    0.000000000e+00    0.000000000e+00
      374000000    9.986441135e-01   -1.852003625e-03   -2.209184686e-06   -3.114594074e-05    0.000000000e+00    0.000000000e+00    0.000000000e+00    0.000000000e+00
      381250000    1.002876997e+00    3.636503970e-05   -8.370242540e-06    6.794603905e-06    0.000000000e+00    0.000000000e+00    0.000000000e+00    0.000000000e+00
      388500000    9.981493354e-01   -6.907799980e-04    2.085586311e-05   -1.369169149e-05    0.000000000e+00    0.000000000e+00    0.000000000e+00    0.000000000e+00
      395750000    1.003420472e+00   -9.163594223e-04    9.795680853e-06   -3.723386180e-05    0.000000000e+00    0.000000000e+00    0.000000000e+00    0.000000000e+00
      403000000    9.982809424e-01   -8.004500996e-04    3.626649232e-06   -4.555352643e-05    0.000000000e+00    0.000000000e+00    0.000000000e+00    0.000000000e+00
      410250000    1.001327753e+00    1.598160947e-03   -6.013294751e-06    1.861403871e-05    0.000000000e+00    0.000000000e+00    0.000000000e+00    0.000000000e+00
      417500000    9.975218177e-01    6.546229706e-04    1.676208194e-05   -3.314310561e-06    0.000000000e+00    0.000000000e+00    0.000000000e+00    0.000000000e+00
      424750000    9.993320704e-01    3.793087672e-04    2.476519512e-05   -3.634411769e-05    0.000000000e+00    0.000000000e+00    0.000000000e+00    0.000000000e+00
      432000000    9.991923571e-01    4.324395850e-04   -4.582992551e-05    9.707869140e-07    0.000000000e+00    0.000000000e+00    0.000000000e+00    0.000000000e+00
      439250000    9.991952181e-01   -1.099223853e-03   -1.040463303e-05   -1.877312934e-05    0.000000000e+00    0.000000000e+00    0.000000000e+00    0.000000000e+00
      446500000    9.997738004e-01   -1.681651804e-03    8.485786566e-06   -1.139557389e-05    0.000000000e+00    0.000000000e+00    0.000000000e+00    0.000000000e+00
      453750000    1.001184464e+00    1.879928634e-03    6.514920642e-06    7.276505130e-06    0.000000000e+00    0.000000000e+00    0.000000000e+00    0.000000000e+00
      461000000    1.002726078e+00    1.513391850e-03    4.206368612e-05   -3.563394057e-05    0.000000000e+00    0.000000000e+00    0.000000000e+00    0.000000000e+00
      468250000    1.002469301e+00   -1.274925191e-03    9.999479516e-06    2.575096551e-05    0.000000000e+00    0.000000000e+00    0.000000000e+00    0.000000000e+00
      475500000    1.001438022e+00   -2.288773976e-04    5.642749329e-06    2.672302253e-05    0.000000000e+00    0.000000000e+00    0.000000000e+00    0.000000000e+00
      482750000    9.989421964e-01   -2.174300142e-03   -2.423259684e-05   -3.606557948e-05    0.000000000e+00    0.000000000e+00    0.000000000e+00    0.000000000e+00
      490000000    9.988415837e-01    2.533474471e-03    4.123628969e-06   -1.564167542e-05    0.000000000e+00    0.000000000e+00    0.000000000e+00    0.000000000e+00
      497250000    9.983798265e-01    1.802909886e-03    5.970000075e-06   -9.468150893e-06    0.000000000e+00    0.000000000e+00    0.000000000e+00    0.000000000e+00
      504500000    9.984286427e-01   -1.370137325e-04    2.672740993e-05   -4.867715688e-06    0.000000000e+00    0.000000000e+00    0.000000000e+00    0.000000000e+00
      511750000    1.000012755e+00    4.957437632e-04    3.560400000e-05    3.062643373e-05    0.000000000e+00    0.000000000e+00    0.000000000e+00    0.000000000e+00
      519000000    9.996619225e-01    8.591646329e-04    3.375848246e-05   -8.449716915e-06    0.000000000e+00    0.000000000e+00    0.000000000e+00    0.000000000e+00
      526250000    1.000133395e+00   -1.075594686e-03    8.787290426e-06    1.557144969e-05    0.000000000e+00    0.000000000e+00    0.000000000e+00    0.000000000e+00
      533500000    9.990383387e-01    1.942544244e-03    1.819709360e-05    1.032843011e-05    0.000000000e+00    0.000000000e+00    0.000000000e+00    0.000000000e+00
      540750000    9.985926747e-01    1.073754465e-04    8.095616067e-06   -1.301527027e-05    0.000000000e+00    0.000000000e+00    0.000000000e+00    0.000000000e+00
      548000000    1.000724912e+00    4.075587203e-04    3.445219591e-06    8.448074595e-07    0.000000000e+00    0.000000000e+00    0.000000000e+00    0.000000000e+00
      555250000    1.002201557e+00    1.009120297e-05    1.614887515e-05   -1.062640649e-06    0.000000000e+00    0.000000000e+00    0.000000000e+00    0.000000000e+00
      562500000    1.001719952e+00    4.946785048e-04    1.395928962e-06    1.720608998e-05    0.000000000e+00    0.000000000e+00    0.000000000e+00    0.000000000e+00
      569750000    9.957810044e-01    5.361717776e-04    4.429245746e-05    2.611423406e-05    0.000000000e+00    0.000000000e+00    0.000000000e+00    0.000000000e+00
      577000000    1.001565218e+00   -2.806015546e-03    1.735140359e-05   -2.609366220e-06    0.000000000e+00    0.000000000e+00    0.000000000e+00    0.000000000e+00
      584250000    9.993169904e-01    8.709631511e-04   -3.436627230e-05   -2.231260078e-05    0.000000000e+00    0.000000000e+00    0.000000000e+00    0.000000000e+00
      591500000    1.000697136e+00   -1.970028272e-03    2.054952711e-05   -2.779025090e-05    0.000000000e+00    0.000000000e+00    0.000000000e+00    0.000000000e+00
      598750000    1.000627995e+00    3.767147136e-04    3.387065590e-05   -1.325642734e-05    0.000000000e+00    0.000000000e+00    0.000000000e+00    0.000000000e+00
      606000000    9.998018742e-01    7.362652686e-04    1.727102244e-06   -1.085199619e-05    0.000000000e+00    0.000000000e+00    0.000000000e+00    0.000000000e+00
      613250000    9.978305101e-01    7.294529350e-04    1.919877286e-05   -1.114986662e-05    0.000000000e+00    0.000000000e+00    0.000000000e+00    0.000000000e+00
      620500000    1.000070572e+00    5.570608191e-04   -2.671703442e-05    2.023445086e-05    0.000000000e+00    0.000000000e+00    0.000000000e+00    0.000000000e+00
      627750000    9.994739890e-01    2.504929944e-05   -6.210348602e-06    2.232253337e-06    0.000000000e+00    0.000000000e+00    0.000000000e+00    0.000000000e+00
      635000000    9.977973104e-01   -2.152186498e-04    3.364471922e-06   -6.814297194e-06    0.000000000e+00    0.000000000e+00    0.000000000e+00    0.000000000e+00
      642250000    9.989224076e-01   -4.304188478e-04   -3.036742964e-05   -2.515699998e-05    0.000000000e+00    0.000000000e+00    0.000000000e+00    0.000000000e+00
      649500000    9.996982217e-01   -8.007284487e-04    7.975642802e-06    4.327717306e-06    0.000000000e+00    0.000000000e+00    0.000000000e+00    0.000000000e+00
      656750000    1.000000119e+00    5.508053000e-04   -1.639638322e-05    2.051821320e-05    0.000000000e+00    0.000000000e+00    0.000000000e+00    0.000000000e+00
      664000000    9.987533092e-01    1.763296023e-04   -1.335280649e-05   -9.774224054e-06    0.000000000e+00    0.000000000e+00    0.000000000e+00    0.000000000e+00
      671250000    9.993681908e-01    8.499691612e-04   -3.209671922e-05    1.525853804e-05    0.000000000e+00    0.000000000e+00    0.000000000e+00    0.000000000e+00
      678500000    1.000523567e+00    8.340242493e-05    2.523034527e-05    2.719564691e-05    0.000000000e+00    0.000000000e+00    0.000000000e+00    0.000000000e+00
      685750000    1.000913262e+00   -4.220723349e-04   -4.360995445e-05   -1.961497946e-05    0.000000000e+00    0.000000000e+00    0.000000000e+00    0.000000000e+00
      693000000    9.968554378e-01   -1.426905626e-03   -6.955984645e-06   -2.045702604e-05    0.000000000e+00    0.000000000e+00    0.000000000e+00    0.000000000e+00
      700250000    9.983359575e-01    5.871159738e-05   -7.174828170e-06    2.854656123e-05    0.000000000e+00    0.000000000e+00    0.000000000e+00    0.000000000e+00
      707500000    1.000952482e+00    4.871550773e-04   -1.464373690e-05   -2.187811333e-05    0.000000000e+00    0.000000000e+00    0.000000000e+00    0.000000000e+00
      714750000    9.962236285e-01   -8.676477009e-04   -8.902328773e-06    4.161864490e-05    0.000000000e+00    0.000000000e+00    0.000000000e+00    0.000000000e+00
      722000000    1.001780987e+00    1.460125204e-03   -7.917568837e-06   -2.572443555e-05    0.000000000e+00    0.000000000e+00    0.000000000e+00    0.000000000e+00
      729250000    1.000123143e+00   -1.019569812e-03    1.909623097e-05    8.419094229e-06    0.000000000e+00    0.000000000e+00    0.000000000e+00    0.000000000e+00
      736500000    9.990876317e-01   -3.965727519e-04   -3.413547165e-05    1.285390135e-05    0.000000000e+00    0.000000000e+00    0.000000000e+00    0.000000000e+00
      743750000    1.001583099e+00    3.161100904e-04    2.479837894e-05    1.298109783e-05    0.000000000e+00    0.000000000e+00    0.000000000e+00    0.000000000e+00
      751000000    9.985863566e-01   -1.741098240e-04   -2.397788558e-05    8.735245501e-06    0.000000000e+00    0.000000000e+00    0.000000000e+00    0.000000000e+00
      758250000    1.000236273e+00   -1.339366310e-03    1.809580453e-06   -5.450728349e-05    0.000000000e+00    0.000000000e+00    0.000000000e+00    0.000000000e+00
      765500000    9.992170334e-01   -1.023467281e-03    1.167436585e-05    2.362339546e-05    0.000000000e+00    0.000000000e+00    0.000000000e+00    0.000000000e+00
      772750000    1.000975728e+00    1.164689776e-03    2.685466461e-05   -4.342750981e-05    0.000000000e+00    0.000000000e+00    0.000000000e+00    0.000000000e+00
      780000000    9.955498576e-01   -7.529387221e-05    5.203862747e-05   -4.708797860e-05    0.000000000e+00    0.000000000e+00    0.000000000e+00    0.000000000e+00
      787250000    1.002925158e+00   -7.742336602e-04   -5.720850095e-05   -6.723497791e-06    0.000000000e+00    0.000000000e+00    0.000000000e+00    0.000000000e+00
      794500000    9.986236095e-01    3.882903256e-04   -5.547027740e-06    4.995695053e-05    0.000000000e+00    0.000000000e+00    0.000000000e+00    0.000000000e+00
      801750000    9.981839061e-01   -6.643781089e-04    1.467477250e-05    2.121745410e-07    0.000000000e+00    0.000000000e+00    0.000000000e+00    0.000000000e+00
      809000000    1.000726461e+00   -1.124022645e-03   -6.712700269e-06   -1.671250902e-05    0.000000000e+00    0.000000000e+00    0.000000000e+00    0.000000000e+00
      816250000    1.001394272e+00    1.446312410e-03   -2.014923484e-05   -2.871338620e-05    0.000000000e+00    0.000000000e+00    0.000000000e+00    0.000000000e+00
      823500000    9.995928407e-01   -3.720470704e-04   -8.598884961e-06    1.363218598e-05    0.000000000e+00    0.000000000e+00    0.000000000e+00    0.000000000e+00
      830750000    9.993659258e-01   -5.683273193e-04    1.823067237e-06    1.354246979e-05    0.000000000e+00    0.000000000e+00    0.000000000e+00    0.000000000e+00
      838000000    9.991111159e-01    7.905849488e-04   -1.020150285e-05   -7.102332802e-06    0.000000000e+00    0.000000000e+00    0.000000000e+00    0.000000000e+00
      845250000    9.988521934e-01    1.452492550e-03    3.173717778e-05   -1.121774130e-05    0.000000000e+00    0.000000000e+00    0.000000000e+00    0.000000000e+00
      852500000    1.001913071e+00   -6.462588790e-04   -5.546126704e-05   -1.939960021e-05    0.000000000e+00    0.000000000e+00    0.000000000e+00    0.000000000e+00
      859750000    1.002942681e+00   -1.533853792e-04    2.978635894e-05    4.525603799e-05    0.000000000e+00    0.000000000e+00    0.000000000e+00    0.000000000e+00
      867000000    1.001356125e+00   -6.188546540e-04   -2.083682011e-05   -7.171388916e-06    0.000000000e+00    0.000000000e+00    0.000000000e+00    0.000000000e+00
      874250000    9.991778135e-01   -5.313010770e-04    4.444139904e-06    1.478761169e-05    0.000000000e+00    0.000000000e+00    0.000000000e+00    0.000000000e+00
      881500000    9.995519519e-01    2.255412401e-04    3.277817086e-05   -4.097263081e-05    0.000000000e+00    0.000000000e+00    0.000000000e+00    0.000000000e+00
      888750000    1.000110745e+00   -2.490134211e-04   -3.166660827e-05    5.745938324e-05    0.000000000e+00    0.000000000e+00    0.000000000e+00    0.000000000e+00
      896000000    1.000455856e+00    7.507399423e-04    1.270942266e-05    4.401527349e-06    0.000000000e+00    0.000000000e+00    0.000000000e+00    0.000000000e+00
      903250000    9.989234209e-01    1.531897142e-04   -7.548688154e-05    4.161579636e-05    0.000000000e+00    0.000000000e+00    0.000000000e+00    0.000000000e+00
      910500000    1.002791524e+00   -6.212388398e-04    2.361444785e-05    4.371985779e-05    0.000000000e+00    0.000000000e+00    0.000000000e+00    0.000000000e+00
      917750000    1.000520229e+00    8.174160030e-04   -3.149954500e-05   -1.737897583e-05    0.000000000e+00    0.000000000e+00    0.000000000e+00    0.000000000e+00
      925000000    9.992523193e-01    1.757888385e-04   -4.108017311e-05    8.796299880e-06    0.000000000e+00    0.000000000e+00    0.000000000e+00    0.000000000e+00
      932250000    1.003000736e+00    9.736620123e-04   -1.674110717e-05   -4.312264821e-07    0.000000000e+00    0.000000000e+00    0.000000000e+00    0.000000000e+00
      939500000    1.001295090e+00   -5.407899735e-04    3.827242836e-06   -6.719195881e-06    0.000000000e+00    0.000000000e+00    0.000000000e+00    0.000000000e+00
      946750000    9.991332293e-01    5.205543712e-04   -3.622293298e-05   -1.958599387e-05    0.000000000e+00    0.000000000e+00    0.000000000e+00    0.000000000e+00
      954000000    1.000400782e+00   -7.733698003e-04    2.435028546e-05   -3.560995538e-05    0.000000000e+00    0.000000000e+00    0.000000000e+00    0.000000000e+00
      961250000    1.001563668e+00   -1.907543483e-04    1.573681402e-05   -1.570374297e-05    0.000000000e+00    0.000000000e+00    0.000000000e+00    0.000000000e+00
      968500000    1.000430942e+00    5.935737863e-04   -3.081394971e-05    9.655098438e-06    0.000000000e+00    0.000000000e+00    0.000000000e+00    0.000000000e+00
      975750000    9.973369241e-01   -4.590719618e-05   -1.202782641e-05   -1.251057165e-05    0.000000000e+00    0.000000000e+00    0.000000000e+00    0.000000000e+00
      983000000    1.002094984e+00   -7.728678756e-04   -9.304990272e-06    1.867202809e-05    0.000000000e+00    0.000000000e+00    0.000000000e+00    0.000000000e+00
      990250000    1.000294089e+00   -6.844869931e-04    1.494478875e-05    2.953750300e-05    0.000000000e+00    0.000000000e+00    0.000000000e+00    0.000000000e+00
      997500000    9.973778725e-01    4.846831434e-04   -2.462987140e-05    9.221944310e-06    0.000000000e+00    0.000000000e+00    0.000000000e+00    0.000000000e+00
     1004750000    1.001504540e+00   -5.308741675e-05    7.072146400e-05    3.454899706e-05    0.000000000e+00    0.000000000e+00    0.000000000e+00    0.000000000e+00
     1012000000    9.998195767e-01   -5.965527962e-04   -5.317562318e-05    2.974527342e-05    0.000000000e+00    0.000000000e+00    0.000000000e+00    0.000000000e+00
     1019250000    1.001142979e+00   -6.908625946e-04   -4.332554454e-06   -2.987007610e-05    0.000000000e+00    0.000000000e+00    0.000000000e+00    0.000000000e+00
     1026500000    9.998884797e-01    3.562181373e-04    2.017337465e-05    1.293990181e-06    0.000000000e+00    0.000000000e+00    0.000000000e+00    0.000000000e+00
     1033750000    1.001269937e+00   -6.004523020e-04    4.101653394e-05    3.876745177e-05    0.000000000e+00    0.000000000e+00    0.000000000e+00    0.000000000e+00
     1041000000    1.001053333e+00    3.616747854e-04   -7.449131954e-05   -2.547339136e-05    0.000000000e+00    0.000000000e+00    0.000000000e+00    0.000000000e+00
