! NanoVNA-App
! Date: 2024-06-25 16:03:50
! Start: 200MHz Stop: 6GHz Points: 801
! S-Parameter data: F S11 S21 S12 S22
# Hz S RI R 50
!     Frequency           S11_Real           S11_Imag           S21_Real           S21_Imag           S12_Real           S12_Imag           S22_Real           S22_Imag
      200000000   -9.980389476e-01   -1.217645407e-01    3.426335752e-05   -5.286186934e-06    0.000000000e+00    0.000000000e+00    0.000000000e+00    0.000000000e+00
      207250000   -1.009844422e+00   -2.337291650e-02    3.551784903e-05    1.354701817e-05    0.000000000e+00    0.000000000e+00    0.000000000e+00    0.000000000e+00
      214500000   -1.012256026e+00    7.742339373e-02    1.534260809e-05    2.204440534e-05    0.000000000e+00    0.000000000e+00    0.000000000e+00    0.000000000e+00
      221750000   -1.003248453e+00    1.801865399e-01    3.492459655e-07    4.516076297e-05    0.000000000e+00    0.000000000e+00    0.000000000e+00    0.000000000e+00
      229000000   -9.854239225e-01    2.832355201e-01   -2.565979958e-05   -1.579523087e-06    0.000000000e+00    0.000000000e+00    0.000000000e+00    0.000000000e+00
      236250000   -9.534794688e-01    3.859311342e-01    2.793502063e-05   -1.968257129e-05    0.000000000e+00    0.000000000e+00    0.000000000e+00    0.000000000e+00
      243500000   -9.107436538e-01    4.856640697e-01   -8.023343980e-06   -1.514889300e-05    0.000000000e+00    0.000000000e+00    0.000000000e+00    0.000000000e+00
      250750000   -8.552132249e-01    5.828824043e-01   -8.288770914e-08   -2.599786967e-05    0.000000000e+00    0.000000000e+00    0.000000000e+00    0.000000000e+00
      258000000   -7.880045176e-01    6.742213368e-01   -1.053884625e-05    6.146728992e-08    0.000000000e+00    0.000000000e+00    0.000000000e+00    0.000000000e+00
      265250000   -7.091064453e-01    7.584716082e-01   -8.107163012e-06   -1.125130802e-05    0.000000000e+00    0.000000000e+00    0.000000000e+00    0.000000000e+00
      272500000   -6.190436482e-01    8.346636295e-01   -2.324953675e-05   -6.297603250e-05    0.000000000e+00    0.000000000e+00    0.000000000e+00    0.000000000e+00
      279750000   -5.189259052e-01    9.001333714e-01   -2.698972821e-05   -3.765337169e-06    0.000000000e+00    0.000000000e+00    0.000000000e+00    0.000000000e+00
      287000000   -4.093599916e-01    9.527032971e-01   -1.140870154e-05    1.171510667e-05    0.000000000e+00    0.000000000e+00    0.000000000e+00    0.000000000e+00
      294250000   -2.927327156e-01    9.916152358e-01   -2.187676728e-06    2.781208605e-05    0.000000000e+00    0.000000000e+00    0.000000000e+00    0.000000000e+00
      301500000   -1.709271520e-01    1.016231775e+00   -9.605661035e-06   -9.576790035e-06    0.000000000e+00    0.000000000e+00    0.000000000e+00    0.000000000e+00
      308750000   -4.515193403e-02    1.024490237e+00    2.189539373e-06   -1.397822052e-05    0.000000000e+00    0.000000000e+00    0.000000000e+00    0.000000000e+00
      316000000    8.127366751e-02    1.017552257e+00   -7.327646017e-06   -2.730172127e-05    0.000000000e+00    0.000000000e+00    0.000000000e+00    0.000000000e+00
      323250000    2.061695307e-01    9.940754175e-01   -5.131587386e-06    1.258309931e-05    0.000000000e+00    0.000000000e+00    0.000000000e+00    0.000000000e+00
      330500000    3.264132142e-01    9.541972280e-01   -1.477636397e-05   -2.365000546e-05    0.000000000e+00    0.000000000e+00    0.000000000e+00    0.000000000e+00
      337750000    4.410930872e-01    8.994495273e-01    3.000721335e-06   -1.195259392e-05    0.000000000e+00    0.000000000e+00    0.000000000e+00    0.000000000e+00
      345000000    5.473184586e-01    8.299143314e-01   -2.981256694e-05    2.707354724e-06    0.000000000e+00    0.000000000e+00    0.000000000e+00    0.000000000e+00
      352250000    6.434424520e-01    7.492818236e-01    3.170687705e-05   -1.859199256e-05    0.000000000e+00    0.000000000e+00    0.000000000e+00    0.000000000e+00
      359500000    7.280427217e-01    6.576494575e-01    9.816139936e-06   -1.995451748e-05    0.000000000e+00    0.000000000e+00    0.000000000e+00    0.000000000e+00
      366750000    8.000321388e-01    5.577471852e-01    6.484799087e-06   -9.302981198e-06    0.000000000e+00    0.000000000e+00    0.000000000e+00    0.000000000e+00
      374000000    8.583510518e-01    4.498808086e-01    1.595355570e-06   -2.758577466e-06    0.000000000e+00    0.000000000e+00    0.000000000e+00    0.000000000e+00
      381250000    9.044268131e-01    3.366546035e-01    7.066875696e-06    3.283843398e-05    0.000000000e+00    0.000000000e+00    0.000000000e+00    0.000000000e+00
      388500000    9.354201555e-01    2.206567973e-01   -1.438800246e-05   -5.926005542e-06    0.000000000e+00    0.000000000e+00    0.000000000e+00    0.000000000e+00
      395750000    9.528269768e-01    1.039748341e-01   -9.404495358e-06   -1.091230661e-05    0.000000000e+00    0.000000000e+00    0.000000000e+00    0.000000000e+00
      403000000    9.569057822e-01   -1.358821616e-02   -3.448873758e-05   -2.604350448e-05    0.000000000e+00    0.000000000e+00    0.000000000e+00    0.000000000e+00
      410250000    9.483470917e-01   -1.284939349e-01   -2.916529775e-05    1.499336213e-05    0.000000000e+00    0.000000000e+00    0.000000000e+00    0.000000000e+00
      417500000    9.273464084e-01   -2.415542752e-01   -3.468431532e-05   -1.684203744e-05    0.000000000e+00    0.000000000e+00    0.000000000e+00    0.000000000e+00
      424750000    8.942023516e-01   -3.508551717e-01    2.763513476e-05    1.538544893e-06    0.000000000e+00    0.000000000e+00    0.000000000e+00    0.000000000e+00
      432000000    8.504675627e-01   -4.543518126e-01   -1.255422831e-05    3.876164556e-06    0.000000000e+00    0.000000000e+00    0.000000000e+00    0.000000000e+00
      439250000    7.962778211e-01   -5.514221787e-01   -4.634819925e-05   -3.658980131e-05    0.000000000e+00    0.000000000e+00    0.000000000e+00    0.000000000e+00
      446500000    7.316544652e-01   -6.431343555e-01    2.241227776e-05   -7.883645594e-06    0.000000000e+00    0.000000000e+00    0.000000000e+00    0.000000000e+00
      453750000    6.599724889e-01   -7.257441878e-01   -8.191913366e-06    2.442579716e-05    0.000000000e+00    0.000000000e+00    0.000000000e+00    0.000000000e+00
      461000000    5.798216462e-01   -8.009970188e-01    1.854635775e-05    7.119961083e-06    0.000000000e+00    0.000000000e+00    0.000000000e+00    0.000000000e+00
      468250000    4.920958579e-01   -8.662261963e-01   -1.281220466e-05    1.732818782e-05    0.000000000e+00    0.000000000e+00    0.000000000e+00    0.000000000e+00
      475500000    3.976906836e-01   -9.238456488e-01    6.284564734e-06    5.412101746e-05    0.000000000e+00    0.000000000e+00    0.000000000e+00    0.000000000e+00
      482750000    2.987577617e-01   -9.694492221e-01    1.186970621e-05    2.857297659e-06    0.000000000e+00    0.000000000e+00    0.000000000e+00    0.000000000e+00
      490000000    1.948061585e-01   -1.005788684e+00    2.342276275e-05   -4.770234227e-06    0.000000000e+00    0.000000000e+00    0.000000000e+00    0.000000000e+00
      497250000    8.756188303e-02   -1.031459928e+00   -1.891981810e-05    1.796521246e-06    0.000000000e+00    0.000000000e+00    0.000000000e+00    0.000000000e+00
      504500000   -2.276640758e-02   -1.044807911e+00   -1.780036837e-05   -1.457706094e-05    0.000000000e+00    0.000000000e+00    0.000000000e+00    0.000000000e+00
      511750000   -1.336718798e-01   -1.047368884e+00    4.580244422e-06    2.744514495e-05    0.000000000e+00    0.000000000e+00    0.000000000e+00    0.000000000e+00
      519000000   -2.454911917e-01   -1.037869573e+00   -2.261251211e-05   -1.563690603e-06    0.000000000e+00    0.000000000e+00    0.000000000e+00    0.000000000e+00
      526250000   -3.561502993e-01   -1.015064836e+00    5.933456123e-06   -1.646112651e-05    0.000000000e+00    0.000000000e+00    0.000000000e+00    0.000000000e+00
      533500000   -4.644969702e-01   -9.799740314e-01   -2.998579293e-05    2.604536712e-05    0.000000000e+00    0.000000000e+00    0.000000000e+00    0.000000000e+00
      540750000   -5.701619387e-01   -9.332528710e-01    4.357658327e-06    8.707866073e-06    0.000000000e+00    0.000000000e+00    0.000000000e+00    0.000000000e+00
      548000000   -6.696109772e-01   -8.737776279e-01   -2.606026828e-05    8.341856301e-06    0.000000000e+00    0.000000000e+00    0.000000000e+00    0.000000000e+00
      555250000   -7.619451880e-01   -8.028227091e-01    4.158355296e-06    1.413375139e-05    0.000000000e+00    0.000000000e+00    0.000000000e+00    0.000000000e+00
      562500000   -8.463869691e-01   -7.203925848e-01   -4.872679710e-06    1.129228622e-05    0.000000000e+00    0.000000000e+00    0.000000000e+00    0.000000000e+00
      569750000   -9.205190539e-01   -6.301084757e-01    2.255942672e-05   -1.292210072e-05    0.000000000e+00    0.000000000e+00    0.000000000e+00    0.000000000e+00
      577000000   -9.848290086e-01   -5.285307169e-01    4.458241165e-06    4.389323294e-06    0.000000000e+00    0.000000000e+00    0.000000000e+00    0.000000000e+00
      584250000   -1.036492109e+00   -4.197414219e-01   -2.686306834e-05    4.420056939e-05    0.000000000e+00    0.000000000e+00    0.000000000e+00    0.000000000e+00
      591500000   -1.073789835e+00   -3.065937459e-01   -4.014931619e-06   -3.148894757e-05    0.000000000e+00    0.000000000e+00    0.000000000e+00    0.000000000e+00
      598750000   -1.098089933e+00   -1.882644743e-01   -1.240521669e-06    7.547438145e-06    0.000000000e+00    0.000000000e+00    0.000000000e+00    0.000000000e+00
      606000000   -1.107272625e+00   -6.918322295e-02    2.665538341e-05   -1.102313399e-05    0.000000000e+00    0.000000000e+00    0.000000000e+00    0.000000000e+00
      613250000   -1.102236032e+00    5.203180388e-02   -2.070888877e-05   -5.291774869e-06    0.000000000e+00    0.000000000e+00    0.000000000e+00    0.000000000e+00
      620500000   -1.081784487e+00    1.709915102e-01    7.469207048e-07   -5.325488746e-05    0.000000000e+00    0.000000000e+00    0.000000000e+00    0.000000000e+00
      627750000   -1.048201442e+00    2.853491604e-01   -1.234933734e-06    2.850964665e-05    0.000000000e+00    0.000000000e+00    0.000000000e+00    0.000000000e+00
      635000000   -1.001375318e+00    3.935197890e-01   -4.370883107e-05   -1.614075154e-05    0.000000000e+00    0.000000000e+00    0.000000000e+00    0.000000000e+00
      642250000   -9.411140084e-01    4.957244098e-01   -1.080334187e-07    2.367328852e-05    0.000000000e+00    0.000000000e+00    0.000000000e+00    0.000000000e+00
      649500000   -8.704489470e-01    5.892680883e-01    2.279970795e-05   -2.896599472e-05    0.000000000e+00    0.000000000e+00    0.000000000e+00    0.000000000e+00
      656750000   -7.895894647e-01    6.723697186e-01   -2.383347601e-05    3.425311297e-05    0.000000000e+00    0.000000000e+00    0.000000000e+00    0.000000000e+00
      664000000   -7.017951012e-01    7.447072268e-01   -3.724358976e-06   -1.378357410e-07    0.000000000e+00    0.000000000e+00    0.000000000e+00    0.000000000e+00
      671250000   -6.057947874e-01    8.060656786e-01   -3.267452121e-05   -9.718351066e-06    0.000000000e+00    0.000000000e+00    0.000000000e+00    0.000000000e+00
      678500000   -5.045482516e-01    8.554040194e-01    1.482665539e-05    2.343021333e-05    0.000000000e+00    0.000000000e+00    0.000000000e+00    0.000000000e+00
      685750000   -3.996284902e-01    8.920797706e-01    2.280529588e-05    1.784507185e-05    0.000000000e+00    0.000000000e+00    0.000000000e+00    0.000000000e+00
      693000000   -2.947012484e-01    9.169101119e-01    7.943250239e-06    2.676900476e-05    0.000000000e+00    0.000000000e+00    0.000000000e+00    0.000000000e+00
      700250000   -1.852659881e-01    9.303677678e-01    1.391395926e-06   -8.439645171e-06    0.000000000e+00    0.000000000e+00    0.000000000e+00    0.000000000e+00
      707500000   -8.034040779e-02    9.314670563e-01    3.199744970e-05   -1.850444824e-05    0.000000000e+00    0.000000000e+00    0.000000000e+00    0.000000000e+00
      714750000    2.601712570e-02    9.214786887e-01    1.107528806e-05    1.307018101e-05    0.000000000e+00    0.000000000e+00    0.000000000e+00    0.000000000e+00
      722000000    1.294748336e-01    9.011830688e-01    5.075708032e-06    1.371931285e-05    0.000000000e+00    0.000000000e+00    0.000000000e+00    0.000000000e+00
      729250000    2.290998101e-01    8.703129292e-01    4.569999874e-05   -5.475245416e-06    0.000000000e+00    0.000000000e+00    0.000000000e+00    0.000000000e+00
      736500000    3.231273293e-01    8.303520679e-01    1.451652497e-05    2.311542630e-06    0.000000000e+00    0.000000000e+00    0.000000000e+00    0.000000000e+00
      743750000    4.128101468e-01    7.807233930e-01    1.791398972e-05   -4.190020263e-06    0.000000000e+00    0.000000000e+00    0.000000000e+00    0.000000000e+00
      751000000    4.964307547e-01    7.231801152e-01   -1.763459295e-05   -2.396106720e-05    0.000000000e+00    0.000000000e+00    0.000000000e+00    0.000000000e+00
      758250000    5.730976462e-01    6.583670378e-01    1.543294638e-05   -2.987310290e-05    0.000000000e+00    0.000000000e+00    0.000000000e+00    0.000000000e+00
      765500000    6.432378888e-01    5.859130621e-01   -3.798212856e-05   -3.558397293e-05    0.000000000e+00    0.000000000e+00    0.000000000e+00    0.000000000e+00
      772750000    7.057875991e-01    5.081641078e-01   -1.996662468e-05    1.277681440e-05    0.000000000e+00    0.000000000e+00    0.000000000e+00    0.000000000e+00
      780000000    7.600364089e-01    4.239632785e-01    2.994202077e-06   -3.080628812e-05    0.000000000e+00    0.000000000e+00    0.000000000e+00    0.000000000e+00
      787250000    8.071852326e-01    3.328918517e-01   -3.527384251e-05    2.097897232e-05    0.000000000e+00    0.000000000e+00    0.000000000e+00    0.000000000e+00
      794500000    8.448824286e-01    2.390255183e-01   -3.786757588e-06   -2.558808774e-05    0.000000000e+00    0.000000000e+00    0.000000000e+00    0.000000000e+00
      801750000    8.731560111e-01    1.398358494e-01   -5.235895514e-06   -8.689239621e-06    0.000000000e+00    0.000000000e+00    0.000000000e+00    0.000000000e+00
      809000000    8.909178376e-01    3.894910961e-02   -1.736078411e-05   -2.760160714e-05    0.000000000e+00    0.000000000e+00    0.000000000e+00    0.000000000e+00
      816250000    8.986055851e-01   -6.588980556e-02   -7.836148143e-06    1.626461744e-05    0.000000000e+00    0.000000000e+00    0.000000000e+00    0.000000000e+00
      823500000    8.958260417e-01   -1.705783606e-01   -7.136724889e-06    7.349066436e-06    0.000000000e+00    0.000000000e+00    0.000000000e+00    0.000000000e+00
      830750000    8.820662498e-01   -2.757020295e-01   -1.904834062e-05   -1.420173794e-05    0.000000000e+00    0.000000000e+00    0.000000000e+00    0.000000000e+00
      838000000    8.549380302e-01   -3.823532164e-01    4.417728633e-05    3.742519766e-05    0.000000000e+00    0.000000000e+00    0.000000000e+00    0.000000000e+00
      845250000    8.170832992e-01   -4.850948155e-01    1.359451562e-05    1.527834684e-05    0.000000000e+00    0.000000000e+00    0.000000000e+00    0.000000000e+00
      852500000    7.672128081e-01   -5.856741667e-01   -4.679057747e-05   -1.206435263e-05    0.000000000e+00    0.000000000e+00    0.000000000e+00    0.000000000e+00
      859750000    7.065081596e-01   -6.792716384e-01   -1.213513315e-05   -4.168692976e-05    0.000000000e+00    0.000000000e+00    0.000000000e+00    0.000000000e+00
      867000000    6.299105287e-01   -7.697045803e-01    1.512747258e-05    1.090299338e-05    0.000000000e+00    0.000000000e+00    0.000000000e+00    0.000000000e+00
      874250000    5.445235968e-01   -8.483179808e-01   -4.448741674e-05   -3.151502460e-05    0.000000000e+00    0.000000000e+00    0.000000000e+00    0.000000000e+00
      881500000    4.471341372e-01   -9.194790125e-01   -1.591723412e-05    1.634377986e-05    0.000000000e+00    0.000000000e+00    0.000000000e+00    0.000000000e+00
      888750000    3.408733904e-01   -9.773417711e-01    1.559220254e-05    7.778313011e-05    0.000000000e+00    0.000000000e+00    0.000000000e+00    0.000000000e+00
      896000000    2.274059802e-01   -1.021549940e+00    3.573484719e-06    5.344860256e-06    0.000000000e+00    0.000000000e+00    0.000000000e+00    0.000000000e+00
      903250000    1.068964303e-01   -1.051204920e+00   -5.920417607e-06   -1.325458288e-05    0.000000000e+00    0.000000000e+00    0.000000000e+00    0.000000000e+00
      910500000   -1.941307262e-02   -1.063926220e+00    2.333056182e-05   -1.054536551e-05    0.000000000e+00    0.000000000e+00    0.000000000e+00    0.000000000e+00
      917750000   -1.449622363e-01   -1.059530973e+00   -4.560686648e-06   -8.867122233e-06    0.000000000e+00    0.000000000e+00    0.000000000e+00    0.000000000e+00
      925000000   -2.704984844e-01   -1.038077831e+00   -1.676380634e-06   -8.415430784e-06    0.000000000e+00    0.000000000e+00    0.000000000e+00    0.000000000e+00
      932250000   -3.901920617e-01   -9.993475080e-01   -2.345163375e-05    1.216214150e-05    0.000000000e+00    0.000000000e+00    0.000000000e+00    0.000000000e+00
      939500000   -5.034813285e-01   -9.455509782e-01   -9.243376553e-06    1.116003841e-05    0.000000000e+00    0.000000000e+00    0.000000000e+00    0.000000000e+00
      946750000   -6.061538458e-01   -8.778989911e-01    5.802139640e-07    4.179775715e-05    0.000000000e+00    0.000000000e+00    0.000000000e+00    0.000000000e+00
      954000000   -7.011272907e-01   -7.938085198e-01    6.770715117e-06   -1.418311149e-05    0.000000000e+00    0.000000000e+00    0.000000000e+00    0.000000000e+00
      961250000   -7.787684798e-01   -7.054058313e-01    8.280389011e-06    5.059409887e-05    0.000000000e+00    0.000000000e+00    0.000000000e+00    0.000000000e+00
      968500000   -8.454843760e-01   -6.037495136e-01   -1.509394497e-05    1.123175025e-06    0.000000000e+00    0.000000000e+00    0.000000000e+00    0.000000000e+00
      975750000   -8.963497281e-01   -4.974998534e-01   -2.870336175e-05   -3.413390368e-05    0.000000000e+00    0.000000000e+00    0.000000000e+00    0.000000000e+00
      983000000   -9.325664639e-01   -3.893428743e-01    5.974434316e-06   -3.078952432e-06    0.000000000e+00    0.000000000e+00    0.000000000e+00    0.000000000e+00
      990250000   -9.542246461e-01   -2.785594165e-01    1.962482929e-05   -2.271588892e-05    0.000000000e+00    0.000000000e+00    0.000000000e+00    0.000000000e+00
      997500000   -9.619112015e-01   -1.695095748e-01   -1.770071685e-05   -1.185759902e-05    0.000000000e+00    0.000000000e+00    0.000000000e+00    0.000000000e+00
     1004750000   -9.564943314e-01   -6.194614619e-02    2.118106931e-05   -8.099712431e-06    0.000000000e+00    0.000000000e+00    0.000000000e+00    0.000000000e+00
     1012000000   -9.391710162e-01    4.109241441e-02    1.652818173e-05   -3.949645907e-05    0.000000000e+00    0.000000000e+00    0.000000000e+00    0.000000000e+00
     1019250000   -9.118146896e-01    1.370008737e-01    7.943250239e-06   -6.188545376e-05    0.000000000e+00    0.000000000e+00    0.000000000e+00    0.000000000e+00
     1026500000   -8.738608956e-01    2.285935432e-01   -1.961272210e-05    2.094265074e-05    0.000000000e+00    0.000000000e+00    0.000000000e+00    0.000000000e+00
     1033750000   -8.279069662e-01    3.142736852e-01    1.792423427e-05    1.929700375e-05    0.000000000e+00    0.000000000e+00    0.000000000e+00    0.000000000e+00
     1041000000   -7.756170630e-01    3.907305598e-01   -2.702791244e-05    4.589371383e-05    0.000000000e+00    0.000000000e+00    0.000000000e+00    0.000000000e+00
