! NanoVNA-App
! Date: 2024-06-25 16:03:52
! Start: 200MHz Stop: 6GHz Points: 801
! S-Parameter data: F S11 S21 S12 S22
# Hz S RI R 50
!     Frequency           S11_Real           S11_Imag           S21_Real           S21_Imag           S12_Real           S12_Imag           S22_Real           S22_Imag
      200000000   -9.981139302e-01   -1.221905574e-01    2.095941454e-05    2.074148506e-05    0.000000000e+00    0.000000000e+00    0.000000000e+00    0.000000000e+00
      207250000   -1.010333657e+00   -2.335328236e-02   -1.260358840e-05   -7.372349501e-06    0.000000000e+00    0.000000000e+00    0.000000000e+00    0.000000000e+00
      214500000   -1.012257338e+00    7.780604810e-02    5.915760994e-06   -9.378418326e-07    0.000000000e+00    0.000000000e+00    0.000000000e+00    0.000000000e+00
      221750000   -1.004152894e+00    1.799884439e-01    2.581998706e-05   -1.297611743e-05    0.000000000e+00    0.000000000e+00    0.000000000e+00    0.000000000e+00
      229000000   -9.847967625e-01    2.833291888e-01   -4.702247679e-06   -1.182314008e-05    0.000000000e+00    0.000000000e+00    0.000000000e+00    0.000000000e+00
      236250000   -9.528048038e-01    3.856116235e-01    2.462416887e-05    2.535711974e-05    0.000000000e+00    0.000000000e+00    0.000000000e+00    0.000000000e+00
      243500000   -9.109416008e-01    4.859495163e-01   -1.606531441e-06   -2.807006240e-06    0.000000000e+00    0.000000000e+00    0.000000000e+00    0.000000000e+00
      250750000   -8.552730680e-01    5.826518536e-01    4.720874131e-06    3.575254232e-05    0.000000000e+00    0.000000000e+00    0.000000000e+00    0.000000000e+00
      258000000   -7.881940603e-01    6.744114161e-01    2.064090222e-05   -6.739981472e-06    0.000000000e+00    0.000000000e+00    0.000000000e+00    0.000000000e+00
      265250000   -7.089955211e-01    7.585464120e-01    3.839470446e-05    2.206768841e-05    0.000000000e+00    0.000000000e+00    0.000000000e+00    0.000000000e+00
      272500000   -6.186767817e-01    8.345566988e-01   -2.592895180e-05    2.513919026e-05    0.000000000e+00    0.000000000e+00    0.000000000e+00    0.000000000e+00
      279750000   -5.193090439e-01    8.998465538e-01   -1.328997314e-05   -2.116896212e-05    0.000000000e+00    0.000000000e+00    0.000000000e+00    0.000000000e+00
      287000000   -4.089255333e-01    9.523653388e-01    2.737436444e-05    1.398473978e-05    0.000000000e+00    0.000000000e+00    0.000000000e+00    0.000000000e+00
      294250000   -2.928728461e-01    9.920696616e-01   -1.199729741e-05   -1.848861575e-05    0.000000000e+00    0.000000000e+00    0.000000000e+00    0.000000000e+00
      301500000   -1.706663817e-01    1.016694427e+00    1.983717084e-05   -2.973340452e-05    0.000000000e+00    0.000000000e+00    0.000000000e+00    0.000000000e+00
      308750000   -4.514218867e-02    1.024940014e+00    1.997686923e-06   -1.648068428e-05    0.000000000e+00    0.000000000e+00    0.000000000e+00    0.000000000e+00
      316000000    8.136168122e-02    1.017244577e+00    6.611458957e-06    2.793222666e-05    0.000000000e+00    0.000000000e+00    0.000000000e+00    0.000000000e+00
      323250000    2.054656893e-01    9.942486882e-01   -1.912843436e-05    1.435540617e-05    0.000000000e+00    0.000000000e+00    0.000000000e+00    0.000000000e+00
      330500000    3.263501227e-01    9.544419050e-01    3.011897206e-06   -1.216772944e-05    0.000000000e+00    0.000000000e+00    0.000000000e+00    0.000000000e+00
      337750000    4.410836399e-01    8.992030025e-01    1.181196421e-05    3.293994814e-05    0.000000000e+00    0.000000000e+00    0.000000000e+00    0.000000000e+00
      345000000    5.467950702e-01    8.305833936e-01   -4.610978067e-06    1.204945147e-05    0.000000000e+00    0.000000000e+00    0.000000000e+00    0.000000000e+00
      352250000    6.432467699e-01    7.503254414e-01   -3.844685853e-05   -1.329369843e-05    0.000000000e+00    0.000000000e+00    0.000000000e+00    0.000000000e+00
      359500000    7.280454636e-01    6.581142545e-01   -2.751220018e-05    1.115631312e-05    0.000000000e+00    0.000000000e+00    0.000000000e+00    0.000000000e+00
      366750000    7.999748588e-01    5.575414300e-01    2.390705049e-06    1.381989568e-05    0.000000000e+00    0.000000000e+00    0.000000000e+00    0.000000000e+00
      374000000    8.583361506e-01    4.499325454e-01    7.404014468e-07   -2.301204950e-05    0.000000000e+00    0.000000000e+00    0.000000000e+00    0.000000000e+00
      381250000    9.044582248e-01    3.364006579e-01   -8.555129170e-06   -1.485273242e-05    0.000000000e+00    0.000000000e+00    0.000000000e+00    0.000000000e+00
      388500000    9.350376129e-01    2.206404060e-01   -5.224719644e-06    2.249982208e-05    0.000000000e+00    0.000000000e+00    0.000000000e+00    0.000000000e+00
      395750000    9.525292516e-01    1.034778431e-01    2.677552402e-06    2.359412611e-05    0.000000000e+00    0.000000000e+00    0.000000000e+00    0.000000000e+00
      403000000    9.570124745e-01   -1.278809179e-02   -2.120807767e-05   -2.024322748e-05    0.000000000e+00    0.000000000e+00    0.000000000e+00    0.000000000e+00
      410250000    9.479970336e-01   -1.295409203e-01   -1.250952482e-05   -1.281686127e-05    0.000000000e+00    0.000000000e+00    0.000000000e+00    0.000000000e+00
      417500000    9.269675612e-01   -2.412456721e-01   -1.186877489e-05   -2.544373274e-06    0.000000000e+00    0.000000000e+00    0.000000000e+00    0.000000000e+00
      424750000    8.945500255e-01   -3.510526419e-01   -2.843979746e-05   -2.538505942e-05    0.000000000e+00    0.000000000e+00    0.000000000e+00    0.000000000e+00
      432000000    8.502290249e-01   -4.544059038e-01    1.745671034e-05    1.081265509e-06    0.000000000e+00    0.000000000e+00    0.000000000e+00    0.000000000e+00
      439250000    7.957364917e-01   -5.519534349e-01   -5.708076060e-06    5.097128451e-06    0.000000000e+00    0.000000000e+00    0.000000000e+00    0.000000000e+00
      446500000    7.324483395e-01   -6.416259408e-01    7.638707757e-06   -1.749955118e-06    0.000000000e+00    0.000000000e+00    0.000000000e+00    0.000000000e+00
      453750000    6.593256593e-01   -7.257605195e-01   -3.071688116e-05   -3.933068365e-05    0.000000000e+00    0.000000000e+00    0.000000000e+00    0.000000000e+00
      461000000    5.787227154e-01   -8.006556630e-01    6.624497473e-06   -1.032464206e-05    0.000000000e+00    0.000000000e+00    0.000000000e+00    0.000000000e+00
      468250000    4.923896492e-01   -8.661996126e-01   -3.129243851e-07    2.342276275e-06    0.000000000e+00    0.000000000e+00    0.000000000e+00    0.000000000e+00
      475500000    3.980995715e-01   -9.232053161e-01   -3.859400749e-06    4.198681563e-05    0.000000000e+00    0.000000000e+00    0.000000000e+00    0.000000000e+00
      482750000    2.980190814e-01   -9.698736072e-01    9.182840586e-07    1.719687134e-05    0.000000000e+00    0.000000000e+00    0.000000000e+00    0.000000000e+00
      490000000    1.950055212e-01   -1.006281853e+00   -2.633966506e-05    1.014582813e-05    0.000000000e+00    0.000000000e+00    0.000000000e+00    0.000000000e+00
      497250000    8.721585572e-02   -1.031326532e+00   -3.588292748e-05    9.596347809e-06    0.000000000e+00    0.000000000e+00    0.000000000e+00    0.000000000e+00
      504500000   -2.220499888e-02   -1.045717597e+00    1.078937203e-05   -1.169741154e-06    0.000000000e+00    0.000000000e+00    0.000000000e+00    0.000000000e+00
      511750000   -1.335340738e-01   -1.047140837e+00    1.188181341e-05   -1.912098378e-05    0.000000000e+00    0.000000000e+00    0.000000000e+00    0.000000000e+00
      519000000   -2.456017435e-01   -1.037096143e+00    1.789629459e-05    2.173148096e-05    0.000000000e+00    0.000000000e+00    0.000000000e+00    0.000000000e+00
      526250000   -3.563538790e-01   -1.015192032e+00    5.941838026e-07   -1.472048461e-05    0.000000000e+00    0.000000000e+00    0.000000000e+00    0.000000000e+00
      533500000   -4.648968577e-01   -9.799293280e-01    3.792159259e-05    2.350285649e-05    0.000000000e+00    0.000000000e+00    0.000000000e+00    0.000000000e+00
      540750000   -5.696786046e-01   -9.326872826e-01    1.883879304e-05    1.486111432e-05    0.000000000e+00    0.000000000e+00    0.000000000e+00    0.000000000e+00
      548000000   -6.693683267e-01   -8.732354045e-01    4.393607378e-05    3.106612712e-05    0.000000000e+00    0.000000000e+00    0.000000000e+00    0.000000000e+00
      555250000   -7.622590065e-01   -8.032399416e-01   -3.491062671e-05    1.863855869e-05    0.000000000e+00    0.000000000e+00    0.000000000e+00    0.000000000e+00
      562500000   -8.464629054e-01   -7.213963270e-01   -2.724863589e-05    1.845136285e-05    0.000000000e+00    0.000000000e+00    0.000000000e+00    0.000000000e+00
      569750000   -9.210365415e-01   -6.292664409e-01    2.266839147e-05   -2.895016223e-05    0.000000000e+00    0.000000000e+00    0.000000000e+00    0.000000000e+00
      577000000   -9.849511981e-01   -5.288849473e-01    8.934177458e-06    1.350417733e-07    0.000000000e+00    0.000000000e+00    0.000000000e+00    0.000000000e+00
      584250000   -1.036294341e+00   -4.202396274e-01    3.361143172e-05    7.594004273e-06    0.000000000e+00    0.000000000e+00    0.000000000e+00    0.000000000e+00
      591500000   -1.074544191e+00   -3.061613142e-01    1.193955541e-06   -1.773890108e-05    0.000000000e+00    0.000000000e+00    0.000000000e+00    0.000000000e+00
      598750000   -1.098137975e+00   -1.887807399e-01    2.993829548e-05   -1.390371472e-05    0.000000000e+00    0.000000000e+00    0.000000000e+00    0.000000000e+00
      606000000   -1.107345939e+00   -6.809604168e-02   -2.509541810e-05    2.952851355e-05    0.000000000e+00    0.000000000e+00    0.000000000e+00    0.000000000e+00
      613250000   -1.102117777e+00    5.171540752e-02   -4.462804645e-05   -4.339031875e-06    0.000000000e+00    0.000000000e+00    0.000000000e+00    0.000000000e+00
      620500000   -1.082511067e+00    1.717798710e-01   -1.839268953e-05   -8.291564882e-06    0.000000000e+00    0.000000000e+00    0.000000000e+00    0.000000000e+00
      627750000   -1.048676729e+00    2.851615250e-01   -1.600012183e-06    1.156888902e-05    0.000000000e+00    0.000000000e+00    0.000000000e+00    0.000000000e+00
      635000000   -1.001479983e+00    3.938119411e-01    3.693997860e-05   -9.740702808e-06    0.000000000e+00    0.000000000e+00    0.000000000e+00    0.000000000e+00
      642250000   -9.409001470e-01    4.962667823e-01    1.867953688e-05   -1.898314804e-05    0.000000000e+00    0.000000000e+00    0.000000000e+00    0.000000000e+00
      649500000   -8.709924221e-01    5.888504386e-01    4.028063267e-05   -5.749054253e-06    0.000000000e+00    0.000000000e+00    0.000000000e+00    0.000000000e+00
      656750000   -7.903695107e-01    6.720901728e-01    1.616589725e-05   -5.234032869e-06    0.000000000e+00    0.000000000e+00    0.000000000e+00    0.000000000e+00
      664000000   -7.009941339e-01    7.445670366e-01    2.211984247e-05   -2.607889473e-05    0.000000000e+00    0.000000000e+00    0.000000000e+00    0.000000000e+00
      671250000   -6.056800485e-01    8.057754040e-01   -1.942738891e-05   -2.233590931e-05    0.000000000e+00    0.000000000e+00    0.000000000e+00    0.000000000e+00
      678500000   -5.047717094e-01    8.548365235e-01    1.484993845e-05    1.523829997e-05    0.000000000e+00    0.000000000e+00    0.000000000e+00    0.000000000e+00
      685750000   -4.005236030e-01    8.922159076e-01    5.735829473e-05    2.580415457e-05    0.000000000e+00    0.000000000e+00    0.000000000e+00    0.000000000e+00
      693000000   -2.934583724e-01    9.169576764e-01   -1.343991607e-05   -1.132767648e-05    0.000000000e+00    0.000000000e+00    0.000000000e+00    0.000000000e+00
      700250000   -1.859653741e-01    9.303990602e-01   -1.884065568e-05   -5.245208740e-06    0.000000000e+00    0.000000000e+00    0.000000000e+00    0.000000000e+00
      707500000   -7.883556187e-02    9.321400523e-01    6.454065442e-06    1.977570355e-05    0.000000000e+00    0.000000000e+00    0.000000000e+00    0.000000000e+00
      714750000    2.671048604e-02    9.215450883e-01   -2.886168659e-06    2.038292587e-05    0.000000000e+00    0.000000000e+00    0.000000000e+00    0.000000000e+00
      722000000    1.304848641e-01    9.011038542e-01    2.085044980e-05   -3.755278885e-05    0.000000000e+00    0.000000000e+00    0.000000000e+00    0.000000000e+00
      729250000    2.285471410e-01    8.705614209e-01    2.230890095e-05    5.018152297e-05    0.000000000e+00    0.000000000e+00    0.000000000e+00    0.000000000e+00
      736500000    3.231846690e-01    8.304112554e-01    5.132518709e-06   -2.389773726e-05    0.000000000e+00    0.000000000e+00    0.000000000e+00    0.000000000e+00
      743750000    4.130814075e-01    7.807216048e-01   -1.870002598e-05    5.091726780e-05    0.000000000e+00    0.000000000e+00    0.000000000e+00    0.000000000e+00
      751000000    4.965537786e-01    7.236949801e-01    1.364480704e-05    6.534159184e-06    0.000000000e+00    0.000000000e+00    0.000000000e+00    0.000000000e+00
      758250000    5.729136467e-01    6.589501500e-01   -1.728907228e-05   -3.702659160e-05    0.000000000e+00    0.000000000e+00    0.000000000e+00    0.000000000e+00
      765500000    6.433866024e-01    5.865582824e-01   -4.042871296e-06    7.026828825e-06    0.000000000e+00    0.000000000e+00    0.000000000e+00    0.000000000e+00
      772750000    7.064882517e-01    5.067945719e-01    1.116190106e-05   -4.700478166e-05    0.000000000e+00    0.000000000e+00    0.000000000e+00    0.000000000e+00
      780000000    7.597392797e-01    4.243509173e-01    1.403503120e-05    1.710560173e-05    0.000000000e+00    0.000000000e+00    0.000000000e+00    0.000000000e+00
      787250000    8.077168465e-01    3.326268196e-01    1.687649637e-05    6.530433893e-06    0.000000000e+00    0.000000000e+00    0.000000000e+00    0.000000000e+00
      794500000    8.450873494e-01    2.386508435e-01    2.925843000e-05    1.054629683e-05    0.000000000e+00    0.000000000e+00    0.000000000e+00    0.000000000e+00
      801750000    8.730005026e-01    1.399128884e-01    1.269578934e-05    4.262011498e-05    0.000000000e+00    0.000000000e+00    0.000000000e+00    0.000000000e+00
      809000000    8.908547163e-01    3.842467815e-02   -2.854317427e-05    5.352310836e-06    0.000000000e+00    0.000000000e+00    0.000000000e+00    0.000000000e+00
      816250000    8.985257149e-01   -6.487651914e-02   -1.444667578e-05   -1.585111022e-06    0.000000000e+00    0.000000000e+00    0.000000000e+00    0.000000000e+00
      823500000    8.953790665e-01   -1.716660261e-01    1.087691635e-05   -1.521129161e-05    0.000000000e+00    0.000000000e+00    0.000000000e+00    0.000000000e+00
      830750000    8.815796375e-01   -2.758688629e-01   -2.530682832e-05    9.874813259e-06    0.000000000e+00    0.000000000e+00    0.000000000e+00    0.000000000e+00
      838000000    8.549541235e-01   -3.830612302e-01    2.337712795e-05    1.443549991e-06    0.000000000e+00    0.000000000e+00    0.000000000e+00    0.000000000e+00
      845250000    8.166442513e-01   -4.865921736e-01    2.991687506e-05   -3.647524863e-05    0.000000000e+00    0.000000000e+00    0.000000000e+00    0.000000000e+00
      852500000    7.671684623e-01   -5.856772661e-01   -1.177284867e-05   -1.566298306e-05    0.000000000e+00    0.000000000e+00    0.000000000e+00    0.000000000e+00
      859750000    7.059142590e-01   -6.796460748e-01   -1.563690603e-05    3.330409527e-06    0.000000000e+00    0.000000000e+00    0.000000000e+00    0.000000000e+00
      867000000    6.302061081e-01   -7.697587609e-01   -2.180226147e-06    1.696683466e-05    0.000000000e+00    0.000000000e+00    0.000000000e+00    0.000000000e+00
      874250000    5.451594591e-01   -8.489098549e-01    1.690257341e-05   -1.677125692e-05    0.000000000e+00    0.000000000e+00    0.000000000e+00    0.000000000e+00
      881500000    4.467658997e-01   -9.196626544e-01   -5.715433508e-05    1.038704067e-05    0.000000000e+00    0.000000000e+00    0.000000000e+00    0.000000000e+00
      888750000    3.421534300e-01   -9.768861532e-01    5.581416190e-06    1.066084951e-05    0.000000000e+00    0.000000000e+00    0.000000000e+00    0.000000000e+00
      896000000    2.266453207e-01   -1.021645546e+00    8.863396943e-06    2.840533853e-07    0.000000000e+00    0.000000000e+00    0.000000000e+00    0.000000000e+00
      903250000    1.058099568e-01   -1.050774574e+00    2.475455403e-06    3.540888429e-06    0.000000000e+00    0.000000000e+00    0.000000000e+00    0.000000000e+00
      910500000   -2.032833174e-02   -1.063661337e+00   -1.026317477e-05    6.180256605e-06    0.000000000e+00    0.000000000e+00    0.000000000e+00    0.000000000e+00
      917750000   -1.446054578e-01   -1.060249209e+00   -1.499056816e-05   -1.257937402e-05    0.000000000e+00    0.000000000e+00    0.000000000e+00    0.000000000e+00
      925000000   -2.698117793e-01   -1.037838578e+00   -1.459475607e-05   -1.294817775e-05    0.000000000e+00    0.000000000e+00    0.000000000e+00    0.000000000e+00
      932250000   -3.901035190e-01   -9.995126724e-01   -9.904615581e-06    5.207955837e-06    0.000000000e+00    0.000000000e+00    0.000000000e+00    0.000000000e+00
      939500000   -5.032604933e-01   -9.458181262e-01    2.367608249e-05   -1.149810851e-05    0.000000000e+00    0.000000000e+00    0.000000000e+00    0.000000000e+00
      946750000   -6.069156528e-01   -8.774919510e-01   -1.826416701e-05   -1.653656363e-05    0.000000000e+00    0.000000000e+00    0.000000000e+00    0.000000000e+00
      954000000   -7.015916705e-01   -7.938503027e-01    9.887851775e-06   -2.923421562e-05    0.000000000e+00    0.000000000e+00    0.000000000e+00    0.000000000e+00
      961250000   -7.792784572e-01   -7.032806277e-01   -3.531482071e-05    8.754432201e-07    0.000000000e+00    0.000000000e+00    0.000000000e+00    0.000000000e+00
      968500000   -8.454186320e-01   -6.030458808e-01   -2.417061478e-05   -2.558063716e-05    0.000000000e+00    0.000000000e+00    0.000000000e+00    0.000000000e+00
      975750000   -8.960598707e-01   -4.980679452e-01   -2.904981375e-05    1.647509634e-06    0.000000000e+00    0.000000000e+00    0.000000000e+00    0.000000000e+00
      983000000   -9.327555895e-01   -3.896114230e-01    1.268927008e-05    2.452451736e-05    0.000000000e+00    0.000000000e+00    0.000000000e+00    0.000000000e+00
      990250000   -9.541421533e-01   -2.793888152e-01    4.340894520e-05    1.468323171e-05    0.000000000e+00    0.000000000e+00    0.000000000e+00    0.000000000e+00
      997500000   -9.622026682e-01   -1.695700884e-01   -8.349306881e-06    3.255438060e-05    0.000000000e+00    0.000000000e+00    0.000000000e+00    0.000000000e+00
     1004750000   -9.562351108e-01   -6.316701323e-02   -5.474314094e-06    2.267956734e-05    0.000000000e+00    0.000000000e+00    0.000000000e+00    0.000000000e+00
     1012000000   -9.396703243e-01    4.009753093e-02    3.604404628e-05    2.219434828e-05    0.000000000e+00    0.000000000e+00    0.000000000e+00    0.000000000e+00
     1019250000   -9.119557142e-01    1.361991912e-01    2.647750080e-06   -1.353770494e-05    0.000000000e+00    0.000000000e+00    0.000000000e+00    0.000000000e+00
     1026500000   -8.738177419e-01    2.285052836e-01   -3.091990948e-05    1.721084118e-05    0.000000000e+00    0.000000000e+00    0.000000000e+00    0.000000000e+00
     1033750000   -8.284642100e-01    3.134801984e-01    4.974380136e-05   -1.583248377e-05    0.000000000e+00    0.000000000e+00    0.000000000e+00    0.000000000e+00
     1041000000   -7.757316828e-01    3.899185956e-01   -4.948116839e-06    2.933107316e-05    0.000000000e+00    0.000000000e+00    0.000000000e+00    0.000000000e+00
