! NanoVNA-App
! Date: 2024-06-25 16:04:16
! Start: 200MHz Stop: 6GHz Points: 801
! S-Parameter data: F S11 S21 S12 S22
# Hz S RI R 50
!     Frequency           S11_Real           S11_Imag           S21_Real           S21_Imag           S12_Real           S12_Imag           S22_Real           S22_Imag
      200000000   -9.977973104e-01   -1.220319644e-01   -1.435447484e-05    2.268701792e-05    0.000000000e+00    0.000000000e+00    0.000000000e+00    0.000000000e+00
      207250000   -1.010100603e+00   -2.328444086e-02    5.243346095e-06   -3.063678741e-05    0.000000000e+00    0.000000000e+00    0.000000000e+00    0.000000000e+00
      214500000   -1.012080908e+00    7.781818509e-02   -1.601409167e-05   -2.412125468e-07    0.000000000e+00    0.000000000e+00    0.000000000e+00    0.000000000e+00
      221750000   -1.003490806e+00    1.799786687e-01    7.929280400e-06   -2.493150532e-05    0.000000000e+00    0.000000000e+00    0.000000000e+00    0.000000000e+00
      229000000   -9.842044711e-01    2.831414044e-01    2.651102841e-05    1.321267337e-05    0.000000000e+00    0.000000000e+00    0.000000000e+00    0.000000000e+00
      236250000   -9.525612593e-01    3.857543170e-01   -1.081265509e-05    9.597279131e-06    0.000000000e+00    0.000000000e+00    0.000000000e+00    0.000000000e+00
      243500000   -9.100651145e-01    4.858805239e-01    1.040101051e-05    1.865159720e-05    0.000000000e+00    0.000000000e+00    0.000000000e+00    0.000000000e+00
      250750000   -8.555596471e-01    5.828688741e-01   -2.897158265e-05   -2.053286880e-05    0.000000000e+00    0.000000000e+00    0.000000000e+00    0.000000000e+00
      258000000   -7.877033949e-01    6.744143963e-01    2.411194146e-06   -1.495145261e-05    0.000000000e+00    0.000000000e+00    0.000000000e+00    0.000000000e+00
      265250000   -7.086011171e-01    7.585870624e-01    6.265006959e-06   -1.652818173e-05    0.000000000e+00    0.000000000e+00    0.000000000e+00    0.000000000e+00
      272500000   -6.193087101e-01    8.349527121e-01   -1.294445246e-05   -2.153031528e-05    0.000000000e+00    0.000000000e+00    0.000000000e+00    0.000000000e+00
      279750000   -5.193896294e-01    8.996015787e-01    2.916995436e-05    1.228228211e-05    0.000000000e+00    0.000000000e+00    0.000000000e+00    0.000000000e+00
      287000000   -4.088726640e-01    9.525712132e-01   -1.923367381e-05    9.027309716e-06    0.000000000e+00    0.000000000e+00    0.000000000e+00    0.000000000e+00
      294250000   -2.924055457e-01    9.918437600e-01    6.135553122e-06    3.181397915e-06    0.000000000e+00    0.000000000e+00    0.000000000e+00    0.000000000e+00
      301500000   -1.702935845e-01    1.016631722e+00   -1.806765795e-07    1.554936171e-05    0.000000000e+00    0.000000000e+00    0.000000000e+00    0.000000000e+00
      308750000   -4.529524595e-02    1.025092840e+00   -1.330859959e-05   -3.378558904e-05    0.000000000e+00    0.000000000e+00    0.000000000e+00    0.000000000e+00
      316000000    8.115669340e-02    1.017331600e+00    9.019859135e-06    1.598894596e-05    0.000000000e+00    0.000000000e+00    0.000000000e+00    0.000000000e+00
      323250000    2.060534209e-01    9.943367839e-01   -1.287367195e-05    1.272466034e-05    0.000000000e+00    0.000000000e+00    0.000000000e+00    0.000000000e+00
      330500000    3.265685141e-01    9.542627335e-01    1.690723002e-05    1.176539809e-05    0.000000000e+00    0.000000000e+00    0.000000000e+00    0.000000000e+00
      337750000    4.411747158e-01    8.996505141e-01    1.104176044e-05    6.254762411e-06    0.000000000e+00    0.000000000e+00    0.000000000e+00    0.000000000e+00
      345000000    5.466160178e-01    8.314853907e-01    5.063600838e-06   -4.578381777e-06    0.000000000e+00    0.000000000e+00    0.000000000e+00    0.000000000e+00
      352250000    6.432085037e-01    7.489261627e-01   -1.416448504e-05   -1.826230437e-05    0.000000000e+00    0.000000000e+00    0.000000000e+00    0.000000000e+00
      359500000    7.278889418e-01    6.581819654e-01    4.479661584e-07    4.115607589e-05    0.000000000e+00    0.000000000e+00    0.000000000e+00    0.000000000e+00
      366750000    7.999837995e-01    5.575348735e-01   -8.833594620e-06   -3.563333303e-05    0.000000000e+00    0.000000000e+00    0.000000000e+00    0.000000000e+00
      374000000    8.587518930e-01    4.501901865e-01   -3.882311285e-05    2.048444003e-05    0.000000000e+00    0.000000000e+00    0.000000000e+00    0.000000000e+00
      381250000    9.044341445e-01    3.362659812e-01    3.236532211e-05    3.153271973e-05    0.000000000e+00    0.000000000e+00    0.000000000e+00    0.000000000e+00
      388500000    9.353080392e-01    2.206512690e-01    3.182701766e-05   -4.248134792e-05    0.000000000e+00    0.000000000e+00    0.000000000e+00    0.000000000e+00
      395750000    9.524220228e-01    1.041141823e-01    1.301709563e-05   -8.128583431e-06    0.000000000e+00    0.000000000e+00    0.000000000e+00    0.000000000e+00
      403000000    9.569231272e-01   -1.333713531e-02   -1.611746848e-05    1.240801066e-05    0.000000000e+00    0.000000000e+00    0.000000000e+00    0.000000000e+00
      410250000    9.481928945e-01   -1.291176826e-01   -1.444481313e-05    3.443099558e-05    0.000000000e+00    0.000000000e+00    0.000000000e+00    0.000000000e+00
      417500000    9.276372194e-01   -2.414302975e-01   -3.345962614e-05    1.417659223e-05    0.000000000e+00    0.000000000e+00    0.000000000e+00    0.000000000e+00
      424750000    8.935374618e-01   -3.509474695e-01   -5.317851901e-06   -2.134591341e-06    0.000000000e+00    0.000000000e+00    0.000000000e+00    0.000000000e+00
      432000000    8.505945802e-01   -4.540049434e-01   -2.267025411e-05   -2.920813859e-05    0.000000000e+00    0.000000000e+00    0.000000000e+00    0.000000000e+00
      439250000    7.964093685e-01   -5.516386628e-01    3.941357136e-06   -6.224960089e-06    0.000000000e+00    0.000000000e+00    0.000000000e+00    0.000000000e+00
      446500000    7.318463326e-01   -6.421877146e-01    3.613531590e-07    1.081358641e-05    0.000000000e+00    0.000000000e+00    0.000000000e+00    0.000000000e+00
      453750000    6.601315737e-01   -7.258732915e-01   -1.243315637e-06   -1.408532262e-05    0.000000000e+00    0.000000000e+00    0.000000000e+00    0.000000000e+00
      461000000    5.793687105e-01   -8.007400036e-01   -1.768581569e-05    1.728162169e-05    0.000000000e+00    0.000000000e+00    0.000000000e+00    0.000000000e+00
      468250000    4.922289550e-01   -8.661306500e-01   -1.996941864e-05    1.760013402e-05    0.000000000e+00    0.000000000e+00    0.000000000e+00    0.000000000e+00
      475500000    3.974478245e-01   -9.234981537e-01   -1.647323370e-05    3.133341670e-05    0.000000000e+00    0.000000000e+00    0.000000000e+00    0.000000000e+00
      482750000    2.978327572e-01   -9.700013399e-01    1.104921103e-05   -1.842156053e-05    0.000000000e+00    0.000000000e+00    0.000000000e+00    0.000000000e+00
      490000000    1.952788234e-01   -1.006157279e+00   -2.424232662e-06    1.002009958e-05    0.000000000e+00    0.000000000e+00    0.000000000e+00    0.000000000e+00
      497250000    8.739430457e-02   -1.030922174e+00   -4.237890244e-05   -1.252628863e-06    0.000000000e+00    0.000000000e+00    0.000000000e+00    0.000000000e+00
      504500000   -2.198896930e-02   -1.045599937e+00   -2.851709723e-06    1.500360668e-05    0.000000000e+00    0.000000000e+00    0.000000000e+00    0.000000000e+00
      511750000   -1.332649738e-01   -1.047879577e+00   -1.992937177e-05    4.563666880e-05    0.000000000e+00    0.000000000e+00    0.000000000e+00    0.000000000e+00
      519000000   -2.455734313e-01   -1.037214756e+00   -1.173466444e-05    5.379877985e-05    0.000000000e+00    0.000000000e+00    0.000000000e+00    0.000000000e+00
      526250000   -3.559674919e-01   -1.015174508e+00    1.485459507e-05   -3.196299076e-05    0.000000000e+00    0.000000000e+00    0.000000000e+00    0.000000000e+00
      533500000   -4.647164345e-01   -9.804010987e-01   -4.124548286e-05    3.702845424e-05    0.000000000e+00    0.000000000e+00    0.000000000e+00    0.000000000e+00
      540750000   -5.698844790e-01   -9.326522350e-01   -9.397044778e-07    1.747068018e-05    0.000000000e+00    0.000000000e+00    0.000000000e+00    0.000000000e+00
      548000000   -6.694316864e-01   -8.743053675e-01   -5.414709449e-06   -1.946464181e-05    0.000000000e+00    0.000000000e+00    0.000000000e+00    0.000000000e+00
      555250000   -7.623177767e-01   -8.032510281e-01    2.177245915e-05   -2.635642886e-06    0.000000000e+00    0.000000000e+00    0.000000000e+00    0.000000000e+00
      562500000   -8.461437225e-01   -7.213590145e-01   -1.460686326e-05    1.938547939e-05    0.000000000e+00    0.000000000e+00    0.000000000e+00    0.000000000e+00
      569750000   -9.210445881e-01   -6.301335692e-01   -3.613531590e-07    3.843475133e-05    0.000000000e+00    0.000000000e+00    0.000000000e+00    0.000000000e+00
      577000000   -9.854933619e-01   -5.277591348e-01   -1.311488450e-05   -2.073496580e-05    0.000000000e+00    0.000000000e+00    0.000000000e+00    0.000000000e+00
      584250000   -1.035696864e+00   -4.208701551e-01    2.155080438e-06    1.615751535e-05    0.000000000e+00    0.000000000e+00    0.000000000e+00    0.000000000e+00
      591500000   -1.074678063e+00   -3.067132533e-01   -3.016646951e-05    3.082118928e-05    0.000000000e+00    0.000000000e+00    0.000000000e+00    0.000000000e+00
      598750000   -1.098559618e+00   -1.874951869e-01   -9.703449905e-06   -5.191192031e-06    0.000000000e+00    0.000000000e+00    0.000000000e+00    0.000000000e+00
      606000000   -1.107268453e+00   -6.791260093e-02   -2.521090209e-06    4.070717841e-05    0.000000000e+00    0.000000000e+00    0.000000000e+00    0.000000000e+00
      613250000   -1.102277875e+00    5.172994360e-02   -2.640765160e-05   -9.732320905e-07    0.000000000e+00    0.000000000e+00    0.000000000e+00    0.000000000e+00
      620500000   -1.082414508e+00    1.711078882e-01   -2.258084714e-05   -2.591405064e-05    0.000000000e+00    0.000000000e+00    0.000000000e+00    0.000000000e+00
      627750000   -1.047459245e+00    2.865175307e-01    1.779105514e-05   -2.254266292e-05    0.000000000e+00    0.000000000e+00    0.000000000e+00    0.000000000e+00
      635000000   -1.000942945e+00    3.938263357e-01    6.644986570e-06   -1.508742571e-06    0.000000000e+00    0.000000000e+00    0.000000000e+00    0.000000000e+00
      642250000   -9.417811632e-01    4.953435957e-01   -2.441927791e-06   -5.268771201e-05    0.000000000e+00    0.000000000e+00    0.000000000e+00    0.000000000e+00
      649500000   -8.707338572e-01    5.887072086e-01    6.095506251e-06    2.939440310e-05    0.000000000e+00    0.000000000e+00    0.000000000e+00    0.000000000e+00
      656750000   -7.902268767e-01    6.718354821e-01    1.717265695e-05    1.545622945e-05    0.000000000e+00    0.000000000e+00    0.000000000e+00    0.000000000e+00
      664000000   -7.012610435e-01    7.446554899e-01    7.922761142e-06    1.273304224e-05    0.000000000e+00    0.000000000e+00    0.000000000e+00    0.000000000e+00
      671250000   -6.053203940e-01    8.059660196e-01   -8.478760719e-06    2.307910472e-05    0.000000000e+00    0.000000000e+00    0.000000000e+00    0.000000000e+00
      678500000   -5.042940974e-01    8.557580113e-01   -2.149585634e-05   -1.220963895e-06    0.000000000e+00    0.000000000e+00    0.000000000e+00    0.000000000e+00
      685750000   -4.000292718e-01    8.919718862e-01   -4.097819328e-05   -4.187319428e-05    0.000000000e+00    0.000000000e+00    0.000000000e+00    0.000000000e+00
      693000000   -2.937252522e-01    9.173272848e-01   -1.865718514e-05   -3.812648356e-05    0.000000000e+00    0.000000000e+00    0.000000000e+00    0.000000000e+00
      700250000   -1.852899641e-01    9.304479957e-01    1.580640674e-05    2.125184983e-05    0.000000000e+00    0.000000000e+00    0.000000000e+00    0.000000000e+00
      707500000   -7.979669422e-02    9.313417077e-01    2.133008093e-05    9.791925550e-06    0.000000000e+00    0.000000000e+00    0.000000000e+00    0.000000000e+00
      714750000    2.571445890e-02    9.222233891e-01    2.114102244e-07   -3.706850111e-05    0.000000000e+00    0.000000000e+00    0.000000000e+00    0.000000000e+00
      722000000    1.305340528e-01    9.009290934e-01    1.952983439e-06   -3.384146839e-05    0.000000000e+00    0.000000000e+00    0.000000000e+00    0.000000000e+00
      729250000    2.293138355e-01    8.701202273e-01   -4.440359771e-05   -9.246170521e-06    0.000000000e+00    0.000000000e+00    0.000000000e+00    0.000000000e+00
      736500000    3.233032823e-01    8.300738335e-01   -2.784002572e-05   -5.413778126e-06    0.000000000e+00    0.000000000e+00    0.000000000e+00    0.000000000e+00
      743750000    4.123512208e-01    7.808059454e-01   -3.465265036e-05    1.934543252e-05    0.000000000e+00    0.000000000e+00    0.000000000e+00    0.000000000e+00
      751000000    4.961313605e-01    7.236070037e-01    1.370534301e-05   -9.296461940e-06    0.000000000e+00    0.000000000e+00    0.000000000e+00    0.000000000e+00
      758250000    5.722982287e-01    6.586827040e-01    1.532863826e-05   -4.020798951e-05    0.000000000e+00    0.000000000e+00    0.000000000e+00    0.000000000e+00
      765500000    6.433556080e-01    5.865259767e-01    4.054326564e-05    2.855248749e-05    0.000000000e+00    0.000000000e+00    0.000000000e+00    0.000000000e+00
      772750000    7.066303492e-01    5.068514347e-01   -3.201793879e-05    5.903653800e-06    0.000000000e+00    0.000000000e+00    0.000000000e+00    0.000000000e+00
      780000000    7.599971890e-01    4.234917760e-01   -7.024034858e-06    8.281320333e-06    0.000000000e+00    0.000000000e+00    0.000000000e+00    0.000000000e+00
      787250000    8.075416088e-01    3.326428235e-01   -1.894030720e-05   -4.096329212e-05    0.000000000e+00    0.000000000e+00    0.000000000e+00    0.000000000e+00
      794500000    8.449954987e-01    2.383333147e-01   -4.098657519e-05   -1.421384513e-05    0.000000000e+00    0.000000000e+00    0.000000000e+00    0.000000000e+00
      801750000    8.727985024e-01    1.402531713e-01    3.122538328e-05   -2.493150532e-05    0.000000000e+00    0.000000000e+00    0.000000000e+00    0.000000000e+00
      809000000    8.908869624e-01    3.873254731e-02    6.067007780e-05   -2.390611917e-05    0.000000000e+00    0.000000000e+00    0.000000000e+00    0.000000000e+00
      816250000    8.987609744e-01   -6.488570571e-02   -2.820324153e-05    3.244634718e-05    0.000000000e+00    0.000000000e+00    0.000000000e+00    0.000000000e+00
      823500000    8.957422972e-01   -1.716058403e-01   -4.953704774e-06   -1.226831228e-05    0.000000000e+00    0.000000000e+00    0.000000000e+00    0.000000000e+00
      830750000    8.816435933e-01   -2.772798538e-01    1.176167279e-05   -1.816917211e-05    0.000000000e+00    0.000000000e+00    0.000000000e+00    0.000000000e+00
      838000000    8.553336859e-01   -3.822137713e-01    2.097245306e-05    4.990957677e-06    0.000000000e+00    0.000000000e+00    0.000000000e+00    0.000000000e+00
      845250000    8.174297214e-01   -4.858146012e-01   -1.306552440e-05    1.067388803e-05    0.000000000e+00    0.000000000e+00    0.000000000e+00    0.000000000e+00
      852500000    7.667574883e-01   -5.851632953e-01    8.086673915e-06    4.780478776e-06    0.000000000e+00    0.000000000e+00    0.000000000e+00    0.000000000e+00
      859750000    7.057947516e-01   -6.800644994e-01   -1.050159335e-05    4.735868424e-05    0.000000000e+00    0.000000000e+00    0.000000000e+00    0.000000000e+00
      867000000    6.293343306e-01   -7.694531679e-01    7.648952305e-06   -2.076663077e-05    0.000000000e+00    0.000000000e+00    0.000000000e+00    0.000000000e+00
      874250000    5.459999442e-01   -8.489560485e-01   -2.888031304e-06    1.426227391e-05    0.000000000e+00    0.000000000e+00    0.000000000e+00    0.000000000e+00
      881500000    4.473204315e-01   -9.199081659e-01   -6.484799087e-06    2.625491470e-05    0.000000000e+00    0.000000000e+00    0.000000000e+00    0.000000000e+00
      888750000    3.414425552e-01   -9.775034785e-01   -6.398186088e-07   -3.165006638e-05    0.000000000e+00    0.000000000e+00    0.000000000e+00    0.000000000e+00
      896000000    2.263243049e-01   -1.021908283e+00    4.749745131e-07   -7.385388017e-06    0.000000000e+00    0.000000000e+00    0.000000000e+00    0.000000000e+00
      903250000    1.062854305e-01   -1.050584793e+00   -7.261522114e-06    0.000000000e+00    0.000000000e+00    0.000000000e+00    0.000000000e+00    0.000000000e+00
      910500000   -2.024425752e-02   -1.063729167e+00   -3.226567060e-05    4.601664841e-06    0.000000000e+00    0.000000000e+00    0.000000000e+00    0.000000000e+00
      917750000   -1.444644630e-01   -1.059352636e+00    4.081055522e-06    1.615937799e-05    0.000000000e+00    0.000000000e+00    0.000000000e+00    0.000000000e+00
      925000000   -2.690500617e-01   -1.038214803e+00    1.184269786e-05   -1.510046422e-05    0.000000000e+00    0.000000000e+00    0.000000000e+00    0.000000000e+00
      932250000   -3.902208507e-01   -9.995588660e-01    1.466833055e-05    7.189810276e-07    0.000000000e+00    0.000000000e+00    0.000000000e+00    0.000000000e+00
      939500000   -5.038977861e-01   -9.450467229e-01    1.487322152e-05   -6.501562893e-06    0.000000000e+00    0.000000000e+00    0.000000000e+00    0.000000000e+00
      946750000   -6.057909727e-01   -8.775613904e-01    1.317262650e-05   -3.740750253e-05    0.000000000e+00    0.000000000e+00    0.000000000e+00    0.000000000e+00
      954000000   -7.004696727e-01   -7.942999005e-01    1.253187656e-05   -1.670792699e-06    0.000000000e+00    0.000000000e+00    0.000000000e+00    0.000000000e+00
      961250000   -7.785422802e-01   -7.053356171e-01   -4.732608795e-05    2.847518772e-05    0.000000000e+00    0.000000000e+00    0.000000000e+00    0.000000000e+00
      968500000   -8.454681039e-01   -6.031860113e-01    3.982242197e-05   -1.701153815e-05    0.000000000e+00    0.000000000e+00    0.000000000e+00    0.000000000e+00
      975750000   -8.966653943e-01   -4.972060025e-01   -5.075894296e-05    7.664784789e-06    0.000000000e+00    0.000000000e+00    0.000000000e+00    0.000000000e+00
      983000000   -9.326339364e-01   -3.883403838e-01    5.573965609e-06    1.218542457e-05    0.000000000e+00    0.000000000e+00    0.000000000e+00    0.000000000e+00
      990250000   -9.544723034e-01   -2.788847983e-01    2.265349030e-05   -1.552328467e-05    0.000000000e+00    0.000000000e+00    0.000000000e+00    0.000000000e+00
      997500000   -9.619960785e-01   -1.691155136e-01   -3.134645522e-05    2.241320908e-05    0.000000000e+00    0.000000000e+00    0.000000000e+00    0.000000000e+00
     1004750000   -9.566727877e-01   -6.231351197e-02   -3.277324140e-05    1.669302583e-05    0.000000000e+00    0.000000000e+00    0.000000000e+00    0.000000000e+00
     1012000000   -9.394342303e-01    4.056598619e-02    4.134699702e-05    1.828279346e-05    0.000000000e+00    0.000000000e+00    0.000000000e+00    0.000000000e+00
     1019250000   -9.114979506e-01    1.361187994e-01   -2.685189247e-05   -3.880634904e-05    0.000000000e+00    0.000000000e+00    0.000000000e+00    0.000000000e+00
     1026500000   -8.740296364e-01    2.285540104e-01   -2.260785550e-05    8.822418749e-06    0.000000000e+00    0.000000000e+00    0.000000000e+00    0.000000000e+00
     1033750000   -8.280985951e-01    3.141964972e-01    1.704320312e-07   -2.035498619e-05    0.000000000e+00    0.000000000e+00    0.000000000e+00    0.000000000e+00
     1041000000   -7.753793597e-01    3.908733428e-01   -3.563240170e-05   -2.137292176e-05    0.000000000e+00    0.000000000e+00    0.000000000e+00    0.000000000e+00
