! NanoVNA-App
! Date: 2024-06-25 16:03:55
! Start: 200MHz Stop: 6GHz Points: 801
! S-Parameter data: F S11 S21 S12 S22
# Hz S RI R 50
!     Frequency           S11_Real           S11_Imag           S21_Real           S21_Imag           S12_Real           S12_Imag           S22_Real           S22_Imag
      200000000   -9.982253313e-01   -1.221028045e-01    6.555579603e-06    3.371201456e-05    0.000000000e+00    0.000000000e+00    0.000000000e+00    0.000000000e+00
      207250000   -1.010160565e+00   -2.364820987e-02   -3.421772271e-05   -1.354329288e-05    0.000000000e+00    0.000000000e+00    0.000000000e+00    0.000000000e+00
      214500000   -1.012372732e+00    7.799054682e-02   -1.603923738e-05   -2.711080015e-06    0.000000000e+00    0.000000000e+00    0.000000000e+00    0.000000000e+00
      221750000   -1.004168630e+00    1.799078435e-01   -1.726113260e-05    2.305209637e-05    0.000000000e+00    0.000000000e+00    0.000000000e+00    0.000000000e+00
      229000000   -9.849218130e-01    2.832669914e-01   -4.324130714e-06    1.590698957e-06    0.000000000e+00    0.000000000e+00    0.000000000e+00    0.000000000e+00
      236250000   -9.535351992e-01    3.855697811e-01   -3.261212260e-05    1.520477235e-05    0.000000000e+00    0.000000000e+00    0.000000000e+00    0.000000000e+00
      243500000   -9.101052284e-01    4.860094190e-01   -2.257060260e-05   -4.241243005e-06    0.000000000e+00    0.000000000e+00    0.000000000e+00    0.000000000e+00
      250750000   -8.552513123e-01    5.824584961e-01   -9.092502296e-06   -1.818034798e-05    0.000000000e+00    0.000000000e+00    0.000000000e+00    0.000000000e+00
      258000000   -7.876839042e-01    6.739977598e-01   -4.732050002e-06   -5.165114999e-06    0.000000000e+00    0.000000000e+00    0.000000000e+00    0.000000000e+00
      265250000   -7.100278735e-01    7.584536076e-01   -3.168359399e-06    1.721084118e-06    0.000000000e+00    0.000000000e+00    0.000000000e+00    0.000000000e+00
      272500000   -6.183857918e-01    8.344432712e-01   -1.126900315e-05   -3.481283784e-06    0.000000000e+00    0.000000000e+00    0.000000000e+00    0.000000000e+00
      279750000   -5.187941790e-01    8.993914723e-01    1.821946353e-05   -5.288980901e-06    0.000000000e+00    0.000000000e+00    0.000000000e+00    0.000000000e+00
      287000000   -4.087046683e-01    9.526783228e-01   -7.998198271e-06    8.152797818e-06    0.000000000e+00    0.000000000e+00    0.000000000e+00    0.000000000e+00
      294250000   -2.926135957e-01    9.920533895e-01   -2.786982805e-05    1.798663288e-05    0.000000000e+00    0.000000000e+00    0.000000000e+00    0.000000000e+00
      301500000   -1.698978841e-01    1.016212463e+00    8.353963494e-06    2.966262400e-06    0.000000000e+00    0.000000000e+00    0.000000000e+00    0.000000000e+00
      308750000   -4.500077665e-02    1.024953365e+00   -4.502478987e-05    2.335757017e-06    0.000000000e+00    0.000000000e+00    0.000000000e+00    0.000000000e+00
      316000000    8.105280995e-02    1.017884493e+00   -7.739290595e-07   -7.543712854e-08    0.000000000e+00    0.000000000e+00    0.000000000e+00    0.000000000e+00
      323250000    2.056798041e-01    9.938988686e-01   -5.176290870e-06    2.255849540e-05    0.000000000e+00    0.000000000e+00    0.000000000e+00    0.000000000e+00
      330500000    3.264563382e-01    9.542638659e-01   -3.576558083e-05    2.092216164e-05    0.000000000e+00    0.000000000e+00    0.000000000e+00    0.000000000e+00
      337750000    4.407105446e-01    8.992335200e-01   -1.160148531e-05   -5.163438618e-05    0.000000000e+00    0.000000000e+00    0.000000000e+00    0.000000000e+00
      345000000    5.471350551e-01    8.304501176e-01    1.259706914e-05    1.381989568e-05    0.000000000e+00    0.000000000e+00    0.000000000e+00    0.000000000e+00
      352250000    6.435211301e-01    7.494844794e-01    1.115724444e-06   -2.123322338e-05    0.000000000e+00    0.000000000e+00    0.000000000e+00    0.000000000e+00
      359500000    7.279146314e-01    6.574775577e-01    3.364868462e-05    9.437091649e-06    0.000000000e+00    0.000000000e+00    0.000000000e+00    0.000000000e+00
      366750000    8.001582026e-01    5.571432710e-01    6.357207894e-06    1.038797200e-05    0.000000000e+00    0.000000000e+00    0.000000000e+00    0.000000000e+00
      374000000    8.583562374e-01    4.500913024e-01   -4.068296403e-05   -1.612212509e-05    0.000000000e+00    0.000000000e+00    0.000000000e+00    0.000000000e+00
      381250000    9.045810699e-01    3.360453844e-01    1.711212099e-05   -1.184549183e-05    0.000000000e+00    0.000000000e+00    0.000000000e+00    0.000000000e+00
      388500000    9.354405999e-01    2.209253162e-01   -2.525374293e-05    1.549534500e-05    0.000000000e+00    0.000000000e+00    0.000000000e+00    0.000000000e+00
      395750000    9.530889392e-01    1.042150483e-01   -8.332543075e-06   -7.038004696e-06    0.000000000e+00    0.000000000e+00    0.000000000e+00    0.000000000e+00
      403000000    9.570873976e-01   -1.281367522e-02    2.581253648e-05    1.714751124e-05    0.000000000e+00    0.000000000e+00    0.000000000e+00    0.000000000e+00
      410250000    9.480922818e-01   -1.292564720e-01   -1.914147288e-05   -2.000574023e-05    0.000000000e+00    0.000000000e+00    0.000000000e+00    0.000000000e+00
      417500000    9.275936484e-01   -2.408690602e-01    1.627951860e-05    2.606026828e-05    0.000000000e+00    0.000000000e+00    0.000000000e+00    0.000000000e+00
      424750000    8.944067955e-01   -3.510588408e-01    2.053659409e-05    4.807487130e-06    0.000000000e+00    0.000000000e+00    0.000000000e+00    0.000000000e+00
      432000000    8.511627913e-01   -4.539666474e-01    3.325939178e-05    1.220125705e-05    0.000000000e+00    0.000000000e+00    0.000000000e+00    0.000000000e+00
      439250000    7.961821556e-01   -5.518175364e-01    4.599802196e-06   -3.396440297e-05    0.000000000e+00    0.000000000e+00    0.000000000e+00    0.000000000e+00
      446500000    7.322651148e-01   -6.422313452e-01   -2.352520823e-05    9.506940842e-06    0.000000000e+00    0.000000000e+00    0.000000000e+00    0.000000000e+00
      453750000    6.594222784e-01   -7.256916761e-01    3.073643893e-05   -1.106504351e-05    0.000000000e+00    0.000000000e+00    0.000000000e+00    0.000000000e+00
      461000000    5.789382458e-01   -8.005967736e-01    5.310401320e-06   -3.302469850e-05    0.000000000e+00    0.000000000e+00    0.000000000e+00    0.000000000e+00
      468250000    4.923404157e-01   -8.664517999e-01   -3.554392606e-05    1.832656562e-05    0.000000000e+00    0.000000000e+00    0.000000000e+00    0.000000000e+00
      475500000    3.977337480e-01   -9.235340953e-01    1.528859138e-05   -3.622844815e-06    0.000000000e+00    0.000000000e+00    0.000000000e+00    0.000000000e+00
      482750000    2.986066341e-01   -9.701563120e-01    1.569092274e-05    2.298690379e-05    0.000000000e+00    0.000000000e+00    0.000000000e+00    0.000000000e+00
      490000000    1.952542365e-01   -1.006138086e+00    1.564621925e-05    1.597497612e-05    0.000000000e+00    0.000000000e+00    0.000000000e+00    0.000000000e+00
      497250000    8.771402389e-02   -1.030952573e+00    3.225170076e-06   -1.423060894e-05    0.000000000e+00    0.000000000e+00    0.000000000e+00    0.000000000e+00
      504500000   -2.234536968e-02   -1.044926643e+00    4.238449037e-06    1.684296876e-05    0.000000000e+00    0.000000000e+00    0.000000000e+00    0.000000000e+00
      511750000   -1.332484633e-01   -1.046743155e+00    1.253280789e-05   -2.992525697e-05    0.000000000e+00    0.000000000e+00    0.000000000e+00    0.000000000e+00
      519000000   -2.455517054e-01   -1.037092328e+00    5.913898349e-06   -3.908760846e-06    0.000000000e+00    0.000000000e+00    0.000000000e+00    0.000000000e+00
      526250000   -3.563325107e-01   -1.015055060e+00   -3.623683006e-05   -9.623356164e-06    0.000000000e+00    0.000000000e+00    0.000000000e+00    0.000000000e+00
      533500000   -4.646141529e-01   -9.799982309e-01    7.471069694e-06    5.718320608e-07    0.000000000e+00    0.000000000e+00    0.000000000e+00    0.000000000e+00
      540750000   -5.694315434e-01   -9.331140518e-01   -9.084120393e-06   -6.853602827e-06    0.000000000e+00    0.000000000e+00    0.000000000e+00    0.000000000e+00
      548000000   -6.701229811e-01   -8.744391799e-01   -1.080520451e-05   -2.153497189e-05    0.000000000e+00    0.000000000e+00    0.000000000e+00    0.000000000e+00
      555250000   -7.619000077e-01   -8.028055429e-01    5.686655641e-06    2.368818969e-05    0.000000000e+00    0.000000000e+00    0.000000000e+00    0.000000000e+00
      562500000   -8.465411663e-01   -7.213448286e-01    2.166349441e-05    1.009833068e-05    0.000000000e+00    0.000000000e+00    0.000000000e+00    0.000000000e+00
      569750000   -9.210377336e-01   -6.296879649e-01   -2.626329660e-07   -2.776551992e-05    0.000000000e+00    0.000000000e+00    0.000000000e+00    0.000000000e+00
      577000000   -9.855614305e-01   -5.285720825e-01    1.348368824e-05    1.182593405e-05    0.000000000e+00    0.000000000e+00    0.000000000e+00    0.000000000e+00
      584250000   -1.036170125e+00   -4.201227725e-01   -2.176500857e-05    4.177261144e-05    0.000000000e+00    0.000000000e+00    0.000000000e+00    0.000000000e+00
      591500000   -1.074144721e+00   -3.061906099e-01    4.410743713e-06    1.424644142e-05    0.000000000e+00    0.000000000e+00    0.000000000e+00    0.000000000e+00
      598750000   -1.098056793e+00   -1.871000081e-01    1.642853022e-06    3.766547889e-05    0.000000000e+00    0.000000000e+00    0.000000000e+00    0.000000000e+00
      606000000   -1.107348800e+00   -6.777261943e-02   -3.242306411e-05   -1.507624984e-05    0.000000000e+00    0.000000000e+00    0.000000000e+00    0.000000000e+00
      613250000   -1.102189302e+00    5.112028494e-02    2.002343535e-06   -2.737436444e-05    0.000000000e+00    0.000000000e+00    0.000000000e+00    0.000000000e+00
      620500000   -1.082462311e+00    1.703889221e-01   -1.896172762e-06    1.457519829e-05    0.000000000e+00    0.000000000e+00    0.000000000e+00    0.000000000e+00
      627750000   -1.048427343e+00    2.861356437e-01    2.103205770e-05   -9.004026651e-06    0.000000000e+00    0.000000000e+00    0.000000000e+00    0.000000000e+00
      635000000   -1.001713634e+00    3.935003877e-01   -2.426467836e-05    6.917864084e-06    0.000000000e+00    0.000000000e+00    0.000000000e+00    0.000000000e+00
      642250000   -9.408943057e-01    4.966903031e-01   -1.301988959e-05   -1.324992627e-05    0.000000000e+00    0.000000000e+00    0.000000000e+00    0.000000000e+00
      649500000   -8.711140156e-01    5.887916684e-01   -1.114793122e-05    4.614796489e-05    0.000000000e+00    0.000000000e+00    0.000000000e+00    0.000000000e+00
      656750000   -7.905234694e-01    6.717449427e-01   -4.248972982e-05    1.883599907e-05    0.000000000e+00    0.000000000e+00    0.000000000e+00    0.000000000e+00
      664000000   -7.016377449e-01    7.448411584e-01   -5.161389709e-06   -1.508928835e-05    0.000000000e+00    0.000000000e+00    0.000000000e+00    0.000000000e+00
      671250000   -6.058880687e-01    8.057065010e-01    1.713912934e-05    7.052905858e-06    0.000000000e+00    0.000000000e+00    0.000000000e+00    0.000000000e+00
      678500000   -5.054060221e-01    8.545489311e-01    2.484582365e-05    4.856847227e-06    0.000000000e+00    0.000000000e+00    0.000000000e+00    0.000000000e+00
      685750000   -3.994591832e-01    8.922557831e-01   -8.028000593e-07    7.467344403e-06    0.000000000e+00    0.000000000e+00    0.000000000e+00    0.000000000e+00
      693000000   -2.928551137e-01    9.173138738e-01    8.063390851e-06    1.341383904e-05    0.000000000e+00    0.000000000e+00    0.000000000e+00    0.000000000e+00
      700250000   -1.861776561e-01    9.305534959e-01    1.395866275e-05   -2.409424633e-05    0.000000000e+00    0.000000000e+00    0.000000000e+00    0.000000000e+00
      707500000   -7.915288955e-02    9.315667748e-01   -3.141351044e-06   -2.609938383e-05    0.000000000e+00    0.000000000e+00    0.000000000e+00    0.000000000e+00
      714750000    2.747369371e-02    9.213545322e-01    1.228041947e-05    2.823583782e-05    0.000000000e+00    0.000000000e+00    0.000000000e+00    0.000000000e+00
      722000000    1.284550875e-01    9.012626410e-01    2.728775144e-07   -2.707075328e-05    0.000000000e+00    0.000000000e+00    0.000000000e+00    0.000000000e+00
      729250000    2.290266752e-01    8.702768087e-01    1.251697540e-06   -2.857577056e-05    0.000000000e+00    0.000000000e+00    0.000000000e+00    0.000000000e+00
      736500000    3.243903220e-01    8.298355937e-01   -1.231674105e-05   -5.071610212e-05    0.000000000e+00    0.000000000e+00    0.000000000e+00    0.000000000e+00
      743750000    4.134812057e-01    7.799399495e-01   -1.926720142e-05    1.940317452e-05    0.000000000e+00    0.000000000e+00    0.000000000e+00    0.000000000e+00
      751000000    4.964008033e-01    7.237668037e-01    7.512979209e-06    1.674238592e-05    0.000000000e+00    0.000000000e+00    0.000000000e+00    0.000000000e+00
      758250000    5.730432868e-01    6.581546068e-01   -4.724133760e-05    3.374181688e-06    0.000000000e+00    0.000000000e+00    0.000000000e+00    0.000000000e+00
      765500000    6.432664394e-01    5.857999921e-01    3.557652235e-07    4.535540938e-06    0.000000000e+00    0.000000000e+00    0.000000000e+00    0.000000000e+00
      772750000    7.059841752e-01    5.074458718e-01   -1.918524504e-07    1.295749098e-05    0.000000000e+00    0.000000000e+00    0.000000000e+00    0.000000000e+00
      780000000    7.598898411e-01    4.247377813e-01   -4.670210183e-05   -8.465722203e-07    0.000000000e+00    0.000000000e+00    0.000000000e+00    0.000000000e+00
      787250000    8.078874946e-01    3.335337639e-01   -2.993084490e-05   -8.629634976e-06    0.000000000e+00    0.000000000e+00    0.000000000e+00    0.000000000e+00
      794500000    8.448147178e-01    2.390167564e-01    1.595169306e-05    3.105588257e-05    0.000000000e+00    0.000000000e+00    0.000000000e+00    0.000000000e+00
      801750000    8.732669950e-01    1.395592391e-01   -6.365589797e-05    5.245674402e-05    0.000000000e+00    0.000000000e+00    0.000000000e+00    0.000000000e+00
      809000000    8.913356662e-01    3.900711611e-02    1.807138324e-05   -6.409361959e-06    0.000000000e+00    0.000000000e+00    0.000000000e+00    0.000000000e+00
      816250000    8.986610770e-01   -6.586734951e-02   -3.441888839e-05   -1.162011176e-05    0.000000000e+00    0.000000000e+00    0.000000000e+00    0.000000000e+00
      823500000    8.958061934e-01   -1.707446724e-01    1.291837543e-05   -1.898594201e-05    0.000000000e+00    0.000000000e+00    0.000000000e+00    0.000000000e+00
      830750000    8.815186620e-01   -2.769489884e-01    8.621253073e-06    2.345442772e-05    0.000000000e+00    0.000000000e+00    0.000000000e+00    0.000000000e+00
      838000000    8.549606204e-01   -3.823810816e-01   -1.607928425e-05   -2.660043538e-05    0.000000000e+00    0.000000000e+00    0.000000000e+00    0.000000000e+00
      845250000    8.168089390e-01   -4.859839380e-01    2.698134631e-05   -1.044943929e-06    0.000000000e+00    0.000000000e+00    0.000000000e+00    0.000000000e+00
      852500000    7.672132254e-01   -5.853555202e-01    1.408066601e-05   -3.451481462e-05    0.000000000e+00    0.000000000e+00    0.000000000e+00    0.000000000e+00
      859750000    7.054924369e-01   -6.798810959e-01   -2.753455192e-05   -4.988163710e-06    0.000000000e+00    0.000000000e+00    0.000000000e+00    0.000000000e+00
      867000000    6.296054721e-01   -7.698011994e-01   -2.605840564e-05   -4.139728844e-06    0.000000000e+00    0.000000000e+00    0.000000000e+00    0.000000000e+00
      874250000    5.458888412e-01   -8.482815623e-01    3.929063678e-05   -9.360723197e-06    0.000000000e+00    0.000000000e+00    0.000000000e+00    0.000000000e+00
      881500000    4.460895061e-01   -9.200567603e-01    6.956048310e-06    4.028156400e-05    0.000000000e+00    0.000000000e+00    0.000000000e+00    0.000000000e+00
      888750000    3.422955275e-01   -9.769837856e-01   -6.347894669e-06    3.175809979e-07    0.000000000e+00    0.000000000e+00    0.000000000e+00    0.000000000e+00
      896000000    2.268772125e-01   -1.021560192e+00   -1.233257353e-05   -2.447143197e-05    0.000000000e+00    0.000000000e+00    0.000000000e+00    0.000000000e+00
      903250000    1.070826650e-01   -1.051130176e+00   -2.864468843e-05   -2.437271178e-06    0.000000000e+00    0.000000000e+00    0.000000000e+00    0.000000000e+00
      910500000   -2.040494978e-02   -1.063633442e+00   -1.182779670e-07    1.941993833e-05    0.000000000e+00    0.000000000e+00    0.000000000e+00    0.000000000e+00
      917750000   -1.450653672e-01   -1.059538126e+00   -1.385901123e-05    6.187986583e-05    0.000000000e+00    0.000000000e+00    0.000000000e+00    0.000000000e+00
      925000000   -2.689004242e-01   -1.038607955e+00   -4.950072616e-05    1.243688166e-05    0.000000000e+00    0.000000000e+00    0.000000000e+00    0.000000000e+00
      932250000   -3.910856545e-01   -9.987117648e-01    9.868294001e-06    1.549813896e-05    0.000000000e+00    0.000000000e+00    0.000000000e+00    0.000000000e+00
      939500000   -5.025179982e-01   -9.456658959e-01   -1.808069646e-05    1.458358020e-05    0.000000000e+00    0.000000000e+00    0.000000000e+00    0.000000000e+00
      946750000   -6.064596772e-01   -8.778440356e-01    4.368275404e-05   -3.150757402e-05    0.000000000e+00    0.000000000e+00    0.000000000e+00    0.000000000e+00
      954000000   -7.013637424e-01   -7.940167189e-01    1.035165042e-05   -1.202337444e-06    0.000000000e+00    0.000000000e+00    0.000000000e+00    0.000000000e+00
      961250000   -7.792537808e-01   -7.040868998e-01   -1.039821655e-05    3.740191460e-06    0.000000000e+00    0.000000000e+00    0.000000000e+00    0.000000000e+00
      968500000   -8.460096717e-01   -6.028664112e-01   -8.302740753e-06    3.458745778e-05    0.000000000e+00    0.000000000e+00    0.000000000e+00    0.000000000e+00
      975750000   -8.959543705e-01   -4.989697337e-01   -8.710660040e-06    1.734122634e-06    0.000000000e+00    0.000000000e+00    0.000000000e+00    0.000000000e+00
      983000000   -9.330415726e-01   -3.870902061e-01    4.268903285e-05    6.880611181e-06    0.000000000e+00    0.000000000e+00    0.000000000e+00    0.000000000e+00
      990250000   -9.535830617e-01   -2.795730829e-01   -1.127831638e-06    6.956979632e-06    0.000000000e+00    0.000000000e+00    0.000000000e+00    0.000000000e+00
      997500000   -9.621666670e-01   -1.687045991e-01    1.785065979e-05    1.151300967e-05    0.000000000e+00    0.000000000e+00    0.000000000e+00    0.000000000e+00
     1004750000   -9.566451311e-01   -6.233738363e-02   -3.320910037e-05    4.062708467e-05    0.000000000e+00    0.000000000e+00    0.000000000e+00    0.000000000e+00
     1012000000   -9.393191934e-01    3.986089304e-02    1.163501292e-05   -3.699306399e-05    0.000000000e+00    0.000000000e+00    0.000000000e+00    0.000000000e+00
     1019250000   -9.115144014e-01    1.367721260e-01    1.957919449e-05    2.241227776e-05    0.000000000e+00    0.000000000e+00    0.000000000e+00    0.000000000e+00
     1026500000   -8.743758202e-01    2.284964323e-01    5.612149835e-06    4.582107067e-06    0.000000000e+00    0.000000000e+00    0.000000000e+00    0.000000000e+00
     1033750000   -8.281049132e-01    3.132077157e-01   -3.130268306e-05   -3.596767783e-06    0.000000000e+00    0.000000000e+00    0.000000000e+00    0.000000000e+00
     1041000000   -7.755642533e-01    3.898856938e-01    1.701619476e-05    6.859190762e-06    0.000000000e+00    0.000000000e+00    0.000000000e+00    0.000000000e+00
