! NanoVNA-App
! Date: 2024-06-25 16:03:58
! Start: 200MHz Stop: 6GHz Points: 801
! S-Parameter data: F S11 S21 S12 S22
# Hz S RI R 50
!     Frequency           S11_Real           S11_Imag           S21_Real           S21_Imag           S12_Real           S12_Imag           S22_Real           S22_Imag
      200000000   -9.982439876e-01   -1.222342178e-01   -1.117587090e-06    1.988466829e-05    0.000000000e+00    0.000000000e+00    0.000000000e+00    0.000000000e+00
      207250000   -1.010071993e+00   -2.346983366e-02   -3.527943045e-05    1.338403672e-05    0.000000000e+00    0.000000000e+00    0.000000000e+00    0.000000000e+00
      214500000   -1.012095809e+00    7.756469399e-02    1.065339893e-05   -9.093433619e-06    0.000000000e+00    0.000000000e+00    0.000000000e+00    0.000000000e+00
      221750000   -1.003723621e+00    1.800061017e-01    4.024244845e-06   -9.486451745e-06    0.000000000e+00    0.000000000e+00    0.000000000e+00    0.000000000e+00
      229000000   -9.843862057e-01    2.830699384e-01   -7.406808436e-06   -5.014240742e-06    0.000000000e+00    0.000000000e+00    0.000000000e+00    0.000000000e+00
      236250000   -9.533553123e-01    3.856045008e-01   -2.473872155e-05    1.866742969e-05    0.000000000e+00    0.000000000e+00    0.000000000e+00    0.000000000e+00
      243500000   -9.108176827e-01    4.858400226e-01    4.153698683e-06   -2.980232239e-06    0.000000000e+00    0.000000000e+00    0.000000000e+00    0.000000000e+00
      250750000   -8.554741144e-01    5.828976035e-01    2.150051296e-05   -1.786462963e-05    0.000000000e+00    0.000000000e+00    0.000000000e+00    0.000000000e+00
      258000000   -7.877553105e-01    6.740584373e-01    1.368485391e-05    1.534819603e-05    0.000000000e+00    0.000000000e+00    0.000000000e+00    0.000000000e+00
      265250000   -7.088204622e-01    7.586404085e-01    3.549642861e-05    8.869916201e-06    0.000000000e+00    0.000000000e+00    0.000000000e+00    0.000000000e+00
      272500000   -6.191000342e-01    8.344721794e-01   -6.382353604e-06   -2.317968756e-05    0.000000000e+00    0.000000000e+00    0.000000000e+00    0.000000000e+00
      279750000   -5.191748142e-01    8.998205662e-01   -1.177750528e-05    1.381523907e-05    0.000000000e+00    0.000000000e+00    0.000000000e+00    0.000000000e+00
      287000000   -4.088706672e-01    9.527736306e-01    1.252349466e-05   -6.449408829e-06    0.000000000e+00    0.000000000e+00    0.000000000e+00    0.000000000e+00
      294250000   -2.927729487e-01    9.921431541e-01    3.205519170e-05    2.222415060e-05    0.000000000e+00    0.000000000e+00    0.000000000e+00    0.000000000e+00
      301500000   -1.705643684e-01    1.016210079e+00    2.657901496e-05   -2.774503082e-05    0.000000000e+00    0.000000000e+00    0.000000000e+00    0.000000000e+00
      308750000   -4.506481439e-02    1.024946690e+00    1.322291791e-05    7.529743016e-06    0.000000000e+00    0.000000000e+00    0.000000000e+00    0.000000000e+00
      316000000    8.096831292e-02    1.017923355e+00   -7.897615433e-07    1.749489456e-05    0.000000000e+00    0.000000000e+00    0.000000000e+00    0.000000000e+00
      323250000    2.053125054e-01    9.943344593e-01    1.113209873e-05    3.046635538e-05    0.000000000e+00    0.000000000e+00    0.000000000e+00    0.000000000e+00
      330500000    3.264407218e-01    9.542139769e-01    1.562666148e-05   -1.679174602e-06    0.000000000e+00    0.000000000e+00    0.000000000e+00    0.000000000e+00
      337750000    4.412972033e-01    8.990595341e-01   -4.274770617e-07    2.141110599e-06    0.000000000e+00    0.000000000e+00    0.000000000e+00    0.000000000e+00
      345000000    5.470177531e-01    8.306887150e-01    2.276152372e-06   -1.582223922e-05    0.000000000e+00    0.000000000e+00    0.000000000e+00    0.000000000e+00
      352250000    6.430670619e-01    7.499696016e-01   -3.690365702e-05    1.142639667e-05    0.000000000e+00    0.000000000e+00    0.000000000e+00    0.000000000e+00
      359500000    7.279928923e-01    6.575831771e-01   -4.604645073e-05    4.580616951e-05    0.000000000e+00    0.000000000e+00    0.000000000e+00    0.000000000e+00
      366750000    7.997598648e-01    5.571947098e-01   -2.997089177e-05   -3.991927952e-05    0.000000000e+00    0.000000000e+00    0.000000000e+00    0.000000000e+00
      374000000    8.588205576e-01    4.495836198e-01    1.530628651e-05    2.972595394e-05    0.000000000e+00    0.000000000e+00    0.000000000e+00    0.000000000e+00
      381250000    9.046034813e-01    3.363612592e-01   -2.535153180e-05    1.906324178e-05    0.000000000e+00    0.000000000e+00    0.000000000e+00    0.000000000e+00
      388500000    9.358507395e-01    2.212261260e-01    1.392606646e-05    2.861022949e-05    0.000000000e+00    0.000000000e+00    0.000000000e+00    0.000000000e+00
      395750000    9.527565241e-01    1.039188802e-01    4.459172487e-06   -2.639461309e-05    0.000000000e+00    0.000000000e+00    0.000000000e+00    0.000000000e+00
      403000000    9.570547342e-01   -1.330738515e-02   -3.004446626e-06    5.604699254e-06    0.000000000e+00    0.000000000e+00    0.000000000e+00    0.000000000e+00
      410250000    9.483880401e-01   -1.285311133e-01   -2.844445407e-05   -1.777242869e-05    0.000000000e+00    0.000000000e+00    0.000000000e+00    0.000000000e+00
      417500000    9.275313616e-01   -2.422434092e-01   -2.904143184e-05   -3.015529364e-05    0.000000000e+00    0.000000000e+00    0.000000000e+00    0.000000000e+00
      424750000    8.938006759e-01   -3.504416943e-01    1.337565482e-05    4.324875772e-05    0.000000000e+00    0.000000000e+00    0.000000000e+00    0.000000000e+00
      432000000    8.497757316e-01   -4.540227950e-01   -1.672282815e-05   -3.292877227e-05    0.000000000e+00    0.000000000e+00    0.000000000e+00    0.000000000e+00
      439250000    7.962436080e-01   -5.517331958e-01   -1.327507198e-05    2.159737051e-06    0.000000000e+00    0.000000000e+00    0.000000000e+00    0.000000000e+00
      446500000    7.317782044e-01   -6.429572105e-01    5.594920367e-05   -2.454034984e-05    0.000000000e+00    0.000000000e+00    0.000000000e+00    0.000000000e+00
      453750000    6.599962711e-01   -7.258147597e-01    8.611008525e-06    7.255002856e-06    0.000000000e+00    0.000000000e+00    0.000000000e+00    0.000000000e+00
      461000000    5.795896649e-01   -8.011590242e-01    3.186054528e-06    1.243222505e-05    0.000000000e+00    0.000000000e+00    0.000000000e+00    0.000000000e+00
      468250000    4.924167693e-01   -8.668691516e-01    5.232170224e-06   -2.326443791e-05    0.000000000e+00    0.000000000e+00    0.000000000e+00    0.000000000e+00
      475500000    3.975695074e-01   -9.235333800e-01    3.708060831e-05    7.130205631e-06    0.000000000e+00    0.000000000e+00    0.000000000e+00    0.000000000e+00
      482750000    2.983267903e-01   -9.701951146e-01   -5.641207099e-05    1.718010753e-05    0.000000000e+00    0.000000000e+00    0.000000000e+00    0.000000000e+00
      490000000    1.951552331e-01   -1.005989552e+00   -2.265814692e-05   -7.653608918e-06    0.000000000e+00    0.000000000e+00    0.000000000e+00    0.000000000e+00
      497250000    8.774634451e-02   -1.031171083e+00   -3.168359399e-06   -2.947356552e-05    0.000000000e+00    0.000000000e+00    0.000000000e+00    0.000000000e+00
      504500000   -2.224860899e-02   -1.045119405e+00   -2.470333129e-05   -4.584901035e-06    0.000000000e+00    0.000000000e+00    0.000000000e+00    0.000000000e+00
      511750000   -1.341192424e-01   -1.047720790e+00    1.078750938e-05    2.640299499e-05    0.000000000e+00    0.000000000e+00    0.000000000e+00    0.000000000e+00
      519000000   -2.460706234e-01   -1.036978245e+00   -3.288406879e-05    1.266598701e-06    0.000000000e+00    0.000000000e+00    0.000000000e+00    0.000000000e+00
      526250000   -3.565225005e-01   -1.014904737e+00   -1.119822264e-05   -2.767797559e-05    0.000000000e+00    0.000000000e+00    0.000000000e+00    0.000000000e+00
      533500000   -4.647966325e-01   -9.798155427e-01   -1.214351505e-05   -1.250486821e-05    0.000000000e+00    0.000000000e+00    0.000000000e+00    0.000000000e+00
      540750000   -5.699425340e-01   -9.332150221e-01    1.940038055e-05   -3.967341036e-05    0.000000000e+00    0.000000000e+00    0.000000000e+00    0.000000000e+00
      548000000   -6.692793369e-01   -8.738942742e-01   -1.619104296e-05    2.157501876e-05    0.000000000e+00    0.000000000e+00    0.000000000e+00    0.000000000e+00
      555250000   -7.616653442e-01   -8.025150299e-01   -1.284945756e-05   -3.245938569e-05    0.000000000e+00    0.000000000e+00    0.000000000e+00    0.000000000e+00
      562500000   -8.472236991e-01   -7.212983370e-01    1.679174602e-06    1.618638635e-05    0.000000000e+00    0.000000000e+00    0.000000000e+00    0.000000000e+00
      569750000   -9.213867784e-01   -6.301910877e-01   -1.679733396e-05   -3.613997251e-05    0.000000000e+00    0.000000000e+00    0.000000000e+00    0.000000000e+00
      577000000   -9.851872325e-01   -5.290447474e-01   -2.693664283e-05    1.526903361e-05    0.000000000e+00    0.000000000e+00    0.000000000e+00    0.000000000e+00
      584250000   -1.036480427e+00   -4.201420844e-01   -9.610317647e-06    3.864988685e-07    0.000000000e+00    0.000000000e+00    0.000000000e+00    0.000000000e+00
      591500000   -1.074422598e+00   -3.079117239e-01   -2.903863788e-06   -4.926696420e-07    0.000000000e+00    0.000000000e+00    0.000000000e+00    0.000000000e+00
      598750000   -1.098351121e+00   -1.873525530e-01    2.796947956e-05    5.845725536e-05    0.000000000e+00    0.000000000e+00    0.000000000e+00    0.000000000e+00
      606000000   -1.107251048e+00   -6.793098152e-02   -2.437271178e-06   -1.618824899e-05    0.000000000e+00    0.000000000e+00    0.000000000e+00    0.000000000e+00
      613250000   -1.102203488e+00    5.139944702e-02    8.007511497e-06   -3.272946924e-05    0.000000000e+00    0.000000000e+00    0.000000000e+00    0.000000000e+00
      620500000   -1.081652284e+00    1.716823876e-01    4.601664841e-06    2.807844430e-05    0.000000000e+00    0.000000000e+00    0.000000000e+00    0.000000000e+00
      627750000   -1.048683882e+00    2.845801115e-01    2.237595618e-05   -7.262453437e-06    0.000000000e+00    0.000000000e+00    0.000000000e+00    0.000000000e+00
      635000000   -1.001662850e+00    3.938468397e-01    9.909272194e-07    1.647416502e-05    0.000000000e+00    0.000000000e+00    0.000000000e+00    0.000000000e+00
      642250000   -9.411376119e-01    4.968563616e-01   -3.124587238e-06   -1.914985478e-05    0.000000000e+00    0.000000000e+00    0.000000000e+00    0.000000000e+00
      649500000   -8.709213734e-01    5.889015198e-01   -3.508850932e-05    1.105014235e-05    0.000000000e+00    0.000000000e+00    0.000000000e+00    0.000000000e+00
      656750000   -7.904711366e-01    6.717249751e-01   -1.184269786e-05    2.632569522e-05    0.000000000e+00    0.000000000e+00    0.000000000e+00    0.000000000e+00
      664000000   -7.007134557e-01    7.448850274e-01    2.956297249e-05    3.131851554e-05    0.000000000e+00    0.000000000e+00    0.000000000e+00    0.000000000e+00
      671250000   -6.057043672e-01    8.053371906e-01   -3.673601896e-05   -2.701301128e-05    0.000000000e+00    0.000000000e+00    0.000000000e+00    0.000000000e+00
      678500000   -5.047520995e-01    8.547748327e-01   -9.490177035e-06    1.528020948e-05    0.000000000e+00    0.000000000e+00    0.000000000e+00    0.000000000e+00
      685750000   -4.014047682e-01    8.921377063e-01   -3.715325147e-05   -3.417953849e-06    0.000000000e+00    0.000000000e+00    0.000000000e+00    0.000000000e+00
      693000000   -2.929229736e-01    9.173221588e-01    1.064315438e-05    5.772337317e-06    0.000000000e+00    0.000000000e+00    0.000000000e+00    0.000000000e+00
      700250000   -1.852361113e-01    9.305670857e-01    6.482936442e-06    2.176873386e-05    0.000000000e+00    0.000000000e+00    0.000000000e+00    0.000000000e+00
      707500000   -7.930240035e-02    9.320181012e-01   -7.980503142e-06    1.908373088e-05    0.000000000e+00    0.000000000e+00    0.000000000e+00    0.000000000e+00
      714750000    2.723438665e-02    9.213858843e-01    1.634843647e-05    1.797266304e-05    0.000000000e+00    0.000000000e+00    0.000000000e+00    0.000000000e+00
      722000000    1.298285574e-01    9.012300968e-01   -1.419149339e-05    5.456246436e-05    0.000000000e+00    0.000000000e+00    0.000000000e+00    0.000000000e+00
      729250000    2.281373739e-01    8.706219792e-01   -3.039836884e-05   -2.473779023e-05    0.000000000e+00    0.000000000e+00    0.000000000e+00    0.000000000e+00
      736500000    3.224090934e-01    8.305951953e-01   -3.572180867e-05   -3.858376294e-05    0.000000000e+00    0.000000000e+00    0.000000000e+00    0.000000000e+00
      743750000    4.125351012e-01    7.809868455e-01    1.382082701e-06    1.464597881e-05    0.000000000e+00    0.000000000e+00    0.000000000e+00    0.000000000e+00
      751000000    4.963416159e-01    7.241121531e-01    2.190098166e-05    2.593081445e-05    0.000000000e+00    0.000000000e+00    0.000000000e+00    0.000000000e+00
      758250000    5.722514391e-01    6.592462659e-01   -2.313405275e-05   -2.641137689e-05    0.000000000e+00    0.000000000e+00    0.000000000e+00    0.000000000e+00
      765500000    6.438862681e-01    5.859145522e-01    3.598537296e-05   -1.984648407e-05    0.000000000e+00    0.000000000e+00    0.000000000e+00    0.000000000e+00
      772750000    7.062316537e-01    5.074551105e-01    2.668611705e-05    1.145992428e-05    0.000000000e+00    0.000000000e+00    0.000000000e+00    0.000000000e+00
      780000000    7.597126365e-01    4.243185520e-01   -2.175010741e-05   -2.949684858e-05    0.000000000e+00    0.000000000e+00    0.000000000e+00    0.000000000e+00
      787250000    8.081846833e-01    3.326185942e-01   -2.036895603e-05   -2.118386328e-05    0.000000000e+00    0.000000000e+00    0.000000000e+00    0.000000000e+00
      794500000    8.448800445e-01    2.391638309e-01   -5.656760186e-05    1.371558756e-05    0.000000000e+00    0.000000000e+00    0.000000000e+00    0.000000000e+00
      801750000    8.729142547e-01    1.405801624e-01    1.824460924e-06   -9.137205780e-06    0.000000000e+00    0.000000000e+00    0.000000000e+00    0.000000000e+00
      809000000    8.908064961e-01    3.830551356e-02    1.943204552e-05    2.994202077e-05    0.000000000e+00    0.000000000e+00    0.000000000e+00    0.000000000e+00
      816250000    8.985813260e-01   -6.543716788e-02    6.320886314e-06    1.056399196e-05    0.000000000e+00    0.000000000e+00    0.000000000e+00    0.000000000e+00
      823500000    8.952325583e-01   -1.710737199e-01    1.110974699e-05    2.531800419e-05    0.000000000e+00    0.000000000e+00    0.000000000e+00    0.000000000e+00
      830750000    8.809991479e-01   -2.770301998e-01    1.714657992e-05    4.866160452e-06    0.000000000e+00    0.000000000e+00    0.000000000e+00    0.000000000e+00
      838000000    8.558891416e-01   -3.819547594e-01    1.667812467e-05   -2.096593380e-05    0.000000000e+00    0.000000000e+00    0.000000000e+00    0.000000000e+00
      845250000    8.182317019e-01   -4.844191670e-01   -2.307910472e-05    3.142561764e-05    0.000000000e+00    0.000000000e+00    0.000000000e+00    0.000000000e+00
      852500000    7.669126987e-01   -5.853497982e-01   -9.990297258e-06   -6.274320185e-06    0.000000000e+00    0.000000000e+00    0.000000000e+00    0.000000000e+00
      859750000    7.055069804e-01   -6.795549989e-01   -1.885928214e-06   -4.755705595e-05    0.000000000e+00    0.000000000e+00    0.000000000e+00    0.000000000e+00
      867000000    6.296486855e-01   -7.694763541e-01   -5.191192031e-06    9.789131582e-06    0.000000000e+00    0.000000000e+00    0.000000000e+00    0.000000000e+00
      874250000    5.449426174e-01   -8.494188786e-01    3.279093653e-05    1.140963286e-05    0.000000000e+00    0.000000000e+00    0.000000000e+00    0.000000000e+00
      881500000    4.466499388e-01   -9.200062156e-01   -3.355555236e-06    5.262810737e-05    0.000000000e+00    0.000000000e+00    0.000000000e+00    0.000000000e+00
      888750000    3.434827030e-01   -9.767879248e-01    2.440065145e-05    1.080986112e-05    0.000000000e+00    0.000000000e+00    0.000000000e+00    0.000000000e+00
      896000000    2.271768451e-01   -1.021523595e+00   -9.268522263e-06    1.553446054e-06    0.000000000e+00    0.000000000e+00    0.000000000e+00    0.000000000e+00
      903250000    1.060789824e-01   -1.050554633e+00   -1.092534512e-05    1.527555287e-05    0.000000000e+00    0.000000000e+00    0.000000000e+00    0.000000000e+00
      910500000   -2.036753111e-02   -1.063377619e+00   -1.191161573e-05    2.234708518e-05    0.000000000e+00    0.000000000e+00    0.000000000e+00    0.000000000e+00
      917750000   -1.454118639e-01   -1.059171796e+00    3.349035978e-06   -3.171060234e-05    0.000000000e+00    0.000000000e+00    0.000000000e+00    0.000000000e+00
      925000000   -2.682335973e-01   -1.038709164e+00    5.012005568e-05    4.285294563e-05    0.000000000e+00    0.000000000e+00    0.000000000e+00    0.000000000e+00
      932250000   -3.919883668e-01   -9.991632700e-01   -1.578591764e-06   -6.367452443e-06    0.000000000e+00    0.000000000e+00    0.000000000e+00    0.000000000e+00
      939500000   -5.041161776e-01   -9.451429844e-01    5.952082574e-06    5.927868187e-06    0.000000000e+00    0.000000000e+00    0.000000000e+00    0.000000000e+00
      946750000   -6.058297753e-01   -8.783468604e-01    1.410022378e-06    5.841068923e-05    0.000000000e+00    0.000000000e+00    0.000000000e+00    0.000000000e+00
      954000000   -7.005746365e-01   -7.946752310e-01    1.813657582e-05   -1.357123256e-05    0.000000000e+00    0.000000000e+00    0.000000000e+00    0.000000000e+00
      961250000   -7.788364291e-01   -7.046447396e-01    2.006348222e-05   -1.132953912e-05    0.000000000e+00    0.000000000e+00    0.000000000e+00    0.000000000e+00
      968500000   -8.454515934e-01   -6.024693847e-01    1.037959009e-05    1.058634371e-05    0.000000000e+00    0.000000000e+00    0.000000000e+00    0.000000000e+00
      975750000   -8.964945674e-01   -4.983634651e-01    1.176632941e-05   -4.728417844e-05    0.000000000e+00    0.000000000e+00    0.000000000e+00    0.000000000e+00
      983000000   -9.334649444e-01   -3.878453374e-01   -2.698041499e-05   -1.555215567e-05    0.000000000e+00    0.000000000e+00    0.000000000e+00    0.000000000e+00
      990250000   -9.542856812e-01   -2.783878446e-01   -8.675269783e-06   -6.658956409e-07    0.000000000e+00    0.000000000e+00    0.000000000e+00    0.000000000e+00
      997500000   -9.625142813e-01   -1.685838252e-01    1.328159124e-05   -2.350192517e-05    0.000000000e+00    0.000000000e+00    0.000000000e+00    0.000000000e+00
     1004750000   -9.564638734e-01   -6.236590818e-02   -2.530869097e-05   -8.872710168e-06    0.000000000e+00    0.000000000e+00    0.000000000e+00    0.000000000e+00
     1012000000   -9.398008585e-01    4.013977945e-02   -4.180055112e-05    2.003274858e-05    0.000000000e+00    0.000000000e+00    0.000000000e+00    0.000000000e+00
     1019250000   -9.114355445e-01    1.375710815e-01    2.856738865e-05    1.914799213e-05    0.000000000e+00    0.000000000e+00    0.000000000e+00    0.000000000e+00
     1026500000   -8.739768267e-01    2.285633683e-01    2.642162144e-06   -2.701859921e-05    0.000000000e+00    0.000000000e+00    0.000000000e+00    0.000000000e+00
     1033750000   -8.285496235e-01    3.131120801e-01    1.200567931e-05   -6.137415767e-07    0.000000000e+00    0.000000000e+00    0.000000000e+00    0.000000000e+00
     1041000000   -7.753361464e-01    3.901705146e-01   -2.516433597e-05    2.209376544e-05    0.000000000e+00    0.000000000e+00    0.000000000e+00    0.000000000e+00
