! NanoVNA-App
! Date: 2024-06-25 16:04:03
! Start: 200MHz Stop: 6GHz Points: 801
! S-Parameter data: F S11 S21 S12 S22
# Hz S RI R 50
!     Frequency           S11_Real           S11_Imag           S21_Real           S21_Imag           S12_Real           S12_Imag           S22_Real           S22_Imag
      200000000   -9.979328513e-01   -1.224254444e-01    2.926308662e-05    1.082010567e-05    0.000000000e+00    0.000000000e+00    0.000000000e+00    0.000000000e+00
      207250000   -1.010419130e+00   -2.355470881e-02   -1.908186823e-05    4.065502435e-05    0.000000000e+00    0.000000000e+00    0.000000000e+00    0.000000000e+00
      214500000   -1.012895465e+00    7.782372087e-02   -2.822838724e-06    3.824941814e-06    0.000000000e+00    0.000000000e+00    0.000000000e+00    0.000000000e+00
      221750000   -1.003479958e+00    1.801588535e-01   -4.763714969e-06   -1.040380448e-05    0.000000000e+00    0.000000000e+00    0.000000000e+00    0.000000000e+00
      229000000   -9.843696356e-01    2.834512293e-01    9.338371456e-06   -2.133660018e-05    0.000000000e+00    0.000000000e+00    0.000000000e+00    0.000000000e+00
      236250000   -9.533332586e-01    3.853801489e-01    2.280622721e-05   -5.789101124e-06    0.000000000e+00    0.000000000e+00    0.000000000e+00    0.000000000e+00
      243500000   -9.102512002e-01    4.854704738e-01   -7.498078048e-06    2.678483725e-05    0.000000000e+00    0.000000000e+00    0.000000000e+00    0.000000000e+00
      250750000   -8.554538488e-01    5.824254751e-01   -1.967512071e-05   -2.837739885e-06    0.000000000e+00    0.000000000e+00    0.000000000e+00    0.000000000e+00
      258000000   -7.885906696e-01    6.744892001e-01    1.552514732e-06   -2.601742744e-05    0.000000000e+00    0.000000000e+00    0.000000000e+00    0.000000000e+00
      265250000   -7.091834545e-01    7.585501671e-01    5.913898349e-07   -1.879222691e-05    0.000000000e+00    0.000000000e+00    0.000000000e+00    0.000000000e+00
      272500000   -6.183120608e-01    8.339309096e-01    3.079976887e-05   -1.106597483e-05    0.000000000e+00    0.000000000e+00    0.000000000e+00    0.000000000e+00
      279750000   -5.189675689e-01    8.994125128e-01    1.178123057e-05    8.068047464e-06    0.000000000e+00    0.000000000e+00    0.000000000e+00    0.000000000e+00
      287000000   -4.091954529e-01    9.525621533e-01    3.674440086e-05   -1.102685928e-06    0.000000000e+00    0.000000000e+00    0.000000000e+00    0.000000000e+00
      294250000   -2.928411663e-01    9.922301769e-01    2.631172538e-05   -4.244223237e-05    0.000000000e+00    0.000000000e+00    0.000000000e+00    0.000000000e+00
      301500000   -1.712704897e-01    1.016644001e+00    1.707114279e-06    2.651847899e-05    0.000000000e+00    0.000000000e+00    0.000000000e+00    0.000000000e+00
      308750000   -4.474190623e-02    1.025022149e+00    2.112612128e-05   -1.831538975e-05    0.000000000e+00    0.000000000e+00    0.000000000e+00    0.000000000e+00
      316000000    8.105546981e-02    1.017668247e+00   -2.362765372e-05   -2.861954272e-06    0.000000000e+00    0.000000000e+00    0.000000000e+00    0.000000000e+00
      323250000    2.058722377e-01    9.939851761e-01    2.655573189e-05    1.653097570e-05    0.000000000e+00    0.000000000e+00    0.000000000e+00    0.000000000e+00
      330500000    3.265158832e-01    9.545103908e-01    1.406855881e-05   -3.976561129e-05    0.000000000e+00    0.000000000e+00    0.000000000e+00    0.000000000e+00
      337750000    4.411823153e-01    8.992751241e-01    1.603271812e-05   -1.359544694e-05    0.000000000e+00    0.000000000e+00    0.000000000e+00    0.000000000e+00
      345000000    5.471102595e-01    8.301468492e-01    1.682341099e-05   -1.745671034e-05    0.000000000e+00    0.000000000e+00    0.000000000e+00    0.000000000e+00
      352250000    6.435263157e-01    7.497766614e-01   -1.453608274e-05    1.020077616e-05    0.000000000e+00    0.000000000e+00    0.000000000e+00    0.000000000e+00
      359500000    7.280237675e-01    6.574181318e-01   -2.550520003e-05    3.432109952e-05    0.000000000e+00    0.000000000e+00    0.000000000e+00    0.000000000e+00
      366750000    7.999931574e-01    5.569838285e-01   -1.673866063e-05    2.944841981e-05    0.000000000e+00    0.000000000e+00    0.000000000e+00    0.000000000e+00
      374000000    8.585761189e-01    4.493717849e-01   -1.252535731e-05    1.480802894e-06    0.000000000e+00    0.000000000e+00    0.000000000e+00    0.000000000e+00
      381250000    9.039314985e-01    3.362658024e-01   -3.019534051e-05    2.350658178e-05    0.000000000e+00    0.000000000e+00    0.000000000e+00    0.000000000e+00
      388500000    9.354083538e-01    2.212820202e-01   -2.271961421e-05   -7.752329111e-06    0.000000000e+00    0.000000000e+00    0.000000000e+00    0.000000000e+00
      395750000    9.525985718e-01    1.036948636e-01   -9.653158486e-06    1.928769052e-06    0.000000000e+00    0.000000000e+00    0.000000000e+00    0.000000000e+00
      403000000    9.570201635e-01   -1.341604162e-02    3.431644291e-05    3.868713975e-06    0.000000000e+00    0.000000000e+00    0.000000000e+00    0.000000000e+00
      410250000    9.480025768e-01   -1.287179440e-01   -2.874247730e-05    2.081971616e-05    0.000000000e+00    0.000000000e+00    0.000000000e+00    0.000000000e+00
      417500000    9.268316031e-01   -2.417762429e-01   -1.824460924e-06    1.797918230e-05    0.000000000e+00    0.000000000e+00    0.000000000e+00    0.000000000e+00
      424750000    8.941387534e-01   -3.506431282e-01    1.055002213e-05   -3.419443965e-05    0.000000000e+00    0.000000000e+00    0.000000000e+00    0.000000000e+00
      432000000    8.504330516e-01   -4.541797340e-01    1.030694693e-05    9.870156646e-06    0.000000000e+00    0.000000000e+00    0.000000000e+00    0.000000000e+00
      439250000    7.962477803e-01   -5.517141223e-01    1.363456249e-05   -8.136034012e-06    0.000000000e+00    0.000000000e+00    0.000000000e+00    0.000000000e+00
      446500000    7.323149443e-01   -6.422162652e-01   -2.708286047e-05    1.785904169e-05    0.000000000e+00    0.000000000e+00    0.000000000e+00    0.000000000e+00
      453750000    6.589971781e-01   -7.259699702e-01    3.085471690e-06    2.121180296e-05    0.000000000e+00    0.000000000e+00    0.000000000e+00    0.000000000e+00
      461000000    5.790323615e-01   -8.004007339e-01   -2.106279135e-05    1.610256732e-06    0.000000000e+00    0.000000000e+00    0.000000000e+00    0.000000000e+00
      468250000    4.919675589e-01   -8.666049242e-01    6.164424121e-06   -6.882473826e-07    0.000000000e+00    0.000000000e+00    0.000000000e+00    0.000000000e+00
      475500000    3.973207772e-01   -9.237744212e-01    1.841969788e-05    1.810304821e-05    0.000000000e+00    0.000000000e+00    0.000000000e+00    0.000000000e+00
      482750000    2.990369499e-01   -9.700142145e-01   -1.830235124e-05   -1.428183168e-05    0.000000000e+00    0.000000000e+00    0.000000000e+00    0.000000000e+00
      490000000    1.947483569e-01   -1.005787611e+00    2.046767622e-05    2.106651664e-06    0.000000000e+00    0.000000000e+00    0.000000000e+00    0.000000000e+00
      497250000    8.851256222e-02   -1.030803442e+00   -4.558358341e-05    2.056080848e-05    0.000000000e+00    0.000000000e+00    0.000000000e+00    0.000000000e+00
      504500000   -2.222237550e-02   -1.044959903e+00   -7.657334208e-06    2.871360630e-05    0.000000000e+00    0.000000000e+00    0.000000000e+00    0.000000000e+00
      511750000   -1.336145550e-01   -1.047252655e+00    1.895800233e-05   -1.685600728e-05    0.000000000e+00    0.000000000e+00    0.000000000e+00    0.000000000e+00
      519000000   -2.455549091e-01   -1.037122726e+00   -6.876885891e-06   -1.898035407e-06    0.000000000e+00    0.000000000e+00    0.000000000e+00    0.000000000e+00
      526250000   -3.564104140e-01   -1.014848948e+00    9.628944099e-06   -1.186598092e-05    0.000000000e+00    0.000000000e+00    0.000000000e+00    0.000000000e+00
      533500000   -4.649059772e-01   -9.799620509e-01    1.979991794e-05   -2.349540591e-05    0.000000000e+00    0.000000000e+00    0.000000000e+00    0.000000000e+00
      540750000   -5.699132681e-01   -9.336227179e-01   -4.338752478e-05    1.960434020e-06    0.000000000e+00    0.000000000e+00    0.000000000e+00    0.000000000e+00
      548000000   -6.689495444e-01   -8.735464215e-01   -1.534447074e-05    1.848116517e-05    0.000000000e+00    0.000000000e+00    0.000000000e+00    0.000000000e+00
      555250000   -7.626513243e-01   -8.030659556e-01   -1.203082502e-05   -2.709403634e-05    0.000000000e+00    0.000000000e+00    0.000000000e+00    0.000000000e+00
      562500000   -8.462950587e-01   -7.214887738e-01    2.057291567e-06   -6.789341569e-07    0.000000000e+00    0.000000000e+00    0.000000000e+00    0.000000000e+00
      569750000   -9.210933447e-01   -6.296216249e-01   -2.090819180e-06    1.150462776e-05    0.000000000e+00    0.000000000e+00    0.000000000e+00    0.000000000e+00
      577000000   -9.852430224e-01   -5.278487206e-01   -2.859160304e-07    2.104137093e-05    0.000000000e+00    0.000000000e+00    0.000000000e+00    0.000000000e+00
      584250000   -1.037138462e+00   -4.203836620e-01   -4.369672388e-05   -1.772586256e-05    0.000000000e+00    0.000000000e+00    0.000000000e+00    0.000000000e+00
      591500000   -1.074209452e+00   -3.078295887e-01   -3.302190453e-05    2.634618431e-05    0.000000000e+00    0.000000000e+00    0.000000000e+00    0.000000000e+00
      598750000   -1.097896695e+00   -1.869429201e-01   -3.009103239e-05   -2.035871148e-06    0.000000000e+00    0.000000000e+00    0.000000000e+00    0.000000000e+00
      606000000   -1.107573032e+00   -6.879854202e-02    7.691793144e-06    1.263525337e-05    0.000000000e+00    0.000000000e+00    0.000000000e+00    0.000000000e+00
      613250000   -1.102228045e+00    5.213586241e-02   -1.916661859e-06    1.052673906e-05    0.000000000e+00    0.000000000e+00    0.000000000e+00    0.000000000e+00
      620500000   -1.081982970e+00    1.700805277e-01    3.085844219e-05   -1.045130193e-05    0.000000000e+00    0.000000000e+00    0.000000000e+00    0.000000000e+00
      627750000   -1.048228621e+00    2.860026360e-01    2.248492092e-05   -2.082809806e-05    0.000000000e+00    0.000000000e+00    0.000000000e+00    0.000000000e+00
      635000000   -1.002398014e+00    3.928754330e-01   -5.764886737e-06    7.553026080e-07    0.000000000e+00    0.000000000e+00    0.000000000e+00    0.000000000e+00
      642250000   -9.412979484e-01    4.962054193e-01    2.971570939e-05   -5.916599184e-05    0.000000000e+00    0.000000000e+00    0.000000000e+00    0.000000000e+00
      649500000   -8.704638481e-01    5.888179541e-01   -4.848465323e-06   -2.113450319e-05    0.000000000e+00    0.000000000e+00    0.000000000e+00    0.000000000e+00
      656750000   -7.904736400e-01    6.722636819e-01    4.438497126e-05   -5.872920156e-06    0.000000000e+00    0.000000000e+00    0.000000000e+00    0.000000000e+00
      664000000   -7.006021142e-01    7.449475527e-01    3.631878644e-05    1.865997910e-05    0.000000000e+00    0.000000000e+00    0.000000000e+00    0.000000000e+00
      671250000   -6.060059071e-01    8.054764867e-01   -1.357216388e-05   -2.197176218e-05    0.000000000e+00    0.000000000e+00    0.000000000e+00    0.000000000e+00
      678500000   -5.054363608e-01    8.551985621e-01   -1.813564450e-05   -3.545079380e-05    0.000000000e+00    0.000000000e+00    0.000000000e+00    0.000000000e+00
      685750000   -4.003946185e-01    8.924165368e-01   -9.834766388e-06   -1.278705895e-06    0.000000000e+00    0.000000000e+00    0.000000000e+00    0.000000000e+00
      693000000   -2.928006053e-01    9.171577692e-01   -1.664552838e-05   -2.227164805e-05    0.000000000e+00    0.000000000e+00    0.000000000e+00    0.000000000e+00
      700250000   -1.868413836e-01    9.295439124e-01    4.673656076e-05   -1.573842019e-05    0.000000000e+00    0.000000000e+00    0.000000000e+00    0.000000000e+00
      707500000   -7.881505042e-02    9.320197105e-01   -3.304798156e-05   -9.818933904e-06    0.000000000e+00    0.000000000e+00    0.000000000e+00    0.000000000e+00
      714750000    2.695752494e-02    9.219805002e-01    1.846440136e-05    7.621012628e-06    0.000000000e+00    0.000000000e+00    0.000000000e+00    0.000000000e+00
      722000000    1.292978972e-01    9.014829397e-01   -4.005897790e-05   -5.584210157e-06    0.000000000e+00    0.000000000e+00    0.000000000e+00    0.000000000e+00
      729250000    2.293695211e-01    8.706923723e-01   -1.259986311e-05   -1.918990165e-05    0.000000000e+00    0.000000000e+00    0.000000000e+00    0.000000000e+00
      736500000    3.232594430e-01    8.296972513e-01   -1.966953278e-06   -1.131556928e-06    0.000000000e+00    0.000000000e+00    0.000000000e+00    0.000000000e+00
      743750000    4.124219716e-01    7.812098861e-01    6.156973541e-06    4.152581096e-05    0.000000000e+00    0.000000000e+00    0.000000000e+00    0.000000000e+00
      751000000    4.969029427e-01    7.235396504e-01   -1.118332148e-05   -3.158114851e-05    0.000000000e+00    0.000000000e+00    0.000000000e+00    0.000000000e+00
      758250000    5.727104545e-01    6.580329537e-01    4.001799971e-05    6.913207471e-06    0.000000000e+00    0.000000000e+00    0.000000000e+00    0.000000000e+00
      765500000    6.438414454e-01    5.862930417e-01    1.383107156e-05   -3.162864596e-05    0.000000000e+00    0.000000000e+00    0.000000000e+00    0.000000000e+00
      772750000    7.060459256e-01    5.076035261e-01   -1.697428524e-05    1.535192132e-05    0.000000000e+00    0.000000000e+00    0.000000000e+00    0.000000000e+00
      780000000    7.595120072e-01    4.239993691e-01    5.542300642e-06    3.859400749e-06    0.000000000e+00    0.000000000e+00    0.000000000e+00    0.000000000e+00
      787250000    8.076405525e-01    3.329114914e-01    3.162119538e-05    2.526678145e-06    0.000000000e+00    0.000000000e+00    0.000000000e+00    0.000000000e+00
      794500000    8.449178338e-01    2.391903847e-01    5.012378097e-06    1.577660441e-06    0.000000000e+00    0.000000000e+00    0.000000000e+00    0.000000000e+00
      801750000    8.728474379e-01    1.407754570e-01   -2.443604171e-05   -1.777615398e-05    0.000000000e+00    0.000000000e+00    0.000000000e+00    0.000000000e+00
      809000000    8.912370801e-01    3.879083693e-02    7.254071534e-06   -2.341438085e-05    0.000000000e+00    0.000000000e+00    0.000000000e+00    0.000000000e+00
      816250000    8.986967802e-01   -6.592136621e-02   -6.983056664e-06    3.652926534e-05    0.000000000e+00    0.000000000e+00    0.000000000e+00    0.000000000e+00
      823500000    8.961812258e-01   -1.699448973e-01   -5.038455129e-06    9.012408555e-06    0.000000000e+00    0.000000000e+00    0.000000000e+00    0.000000000e+00
      830750000    8.813633323e-01   -2.760106921e-01   -3.706943244e-05   -2.163182944e-05    0.000000000e+00    0.000000000e+00    0.000000000e+00    0.000000000e+00
      838000000    8.546957970e-01   -3.820526004e-01    3.053806722e-06   -1.888163388e-05    0.000000000e+00    0.000000000e+00    0.000000000e+00    0.000000000e+00
      845250000    8.171620369e-01   -4.851982594e-01    9.407289326e-06   -3.272388130e-05    0.000000000e+00    0.000000000e+00    0.000000000e+00    0.000000000e+00
      852500000    7.670765519e-01   -5.856110454e-01    8.302740753e-06   -2.766028047e-06    0.000000000e+00    0.000000000e+00    0.000000000e+00    0.000000000e+00
      859750000    7.053976059e-01   -6.798056364e-01    4.032719880e-05   -2.372078598e-06    0.000000000e+00    0.000000000e+00    0.000000000e+00    0.000000000e+00
      867000000    6.301531196e-01   -7.696090937e-01    7.902272046e-06    5.762372166e-05    0.000000000e+00    0.000000000e+00    0.000000000e+00    0.000000000e+00
      874250000    5.440585017e-01   -8.489619493e-01    4.807487130e-06    1.648720354e-05    0.000000000e+00    0.000000000e+00    0.000000000e+00    0.000000000e+00
      881500000    4.464503527e-01   -9.198763967e-01   -3.809109330e-07   -1.713633537e-06    0.000000000e+00    0.000000000e+00    0.000000000e+00    0.000000000e+00
      888750000    3.416534662e-01   -9.770330787e-01   -2.179387957e-05    3.860983998e-05    0.000000000e+00    0.000000000e+00    0.000000000e+00    0.000000000e+00
      896000000    2.269787788e-01   -1.021744728e+00   -3.230851144e-05   -4.171673208e-05    0.000000000e+00    0.000000000e+00    0.000000000e+00    0.000000000e+00
      903250000    1.061909348e-01   -1.051252007e+00    8.288770914e-08   -4.559569061e-05    0.000000000e+00    0.000000000e+00    0.000000000e+00    0.000000000e+00
      910500000   -2.017870173e-02   -1.064029098e+00   -7.260590792e-06    4.193838686e-05    0.000000000e+00    0.000000000e+00    0.000000000e+00    0.000000000e+00
      917750000   -1.443262994e-01   -1.059240699e+00    2.725142986e-05   -3.482215106e-06    0.000000000e+00    0.000000000e+00    0.000000000e+00    0.000000000e+00
      925000000   -2.701428533e-01   -1.037949324e+00   -1.728907228e-05   -3.368221223e-05    0.000000000e+00    0.000000000e+00    0.000000000e+00    0.000000000e+00
      932250000   -3.892287612e-01   -9.998338223e-01   -1.636706293e-05    2.342276275e-06    0.000000000e+00    0.000000000e+00    0.000000000e+00    0.000000000e+00
      939500000   -5.035794377e-01   -9.455781579e-01    1.961365342e-05    3.114342690e-06    0.000000000e+00    0.000000000e+00    0.000000000e+00    0.000000000e+00
      946750000   -6.069162488e-01   -8.774821162e-01   -1.581385732e-05    1.350138336e-05    0.000000000e+00    0.000000000e+00    0.000000000e+00    0.000000000e+00
      954000000   -7.012179494e-01   -7.929098010e-01   -2.702046186e-05    2.452265471e-05    0.000000000e+00    0.000000000e+00    0.000000000e+00    0.000000000e+00
      961250000   -7.787077427e-01   -7.044135928e-01   -4.825927317e-05   -2.531148493e-05    0.000000000e+00    0.000000000e+00    0.000000000e+00    0.000000000e+00
      968500000   -8.461278677e-01   -6.024164557e-01    3.582146019e-05   -4.216097295e-06    0.000000000e+00    0.000000000e+00    0.000000000e+00    0.000000000e+00
      975750000   -8.960107565e-01   -4.980118871e-01    1.233536750e-05    4.281289876e-06    0.000000000e+00    0.000000000e+00    0.000000000e+00    0.000000000e+00
      983000000   -9.322768450e-01   -3.893158138e-01    4.691164941e-05    4.414469004e-06    0.000000000e+00    0.000000000e+00    0.000000000e+00    0.000000000e+00
      990250000   -9.539886713e-01   -2.789541185e-01    1.002568752e-05    2.599321306e-05    0.000000000e+00    0.000000000e+00    0.000000000e+00    0.000000000e+00
      997500000   -9.626329541e-01   -1.692248285e-01    5.448237062e-06    3.027729690e-06    0.000000000e+00    0.000000000e+00    0.000000000e+00    0.000000000e+00
     1004750000   -9.562181234e-01   -6.144244596e-02    2.709776163e-05   -1.040752977e-05    0.000000000e+00    0.000000000e+00    0.000000000e+00    0.000000000e+00
     1012000000   -9.394823313e-01    4.054469615e-02    2.807099372e-05   -2.320576459e-05    0.000000000e+00    0.000000000e+00    0.000000000e+00    0.000000000e+00
     1019250000   -9.115230441e-01    1.364546716e-01    3.313738853e-05   -5.981791764e-05    0.000000000e+00    0.000000000e+00    0.000000000e+00    0.000000000e+00
     1026500000   -8.736881614e-01    2.292820513e-01   -4.120171070e-06    1.096352935e-05    0.000000000e+00    0.000000000e+00    0.000000000e+00    0.000000000e+00
     1033750000   -8.274765611e-01    3.141516149e-01    2.700090408e-05   -1.513119787e-05    0.000000000e+00    0.000000000e+00    0.000000000e+00    0.000000000e+00
     1041000000   -7.755047679e-01    3.903380632e-01   -6.314367056e-07   -2.622790635e-05    0.000000000e+00    0.000000000e+00    0.000000000e+00    0.000000000e+00
