! NanoVNA-App
! Date: 2024-06-25 16:04:11
! Start: 200MHz Stop: 6GHz Points: 801
! S-Parameter data: F S11 S21 S12 S22
# Hz S RI R 50
!     Frequency           S11_Real           S11_Imag           S21_Real           S21_Imag           S12_Real           S12_Imag           S22_Real           S22_Imag
      200000000   -9.980199933e-01   -1.223497838e-01   -3.474764526e-05   -2.487283200e-05    0.000000000e+00    0.000000000e+00    0.000000000e+00    0.000000000e+00
      207250000   -1.010139346e+00   -2.334491722e-02    1.565832645e-05   -1.333653927e-06    0.000000000e+00    0.000000000e+00    0.000000000e+00    0.000000000e+00
      214500000   -1.012057900e+00    7.793203741e-02    6.214715540e-06   -2.797599882e-05    0.000000000e+00    0.000000000e+00    0.000000000e+00    0.000000000e+00
      221750000   -1.003394961e+00    1.803414822e-01   -2.060085535e-06   -7.797963917e-06    0.000000000e+00    0.000000000e+00    0.000000000e+00    0.000000000e+00
      229000000   -9.851548076e-01    2.831662595e-01   -1.359730959e-06   -3.256648779e-05    0.000000000e+00    0.000000000e+00    0.000000000e+00    0.000000000e+00
      236250000   -9.529081583e-01    3.854994774e-01   -5.850195885e-05    1.012161374e-05    0.000000000e+00    0.000000000e+00    0.000000000e+00    0.000000000e+00
      243500000   -9.100312591e-01    4.859838486e-01   -7.291790098e-05   -1.431070268e-05    0.000000000e+00    0.000000000e+00    0.000000000e+00    0.000000000e+00
      250750000   -8.554732203e-01    5.829291344e-01   -1.653935760e-05    3.317371011e-06    0.000000000e+00    0.000000000e+00    0.000000000e+00    0.000000000e+00
      258000000   -7.877467275e-01    6.743988991e-01    2.721976489e-05   -4.558544606e-05    0.000000000e+00    0.000000000e+00    0.000000000e+00    0.000000000e+00
      265250000   -7.101572156e-01    7.586076260e-01   -1.164153218e-07   -2.194195986e-05    0.000000000e+00    0.000000000e+00    0.000000000e+00    0.000000000e+00
      272500000   -6.186323762e-01    8.349859118e-01    5.440786481e-06    8.632428944e-06    0.000000000e+00    0.000000000e+00    0.000000000e+00    0.000000000e+00
      279750000   -5.186019540e-01    8.994354606e-01   -1.775752753e-05    5.789101124e-06    0.000000000e+00    0.000000000e+00    0.000000000e+00    0.000000000e+00
      287000000   -4.091383815e-01    9.526043534e-01   -7.388181984e-06    1.847557724e-05    0.000000000e+00    0.000000000e+00    0.000000000e+00    0.000000000e+00
      294250000   -2.925950289e-01    9.918808341e-01    1.558568329e-05    7.762573659e-06    0.000000000e+00    0.000000000e+00    0.000000000e+00    0.000000000e+00
      301500000   -1.706039310e-01    1.016688704e+00   -1.050811261e-05    5.294010043e-05    0.000000000e+00    0.000000000e+00    0.000000000e+00    0.000000000e+00
      308750000   -4.483883828e-02    1.024523854e+00    3.365240991e-05    1.600105315e-05    0.000000000e+00    0.000000000e+00    0.000000000e+00    0.000000000e+00
      316000000    8.143623918e-02    1.017736673e+00   -7.485970855e-06   -2.178084105e-05    0.000000000e+00    0.000000000e+00    0.000000000e+00    0.000000000e+00
      323250000    2.056165338e-01    9.943386316e-01   -8.013099432e-06    4.536099732e-05    0.000000000e+00    0.000000000e+00    0.000000000e+00    0.000000000e+00
      330500000    3.266687393e-01    9.538021684e-01   -1.117773354e-05    3.438442945e-06    0.000000000e+00    0.000000000e+00    0.000000000e+00    0.000000000e+00
      337750000    4.410758018e-01    8.991096020e-01   -3.516115248e-05    2.320669591e-05    0.000000000e+00    0.000000000e+00    0.000000000e+00    0.000000000e+00
      345000000    5.470699072e-01    8.303620815e-01    1.865811646e-05    2.444349229e-05    0.000000000e+00    0.000000000e+00    0.000000000e+00    0.000000000e+00
      352250000    6.431323886e-01    7.493795753e-01   -2.912245691e-06    3.045424819e-05    0.000000000e+00    0.000000000e+00    0.000000000e+00    0.000000000e+00
      359500000    7.281664610e-01    6.575420499e-01    8.845701814e-06    3.085844219e-05    0.000000000e+00    0.000000000e+00    0.000000000e+00    0.000000000e+00
      366750000    8.002031446e-01    5.571790934e-01    9.220093489e-07    2.008862793e-06    0.000000000e+00    0.000000000e+00    0.000000000e+00    0.000000000e+00
      374000000    8.590551615e-01    4.503898919e-01   -3.776513040e-06   -1.450069249e-05    0.000000000e+00    0.000000000e+00    0.000000000e+00    0.000000000e+00
      381250000    9.045675397e-01    3.365013599e-01    1.026410609e-05    1.183804125e-05    0.000000000e+00    0.000000000e+00    0.000000000e+00    0.000000000e+00
      388500000    9.357111454e-01    2.213117927e-01   -1.958291978e-05   -1.582410187e-05    0.000000000e+00    0.000000000e+00    0.000000000e+00    0.000000000e+00
      395750000    9.524238706e-01    1.044173092e-01    4.878267646e-06   -4.381686449e-05    0.000000000e+00    0.000000000e+00    0.000000000e+00    0.000000000e+00
      403000000    9.571284652e-01   -1.341670845e-02   -1.774821430e-05    5.348585546e-06    0.000000000e+00    0.000000000e+00    0.000000000e+00    0.000000000e+00
      410250000    9.484736919e-01   -1.290766150e-01    1.143291593e-05   -2.795271575e-05    0.000000000e+00    0.000000000e+00    0.000000000e+00    0.000000000e+00
      417500000    9.276325703e-01   -2.417968065e-01   -7.934868336e-07    1.316610724e-05    0.000000000e+00    0.000000000e+00    0.000000000e+00    0.000000000e+00
      424750000    8.940238357e-01   -3.507370949e-01    1.571793109e-05   -8.102506399e-06    0.000000000e+00    0.000000000e+00    0.000000000e+00    0.000000000e+00
      432000000    8.495942950e-01   -4.546912611e-01    3.522261977e-06    3.591179848e-06    0.000000000e+00    0.000000000e+00    0.000000000e+00    0.000000000e+00
      439250000    7.960272431e-01   -5.516652465e-01   -6.953254342e-06    1.762900501e-05    0.000000000e+00    0.000000000e+00    0.000000000e+00    0.000000000e+00
      446500000    7.320874929e-01   -6.420360208e-01   -1.683924347e-05   -1.347158104e-05    0.000000000e+00    0.000000000e+00    0.000000000e+00    0.000000000e+00
      453750000    6.587826610e-01   -7.258204818e-01    3.783963621e-06    6.316229701e-06    0.000000000e+00    0.000000000e+00    0.000000000e+00    0.000000000e+00
      461000000    5.791328549e-01   -8.009576797e-01   -1.015048474e-05    1.049134880e-05    0.000000000e+00    0.000000000e+00    0.000000000e+00    0.000000000e+00
      468250000    4.917076528e-01   -8.663672209e-01   -1.865718514e-05   -2.645142376e-05    0.000000000e+00    0.000000000e+00    0.000000000e+00    0.000000000e+00
      475500000    3.978148401e-01   -9.235347509e-01    1.143384725e-05    1.713912934e-05    0.000000000e+00    0.000000000e+00    0.000000000e+00    0.000000000e+00
      482750000    2.988519073e-01   -9.700536132e-01   -3.111083061e-05    5.290936679e-05    0.000000000e+00    0.000000000e+00    0.000000000e+00    0.000000000e+00
      490000000    1.951325685e-01   -1.006061912e+00    1.130066812e-05    7.833354175e-06    0.000000000e+00    0.000000000e+00    0.000000000e+00    0.000000000e+00
      497250000    8.812391013e-02   -1.031101704e+00    2.789963037e-05   -3.492925316e-05    0.000000000e+00    0.000000000e+00    0.000000000e+00    0.000000000e+00
      504500000   -2.237950079e-02   -1.045009851e+00   -1.998618245e-06   -5.160458386e-06    0.000000000e+00    0.000000000e+00    0.000000000e+00    0.000000000e+00
      511750000   -1.332834959e-01   -1.047848940e+00   -7.050111890e-07    3.622937948e-05    0.000000000e+00    0.000000000e+00    0.000000000e+00    0.000000000e+00
      519000000   -2.451061606e-01   -1.036967397e+00    2.924539149e-05    3.825873137e-06    0.000000000e+00    0.000000000e+00    0.000000000e+00    0.000000000e+00
      526250000   -3.559490740e-01   -1.015146136e+00    4.983507097e-06    1.492723823e-05    0.000000000e+00    0.000000000e+00    0.000000000e+00    0.000000000e+00
      533500000   -4.651978612e-01   -9.803267121e-01    6.614252925e-06   -3.400724381e-05    0.000000000e+00    0.000000000e+00    0.000000000e+00    0.000000000e+00
      540750000   -5.704045296e-01   -9.326239824e-01   -6.544403732e-06    3.439374268e-06    0.000000000e+00    0.000000000e+00    0.000000000e+00    0.000000000e+00
      548000000   -6.697787642e-01   -8.739857078e-01   -3.549084067e-05    1.848209649e-05    0.000000000e+00    0.000000000e+00    0.000000000e+00    0.000000000e+00
      555250000   -7.622264028e-01   -8.031969666e-01    5.038455129e-07   -2.379436046e-05    0.000000000e+00    0.000000000e+00    0.000000000e+00    0.000000000e+00
      562500000   -8.467641473e-01   -7.206301689e-01    3.212317824e-05    2.074800432e-05    0.000000000e+00    0.000000000e+00    0.000000000e+00    0.000000000e+00
      569750000   -9.212219715e-01   -6.297869682e-01    1.863949001e-05   -1.016352326e-05    0.000000000e+00    0.000000000e+00    0.000000000e+00    0.000000000e+00
      577000000   -9.854366779e-01   -5.277500153e-01   -1.723691821e-05    2.707354724e-05    0.000000000e+00    0.000000000e+00    0.000000000e+00    0.000000000e+00
      584250000   -1.036065102e+00   -4.205270708e-01    5.991943181e-05    3.278255463e-07    0.000000000e+00    0.000000000e+00    0.000000000e+00    0.000000000e+00
      591500000   -1.074334979e+00   -3.080642223e-01   -7.144175470e-06   -2.093333751e-05    0.000000000e+00    0.000000000e+00    0.000000000e+00    0.000000000e+00
      598750000   -1.098714590e+00   -1.872432828e-01   -4.630070180e-05    7.636845112e-07    0.000000000e+00    0.000000000e+00    0.000000000e+00    0.000000000e+00
      606000000   -1.107754946e+00   -6.816100329e-02    2.416130155e-05   -8.380040526e-06    0.000000000e+00    0.000000000e+00    0.000000000e+00    0.000000000e+00
      613250000   -1.102474332e+00    5.140672624e-02    2.453476191e-05   -1.619569957e-05    0.000000000e+00    0.000000000e+00    0.000000000e+00    0.000000000e+00
      620500000   -1.082694054e+00    1.701261848e-01   -1.564621925e-05   -8.946284652e-06    0.000000000e+00    0.000000000e+00    0.000000000e+00    0.000000000e+00
      627750000   -1.048252583e+00    2.857414484e-01    3.930181265e-05    5.276873708e-06    0.000000000e+00    0.000000000e+00    0.000000000e+00    0.000000000e+00
      635000000   -1.001323700e+00    3.947266638e-01    4.986207932e-05   -2.388190478e-05    0.000000000e+00    0.000000000e+00    0.000000000e+00    0.000000000e+00
      642250000   -9.421151876e-01    4.951606393e-01    6.174668670e-06   -6.781518459e-05    0.000000000e+00    0.000000000e+00    0.000000000e+00    0.000000000e+00
      649500000   -8.709382415e-01    5.889418721e-01   -7.577240467e-06    9.343028069e-06    0.000000000e+00    0.000000000e+00    0.000000000e+00    0.000000000e+00
      656750000   -7.905473709e-01    6.721833944e-01    1.737941056e-05   -1.884158701e-05    0.000000000e+00    0.000000000e+00    0.000000000e+00    0.000000000e+00
      664000000   -7.012038827e-01    7.449129224e-01    2.453103662e-06   -5.507189780e-05    0.000000000e+00    0.000000000e+00    0.000000000e+00    0.000000000e+00
      671250000   -6.068964601e-01    8.058413267e-01   -6.440095603e-06   -1.927837729e-07    0.000000000e+00    0.000000000e+00    0.000000000e+00    0.000000000e+00
      678500000   -5.052303672e-01    8.551873565e-01   -5.947425961e-06    2.015475184e-05    0.000000000e+00    0.000000000e+00    0.000000000e+00    0.000000000e+00
      685750000   -3.997210860e-01    8.924044967e-01    1.164525747e-05    2.126023173e-05    0.000000000e+00    0.000000000e+00    0.000000000e+00    0.000000000e+00
      693000000   -2.932860851e-01    9.174849391e-01    2.172589302e-05   -8.531846106e-06    0.000000000e+00    0.000000000e+00    0.000000000e+00    0.000000000e+00
      700250000   -1.853497475e-01    9.302809238e-01   -1.261103898e-05    4.509463906e-06    0.000000000e+00    0.000000000e+00    0.000000000e+00    0.000000000e+00
      707500000   -7.988605648e-02    9.315032363e-01    2.206210047e-05   -6.199814379e-06    0.000000000e+00    0.000000000e+00    0.000000000e+00    0.000000000e+00
      714750000    2.663764544e-02    9.214752316e-01   -4.939734936e-05    1.176167279e-05    0.000000000e+00    0.000000000e+00    0.000000000e+00    0.000000000e+00
      722000000    1.299267411e-01    9.016476274e-01    1.629721373e-05   -9.302981198e-06    0.000000000e+00    0.000000000e+00    0.000000000e+00    0.000000000e+00
      729250000    2.291825116e-01    8.700994849e-01   -2.260226756e-05    1.032277942e-05    0.000000000e+00    0.000000000e+00    0.000000000e+00    0.000000000e+00
      736500000    3.228406310e-01    8.301675916e-01    3.608874977e-05    1.963041723e-05    0.000000000e+00    0.000000000e+00    0.000000000e+00    0.000000000e+00
      743750000    4.123547077e-01    7.813038826e-01   -1.199636608e-05   -3.181863576e-05    0.000000000e+00    0.000000000e+00    0.000000000e+00    0.000000000e+00
      751000000    4.960141480e-01    7.234965563e-01   -2.199038863e-05    4.898756742e-07    0.000000000e+00    0.000000000e+00    0.000000000e+00    0.000000000e+00
      758250000    5.730718970e-01    6.586834192e-01    2.870149910e-05   -1.560151577e-05    0.000000000e+00    0.000000000e+00    0.000000000e+00    0.000000000e+00
      765500000    6.428306103e-01    5.863945484e-01    1.745298505e-06   -5.188584328e-05    0.000000000e+00    0.000000000e+00    0.000000000e+00    0.000000000e+00
      772750000    7.061141133e-01    5.077751875e-01    1.404620707e-05    2.510566264e-05    0.000000000e+00    0.000000000e+00    0.000000000e+00    0.000000000e+00
      780000000    7.608081698e-01    4.241239429e-01   -1.700781286e-05   -1.428462565e-05    0.000000000e+00    0.000000000e+00    0.000000000e+00    0.000000000e+00
      787250000    8.079676628e-01    3.332571089e-01   -6.297603250e-06   -2.124160528e-05    0.000000000e+00    0.000000000e+00    0.000000000e+00    0.000000000e+00
      794500000    8.447744846e-01    2.393348217e-01    1.262035221e-05    1.953542233e-05    0.000000000e+00    0.000000000e+00    0.000000000e+00    0.000000000e+00
      801750000    8.731100559e-01    1.397196501e-01    1.578126103e-05    2.407189459e-05    0.000000000e+00    0.000000000e+00    0.000000000e+00    0.000000000e+00
      809000000    8.911830783e-01    3.867199644e-02    8.127652109e-06    3.857817501e-05    0.000000000e+00    0.000000000e+00    0.000000000e+00    0.000000000e+00
      816250000    8.990831971e-01   -6.442309916e-02   -2.637505531e-06   -3.764871508e-05    0.000000000e+00    0.000000000e+00    0.000000000e+00    0.000000000e+00
      823500000    8.956813812e-01   -1.720207036e-01    2.997927368e-06    2.990290523e-05    0.000000000e+00    0.000000000e+00    0.000000000e+00    0.000000000e+00
      830750000    8.816682696e-01   -2.755502760e-01    1.752655953e-05    4.055816680e-05    0.000000000e+00    0.000000000e+00    0.000000000e+00    0.000000000e+00
      838000000    8.554347754e-01   -3.825527132e-01   -7.362104952e-06    1.054257154e-06    0.000000000e+00    0.000000000e+00    0.000000000e+00    0.000000000e+00
      845250000    8.176363111e-01   -4.854676425e-01    3.529433161e-05   -2.102926373e-06    0.000000000e+00    0.000000000e+00    0.000000000e+00    0.000000000e+00
      852500000    7.675571442e-01   -5.854714513e-01    7.113441825e-06    5.381181836e-06    0.000000000e+00    0.000000000e+00    0.000000000e+00    0.000000000e+00
      859750000    7.050169110e-01   -6.801655889e-01    2.342090011e-05    9.063631296e-06    0.000000000e+00    0.000000000e+00    0.000000000e+00    0.000000000e+00
      867000000    6.298040748e-01   -7.696489692e-01    2.225860953e-05   -1.089274883e-05    0.000000000e+00    0.000000000e+00    0.000000000e+00    0.000000000e+00
      874250000    5.454392433e-01   -8.491070867e-01    2.975389361e-05   -1.696031541e-05    0.000000000e+00    0.000000000e+00    0.000000000e+00    0.000000000e+00
      881500000    4.466998875e-01   -9.199280739e-01   -6.427336484e-05   -5.356129259e-05    0.000000000e+00    0.000000000e+00    0.000000000e+00    0.000000000e+00
      888750000    3.410831690e-01   -9.773221016e-01   -2.295337617e-05   -7.068738341e-07    0.000000000e+00    0.000000000e+00    0.000000000e+00    0.000000000e+00
      896000000    2.261505574e-01   -1.021455169e+00    8.775852621e-06    1.043081284e-06    0.000000000e+00    0.000000000e+00    0.000000000e+00    0.000000000e+00
      903250000    1.052879468e-01   -1.050738454e+00    3.236345947e-06   -2.816133201e-05    0.000000000e+00    0.000000000e+00    0.000000000e+00    0.000000000e+00
      910500000   -1.847008988e-02   -1.063567996e+00   -2.233777195e-05    2.473592758e-05    0.000000000e+00    0.000000000e+00    0.000000000e+00    0.000000000e+00
      917750000   -1.442517340e-01   -1.060151577e+00    1.328997314e-06   -3.651808947e-05    0.000000000e+00    0.000000000e+00    0.000000000e+00    0.000000000e+00
      925000000   -2.687331736e-01   -1.039004922e+00    5.541462451e-05   -3.426801413e-05    0.000000000e+00    0.000000000e+00    0.000000000e+00    0.000000000e+00
      932250000   -3.912954926e-01   -9.990714192e-01    6.326660514e-05    1.537334174e-05    0.000000000e+00    0.000000000e+00    0.000000000e+00    0.000000000e+00
      939500000   -5.025637746e-01   -9.453297257e-01    2.444628626e-05   -1.772865653e-05    0.000000000e+00    0.000000000e+00    0.000000000e+00    0.000000000e+00
      946750000   -6.066279411e-01   -8.779067993e-01    7.620081306e-06   -3.417022526e-06    0.000000000e+00    0.000000000e+00    0.000000000e+00    0.000000000e+00
      954000000   -7.006533742e-01   -7.953466773e-01    4.209391773e-05    8.667819202e-06    0.000000000e+00    0.000000000e+00    0.000000000e+00    0.000000000e+00
      961250000   -7.788202167e-01   -7.046998739e-01    9.408220649e-06    4.473980516e-05    0.000000000e+00    0.000000000e+00    0.000000000e+00    0.000000000e+00
      968500000   -8.455356359e-01   -6.029501557e-01   -2.225581557e-05   -2.252776176e-05    0.000000000e+00    0.000000000e+00    0.000000000e+00    0.000000000e+00
      975750000   -8.958073854e-01   -4.986529648e-01    1.969654113e-05   -1.588370651e-05    0.000000000e+00    0.000000000e+00    0.000000000e+00    0.000000000e+00
      983000000   -9.323738217e-01   -3.882427514e-01    9.401701391e-06   -3.790017217e-05    0.000000000e+00    0.000000000e+00    0.000000000e+00    0.000000000e+00
      990250000   -9.542053342e-01   -2.780840099e-01    6.745569408e-06   -6.901100278e-06    0.000000000e+00    0.000000000e+00    0.000000000e+00    0.000000000e+00
      997500000   -9.620526433e-01   -1.689718962e-01   -2.700835466e-06    7.080845535e-06    0.000000000e+00    0.000000000e+00    0.000000000e+00    0.000000000e+00
     1004750000   -9.559522867e-01   -6.210153922e-02   -2.528354526e-05   -5.727820098e-05    0.000000000e+00    0.000000000e+00    0.000000000e+00    0.000000000e+00
     1012000000   -9.391856790e-01    4.011882842e-02   -1.890305430e-05    9.464100003e-06    0.000000000e+00    0.000000000e+00    0.000000000e+00    0.000000000e+00
     1019250000   -9.115101099e-01    1.373372525e-01   -2.433918417e-05   -3.366731107e-06    0.000000000e+00    0.000000000e+00    0.000000000e+00    0.000000000e+00
     1026500000   -8.738070130e-01    2.299515009e-01    4.314817488e-06   -1.690350473e-06    0.000000000e+00    0.000000000e+00    0.000000000e+00    0.000000000e+00
     1033750000   -8.280184865e-01    3.127347827e-01    4.839152098e-05   -2.018176019e-05    0.000000000e+00    0.000000000e+00    0.000000000e+00    0.000000000e+00
     1041000000   -7.755449414e-01    3.900829554e-01    1.332722604e-05   -4.291161895e-05    0.000000000e+00    0.000000000e+00    0.000000000e+00    0.000000000e+00
