! NanoVNA-App by OneOfEleven et al v1.1.209 (+OD15) 
! Date: 2024-07-30 15:14:00
! Start: 200MHz Stop: 6GHz Points: 801
! S-Parameter data: F S11 S21 S12 S22
# Hz S RI R 50
!     Frequency           S11_Real           S11_Imag           S21_Real           S21_Imag           S12_Real           S12_Imag           S22_Real           S22_Imag
      200000000   -9.984997511e-01   -1.217760593e-01   -1.514051110e-05   -2.104602754e-05    0.000000000e+00    0.000000000e+00    0.000000000e+00    0.000000000e+00
      207250000   -1.011113882e+00   -2.280847169e-02    4.582107067e-07   -2.493523061e-05    0.000000000e+00    0.000000000e+00    0.000000000e+00    0.000000000e+00
      214500000   -1.013017178e+00    7.830061764e-02    2.124346793e-06   -7.147900760e-06    0.000000000e+00    0.000000000e+00    0.000000000e+00    0.000000000e+00
      221750000   -1.004020691e+00    1.812912971e-01   -6.075948477e-06   -3.574788570e-05    0.000000000e+00    0.000000000e+00    0.000000000e+00    0.000000000e+00
      229000000   -9.857517481e-01    2.841880620e-01    1.179240644e-05   -2.075731754e-05    0.000000000e+00    0.000000000e+00    0.000000000e+00    0.000000000e+00
      236250000   -9.545202255e-01    3.870624602e-01   -3.566034138e-06   -1.286435872e-05    0.000000000e+00    0.000000000e+00    0.000000000e+00    0.000000000e+00
      243500000   -9.111781716e-01    4.870773852e-01    1.239590347e-06    1.125317067e-05    0.000000000e+00    0.000000000e+00    0.000000000e+00    0.000000000e+00
      250750000   -8.551506400e-01    5.839426517e-01   -1.082196832e-05   -2.037361264e-05    0.000000000e+00    0.000000000e+00    0.000000000e+00    0.000000000e+00
      258000000   -7.876123786e-01    6.755435467e-01   -2.526491880e-05    6.004236639e-06    0.000000000e+00    0.000000000e+00    0.000000000e+00    0.000000000e+00
      265250000   -7.086865306e-01    7.598125935e-01   -1.147668809e-05   -2.727378160e-05    0.000000000e+00    0.000000000e+00    0.000000000e+00    0.000000000e+00
      272500000   -6.187446713e-01    8.353976011e-01    3.628060222e-05    2.549868077e-05    0.000000000e+00    0.000000000e+00    0.000000000e+00    0.000000000e+00
      279750000   -5.180205703e-01    9.005869031e-01   -1.798104495e-05   -4.908628762e-05    0.000000000e+00    0.000000000e+00    0.000000000e+00    0.000000000e+00
      287000000   -4.080089629e-01    9.534347057e-01    2.584140748e-05    5.798414350e-06    0.000000000e+00    0.000000000e+00    0.000000000e+00    0.000000000e+00
      294250000   -2.908167541e-01    9.926596880e-01    1.050531864e-06    2.676248550e-05    0.000000000e+00    0.000000000e+00    0.000000000e+00    0.000000000e+00
      301500000   -1.685993820e-01    1.016813517e+00   -1.524575055e-06   -7.991679013e-06    0.000000000e+00    0.000000000e+00    0.000000000e+00    0.000000000e+00
      308750000   -4.307486489e-02    1.024940491e+00   -8.276663721e-06    1.167505980e-05    0.000000000e+00    0.000000000e+00    0.000000000e+00    0.000000000e+00
      316000000    8.292669058e-02    1.018173814e+00   -1.062639058e-05    2.563558519e-05    0.000000000e+00    0.000000000e+00    0.000000000e+00    0.000000000e+00
      323250000    2.076655775e-01    9.932094216e-01    2.314243466e-05   -4.122033715e-06    0.000000000e+00    0.000000000e+00    0.000000000e+00    0.000000000e+00
      330500000    3.288345039e-01    9.531691670e-01   -1.988373697e-06    1.982133836e-05    0.000000000e+00    0.000000000e+00    0.000000000e+00    0.000000000e+00
      337750000    4.432113171e-01    8.987515569e-01    3.079697490e-05    2.222508192e-05    0.000000000e+00    0.000000000e+00    0.000000000e+00    0.000000000e+00
      345000000    5.490279794e-01    8.296428323e-01   -1.160893589e-05   -1.516845077e-05    0.000000000e+00    0.000000000e+00    0.000000000e+00    0.000000000e+00
      352250000    6.448724270e-01    7.479010224e-01   -1.175887883e-05    1.854728907e-05    0.000000000e+00    0.000000000e+00    0.000000000e+00    0.000000000e+00
      359500000    7.293629050e-01    6.547720432e-01    2.103857696e-05    7.012858987e-07    0.000000000e+00    0.000000000e+00    0.000000000e+00    0.000000000e+00
      366750000    8.013448119e-01    5.543447733e-01   -1.843087375e-06   -2.028513700e-05    0.000000000e+00    0.000000000e+00    0.000000000e+00    0.000000000e+00
      374000000    8.598982096e-01    4.461304843e-01    1.147110015e-05   -4.284083843e-06    0.000000000e+00    0.000000000e+00    0.000000000e+00    0.000000000e+00
      381250000    9.042969346e-01    3.337095380e-01    1.221895218e-06    2.524256706e-05    0.000000000e+00    0.000000000e+00    0.000000000e+00    0.000000000e+00
      388500000    9.356775880e-01    2.178421021e-01    1.452490687e-05    1.336447895e-06    0.000000000e+00    0.000000000e+00    0.000000000e+00    0.000000000e+00
      395750000    9.525489807e-01    1.012691334e-01    3.847293556e-06    7.382594049e-06    0.000000000e+00    0.000000000e+00    0.000000000e+00    0.000000000e+00
      403000000    9.564582705e-01   -1.604626141e-02    3.594439477e-05    5.390495062e-06    0.000000000e+00    0.000000000e+00    0.000000000e+00    0.000000000e+00
      410250000    9.468340278e-01   -1.322218478e-01    1.629628241e-05    1.477729529e-05    0.000000000e+00    0.000000000e+00    0.000000000e+00    0.000000000e+00
      417500000    9.253800511e-01   -2.449491471e-01   -2.149306238e-05   -5.467515439e-05    0.000000000e+00    0.000000000e+00    0.000000000e+00    0.000000000e+00
      424750000    8.921594620e-01   -3.532490134e-01    5.318783224e-06    1.068878919e-05    0.000000000e+00    0.000000000e+00    0.000000000e+00    0.000000000e+00
      432000000    8.480728269e-01   -4.567080438e-01   -2.082437277e-06   -2.029072493e-05    0.000000000e+00    0.000000000e+00    0.000000000e+00    0.000000000e+00
      439250000    7.936037779e-01   -5.541332364e-01    2.084020525e-05   -1.022499055e-05    0.000000000e+00    0.000000000e+00    0.000000000e+00    0.000000000e+00
      446500000    7.293778062e-01   -6.444807649e-01    8.194707334e-06   -4.263222218e-05    0.000000000e+00    0.000000000e+00    0.000000000e+00    0.000000000e+00
      453750000    6.570264101e-01   -7.277863026e-01    3.652367741e-05    1.563318074e-05    0.000000000e+00    0.000000000e+00    0.000000000e+00    0.000000000e+00
      461000000    5.767567754e-01   -8.026088476e-01   -3.533996642e-05   -2.568867058e-05    0.000000000e+00    0.000000000e+00    0.000000000e+00    0.000000000e+00
      468250000    4.892685711e-01   -8.678020835e-01    1.794844866e-05   -1.435168087e-05    0.000000000e+00    0.000000000e+00    0.000000000e+00    0.000000000e+00
      475500000    3.940997720e-01   -9.243112206e-01    3.359373659e-05    1.261755824e-05    0.000000000e+00    0.000000000e+00    0.000000000e+00    0.000000000e+00
      482750000    2.953489423e-01   -9.706411958e-01   -3.990530968e-05   -3.350526094e-05    0.000000000e+00    0.000000000e+00    0.000000000e+00    0.000000000e+00
      490000000    1.922006905e-01   -1.006904483e+00    1.680105925e-05   -2.112518996e-05    0.000000000e+00    0.000000000e+00    0.000000000e+00    0.000000000e+00
      497250000    8.479087055e-02   -1.032258749e+00   -2.468097955e-05    2.687983215e-05    0.000000000e+00    0.000000000e+00    0.000000000e+00    0.000000000e+00
      504500000   -2.518870495e-02   -1.045838833e+00    1.037865877e-05    1.333188266e-05    0.000000000e+00    0.000000000e+00    0.000000000e+00    0.000000000e+00
      511750000   -1.370060146e-01   -1.047606230e+00   -2.053845674e-05   -2.030003816e-05    0.000000000e+00    0.000000000e+00    0.000000000e+00    0.000000000e+00
      519000000   -2.487578988e-01   -1.036615610e+00   -3.622937948e-05   -3.165751696e-05    0.000000000e+00    0.000000000e+00    0.000000000e+00    0.000000000e+00
      526250000   -3.596877754e-01   -1.014037848e+00   -2.165231854e-05   -3.715697676e-05    0.000000000e+00    0.000000000e+00    0.000000000e+00    0.000000000e+00
      533500000   -4.677577615e-01   -9.795253873e-01    2.029165626e-05   -3.014504910e-05    0.000000000e+00    0.000000000e+00    0.000000000e+00    0.000000000e+00
      540750000   -5.729129910e-01   -9.316006899e-01    1.438893378e-06   -3.197882324e-05    0.000000000e+00    0.000000000e+00    0.000000000e+00    0.000000000e+00
      548000000   -6.722570658e-01   -8.728022575e-01    1.897104084e-06   -2.128072083e-06    0.000000000e+00    0.000000000e+00    0.000000000e+00    0.000000000e+00
      555250000   -7.644386888e-01   -8.007047772e-01    1.853331923e-05    8.878298104e-06    0.000000000e+00    0.000000000e+00    0.000000000e+00    0.000000000e+00
      562500000   -8.486911654e-01   -7.187811732e-01    1.376494765e-06   -5.662161857e-05    0.000000000e+00    0.000000000e+00    0.000000000e+00    0.000000000e+00
      569750000   -9.229384065e-01   -6.272962093e-01    2.591777593e-05   -2.914294600e-05    0.000000000e+00    0.000000000e+00    0.000000000e+00    0.000000000e+00
      577000000   -9.865414500e-01   -5.264607072e-01   -1.987721771e-05    9.925104678e-06    0.000000000e+00    0.000000000e+00    0.000000000e+00    0.000000000e+00
      584250000   -1.037555099e+00   -4.181707501e-01    2.201087773e-05   -7.862225175e-06    0.000000000e+00    0.000000000e+00    0.000000000e+00    0.000000000e+00
      591500000   -1.075968981e+00   -3.044464886e-01    3.882125020e-05    1.369416714e-05    0.000000000e+00    0.000000000e+00    0.000000000e+00    0.000000000e+00
      598750000   -1.098982334e+00   -1.856739819e-01    1.249276102e-05    2.550613135e-05    0.000000000e+00    0.000000000e+00    0.000000000e+00    0.000000000e+00
      606000000   -1.107783318e+00   -6.546132267e-02   -3.838911653e-06    1.852214336e-05    0.000000000e+00    0.000000000e+00    0.000000000e+00    0.000000000e+00
      613250000   -1.102152824e+00    5.463680625e-02    4.755612463e-05   -1.441501081e-05    0.000000000e+00    0.000000000e+00    0.000000000e+00    0.000000000e+00
      620500000   -1.082131863e+00    1.728069931e-01    7.038004696e-06   -3.646966070e-05    0.000000000e+00    0.000000000e+00    0.000000000e+00    0.000000000e+00
      627750000   -1.047637463e+00    2.885203063e-01   -1.863110811e-05   -5.242414773e-06    0.000000000e+00    0.000000000e+00    0.000000000e+00    0.000000000e+00
      635000000   -9.997564554e-01    3.961004317e-01    2.920627594e-05   -3.484077752e-06    0.000000000e+00    0.000000000e+00    0.000000000e+00    0.000000000e+00
      642250000   -9.396433830e-01    4.988658428e-01    2.059154212e-06    4.726182669e-05    0.000000000e+00    0.000000000e+00    0.000000000e+00    0.000000000e+00
      649500000   -8.681450486e-01    5.914954543e-01   -2.574082464e-05    7.703900337e-06    0.000000000e+00    0.000000000e+00    0.000000000e+00    0.000000000e+00
      656750000   -7.882121205e-01    6.731358767e-01   -2.832151949e-05   -2.516899258e-05    0.000000000e+00    0.000000000e+00    0.000000000e+00    0.000000000e+00
      664000000   -6.992141604e-01    7.461562753e-01   -2.841185778e-05   -1.314096153e-06    0.000000000e+00    0.000000000e+00    0.000000000e+00    0.000000000e+00
      671250000   -6.035211682e-01    8.067551255e-01   -1.816544682e-05   -1.676660031e-05    0.000000000e+00    0.000000000e+00    0.000000000e+00    0.000000000e+00
      678500000   -5.019037127e-01    8.552588820e-01    3.769714385e-05   -3.608874977e-06    0.000000000e+00    0.000000000e+00    0.000000000e+00    0.000000000e+00
      685750000   -3.974653780e-01    8.922567964e-01    1.103058457e-05   -1.453142613e-05    0.000000000e+00    0.000000000e+00    0.000000000e+00    0.000000000e+00
      693000000   -2.910873890e-01    9.167106152e-01   -3.659818321e-05   -1.299846917e-05    0.000000000e+00    0.000000000e+00    0.000000000e+00    0.000000000e+00
      700250000   -1.817621589e-01    9.300081730e-01    2.290587872e-05   -2.175942063e-05    0.000000000e+00    0.000000000e+00    0.000000000e+00    0.000000000e+00
      707500000   -7.729382068e-02    9.309563041e-01   -3.160908818e-06    1.698918641e-05    0.000000000e+00    0.000000000e+00    0.000000000e+00    0.000000000e+00
      714750000    3.052142635e-02    9.201067686e-01   -2.549123019e-05    2.317875624e-05    0.000000000e+00    0.000000000e+00    0.000000000e+00    0.000000000e+00
      722000000    1.320553720e-01    8.991523981e-01    1.049693674e-05    2.282671630e-06    0.000000000e+00    0.000000000e+00    0.000000000e+00    0.000000000e+00
      729250000    2.320829183e-01    8.682013154e-01   -1.124013215e-05    3.533810377e-05    0.000000000e+00    0.000000000e+00    0.000000000e+00    0.000000000e+00
      736500000    3.260326385e-01    8.280572891e-01    1.963693649e-05    3.038626164e-05    0.000000000e+00    0.000000000e+00    0.000000000e+00    0.000000000e+00
      743750000    4.151000381e-01    7.782027721e-01    6.873160601e-07   -2.655386925e-05    0.000000000e+00    0.000000000e+00    0.000000000e+00    0.000000000e+00
      751000000    4.981803000e-01    7.207432985e-01   -1.317355782e-05   -4.352908581e-05    0.000000000e+00    0.000000000e+00    0.000000000e+00    0.000000000e+00
      758250000    5.749900937e-01    6.548823118e-01   -2.890825272e-06    1.280941069e-05    0.000000000e+00    0.000000000e+00    0.000000000e+00    0.000000000e+00
      765500000    6.452073455e-01    5.821937919e-01    1.280661672e-05    2.721603960e-05    0.000000000e+00    0.000000000e+00    0.000000000e+00    0.000000000e+00
      772750000    7.076095939e-01    5.033350587e-01   -1.837965101e-05    3.741122782e-05    0.000000000e+00    0.000000000e+00    0.000000000e+00    0.000000000e+00
      780000000    7.608320117e-01    4.188084602e-01   -2.131331712e-05   -2.161134034e-05    0.000000000e+00    0.000000000e+00    0.000000000e+00    0.000000000e+00
      787250000    8.084039092e-01    3.278831244e-01   -2.012960613e-05    6.138347089e-06    0.000000000e+00    0.000000000e+00    0.000000000e+00    0.000000000e+00
      794500000    8.454252481e-01    2.336290181e-01    1.591630280e-05    2.682954073e-05    0.000000000e+00    0.000000000e+00    0.000000000e+00    0.000000000e+00
      801750000    8.722404838e-01    1.339295059e-01    2.355128527e-05   -3.548339009e-06    0.000000000e+00    0.000000000e+00    0.000000000e+00    0.000000000e+00
      809000000    8.901190758e-01    3.233379498e-02    7.436610758e-06    4.615634680e-06    0.000000000e+00    0.000000000e+00    0.000000000e+00    0.000000000e+00
      816250000    8.972597718e-01   -7.049480081e-02    9.506009519e-06   -1.151021570e-05    0.000000000e+00    0.000000000e+00    0.000000000e+00    0.000000000e+00
      823500000    8.935990334e-01   -1.762334853e-01    7.023103535e-06    1.432374120e-06    0.000000000e+00    0.000000000e+00    0.000000000e+00    0.000000000e+00
      830750000    8.778757453e-01   -2.822841704e-01    4.704110324e-05   -9.922310710e-06    0.000000000e+00    0.000000000e+00    0.000000000e+00    0.000000000e+00
      838000000    8.522173166e-01   -3.870614767e-01   -6.126239896e-06   -8.285976946e-06    0.000000000e+00    0.000000000e+00    0.000000000e+00    0.000000000e+00
      845250000    8.133147955e-01   -4.899310470e-01   -2.018827945e-05   -5.591660738e-06    0.000000000e+00    0.000000000e+00    0.000000000e+00    0.000000000e+00
      852500000    7.628622651e-01   -5.895268321e-01    2.370029688e-05   -4.860945046e-05    0.000000000e+00    0.000000000e+00    0.000000000e+00    0.000000000e+00
      859750000    7.006648183e-01   -6.829802394e-01   -6.866641343e-06    1.574680209e-05    0.000000000e+00    0.000000000e+00    0.000000000e+00    0.000000000e+00
      867000000    6.245861053e-01   -7.728436589e-01    2.163276076e-05    3.502331674e-05    0.000000000e+00    0.000000000e+00    0.000000000e+00    0.000000000e+00
      874250000    5.391885638e-01   -8.512645364e-01    4.385691136e-05    1.847557724e-05    0.000000000e+00    0.000000000e+00    0.000000000e+00    0.000000000e+00
      881500000    4.413394332e-01   -9.212127924e-01   -6.493180990e-06    2.869870514e-05    0.000000000e+00    0.000000000e+00    0.000000000e+00    0.000000000e+00
      888750000    3.357074559e-01   -9.780175090e-01    2.324767411e-05   -3.827735782e-07    0.000000000e+00    0.000000000e+00    0.000000000e+00    0.000000000e+00
      896000000    2.212085724e-01   -1.021874070e+00   -1.216866076e-05   -8.953735232e-06    0.000000000e+00    0.000000000e+00    0.000000000e+00    0.000000000e+00
      903250000    1.013014689e-01   -1.050589681e+00   -3.442540765e-05    2.708006650e-05    0.000000000e+00    0.000000000e+00    0.000000000e+00    0.000000000e+00
      910500000   -2.549428120e-02   -1.061828732e+00    2.441089600e-05   -1.612957567e-05    0.000000000e+00    0.000000000e+00    0.000000000e+00    0.000000000e+00
      917750000   -1.509853154e-01   -1.057055473e+00   -1.968443394e-05    1.981761307e-05    0.000000000e+00    0.000000000e+00    0.000000000e+00    0.000000000e+00
      925000000   -2.730604410e-01   -1.036336780e+00   -3.037136048e-05    7.078051567e-06    0.000000000e+00    0.000000000e+00    0.000000000e+00    0.000000000e+00
      932250000   -3.937109709e-01   -9.967957735e-01   -2.466235310e-05   -2.987775952e-05    0.000000000e+00    0.000000000e+00    0.000000000e+00    0.000000000e+00
      939500000   -5.064465404e-01   -9.425180554e-01   -1.896452159e-05   -3.166496754e-05    0.000000000e+00    0.000000000e+00    0.000000000e+00    0.000000000e+00
      946750000   -6.085720062e-01   -8.739873171e-01    1.154281199e-05    2.377573401e-05    0.000000000e+00    0.000000000e+00    0.000000000e+00    0.000000000e+00
      954000000   -7.026022673e-01   -7.924304605e-01   -4.208646715e-06   -2.596341074e-05    0.000000000e+00    0.000000000e+00    0.000000000e+00    0.000000000e+00
      961250000   -7.805136442e-01   -7.011940479e-01   -1.413933933e-05    2.763699740e-05    0.000000000e+00    0.000000000e+00    0.000000000e+00    0.000000000e+00
      968500000   -8.475745320e-01   -5.980705619e-01   -1.978781074e-05   -4.139728844e-05    0.000000000e+00    0.000000000e+00    0.000000000e+00    0.000000000e+00
      975750000   -8.966041803e-01   -4.950704277e-01    2.865027636e-05   -3.864057362e-05    0.000000000e+00    0.000000000e+00    0.000000000e+00    0.000000000e+00
      983000000   -9.326071739e-01   -3.864158094e-01   -2.778414637e-05    1.363363117e-05    0.000000000e+00    0.000000000e+00    0.000000000e+00    0.000000000e+00
      990250000   -9.542236328e-01   -2.756460011e-01    6.839632988e-06   -1.918524504e-07    0.000000000e+00    0.000000000e+00    0.000000000e+00    0.000000000e+00
      997500000   -9.615623355e-01   -1.660472006e-01    1.971330494e-05   -5.100108683e-05    0.000000000e+00    0.000000000e+00    0.000000000e+00    0.000000000e+00
     1004750000   -9.555989504e-01   -5.838268623e-02    3.033876419e-05    2.827774733e-05    0.000000000e+00    0.000000000e+00    0.000000000e+00    0.000000000e+00
     1012000000   -9.379439950e-01    4.440832883e-02   -1.719500870e-05   -1.167319715e-05    0.000000000e+00    0.000000000e+00    0.000000000e+00    0.000000000e+00
     1019250000   -9.101721644e-01    1.391332150e-01    1.732073724e-05   -2.579763532e-07    0.000000000e+00    0.000000000e+00    0.000000000e+00    0.000000000e+00
     1026500000   -8.719580173e-01    2.308914214e-01    1.611374319e-05   -6.289873272e-05    0.000000000e+00    0.000000000e+00    0.000000000e+00    0.000000000e+00
     1033750000   -8.259362578e-01    3.157598972e-01   -3.276765347e-05   -9.782612324e-06    0.000000000e+00    0.000000000e+00    0.000000000e+00    0.000000000e+00
     1041000000   -7.734048963e-01    3.922235668e-01   -1.123826951e-05   -5.787704140e-05    0.000000000e+00    0.000000000e+00    0.000000000e+00    0.000000000e+00
