! NanoVNA-App by OneOfEleven et al v1.1.209 (+OD15) 
! Date: 2024-07-30 15:14:06
! Start: 200MHz Stop: 6GHz Points: 801
! S-Parameter data: F S11 S21 S12 S22
# Hz S RI R 50
!     Frequency           S11_Real           S11_Imag           S21_Real           S21_Imag           S12_Real           S12_Imag           S22_Real           S22_Imag
      200000000   -9.992671609e-01   -1.220846102e-01    1.299660653e-05   -2.728682011e-05    0.000000000e+00    0.000000000e+00    0.000000000e+00    0.000000000e+00
      207250000   -1.011074305e+00   -2.295795269e-02   -6.175599992e-06    1.149624586e-05    0.000000000e+00    0.000000000e+00    0.000000000e+00    0.000000000e+00
      214500000   -1.013296604e+00    7.820095122e-02    3.308709711e-05   -7.845461369e-06    0.000000000e+00    0.000000000e+00    0.000000000e+00    0.000000000e+00
      221750000   -1.004921198e+00    1.811666638e-01    2.818182111e-06    3.254972398e-05    0.000000000e+00    0.000000000e+00    0.000000000e+00    0.000000000e+00
      229000000   -9.855667949e-01    2.839145362e-01   -2.790242434e-06   -2.805143595e-06    0.000000000e+00    0.000000000e+00    0.000000000e+00    0.000000000e+00
      236250000   -9.546021819e-01    3.871202469e-01    2.083927393e-05    3.942288458e-06    0.000000000e+00    0.000000000e+00    0.000000000e+00    0.000000000e+00
      243500000   -9.107829332e-01    4.873853326e-01    1.772493124e-05    2.031773329e-05    0.000000000e+00    0.000000000e+00    0.000000000e+00    0.000000000e+00
      250750000   -8.555988669e-01    5.837116241e-01    9.750947356e-07    4.630535841e-06    0.000000000e+00    0.000000000e+00    0.000000000e+00    0.000000000e+00
      258000000   -7.878292203e-01    6.754507422e-01   -5.168840289e-07   -8.418224752e-06    0.000000000e+00    0.000000000e+00    0.000000000e+00    0.000000000e+00
      265250000   -7.084678411e-01    7.600370646e-01   -1.507345587e-05    1.242384315e-05    0.000000000e+00    0.000000000e+00    0.000000000e+00    0.000000000e+00
      272500000   -6.185827851e-01    8.358872533e-01    1.664925367e-05   -1.514423639e-05    0.000000000e+00    0.000000000e+00    0.000000000e+00    0.000000000e+00
      279750000   -5.176348686e-01    9.005321860e-01   -3.127660602e-05    4.274770617e-07    0.000000000e+00    0.000000000e+00    0.000000000e+00    0.000000000e+00
      287000000   -4.079435468e-01    9.534995556e-01    2.316664904e-05   -6.493180990e-06    0.000000000e+00    0.000000000e+00    0.000000000e+00    0.000000000e+00
      294250000   -2.910794616e-01    9.924320579e-01    8.673407137e-06    1.365505159e-05    0.000000000e+00    0.000000000e+00    0.000000000e+00    0.000000000e+00
      301500000   -1.683037877e-01    1.016531706e+00    1.897290349e-05   -1.179613173e-05    0.000000000e+00    0.000000000e+00    0.000000000e+00    0.000000000e+00
      308750000   -4.321416467e-02    1.025093794e+00   -1.554284245e-05    3.378838301e-05    0.000000000e+00    0.000000000e+00    0.000000000e+00    0.000000000e+00
      316000000    8.322796226e-02    1.017101526e+00    6.906688213e-06    6.653368473e-06    0.000000000e+00    0.000000000e+00    0.000000000e+00    0.000000000e+00
      323250000    2.081429511e-01    9.929113388e-01   -5.342904478e-05   -1.922156662e-05    0.000000000e+00    0.000000000e+00    0.000000000e+00    0.000000000e+00
      330500000    3.284969032e-01    9.532816410e-01   -3.653764725e-05    1.261569560e-05    0.000000000e+00    0.000000000e+00    0.000000000e+00    0.000000000e+00
      337750000    4.428183436e-01    8.982123733e-01   -1.473817974e-05    3.140233457e-05    0.000000000e+00    0.000000000e+00    0.000000000e+00    0.000000000e+00
      345000000    5.486746430e-01    8.281529546e-01   -4.294607788e-05    1.152046025e-05    0.000000000e+00    0.000000000e+00    0.000000000e+00    0.000000000e+00
      352250000    6.449846625e-01    7.469390631e-01    3.306195140e-06    4.063360393e-06    0.000000000e+00    0.000000000e+00    0.000000000e+00    0.000000000e+00
      359500000    7.294501662e-01    6.552489996e-01    2.988614142e-05    3.636721522e-05    0.000000000e+00    0.000000000e+00    0.000000000e+00    0.000000000e+00
      366750000    8.013299704e-01    5.544201732e-01    1.429207623e-05   -1.921877265e-05    0.000000000e+00    0.000000000e+00    0.000000000e+00    0.000000000e+00
      374000000    8.597775102e-01    4.469565153e-01    8.973293006e-06    8.796341717e-06    0.000000000e+00    0.000000000e+00    0.000000000e+00    0.000000000e+00
      381250000    9.048174024e-01    3.344258368e-01    1.602713019e-05    2.090819180e-05    0.000000000e+00    0.000000000e+00    0.000000000e+00    0.000000000e+00
      388500000    9.353405833e-01    2.174853981e-01    3.920495510e-05    1.486390829e-05    0.000000000e+00    0.000000000e+00    0.000000000e+00    0.000000000e+00
      395750000    9.524619579e-01    1.005172506e-01    8.032657206e-06   -4.603900015e-05    0.000000000e+00    0.000000000e+00    0.000000000e+00    0.000000000e+00
      403000000    9.561488032e-01   -1.692762971e-02   -1.992471516e-05    1.080706716e-05    0.000000000e+00    0.000000000e+00    0.000000000e+00    0.000000000e+00
      410250000    9.470584393e-01   -1.318837404e-01    4.146713763e-05    1.516193151e-05    0.000000000e+00    0.000000000e+00    0.000000000e+00    0.000000000e+00
      417500000    9.251332879e-01   -2.447538525e-01    1.058448106e-05    2.850871533e-05    0.000000000e+00    0.000000000e+00    0.000000000e+00    0.000000000e+00
      424750000    8.924229741e-01   -3.533175886e-01   -2.179946750e-05   -1.837778836e-05    0.000000000e+00    0.000000000e+00    0.000000000e+00    0.000000000e+00
      432000000    8.479526639e-01   -4.566935003e-01   -2.887099981e-05   -1.288484782e-05    0.000000000e+00    0.000000000e+00    0.000000000e+00    0.000000000e+00
      439250000    7.932058573e-01   -5.546608567e-01   -1.361407340e-05    9.179115295e-06    0.000000000e+00    0.000000000e+00    0.000000000e+00    0.000000000e+00
      446500000    7.296399474e-01   -6.445270777e-01   -3.443099558e-06    4.440266639e-05    0.000000000e+00    0.000000000e+00    0.000000000e+00    0.000000000e+00
      453750000    6.562374234e-01   -7.282236218e-01   -5.923211575e-07    2.526026219e-05    0.000000000e+00    0.000000000e+00    0.000000000e+00    0.000000000e+00
      461000000    5.762141943e-01   -8.027363420e-01    4.581175745e-06    3.210268915e-05    0.000000000e+00    0.000000000e+00    0.000000000e+00    0.000000000e+00
      468250000    4.890652597e-01   -8.681882620e-01    1.755170524e-05    2.714805305e-06    0.000000000e+00    0.000000000e+00    0.000000000e+00    0.000000000e+00
      475500000    3.943629265e-01   -9.245161414e-01   -3.986060619e-06    4.278961569e-05    0.000000000e+00    0.000000000e+00    0.000000000e+00    0.000000000e+00
      482750000    2.954304814e-01   -9.706296325e-01   -8.919276297e-06   -1.848582178e-05    0.000000000e+00    0.000000000e+00    0.000000000e+00    0.000000000e+00
      490000000    1.917474419e-01   -1.006602168e+00   -6.835907698e-06    3.009848297e-05    0.000000000e+00    0.000000000e+00    0.000000000e+00    0.000000000e+00
      497250000    8.425438404e-02   -1.031590343e+00   -3.275647759e-05   -1.149438322e-05    0.000000000e+00    0.000000000e+00    0.000000000e+00    0.000000000e+00
      504500000   -2.519215457e-02   -1.045467734e+00   -1.965463161e-05   -5.634222180e-05    0.000000000e+00    0.000000000e+00    0.000000000e+00    0.000000000e+00
      511750000   -1.369025856e-01   -1.046761155e+00    1.468416303e-05    7.150694728e-06    0.000000000e+00    0.000000000e+00    0.000000000e+00    0.000000000e+00
      519000000   -2.488469183e-01   -1.036850572e+00    8.417293429e-06    2.046301961e-05    0.000000000e+00    0.000000000e+00    0.000000000e+00    0.000000000e+00
      526250000   -3.592391312e-01   -1.014251590e+00   -4.135072231e-07    9.538605809e-06    0.000000000e+00    0.000000000e+00    0.000000000e+00    0.000000000e+00
      533500000   -4.677286446e-01   -9.794803262e-01    2.324860543e-05   -5.318131298e-05    0.000000000e+00    0.000000000e+00    0.000000000e+00    0.000000000e+00
      540750000   -5.730464458e-01   -9.312080145e-01    6.662681699e-06   -4.637241364e-05    0.000000000e+00    0.000000000e+00    0.000000000e+00    0.000000000e+00
      548000000   -6.720532775e-01   -8.721159101e-01    2.072192729e-06    1.349020749e-05    0.000000000e+00    0.000000000e+00    0.000000000e+00    0.000000000e+00
      555250000   -7.643063068e-01   -8.015445471e-01    2.475921065e-05   -9.083189070e-06    0.000000000e+00    0.000000000e+00    0.000000000e+00    0.000000000e+00
      562500000   -8.487249613e-01   -7.187316418e-01    1.311302185e-06   -4.821736366e-05    0.000000000e+00    0.000000000e+00    0.000000000e+00    0.000000000e+00
      569750000   -9.226917028e-01   -6.276379824e-01   -2.256035805e-05   -3.946945071e-05    0.000000000e+00    0.000000000e+00    0.000000000e+00    0.000000000e+00
      577000000   -9.864283800e-01   -5.262522101e-01    1.494586468e-05   -2.287048846e-05    0.000000000e+00    0.000000000e+00    0.000000000e+00    0.000000000e+00
      584250000   -1.037195444e+00   -4.176468849e-01   -1.357868314e-05   -1.639407128e-05    0.000000000e+00    0.000000000e+00    0.000000000e+00    0.000000000e+00
      591500000   -1.074663639e+00   -3.030635715e-01   -1.970026642e-05    1.200940460e-05    0.000000000e+00    0.000000000e+00    0.000000000e+00    0.000000000e+00
      598750000   -1.099117398e+00   -1.841918677e-01   -1.350603998e-05   -2.349726856e-05    0.000000000e+00    0.000000000e+00    0.000000000e+00    0.000000000e+00
      606000000   -1.107596159e+00   -6.508868933e-02    2.738367766e-05    1.072883606e-06    0.000000000e+00    0.000000000e+00    0.000000000e+00    0.000000000e+00
      613250000   -1.102310777e+00    5.474687740e-02    2.394616604e-05   -4.723854363e-05    0.000000000e+00    0.000000000e+00    0.000000000e+00    0.000000000e+00
      620500000   -1.081755996e+00    1.734126210e-01    1.506041735e-05   -4.479102790e-05    0.000000000e+00    0.000000000e+00    0.000000000e+00    0.000000000e+00
      627750000   -1.048039436e+00    2.881751060e-01    3.585591912e-06   -2.570636570e-05    0.000000000e+00    0.000000000e+00    0.000000000e+00    0.000000000e+00
      635000000   -1.000286460e+00    3.966480792e-01    3.247149289e-05   -1.212116331e-05    0.000000000e+00    0.000000000e+00    0.000000000e+00    0.000000000e+00
      642250000   -9.396663904e-01    4.978209734e-01   -1.958571374e-06    2.693384886e-06    0.000000000e+00    0.000000000e+00    0.000000000e+00    0.000000000e+00
      649500000   -8.684183359e-01    5.915070772e-01   -1.761596650e-05    2.324767411e-05    0.000000000e+00    0.000000000e+00    0.000000000e+00    0.000000000e+00
      656750000   -7.879855037e-01    6.742570996e-01   -2.274289727e-06    4.824809730e-05    0.000000000e+00    0.000000000e+00    0.000000000e+00    0.000000000e+00
      664000000   -6.982735395e-01    7.458639741e-01   -3.578234464e-05   -2.012867481e-05    0.000000000e+00    0.000000000e+00    0.000000000e+00    0.000000000e+00
      671250000   -6.028687358e-01    8.065394759e-01   -1.917779446e-05    1.949258149e-06    0.000000000e+00    0.000000000e+00    0.000000000e+00    0.000000000e+00
      678500000   -5.014777780e-01    8.559990525e-01   -2.644024789e-05   -7.321126759e-06    0.000000000e+00    0.000000000e+00    0.000000000e+00    0.000000000e+00
      685750000   -3.977929652e-01    8.922755718e-01    1.207273453e-05   -5.582347512e-05    0.000000000e+00    0.000000000e+00    0.000000000e+00    0.000000000e+00
      693000000   -2.917983234e-01    9.167579412e-01   -7.851980627e-06    1.457147300e-05    0.000000000e+00    0.000000000e+00    0.000000000e+00    0.000000000e+00
      700250000   -1.817647666e-01    9.300130010e-01   -3.422889858e-05    9.470619261e-06    0.000000000e+00    0.000000000e+00    0.000000000e+00    0.000000000e+00
      707500000   -7.613138855e-02    9.306488037e-01   -2.295803279e-05    3.512948751e-06    0.000000000e+00    0.000000000e+00    0.000000000e+00    0.000000000e+00
      714750000    2.936055511e-02    9.203718901e-01    2.227816731e-05   -2.617109567e-05    0.000000000e+00    0.000000000e+00    0.000000000e+00    0.000000000e+00
      722000000    1.325267553e-01    8.994240761e-01   -2.954993397e-05   -4.270114005e-06    0.000000000e+00    0.000000000e+00    0.000000000e+00    0.000000000e+00
      729250000    2.320717871e-01    8.684093952e-01   -1.941807568e-06    1.726299524e-05    0.000000000e+00    0.000000000e+00    0.000000000e+00    0.000000000e+00
      736500000    3.259930313e-01    8.279672265e-01   -1.400243491e-05   -3.381166607e-05    0.000000000e+00    0.000000000e+00    0.000000000e+00    0.000000000e+00
      743750000    4.147430360e-01    7.785620093e-01    6.021372974e-05   -1.691654325e-05    0.000000000e+00    0.000000000e+00    0.000000000e+00    0.000000000e+00
      751000000    4.981731176e-01    7.206896544e-01    1.219473779e-05    1.263339072e-05    0.000000000e+00    0.000000000e+00    0.000000000e+00    0.000000000e+00
      758250000    5.756079555e-01    6.546827555e-01   -2.804584801e-05   -9.896233678e-06    0.000000000e+00    0.000000000e+00    0.000000000e+00    0.000000000e+00
      765500000    6.452205777e-01    5.822763443e-01   -2.886727452e-05   -7.077120245e-06    0.000000000e+00    0.000000000e+00    0.000000000e+00    0.000000000e+00
      772750000    7.075277567e-01    5.030691624e-01   -3.892090172e-05   -1.151580364e-05    0.000000000e+00    0.000000000e+00    0.000000000e+00    0.000000000e+00
      780000000    7.617918849e-01    4.187409878e-01   -3.033597022e-05    6.549991667e-06    0.000000000e+00    0.000000000e+00    0.000000000e+00    0.000000000e+00
      787250000    8.083119988e-01    3.282037377e-01   -2.510007471e-05   -1.496914774e-05    0.000000000e+00    0.000000000e+00    0.000000000e+00    0.000000000e+00
      794500000    8.452286720e-01    2.344067395e-01    3.517419100e-05   -6.144866347e-06    0.000000000e+00    0.000000000e+00    0.000000000e+00    0.000000000e+00
      801750000    8.724613190e-01    1.345101446e-01   -4.067737609e-05    1.074932516e-05    0.000000000e+00    0.000000000e+00    0.000000000e+00    0.000000000e+00
      809000000    8.901670575e-01    3.336896002e-02   -2.133380622e-05   -8.443370461e-06    0.000000000e+00    0.000000000e+00    0.000000000e+00    0.000000000e+00
      816250000    8.972105384e-01   -6.992261857e-02   -3.821775317e-05   -2.937950194e-05    0.000000000e+00    0.000000000e+00    0.000000000e+00    0.000000000e+00
      823500000    8.933527470e-01   -1.773025095e-01   -1.036655158e-05    3.811623901e-05    0.000000000e+00    0.000000000e+00    0.000000000e+00    0.000000000e+00
      830750000    8.781196475e-01   -2.825569808e-01   -6.571412086e-06    3.114901483e-05    0.000000000e+00    0.000000000e+00    0.000000000e+00    0.000000000e+00
      838000000    8.517821431e-01   -3.864326179e-01   -3.546103835e-05    1.929700375e-06    0.000000000e+00    0.000000000e+00    0.000000000e+00    0.000000000e+00
      845250000    8.138785958e-01   -4.899909198e-01    1.905299723e-05   -5.126837641e-05    0.000000000e+00    0.000000000e+00    0.000000000e+00    0.000000000e+00
      852500000    7.625880241e-01   -5.896447301e-01    7.847324014e-06   -6.379000843e-05    0.000000000e+00    0.000000000e+00    0.000000000e+00    0.000000000e+00
      859750000    7.003327012e-01   -6.834808588e-01   -5.920417607e-06   -9.988434613e-06    0.000000000e+00    0.000000000e+00    0.000000000e+00    0.000000000e+00
      867000000    6.246343255e-01   -7.724232078e-01    2.332124859e-05   -4.814006388e-06    0.000000000e+00    0.000000000e+00    0.000000000e+00    0.000000000e+00
      874250000    5.391047001e-01   -8.516015410e-01   -2.226699144e-05    3.533437848e-05    0.000000000e+00    0.000000000e+00    0.000000000e+00    0.000000000e+00
      881500000    4.409750104e-01   -9.209139943e-01   -1.255795360e-05    7.380731404e-06    0.000000000e+00    0.000000000e+00    0.000000000e+00    0.000000000e+00
      888750000    3.343147039e-01   -9.776567221e-01   -2.816505730e-05    4.825182259e-06    0.000000000e+00    0.000000000e+00    0.000000000e+00    0.000000000e+00
      896000000    2.207722515e-01   -1.021814346e+00    3.332458436e-05    1.011136919e-05    0.000000000e+00    0.000000000e+00    0.000000000e+00    0.000000000e+00
      903250000    1.006444544e-01   -1.050173759e+00    1.051463187e-05    2.259947360e-05    0.000000000e+00    0.000000000e+00    0.000000000e+00    0.000000000e+00
      910500000   -2.471977659e-02   -1.062160015e+00   -1.286249608e-05    5.309097469e-05    0.000000000e+00    0.000000000e+00    0.000000000e+00    0.000000000e+00
      917750000   -1.509270966e-01   -1.057369590e+00    6.576720625e-05    8.406117558e-06    0.000000000e+00    0.000000000e+00    0.000000000e+00    0.000000000e+00
      925000000   -2.735435665e-01   -1.036171317e+00    5.470588803e-06   -3.855768591e-05    0.000000000e+00    0.000000000e+00    0.000000000e+00    0.000000000e+00
      932250000   -3.946853876e-01   -9.971714020e-01    2.563651651e-05    1.371558756e-05    0.000000000e+00    0.000000000e+00    0.000000000e+00    0.000000000e+00
      939500000   -5.072629452e-01   -9.428374171e-01   -4.206225276e-05    4.003383219e-05    0.000000000e+00    0.000000000e+00    0.000000000e+00    0.000000000e+00
      946750000   -6.097520590e-01   -8.736495376e-01    2.346932888e-05   -1.441035420e-05    0.000000000e+00    0.000000000e+00    0.000000000e+00    0.000000000e+00
      954000000   -7.023439407e-01   -7.916554809e-01   -2.088490874e-05   -1.189578325e-05    0.000000000e+00    0.000000000e+00    0.000000000e+00    0.000000000e+00
      961250000   -7.802084088e-01   -7.003196478e-01    1.208297908e-05   -1.998245716e-05    0.000000000e+00    0.000000000e+00    0.000000000e+00    0.000000000e+00
      968500000   -8.472692370e-01   -5.986861587e-01    1.516193151e-06    2.630148083e-05    0.000000000e+00    0.000000000e+00    0.000000000e+00    0.000000000e+00
      975750000   -8.976827264e-01   -4.937255979e-01    1.354329288e-05    1.369044185e-07    0.000000000e+00    0.000000000e+00    0.000000000e+00    0.000000000e+00
      983000000   -9.326294065e-01   -3.856423497e-01    2.087373286e-05    3.561098129e-05    0.000000000e+00    0.000000000e+00    0.000000000e+00    0.000000000e+00
      990250000   -9.536051154e-01   -2.748382688e-01   -6.071478128e-05    4.013720900e-05    0.000000000e+00    0.000000000e+00    0.000000000e+00    0.000000000e+00
      997500000   -9.618266225e-01   -1.651073992e-01   -1.714844257e-05   -5.965121090e-06    0.000000000e+00    0.000000000e+00    0.000000000e+00    0.000000000e+00
     1004750000   -9.554195404e-01   -5.889548734e-02   -4.733912647e-06   -1.293793321e-05    0.000000000e+00    0.000000000e+00    0.000000000e+00    0.000000000e+00
     1012000000   -9.381229877e-01    4.367025197e-02   -3.323610872e-05   -2.166256309e-06    0.000000000e+00    0.000000000e+00    0.000000000e+00    0.000000000e+00
     1019250000   -9.101090431e-01    1.399230361e-01    9.869225323e-06   -2.990476787e-06    0.000000000e+00    0.000000000e+00    0.000000000e+00    0.000000000e+00
     1026500000   -8.723481297e-01    2.312559634e-01    3.913417459e-06   -1.200847328e-05    0.000000000e+00    0.000000000e+00    0.000000000e+00    0.000000000e+00
     1033750000   -8.267490864e-01    3.150625229e-01   -3.384053707e-05   -4.723668098e-06    0.000000000e+00    0.000000000e+00    0.000000000e+00    0.000000000e+00
     1041000000   -7.729768157e-01    3.923864067e-01   -1.680944115e-05   -2.801045775e-05    0.000000000e+00    0.000000000e+00    0.000000000e+00    0.000000000e+00
