! NanoVNA-App by OneOfEleven et al v1.1.209 (+OD15) 
! Date: 2024-07-30 15:14:08
! Start: 200MHz Stop: 6GHz Points: 801
! S-Parameter data: F S11 S21 S12 S22
# Hz S RI R 50
!     Frequency           S11_Real           S11_Imag           S21_Real           S21_Imag           S12_Real           S12_Imag           S22_Real           S22_Imag
      200000000   -9.987328053e-01   -1.214007065e-01    1.755170524e-05    4.674308002e-06    0.000000000e+00    0.000000000e+00    0.000000000e+00    0.000000000e+00
      207250000   -1.010994077e+00   -2.280140482e-02   -2.529099584e-05   -8.302740753e-06    0.000000000e+00    0.000000000e+00    0.000000000e+00    0.000000000e+00
      214500000   -1.013340473e+00    7.822037488e-02   -5.227513611e-06    2.938136458e-05    0.000000000e+00    0.000000000e+00    0.000000000e+00    0.000000000e+00
      221750000   -1.003762722e+00    1.814541370e-01    2.335663885e-05   -9.136274457e-07    0.000000000e+00    0.000000000e+00    0.000000000e+00    0.000000000e+00
      229000000   -9.858925939e-01    2.839443088e-01    2.058409154e-05    2.146698534e-06    0.000000000e+00    0.000000000e+00    0.000000000e+00    0.000000000e+00
      236250000   -9.532661438e-01    3.871061802e-01    2.155080438e-06    5.265697837e-06    0.000000000e+00    0.000000000e+00    0.000000000e+00    0.000000000e+00
      243500000   -9.105799794e-01    4.868043065e-01   -1.445878297e-05   -1.825205982e-05    0.000000000e+00    0.000000000e+00    0.000000000e+00    0.000000000e+00
      250750000   -8.557909131e-01    5.840809345e-01    1.281220466e-05    2.610310912e-05    0.000000000e+00    0.000000000e+00    0.000000000e+00    0.000000000e+00
      258000000   -7.878367305e-01    6.755118966e-01   -2.592150122e-05    4.870817065e-06    0.000000000e+00    0.000000000e+00    0.000000000e+00    0.000000000e+00
      265250000   -7.085226774e-01    7.598575950e-01   -7.539056242e-06    9.422190487e-06    0.000000000e+00    0.000000000e+00    0.000000000e+00    0.000000000e+00
      272500000   -6.173286438e-01    8.355271816e-01   -3.165565431e-06    1.334212720e-05    0.000000000e+00    0.000000000e+00    0.000000000e+00    0.000000000e+00
      279750000   -5.180739164e-01    9.009797573e-01   -2.013705671e-05   -2.050213516e-05    0.000000000e+00    0.000000000e+00    0.000000000e+00    0.000000000e+00
      287000000   -4.076574445e-01    9.536781907e-01   -2.136453986e-06    4.246830940e-06    0.000000000e+00    0.000000000e+00    0.000000000e+00    0.000000000e+00
      294250000   -2.910614014e-01    9.928564429e-01   -2.049934119e-05    1.619569957e-05    0.000000000e+00    0.000000000e+00    0.000000000e+00    0.000000000e+00
      301500000   -1.691481322e-01    1.016492724e+00   -3.254320472e-05    1.408811659e-05    0.000000000e+00    0.000000000e+00    0.000000000e+00    0.000000000e+00
      308750000   -4.251303896e-02    1.024864793e+00    1.623481512e-05   -1.512374729e-05    0.000000000e+00    0.000000000e+00    0.000000000e+00    0.000000000e+00
      316000000    8.360985667e-02    1.016787052e+00   -2.227723598e-05   -1.872051507e-05    0.000000000e+00    0.000000000e+00    0.000000000e+00    0.000000000e+00
      323250000    2.081150860e-01    9.932958484e-01   -5.716364831e-05   -2.507679164e-05    0.000000000e+00    0.000000000e+00    0.000000000e+00    0.000000000e+00
      330500000    3.289877176e-01    9.527926445e-01    6.242655218e-06   -1.072417945e-05    0.000000000e+00    0.000000000e+00    0.000000000e+00    0.000000000e+00
      337750000    4.431744516e-01    8.980042338e-01   -8.631497622e-06   -5.245208740e-06    0.000000000e+00    0.000000000e+00    0.000000000e+00    0.000000000e+00
      345000000    5.488494635e-01    8.289742470e-01    1.812353730e-05    3.397092223e-05    0.000000000e+00    0.000000000e+00    0.000000000e+00    0.000000000e+00
      352250000    6.451013684e-01    7.478403449e-01   -1.521967351e-05   -2.700649202e-05    0.000000000e+00    0.000000000e+00    0.000000000e+00    0.000000000e+00
      359500000    7.292023897e-01    6.553370357e-01    1.129973680e-05    5.650334060e-06    0.000000000e+00    0.000000000e+00    0.000000000e+00    0.000000000e+00
      366750000    8.013137579e-01    5.541698337e-01    3.752391785e-05    5.661509931e-06    0.000000000e+00    0.000000000e+00    0.000000000e+00    0.000000000e+00
      374000000    8.592572808e-01    4.466903508e-01    1.543294638e-05   -2.392567694e-06    0.000000000e+00    0.000000000e+00    0.000000000e+00    0.000000000e+00
      381250000    9.045807719e-01    3.334614933e-01    1.886952668e-05    3.263261169e-05    0.000000000e+00    0.000000000e+00    0.000000000e+00    0.000000000e+00
      388500000    9.355390668e-01    2.179082185e-01   -9.941868484e-06   -2.625305206e-05    0.000000000e+00    0.000000000e+00    0.000000000e+00    0.000000000e+00
      395750000    9.524182081e-01    1.008031294e-01   -1.329556108e-05    4.629604518e-06    0.000000000e+00    0.000000000e+00    0.000000000e+00    0.000000000e+00
      403000000    9.561902285e-01   -1.738239639e-02   -1.258216798e-05   -1.123547554e-05    0.000000000e+00    0.000000000e+00    0.000000000e+00    0.000000000e+00
      410250000    9.473430514e-01   -1.319988370e-01    1.524481922e-05    1.136772335e-05    0.000000000e+00    0.000000000e+00    0.000000000e+00    0.000000000e+00
      417500000    9.258011580e-01   -2.446514964e-01   -3.896653652e-06    7.572583854e-06    0.000000000e+00    0.000000000e+00    0.000000000e+00    0.000000000e+00
      424750000    8.925512433e-01   -3.534815311e-01   -2.831779420e-05   -1.194514334e-05    0.000000000e+00    0.000000000e+00    0.000000000e+00    0.000000000e+00
      432000000    8.477118015e-01   -4.567091763e-01    1.388043165e-05    2.347771078e-05    0.000000000e+00    0.000000000e+00    0.000000000e+00    0.000000000e+00
      439250000    7.931311131e-01   -5.544252396e-01   -1.080986112e-05    1.136213541e-05    0.000000000e+00    0.000000000e+00    0.000000000e+00    0.000000000e+00
      446500000    7.297868729e-01   -6.440830827e-01    1.745205373e-05    1.339707524e-05    0.000000000e+00    0.000000000e+00    0.000000000e+00    0.000000000e+00
      453750000    6.566863656e-01   -7.286044359e-01    1.205969602e-05    3.957375884e-05    0.000000000e+00    0.000000000e+00    0.000000000e+00    0.000000000e+00
      461000000    5.763779879e-01   -8.027267456e-01    2.305768430e-05    1.738872379e-05    0.000000000e+00    0.000000000e+00    0.000000000e+00    0.000000000e+00
      468250000    4.889527857e-01   -8.679942489e-01    7.709488273e-06    1.120381057e-06    0.000000000e+00    0.000000000e+00    0.000000000e+00    0.000000000e+00
      475500000    3.940261006e-01   -9.245772362e-01    3.876164556e-05    7.623806596e-06    0.000000000e+00    0.000000000e+00    0.000000000e+00    0.000000000e+00
      482750000    2.956177592e-01   -9.703735709e-01    6.840564311e-06   -4.895962775e-06    0.000000000e+00    0.000000000e+00    0.000000000e+00    0.000000000e+00
      490000000    1.919664145e-01   -1.006743789e+00    3.534462303e-05    2.062972635e-05    0.000000000e+00    0.000000000e+00    0.000000000e+00    0.000000000e+00
      497250000    8.361881226e-02   -1.031411648e+00   -3.932975233e-06    1.568626612e-05    0.000000000e+00    0.000000000e+00    0.000000000e+00    0.000000000e+00
      504500000   -2.553556487e-02   -1.045733809e+00   -1.547671854e-05    1.244619489e-05    0.000000000e+00    0.000000000e+00    0.000000000e+00    0.000000000e+00
      511750000   -1.373489350e-01   -1.047183514e+00   -2.964492887e-05   -4.215072840e-05    0.000000000e+00    0.000000000e+00    0.000000000e+00    0.000000000e+00
      519000000   -2.485398650e-01   -1.037314653e+00   -2.133194357e-05    4.512257874e-06    0.000000000e+00    0.000000000e+00    0.000000000e+00    0.000000000e+00
      526250000   -3.597183526e-01   -1.013804197e+00   -1.348648220e-05   -8.855015039e-06    0.000000000e+00    0.000000000e+00    0.000000000e+00    0.000000000e+00
      533500000   -4.682740569e-01   -9.792410135e-01   -9.888783097e-06    1.508276910e-05    0.000000000e+00    0.000000000e+00    0.000000000e+00    0.000000000e+00
      540750000   -5.726226568e-01   -9.315618873e-01   -2.839602530e-06   -1.251604408e-05    0.000000000e+00    0.000000000e+00    0.000000000e+00    0.000000000e+00
      548000000   -6.720489264e-01   -8.723996878e-01    4.429370165e-05   -2.597179264e-05    0.000000000e+00    0.000000000e+00    0.000000000e+00    0.000000000e+00
      555250000   -7.645692229e-01   -8.003038764e-01   -1.008808613e-05    1.743063331e-05    0.000000000e+00    0.000000000e+00    0.000000000e+00    0.000000000e+00
      562500000   -8.490280509e-01   -7.190300226e-01    1.779384911e-05    1.287367195e-05    0.000000000e+00    0.000000000e+00    0.000000000e+00    0.000000000e+00
      569750000   -9.232769012e-01   -6.267837882e-01    2.510938793e-05    1.959875226e-05    0.000000000e+00    0.000000000e+00    0.000000000e+00    0.000000000e+00
      577000000   -9.862627983e-01   -5.269935727e-01    3.951601684e-05   -4.097819328e-07    0.000000000e+00    0.000000000e+00    0.000000000e+00    0.000000000e+00
      584250000   -1.037499785e+00   -4.184007049e-01    3.647990525e-06   -3.746431321e-05    0.000000000e+00    0.000000000e+00    0.000000000e+00    0.000000000e+00
      591500000   -1.075896859e+00   -3.037829697e-01    3.281794488e-05   -8.959323168e-07    0.000000000e+00    0.000000000e+00    0.000000000e+00    0.000000000e+00
      598750000   -1.098538518e+00   -1.846971959e-01   -1.683831215e-05    2.427212894e-05    0.000000000e+00    0.000000000e+00    0.000000000e+00    0.000000000e+00
      606000000   -1.107635617e+00   -6.541039795e-02   -2.433918417e-05    3.375485539e-05    0.000000000e+00    0.000000000e+00    0.000000000e+00    0.000000000e+00
      613250000   -1.102242470e+00    5.506294966e-02   -1.476239413e-05   -3.704242408e-05    0.000000000e+00    0.000000000e+00    0.000000000e+00    0.000000000e+00
      620500000   -1.081863523e+00    1.726175547e-01    4.719197750e-05    1.132767648e-05    0.000000000e+00    0.000000000e+00    0.000000000e+00    0.000000000e+00
      627750000   -1.046993613e+00    2.886151075e-01   -1.814216375e-06    3.634486347e-05    0.000000000e+00    0.000000000e+00    0.000000000e+00    0.000000000e+00
      635000000   -1.000547528e+00    3.963717222e-01   -3.154389560e-06    5.966983736e-06    0.000000000e+00    0.000000000e+00    0.000000000e+00    0.000000000e+00
      642250000   -9.393440485e-01    4.990672767e-01    3.491528332e-05   -1.043081284e-06    0.000000000e+00    0.000000000e+00    0.000000000e+00    0.000000000e+00
      649500000   -8.684702516e-01    5.905283689e-01   -2.149958163e-05   -1.157727093e-05    0.000000000e+00    0.000000000e+00    0.000000000e+00    0.000000000e+00
      656750000   -7.877631187e-01    6.735565662e-01   -5.365349352e-06   -6.049871445e-06    0.000000000e+00    0.000000000e+00    0.000000000e+00    0.000000000e+00
      664000000   -6.982470155e-01    7.465981841e-01   -1.339334995e-05   -1.557450742e-05    0.000000000e+00    0.000000000e+00    0.000000000e+00    0.000000000e+00
      671250000   -6.029374599e-01    8.066717386e-01   -5.988404155e-07    2.770684659e-06    0.000000000e+00    0.000000000e+00    0.000000000e+00    0.000000000e+00
      678500000   -5.021910667e-01    8.558390737e-01   -3.190990537e-05   -2.162158489e-05    0.000000000e+00    0.000000000e+00    0.000000000e+00    0.000000000e+00
      685750000   -3.970670998e-01    8.926493526e-01    1.342035830e-05   -3.693625331e-06    0.000000000e+00    0.000000000e+00    0.000000000e+00    0.000000000e+00
      693000000   -2.902718782e-01    9.172362089e-01    4.960224032e-06   -7.171183825e-08    0.000000000e+00    0.000000000e+00    0.000000000e+00    0.000000000e+00
      700250000   -1.827042550e-01    9.295246601e-01   -1.627393067e-05    3.292225301e-05    0.000000000e+00    0.000000000e+00    0.000000000e+00    0.000000000e+00
      707500000   -7.531899959e-02    9.306660295e-01    7.566995919e-06    1.611001790e-05    0.000000000e+00    0.000000000e+00    0.000000000e+00    0.000000000e+00
      714750000    3.074823879e-02    9.202576280e-01   -1.181848347e-06    2.252403647e-05    0.000000000e+00    0.000000000e+00    0.000000000e+00    0.000000000e+00
      722000000    1.319366395e-01    8.992815614e-01   -6.210990250e-06    1.999549568e-06    0.000000000e+00    0.000000000e+00    0.000000000e+00    0.000000000e+00
      729250000    2.320487648e-01    8.682992458e-01   -1.249182969e-05    2.874247730e-05    0.000000000e+00    0.000000000e+00    0.000000000e+00    0.000000000e+00
      736500000    3.258978724e-01    8.274140954e-01   -6.543472409e-06   -7.353723049e-06    0.000000000e+00    0.000000000e+00    0.000000000e+00    0.000000000e+00
      743750000    4.152361453e-01    7.782471776e-01   -1.142360270e-05   -7.437542081e-06    0.000000000e+00    0.000000000e+00    0.000000000e+00    0.000000000e+00
      751000000    4.988242090e-01    7.204023004e-01    1.523643732e-06   -5.781371146e-05    0.000000000e+00    0.000000000e+00    0.000000000e+00    0.000000000e+00
      758250000    5.758154392e-01    6.547073722e-01   -1.544598490e-05    1.735333353e-05    0.000000000e+00    0.000000000e+00    0.000000000e+00    0.000000000e+00
      765500000    6.456778646e-01    5.818259716e-01    1.271069050e-05   -8.242204785e-07    0.000000000e+00    0.000000000e+00    0.000000000e+00    0.000000000e+00
      772750000    7.076820135e-01    5.031690598e-01    5.694106221e-06    6.025657058e-06    0.000000000e+00    0.000000000e+00    0.000000000e+00    0.000000000e+00
      780000000    7.611774802e-01    4.197289050e-01    3.487803042e-06    1.684203744e-05    0.000000000e+00    0.000000000e+00    0.000000000e+00    0.000000000e+00
      787250000    8.084105849e-01    3.275544941e-01   -1.853052527e-05   -3.817863762e-05    0.000000000e+00    0.000000000e+00    0.000000000e+00    0.000000000e+00
      794500000    8.448601961e-01    2.331473976e-01   -1.524761319e-05    4.466529936e-05    0.000000000e+00    0.000000000e+00    0.000000000e+00    0.000000000e+00
      801750000    8.727335334e-01    1.343538761e-01    2.256967127e-05   -2.366397530e-05    0.000000000e+00    0.000000000e+00    0.000000000e+00    0.000000000e+00
      809000000    8.901122212e-01    3.369190171e-02    3.781169653e-07   -5.377456546e-06    0.000000000e+00    0.000000000e+00    0.000000000e+00    0.000000000e+00
      816250000    8.972480893e-01   -7.054384798e-02   -2.542603761e-05   -2.324115485e-05    0.000000000e+00    0.000000000e+00    0.000000000e+00    0.000000000e+00
      823500000    8.929480314e-01   -1.773576438e-01    2.203229815e-05   -1.119356602e-05    0.000000000e+00    0.000000000e+00    0.000000000e+00    0.000000000e+00
      830750000    8.788149357e-01   -2.819485068e-01    5.142297596e-05    5.949288607e-06    0.000000000e+00    0.000000000e+00    0.000000000e+00    0.000000000e+00
      838000000    8.522548676e-01   -3.864873052e-01   -1.714378595e-05    7.784925401e-06    0.000000000e+00    0.000000000e+00    0.000000000e+00    0.000000000e+00
      845250000    8.125836849e-01   -4.896445870e-01   -1.103058457e-05   -7.282942533e-06    0.000000000e+00    0.000000000e+00    0.000000000e+00    0.000000000e+00
      852500000    7.624624968e-01   -5.895252228e-01    1.791026443e-05   -3.572553396e-06    0.000000000e+00    0.000000000e+00    0.000000000e+00    0.000000000e+00
      859750000    7.006866336e-01   -6.836506724e-01   -6.085261703e-05    3.844499588e-06    0.000000000e+00    0.000000000e+00    0.000000000e+00    0.000000000e+00
      867000000    6.243359447e-01   -7.718654871e-01   -4.861503839e-06   -2.378225327e-05    0.000000000e+00    0.000000000e+00    0.000000000e+00    0.000000000e+00
      874250000    5.387821794e-01   -8.513070941e-01    5.262158811e-05   -2.332031727e-06    0.000000000e+00    0.000000000e+00    0.000000000e+00    0.000000000e+00
      881500000    4.416742623e-01   -9.209548235e-01    1.121778041e-05    1.799408346e-05    0.000000000e+00    0.000000000e+00    0.000000000e+00    0.000000000e+00
      888750000    3.357558250e-01   -9.774748683e-01   -4.344806075e-05   -7.683411241e-07    0.000000000e+00    0.000000000e+00    0.000000000e+00    0.000000000e+00
      896000000    2.206286788e-01   -1.021942854e+00   -2.546701580e-05    5.397945642e-06    0.000000000e+00    0.000000000e+00    0.000000000e+00    0.000000000e+00
      903250000    1.002573967e-01   -1.050548315e+00    2.130866051e-06    2.105720341e-06    0.000000000e+00    0.000000000e+00    0.000000000e+00    0.000000000e+00
      910500000   -2.581084892e-02   -1.062706709e+00    8.614733815e-07    9.762123227e-06    0.000000000e+00    0.000000000e+00    0.000000000e+00    0.000000000e+00
      917750000   -1.507157832e-01   -1.057249308e+00   -1.073442400e-05   -4.063826054e-05    0.000000000e+00    0.000000000e+00    0.000000000e+00    0.000000000e+00
      925000000   -2.731569111e-01   -1.036325455e+00    2.725515515e-05   -6.328336895e-06    0.000000000e+00    0.000000000e+00    0.000000000e+00    0.000000000e+00
      932250000   -3.960119486e-01   -9.958222508e-01    8.060596883e-06   -2.144463360e-05    0.000000000e+00    0.000000000e+00    0.000000000e+00    0.000000000e+00
      939500000   -5.071404576e-01   -9.419050813e-01    2.885609865e-05   -2.252496779e-05    0.000000000e+00    0.000000000e+00    0.000000000e+00    0.000000000e+00
      946750000   -6.102308631e-01   -8.727145195e-01    1.581851393e-05    2.401415259e-05    0.000000000e+00    0.000000000e+00    0.000000000e+00    0.000000000e+00
      954000000   -7.026518583e-01   -7.919353843e-01    3.448873758e-05   -1.041963696e-05    0.000000000e+00    0.000000000e+00    0.000000000e+00    0.000000000e+00
      961250000   -7.817555070e-01   -7.004310489e-01    1.569185406e-05   -3.064051270e-07    0.000000000e+00    0.000000000e+00    0.000000000e+00    0.000000000e+00
      968500000   -8.472560048e-01   -5.986980796e-01    4.838500172e-05   -4.134792835e-05    0.000000000e+00    0.000000000e+00    0.000000000e+00    0.000000000e+00
      975750000   -8.974530101e-01   -4.937794805e-01   -1.786369830e-05    2.676434815e-05    0.000000000e+00    0.000000000e+00    0.000000000e+00    0.000000000e+00
      983000000   -9.331597090e-01   -3.839358091e-01    1.353025436e-05    9.097158909e-06    0.000000000e+00    0.000000000e+00    0.000000000e+00    0.000000000e+00
      990250000   -9.536902308e-01   -2.751498222e-01   -3.126170486e-05    2.079177648e-05    0.000000000e+00    0.000000000e+00    0.000000000e+00    0.000000000e+00
      997500000   -9.610258937e-01   -1.651657969e-01    1.022219658e-05   -1.343432814e-05    0.000000000e+00    0.000000000e+00    0.000000000e+00    0.000000000e+00
     1004750000   -9.553459287e-01   -5.946434289e-02   -9.095296264e-06    2.655852586e-05    0.000000000e+00    0.000000000e+00    0.000000000e+00    0.000000000e+00
     1012000000   -9.378980398e-01    4.356170446e-02   -1.373607665e-05    3.658980131e-05    0.000000000e+00    0.000000000e+00    0.000000000e+00    0.000000000e+00
     1019250000   -9.094618559e-01    1.404645294e-01    2.312473953e-06   -2.830661833e-05    0.000000000e+00    0.000000000e+00    0.000000000e+00    0.000000000e+00
     1026500000   -8.721804619e-01    2.312403321e-01    3.432855010e-06   -3.259629011e-06    0.000000000e+00    0.000000000e+00    0.000000000e+00    0.000000000e+00
     1033750000   -8.264960647e-01    3.153883219e-01    1.341011375e-05    7.483176887e-06    0.000000000e+00    0.000000000e+00    0.000000000e+00    0.000000000e+00
     1041000000   -7.735811472e-01    3.921402693e-01   -7.018260658e-05   -2.095289528e-05    0.000000000e+00    0.000000000e+00    0.000000000e+00    0.000000000e+00
