! NanoVNA-App by OneOfEleven et al v1.1.209 (+OD15) 
! Date: 2024-07-30 15:18:03
! Start: 200MHz Stop: 6GHz Points: 801
! S-Parameter data: F S11 S21 S12 S22
# Hz S RI R 50
!     Frequency           S11_Real           S11_Imag           S21_Real           S21_Imag           S12_Real           S12_Imag           S22_Real           S22_Imag
      200000000   -9.981669188e-01   -1.156845018e-01   -4.684552550e-06   -1.820549369e-05    0.000000000e+00    0.000000000e+00    0.000000000e+00    0.000000000e+00
      207250000   -1.010203362e+00   -1.661895216e-02    1.426506788e-05   -1.750327647e-05    0.000000000e+00    0.000000000e+00    0.000000000e+00    0.000000000e+00
      214500000   -1.011759877e+00    8.477735519e-02    3.013759851e-06    9.621493518e-06    0.000000000e+00    0.000000000e+00    0.000000000e+00    0.000000000e+00
      221750000   -1.001639962e+00    1.876647174e-01    5.206093192e-06   -3.837049007e-07    0.000000000e+00    0.000000000e+00    0.000000000e+00    0.000000000e+00
      229000000   -9.826375246e-01    2.903568149e-01   -6.995163858e-06   -6.435438991e-07    0.000000000e+00    0.000000000e+00    0.000000000e+00    0.000000000e+00
      236250000   -9.499321580e-01    3.935150206e-01    7.945112884e-06   -5.112029612e-06    0.000000000e+00    0.000000000e+00    0.000000000e+00    0.000000000e+00
      243500000   -9.061191678e-01    4.933758974e-01   -5.517154932e-06   -2.893619239e-06    0.000000000e+00    0.000000000e+00    0.000000000e+00    0.000000000e+00
      250750000   -8.494752049e-01    5.898407102e-01   -1.484807581e-05   -2.776179463e-05    0.000000000e+00    0.000000000e+00    0.000000000e+00    0.000000000e+00
      258000000   -7.813472748e-01    6.807898283e-01   -1.333095133e-05    8.549541235e-07    0.000000000e+00    0.000000000e+00    0.000000000e+00    0.000000000e+00
      265250000   -7.016479969e-01    7.646653056e-01    1.695100218e-05   -5.639158189e-06    0.000000000e+00    0.000000000e+00    0.000000000e+00    0.000000000e+00
      272500000   -6.097669601e-01    8.398452401e-01    7.641501725e-06    3.179535270e-06    0.000000000e+00    0.000000000e+00    0.000000000e+00    0.000000000e+00
      279750000   -5.084587336e-01    9.033116698e-01   -5.538575351e-06   -2.328306437e-05    0.000000000e+00    0.000000000e+00    0.000000000e+00    0.000000000e+00
      287000000   -3.974288404e-01    9.553291202e-01   -7.703900337e-06    1.376681030e-05    0.000000000e+00    0.000000000e+00    0.000000000e+00    0.000000000e+00
      294250000   -2.806153297e-01    9.934306741e-01    3.122817725e-05   -2.764724195e-05    0.000000000e+00    0.000000000e+00    0.000000000e+00    0.000000000e+00
      301500000   -1.578877717e-01    1.015789509e+00    3.105960786e-06   -5.152076483e-06    0.000000000e+00    0.000000000e+00    0.000000000e+00    0.000000000e+00
      308750000   -3.233104199e-02    1.022045374e+00   -2.389587462e-05   -6.373971701e-06    0.000000000e+00    0.000000000e+00    0.000000000e+00    0.000000000e+00
      316000000    9.394320846e-02    1.013387799e+00   -5.851499736e-06   -8.274801075e-06    0.000000000e+00    0.000000000e+00    0.000000000e+00    0.000000000e+00
      323250000    2.185157686e-01    9.879481792e-01    6.120651960e-06   -1.926813275e-05    0.000000000e+00    0.000000000e+00    0.000000000e+00    0.000000000e+00
      330500000    3.385969996e-01    9.464370608e-01    4.583969712e-06    1.065526158e-05    0.000000000e+00    0.000000000e+00    0.000000000e+00    0.000000000e+00
      337750000    4.520189166e-01    8.893913031e-01    8.694827557e-06   -1.748092473e-06    0.000000000e+00    0.000000000e+00    0.000000000e+00    0.000000000e+00
      345000000    5.567494631e-01    8.191292882e-01    8.286908269e-06    2.804212272e-05    0.000000000e+00    0.000000000e+00    0.000000000e+00    0.000000000e+00
      352250000    6.517844796e-01    7.371551991e-01    2.889242023e-05    2.491101623e-05    0.000000000e+00    0.000000000e+00    0.000000000e+00    0.000000000e+00
      359500000    7.345377207e-01    6.438436508e-01   -1.693330705e-05    1.442618668e-06    0.000000000e+00    0.000000000e+00    0.000000000e+00    0.000000000e+00
      366750000    8.050018549e-01    5.421399474e-01   -2.895947546e-05    9.601004422e-06    0.000000000e+00    0.000000000e+00    0.000000000e+00    0.000000000e+00
      374000000    8.620550036e-01    4.348910153e-01    3.329478204e-06   -3.433227539e-05    0.000000000e+00    0.000000000e+00    0.000000000e+00    0.000000000e+00
      381250000    9.054426551e-01    3.199488521e-01    1.177005470e-05   -2.261251211e-06    0.000000000e+00    0.000000000e+00    0.000000000e+00    0.000000000e+00
      388500000    9.350447059e-01    2.046434432e-01    5.811452866e-07   -4.484318197e-06    0.000000000e+00    0.000000000e+00    0.000000000e+00    0.000000000e+00
      395750000    9.504355788e-01    8.766137809e-02   -7.300637662e-06   -1.761596650e-05    0.000000000e+00    0.000000000e+00    0.000000000e+00    0.000000000e+00
      403000000    9.524584413e-01   -2.869637497e-02   -1.235026866e-05    1.871120185e-05    0.000000000e+00    0.000000000e+00    0.000000000e+00    0.000000000e+00
      410250000    9.415919781e-01   -1.446611285e-01   -1.787208021e-06   -1.729466021e-05    0.000000000e+00    0.000000000e+00    0.000000000e+00    0.000000000e+00
      417500000    9.183256030e-01   -2.567222118e-01   -7.230788469e-06   -2.162810415e-05    0.000000000e+00    0.000000000e+00    0.000000000e+00    0.000000000e+00
      424750000    8.845571280e-01   -3.645878732e-01    3.523193300e-06    2.823863178e-05    0.000000000e+00    0.000000000e+00    0.000000000e+00    0.000000000e+00
      432000000    8.390817642e-01   -4.667515457e-01   -3.247149289e-05    4.173442721e-05    0.000000000e+00    0.000000000e+00    0.000000000e+00    0.000000000e+00
      439250000    7.834388614e-01   -5.632376075e-01   -3.791321069e-05   -3.501772881e-07    0.000000000e+00    0.000000000e+00    0.000000000e+00    0.000000000e+00
      446500000    7.180809975e-01   -6.524835229e-01   -6.196089089e-06    3.492459655e-06    0.000000000e+00    0.000000000e+00    0.000000000e+00    0.000000000e+00
      453750000    6.439219117e-01   -7.352488041e-01    4.399567842e-06    3.038346767e-05    0.000000000e+00    0.000000000e+00    0.000000000e+00    0.000000000e+00
      461000000    5.637409687e-01   -8.075874448e-01   -8.461065590e-06   -1.608207822e-05    0.000000000e+00    0.000000000e+00    0.000000000e+00    0.000000000e+00
      468250000    4.754228592e-01   -8.718400598e-01    1.615658402e-05    4.164036363e-05    0.000000000e+00    0.000000000e+00    0.000000000e+00    0.000000000e+00
      475500000    3.808620572e-01   -9.272409081e-01    1.452118158e-05   -4.252605140e-05    0.000000000e+00    0.000000000e+00    0.000000000e+00    0.000000000e+00
      482750000    2.802779377e-01   -9.715218544e-01   -2.742093056e-05   -2.728868276e-05    0.000000000e+00    0.000000000e+00    0.000000000e+00    0.000000000e+00
      490000000    1.773943305e-01   -1.005977273e+00    2.998113632e-05    2.193264663e-06    0.000000000e+00    0.000000000e+00    0.000000000e+00    0.000000000e+00
      497250000    6.989419460e-02   -1.029014826e+00    2.369098365e-05   -4.364456981e-05    0.000000000e+00    0.000000000e+00    0.000000000e+00    0.000000000e+00
      504500000   -4.051928222e-02   -1.040726423e+00   -2.076756209e-05   -3.928318620e-06    0.000000000e+00    0.000000000e+00    0.000000000e+00    0.000000000e+00
      511750000   -1.508629173e-01   -1.040809751e+00    3.260560334e-06    3.160722554e-05    0.000000000e+00    0.000000000e+00    0.000000000e+00    0.000000000e+00
      519000000   -2.632177174e-01   -1.028379083e+00   -3.638491035e-05    2.044253051e-05    0.000000000e+00    0.000000000e+00    0.000000000e+00    0.000000000e+00
      526250000   -3.723160923e-01   -1.004549742e+00   -1.114420593e-05    4.682689905e-06    0.000000000e+00    0.000000000e+00    0.000000000e+00    0.000000000e+00
      533500000   -4.800399244e-01   -9.678758979e-01   -1.162663102e-05   -3.685150295e-05    0.000000000e+00    0.000000000e+00    0.000000000e+00    0.000000000e+00
      540750000   -5.837514997e-01   -9.195108414e-01    1.319963485e-05   -1.120567322e-05    0.000000000e+00    0.000000000e+00    0.000000000e+00    0.000000000e+00
      548000000   -6.823473573e-01   -8.577861786e-01    3.634020686e-06    2.179294825e-07    0.000000000e+00    0.000000000e+00    0.000000000e+00    0.000000000e+00
      555250000   -7.718812227e-01   -7.861466408e-01   -8.257105947e-06    1.104176044e-05    0.000000000e+00    0.000000000e+00    0.000000000e+00    0.000000000e+00
      562500000   -8.552013636e-01   -7.024492621e-01   -8.120201528e-06   -3.239791840e-05    0.000000000e+00    0.000000000e+00    0.000000000e+00    0.000000000e+00
      569750000   -9.269319773e-01   -6.105033159e-01   -1.794192940e-05    3.474671394e-05    0.000000000e+00    0.000000000e+00    0.000000000e+00    0.000000000e+00
      577000000   -9.886787534e-01   -5.083035231e-01   -6.931833923e-06    9.411014616e-06    0.000000000e+00    0.000000000e+00    0.000000000e+00    0.000000000e+00
      584250000   -1.037757635e+00   -3.996127546e-01    6.435438991e-06    7.644295692e-06    0.000000000e+00    0.000000000e+00    0.000000000e+00    0.000000000e+00
      591500000   -1.072288513e+00   -2.856171131e-01    2.128630877e-05    5.587935448e-06    0.000000000e+00    0.000000000e+00    0.000000000e+00    0.000000000e+00
      598750000   -1.094758153e+00   -1.670869142e-01    2.057012171e-05   -1.928023994e-05    0.000000000e+00    0.000000000e+00    0.000000000e+00    0.000000000e+00
      606000000   -1.101252437e+00   -4.845022410e-02   -9.002164006e-06   -1.661200076e-05    0.000000000e+00    0.000000000e+00    0.000000000e+00    0.000000000e+00
      613250000   -1.092984080e+00    7.057458907e-02   -4.119332880e-05   -1.150742173e-05    0.000000000e+00    0.000000000e+00    0.000000000e+00    0.000000000e+00
      620500000   -1.071057439e+00    1.888293177e-01    5.830079317e-07    5.193054676e-06    0.000000000e+00    0.000000000e+00    0.000000000e+00    0.000000000e+00
      627750000   -1.034746170e+00    3.022500277e-01   -9.467825294e-06    2.444721758e-05    0.000000000e+00    0.000000000e+00    0.000000000e+00    0.000000000e+00
      635000000   -9.855055213e-01    4.087258875e-01   -1.321919262e-05   -2.969894558e-05    0.000000000e+00    0.000000000e+00    0.000000000e+00    0.000000000e+00
      642250000   -9.229547977e-01    5.089598298e-01    6.563961506e-06    2.034474164e-05    0.000000000e+00    0.000000000e+00    0.000000000e+00    0.000000000e+00
      649500000   -8.513790965e-01    5.997207761e-01   -2.629216760e-05    7.301568985e-06    0.000000000e+00    0.000000000e+00    0.000000000e+00    0.000000000e+00
      656750000   -7.693228722e-01    6.805059314e-01   -6.984919310e-07    1.653376967e-05    0.000000000e+00    0.000000000e+00    0.000000000e+00    0.000000000e+00
      664000000   -6.796459556e-01    7.503330708e-01    1.349672675e-05    6.755813956e-06    0.000000000e+00    0.000000000e+00    0.000000000e+00    0.000000000e+00
      671250000   -5.836024880e-01    8.085858822e-01    9.592622519e-08   -2.353824675e-05    0.000000000e+00    0.000000000e+00    0.000000000e+00    0.000000000e+00
      678500000   -4.824140072e-01    8.553135991e-01   -2.860091627e-06   -3.323797137e-05    0.000000000e+00    0.000000000e+00    0.000000000e+00    0.000000000e+00
      685750000   -3.784779608e-01    8.899626732e-01   -3.696791828e-05   -5.012936890e-05    0.000000000e+00    0.000000000e+00    0.000000000e+00    0.000000000e+00
      693000000   -2.724995017e-01    9.123941064e-01    4.172138870e-05   -2.656131983e-05    0.000000000e+00    0.000000000e+00    0.000000000e+00    0.000000000e+00
      700250000   -1.635542810e-01    9.236503243e-01    1.376867294e-05   -3.234483302e-06    0.000000000e+00    0.000000000e+00    0.000000000e+00    0.000000000e+00
      707500000   -6.036554649e-02    9.221500158e-01   -4.059635103e-06   -1.863762736e-05    0.000000000e+00    0.000000000e+00    0.000000000e+00    0.000000000e+00
      714750000    4.598490894e-02    9.098714590e-01    4.899688065e-06    2.608448267e-05    0.000000000e+00    0.000000000e+00    0.000000000e+00    0.000000000e+00
      722000000    1.467749923e-01    8.880569339e-01   -2.098083496e-05   -1.114420593e-05    0.000000000e+00    0.000000000e+00    0.000000000e+00    0.000000000e+00
      729250000    2.449448854e-01    8.550962210e-01    8.151866496e-06   -2.259481698e-05    0.000000000e+00    0.000000000e+00    0.000000000e+00    0.000000000e+00
      736500000    3.379224837e-01    8.137108088e-01    3.142654896e-05   -8.179806173e-06    0.000000000e+00    0.000000000e+00    0.000000000e+00    0.000000000e+00
      743750000    4.249334335e-01    7.631628513e-01    1.383014023e-06    6.997957826e-06    0.000000000e+00    0.000000000e+00    0.000000000e+00    0.000000000e+00
      751000000    5.071343184e-01    7.039241195e-01   -2.103298903e-05   -4.041939974e-06    0.000000000e+00    0.000000000e+00    0.000000000e+00    0.000000000e+00
      758250000    5.822244883e-01    6.372321844e-01    3.018509597e-05    4.721805453e-06    0.000000000e+00    0.000000000e+00    0.000000000e+00    0.000000000e+00
      765500000    6.501464844e-01    5.639647841e-01   -9.043142200e-06    2.410542220e-05    0.000000000e+00    0.000000000e+00    0.000000000e+00    0.000000000e+00
      772750000    7.107800245e-01    4.844592214e-01    1.333653927e-06   -1.575425267e-05    0.000000000e+00    0.000000000e+00    0.000000000e+00    0.000000000e+00
      780000000    7.624700069e-01    3.993225098e-01    1.987442374e-06    3.037042916e-06    0.000000000e+00    0.000000000e+00    0.000000000e+00    0.000000000e+00
      787250000    8.075590134e-01    3.079179227e-01    3.116950393e-05    4.439428449e-05    0.000000000e+00    0.000000000e+00    0.000000000e+00    0.000000000e+00
      794500000    8.419395089e-01    2.136367708e-01    1.032743603e-05   -3.868620843e-05    0.000000000e+00    0.000000000e+00    0.000000000e+00    0.000000000e+00
      801750000    8.673958182e-01    1.149651408e-01   -3.516301513e-05    1.561269164e-05    0.000000000e+00    0.000000000e+00    0.000000000e+00    0.000000000e+00
      809000000    8.828126192e-01    1.439452823e-02    3.356020898e-05   -5.894433707e-05    0.000000000e+00    0.000000000e+00    0.000000000e+00    0.000000000e+00
      816250000    8.878118992e-01   -9.019077569e-02   -1.945532858e-05    7.949769497e-06    0.000000000e+00    0.000000000e+00    0.000000000e+00    0.000000000e+00
      823500000    8.820056319e-01   -1.941221207e-01   -3.151781857e-05   -2.303253859e-05    0.000000000e+00    0.000000000e+00    0.000000000e+00    0.000000000e+00
      830750000    8.655061722e-01   -2.982043028e-01    5.966983736e-06    1.840293407e-05    0.000000000e+00    0.000000000e+00    0.000000000e+00    0.000000000e+00
      838000000    8.365346193e-01   -4.016224742e-01   -1.680105925e-06    2.789031714e-05    0.000000000e+00    0.000000000e+00    0.000000000e+00    0.000000000e+00
      845250000    7.948393226e-01   -5.039034486e-01   -5.966983736e-06    2.436712384e-05    0.000000000e+00    0.000000000e+00    0.000000000e+00    0.000000000e+00
      852500000    7.430290580e-01   -6.006115079e-01   -1.733470708e-05   -1.973472536e-06    0.000000000e+00    0.000000000e+00    0.000000000e+00    0.000000000e+00
      859750000    6.793311238e-01   -6.922071576e-01   -2.138968557e-05    1.487322152e-06    0.000000000e+00    0.000000000e+00    0.000000000e+00    0.000000000e+00
      867000000    6.009466648e-01   -7.792826295e-01   -3.451667726e-05    7.291324437e-06    0.000000000e+00    0.000000000e+00    0.000000000e+00    0.000000000e+00
      874250000    5.148771405e-01   -8.553689122e-01   -2.252776176e-05   -1.287367195e-05    0.000000000e+00    0.000000000e+00    0.000000000e+00    0.000000000e+00
      881500000    4.159654081e-01   -9.221931100e-01    7.985159755e-06    6.790272892e-06    0.000000000e+00    0.000000000e+00    0.000000000e+00    0.000000000e+00
      888750000    3.108783066e-01   -9.752109051e-01    3.861822188e-05    2.784654498e-07    0.000000000e+00    0.000000000e+00    0.000000000e+00    0.000000000e+00
      896000000    1.958724558e-01   -1.016435385e+00    6.307847798e-06   -1.394562423e-05    0.000000000e+00    0.000000000e+00    0.000000000e+00    0.000000000e+00
      903250000    7.521463931e-02   -1.041062355e+00   -2.297572792e-05   -1.208856702e-06    0.000000000e+00    0.000000000e+00    0.000000000e+00    0.000000000e+00
      910500000   -4.791263863e-02   -1.050158143e+00    2.260413021e-05    2.756901085e-05    0.000000000e+00    0.000000000e+00    0.000000000e+00    0.000000000e+00
      917750000   -1.722471714e-01   -1.041678548e+00   -1.359730959e-05    8.370727301e-06    0.000000000e+00    0.000000000e+00    0.000000000e+00    0.000000000e+00
      925000000   -2.934584916e-01   -1.016654849e+00    5.370285362e-05    3.041606396e-05    0.000000000e+00    0.000000000e+00    0.000000000e+00    0.000000000e+00
      932250000   -4.104359150e-01   -9.750617743e-01   -7.201917470e-06   -4.384666681e-06    0.000000000e+00    0.000000000e+00    0.000000000e+00    0.000000000e+00
      939500000   -5.193823576e-01   -9.191592336e-01   -4.759058356e-06    2.995319664e-05    0.000000000e+00    0.000000000e+00    0.000000000e+00    0.000000000e+00
      946750000   -6.191666126e-01   -8.496153355e-01    1.400895417e-05   -1.569930464e-05    0.000000000e+00    0.000000000e+00    0.000000000e+00    0.000000000e+00
      954000000   -7.094177604e-01   -7.655353546e-01    9.918585420e-06   -5.282182246e-05    0.000000000e+00    0.000000000e+00    0.000000000e+00    0.000000000e+00
      961250000   -7.838578224e-01   -6.751704812e-01    7.318332791e-06   -6.884336472e-06    0.000000000e+00    0.000000000e+00    0.000000000e+00    0.000000000e+00
      968500000   -8.459874988e-01   -5.738934278e-01   -3.470107913e-05   -6.880983710e-05    0.000000000e+00    0.000000000e+00    0.000000000e+00    0.000000000e+00
      975750000   -8.930532932e-01   -4.700671136e-01    2.230145037e-05   -2.157501876e-05    0.000000000e+00    0.000000000e+00    0.000000000e+00    0.000000000e+00
      983000000   -9.258955121e-01   -3.625500798e-01    8.000060916e-06    5.392357707e-06    0.000000000e+00    0.000000000e+00    0.000000000e+00    0.000000000e+00
      990250000   -9.442878962e-01   -2.531668842e-01    3.448687494e-06    5.701556802e-06    0.000000000e+00    0.000000000e+00    0.000000000e+00    0.000000000e+00
      997500000   -9.494265318e-01   -1.462069154e-01   -2.461299300e-05   -3.239139915e-06    0.000000000e+00    0.000000000e+00    0.000000000e+00    0.000000000e+00
     1004750000   -9.414232969e-01   -4.105376825e-02   -4.005990922e-05    9.021721780e-06    0.000000000e+00    0.000000000e+00    0.000000000e+00    0.000000000e+00
     1012000000   -9.227282405e-01    5.898416042e-02    7.322989404e-06    4.722829908e-05    0.000000000e+00    0.000000000e+00    0.000000000e+00    0.000000000e+00
     1019250000   -8.929976821e-01    1.538841277e-01   -2.969708294e-05   -3.139022738e-05    0.000000000e+00    0.000000000e+00    0.000000000e+00    0.000000000e+00
     1026500000   -8.541088104e-01    2.428462654e-01   -6.748363376e-06   -6.306916475e-06    0.000000000e+00    0.000000000e+00    0.000000000e+00    0.000000000e+00
     1033750000   -8.073478937e-01    3.245497048e-01    4.276912659e-05   -3.897678107e-05    0.000000000e+00    0.000000000e+00    0.000000000e+00    0.000000000e+00
     1041000000   -7.542551756e-01    3.991114497e-01   -1.318380237e-05   -1.563690603e-05    0.000000000e+00    0.000000000e+00    0.000000000e+00    0.000000000e+00
