! NanoVNA-App by OneOfEleven et al v1.1.209 (+OD15) 
! Date: 2024-07-30 15:18:08
! Start: 200MHz Stop: 6GHz Points: 801
! S-Parameter data: F S11 S21 S12 S22
# Hz S RI R 50
!     Frequency           S11_Real           S11_Imag           S21_Real           S21_Imag           S12_Real           S12_Imag           S22_Real           S22_Imag
      200000000   -9.985667467e-01   -1.158310995e-01   -8.380971849e-06   -4.101544619e-06    0.000000000e+00    0.000000000e+00    0.000000000e+00    0.000000000e+00
      207250000   -1.010610461e+00   -1.665708050e-02   -2.855341882e-05    2.067536116e-07    0.000000000e+00    0.000000000e+00    0.000000000e+00    0.000000000e+00
      214500000   -1.011463165e+00    8.467964083e-02    2.781674266e-05   -1.011881977e-05    0.000000000e+00    0.000000000e+00    0.000000000e+00    0.000000000e+00
      221750000   -1.001505136e+00    1.879556775e-01   -9.579584002e-06    7.060356438e-06    0.000000000e+00    0.000000000e+00    0.000000000e+00    0.000000000e+00
      229000000   -9.817270041e-01    2.902919650e-01   -2.734921873e-05   -2.112239599e-06    0.000000000e+00    0.000000000e+00    0.000000000e+00    0.000000000e+00
      236250000   -9.490385652e-01    3.934665918e-01    5.249306560e-05   -2.790894359e-05    0.000000000e+00    0.000000000e+00    0.000000000e+00    0.000000000e+00
      243500000   -9.063636065e-01    4.931580126e-01    5.659647286e-06   -1.037679613e-05    0.000000000e+00    0.000000000e+00    0.000000000e+00    0.000000000e+00
      250750000   -8.495736122e-01    5.899015069e-01   -1.089926809e-05    2.547353506e-05    0.000000000e+00    0.000000000e+00    0.000000000e+00    0.000000000e+00
      258000000   -7.810553312e-01    6.806564927e-01    4.540476948e-05   -1.248158514e-05    0.000000000e+00    0.000000000e+00    0.000000000e+00    0.000000000e+00
      265250000   -7.016558647e-01    7.645426989e-01   -2.049840987e-06    3.769993782e-06    0.000000000e+00    0.000000000e+00    0.000000000e+00    0.000000000e+00
      272500000   -6.099002957e-01    8.394505978e-01   -1.608766615e-05   -7.844530046e-06    0.000000000e+00    0.000000000e+00    0.000000000e+00    0.000000000e+00
      279750000   -5.082818270e-01    9.037398696e-01   -7.093884051e-06   -3.748573363e-06    0.000000000e+00    0.000000000e+00    0.000000000e+00    0.000000000e+00
      287000000   -3.980024159e-01    9.552819133e-01   -4.448741674e-05   -4.395935684e-05    0.000000000e+00    0.000000000e+00    0.000000000e+00    0.000000000e+00
      294250000   -2.807399035e-01    9.929462075e-01    3.628432751e-05    1.961831003e-05    0.000000000e+00    0.000000000e+00    0.000000000e+00    0.000000000e+00
      301500000   -1.576869488e-01    1.015602231e+00   -7.173046470e-06   -2.448633313e-05    0.000000000e+00    0.000000000e+00    0.000000000e+00    0.000000000e+00
      308750000   -3.271160647e-02    1.023266554e+00    5.147419870e-06    5.322508514e-06    0.000000000e+00    0.000000000e+00    0.000000000e+00    0.000000000e+00
      316000000    9.379752725e-02    1.012752056e+00   -2.235174179e-08   -8.726492524e-06    0.000000000e+00    0.000000000e+00    0.000000000e+00    0.000000000e+00
      323250000    2.183475494e-01    9.879841208e-01    2.503115684e-05   -6.934627891e-06    0.000000000e+00    0.000000000e+00    0.000000000e+00    0.000000000e+00
      330500000    3.386264741e-01    9.460090399e-01    2.739019692e-06    1.618266106e-05    0.000000000e+00    0.000000000e+00    0.000000000e+00    0.000000000e+00
      337750000    4.518554509e-01    8.901266456e-01   -1.128576696e-05    3.484170884e-05    0.000000000e+00    0.000000000e+00    0.000000000e+00    0.000000000e+00
      345000000    5.575387478e-01    8.183250427e-01    3.035180271e-06    2.287607640e-05    0.000000000e+00    0.000000000e+00    0.000000000e+00    0.000000000e+00
      352250000    6.517055631e-01    7.372260094e-01   -1.939944923e-06   -2.453755587e-05    0.000000000e+00    0.000000000e+00    0.000000000e+00    0.000000000e+00
      359500000    7.348242998e-01    6.439090371e-01   -2.642069012e-05    2.067070454e-05    0.000000000e+00    0.000000000e+00    0.000000000e+00    0.000000000e+00
      366750000    8.052538037e-01    5.422083139e-01   -1.431908458e-05    2.749077976e-05    0.000000000e+00    0.000000000e+00    0.000000000e+00    0.000000000e+00
      374000000    8.625261188e-01    4.337908328e-01   -4.061497748e-06   -2.866238356e-05    0.000000000e+00    0.000000000e+00    0.000000000e+00    0.000000000e+00
      381250000    9.052506685e-01    3.208410144e-01    1.177284867e-05   -1.147482544e-05    0.000000000e+00    0.000000000e+00    0.000000000e+00    0.000000000e+00
      388500000    9.347306490e-01    2.043391764e-01    2.157315612e-05   -2.340320498e-05    0.000000000e+00    0.000000000e+00    0.000000000e+00    0.000000000e+00
      395750000    9.503367543e-01    8.735927939e-02    1.614261419e-05    2.234242857e-05    0.000000000e+00    0.000000000e+00    0.000000000e+00    0.000000000e+00
      403000000    9.527346492e-01   -2.891677245e-02   -1.526437700e-05    1.345667988e-05    0.000000000e+00    0.000000000e+00    0.000000000e+00    0.000000000e+00
      410250000    9.413239956e-01   -1.450845450e-01   -3.199279308e-05   -3.920216113e-05    0.000000000e+00    0.000000000e+00    0.000000000e+00    0.000000000e+00
      417500000    9.183271527e-01   -2.562910020e-01   -2.303998917e-05   -3.891065717e-06    0.000000000e+00    0.000000000e+00    0.000000000e+00    0.000000000e+00
      424750000    8.839351535e-01   -3.645834625e-01    3.972742707e-05   -8.226372302e-06    0.000000000e+00    0.000000000e+00    0.000000000e+00    0.000000000e+00
      432000000    8.389735818e-01   -4.669008255e-01    2.119317651e-05    2.141203731e-05    0.000000000e+00    0.000000000e+00    0.000000000e+00    0.000000000e+00
      439250000    7.831264734e-01   -5.634478331e-01    2.128258348e-05    3.031454980e-06    0.000000000e+00    0.000000000e+00    0.000000000e+00    0.000000000e+00
      446500000    7.179146409e-01   -6.523256302e-01   -1.929700375e-06   -2.333894372e-06    0.000000000e+00    0.000000000e+00    0.000000000e+00    0.000000000e+00
      453750000    6.438901424e-01   -7.346028090e-01    2.520624548e-05   -1.069903374e-05    0.000000000e+00    0.000000000e+00    0.000000000e+00    0.000000000e+00
      461000000    5.632778406e-01   -8.078457117e-01    1.101288944e-05   -2.657063305e-06    0.000000000e+00    0.000000000e+00    0.000000000e+00    0.000000000e+00
      468250000    4.757909775e-01   -8.717952371e-01   -3.916118294e-05   -7.329508662e-07    0.000000000e+00    0.000000000e+00    0.000000000e+00    0.000000000e+00
      475500000    3.801373541e-01   -9.268048406e-01   -2.479087561e-05   -4.672724754e-05    0.000000000e+00    0.000000000e+00    0.000000000e+00    0.000000000e+00
      482750000    2.804073691e-01   -9.719008207e-01   -2.151913941e-05   -1.710746437e-05    0.000000000e+00    0.000000000e+00    0.000000000e+00    0.000000000e+00
      490000000    1.766090840e-01   -1.005614638e+00    1.096073538e-05    1.299846917e-05    0.000000000e+00    0.000000000e+00    0.000000000e+00    0.000000000e+00
      497250000    6.858844310e-02   -1.028961301e+00   -1.273304224e-05   -1.645553857e-05    0.000000000e+00    0.000000000e+00    0.000000000e+00    0.000000000e+00
      504500000   -4.034642503e-02   -1.040396214e+00   -3.642030060e-05    2.595502883e-05    0.000000000e+00    0.000000000e+00    0.000000000e+00    0.000000000e+00
      511750000   -1.518403739e-01   -1.040583014e+00    1.324061304e-05    2.471823245e-05    0.000000000e+00    0.000000000e+00    0.000000000e+00    0.000000000e+00
      519000000   -2.627121806e-01   -1.028581500e+00   -4.759058356e-07   -1.810863614e-05    0.000000000e+00    0.000000000e+00    0.000000000e+00    0.000000000e+00
      526250000   -3.723163903e-01   -1.004429579e+00   -1.877639443e-05    1.503061503e-05    0.000000000e+00    0.000000000e+00    0.000000000e+00    0.000000000e+00
      533500000   -4.804329276e-01   -9.676478505e-01   -4.437658936e-05   -2.908334136e-05    0.000000000e+00    0.000000000e+00    0.000000000e+00    0.000000000e+00
      540750000   -5.836231709e-01   -9.188646674e-01   -1.669954509e-05   -5.854293704e-06    0.000000000e+00    0.000000000e+00    0.000000000e+00    0.000000000e+00
      548000000   -6.819088459e-01   -8.584208488e-01    3.256089985e-05    7.605180144e-06    0.000000000e+00    0.000000000e+00    0.000000000e+00    0.000000000e+00
      555250000   -7.725475430e-01   -7.857584357e-01    2.265069634e-05    1.194048673e-05    0.000000000e+00    0.000000000e+00    0.000000000e+00    0.000000000e+00
      562500000   -8.545118570e-01   -7.028978467e-01    1.463852823e-05    1.234374940e-05    0.000000000e+00    0.000000000e+00    0.000000000e+00    0.000000000e+00
      569750000   -9.271207452e-01   -6.102442741e-01    4.133209586e-05   -8.827075362e-06    0.000000000e+00    0.000000000e+00    0.000000000e+00    0.000000000e+00
      577000000   -9.884508848e-01   -5.085737705e-01    7.051043212e-06    5.929730833e-06    0.000000000e+00    0.000000000e+00    0.000000000e+00    0.000000000e+00
      584250000   -1.037181854e+00   -3.991055191e-01    7.149763405e-06    2.587214112e-06    0.000000000e+00    0.000000000e+00    0.000000000e+00    0.000000000e+00
      591500000   -1.072692275e+00   -2.861861289e-01    8.104369044e-06   -3.069639206e-06    0.000000000e+00    0.000000000e+00    0.000000000e+00    0.000000000e+00
      598750000   -1.094492912e+00   -1.681666523e-01    1.532584429e-05   -5.811452866e-06    0.000000000e+00    0.000000000e+00    0.000000000e+00    0.000000000e+00
      606000000   -1.101030707e+00   -4.766536132e-02   -1.302268356e-05   -1.060403883e-05    0.000000000e+00    0.000000000e+00    0.000000000e+00    0.000000000e+00
      613250000   -1.093160868e+00    7.189261913e-02   -2.154149115e-05   -5.427747965e-06    0.000000000e+00    0.000000000e+00    0.000000000e+00    0.000000000e+00
      620500000   -1.070828795e+00    1.888602674e-01    1.779664308e-05   -1.583248377e-08    0.000000000e+00    0.000000000e+00    0.000000000e+00    0.000000000e+00
      627750000   -1.035169721e+00    3.027453423e-01    5.951710045e-05    4.503130913e-05    0.000000000e+00    0.000000000e+00    0.000000000e+00    0.000000000e+00
      635000000   -9.847698212e-01    4.090009332e-01   -2.211425453e-05   -2.083368599e-06    0.000000000e+00    0.000000000e+00    0.000000000e+00    0.000000000e+00
      642250000   -9.231398106e-01    5.095728040e-01    1.603364944e-05   -8.893199265e-06    0.000000000e+00    0.000000000e+00    0.000000000e+00    0.000000000e+00
      649500000   -8.518021107e-01    5.996458530e-01   -3.682449460e-06   -6.014481187e-06    0.000000000e+00    0.000000000e+00    0.000000000e+00    0.000000000e+00
      656750000   -7.690457106e-01    6.799763441e-01   -2.622138709e-05   -2.647656947e-05    0.000000000e+00    0.000000000e+00    0.000000000e+00    0.000000000e+00
      664000000   -6.804866791e-01    7.501517534e-01    3.061257303e-06   -2.895761281e-05    0.000000000e+00    0.000000000e+00    0.000000000e+00    0.000000000e+00
      671250000   -5.827787519e-01    8.088319302e-01   -3.526918590e-06    1.764670014e-05    0.000000000e+00    0.000000000e+00    0.000000000e+00    0.000000000e+00
      678500000   -4.824126065e-01    8.549831510e-01    9.882263839e-06   -1.964438707e-05    0.000000000e+00    0.000000000e+00    0.000000000e+00    0.000000000e+00
      685750000   -3.786328435e-01    8.899222612e-01   -3.006774932e-05   -4.936009645e-06    0.000000000e+00    0.000000000e+00    0.000000000e+00    0.000000000e+00
      693000000   -2.730040252e-01    9.121381044e-01    9.939074516e-06    2.800766379e-05    0.000000000e+00    0.000000000e+00    0.000000000e+00    0.000000000e+00
      700250000   -1.656407565e-01    9.229537249e-01   -4.192721099e-05    1.468230039e-05    0.000000000e+00    0.000000000e+00    0.000000000e+00    0.000000000e+00
      707500000   -5.960017070e-02    9.225445986e-01    1.161545515e-05    1.907255501e-05    0.000000000e+00    0.000000000e+00    0.000000000e+00    0.000000000e+00
      714750000    4.624056444e-02    9.098592401e-01   -2.119969577e-05    2.677459270e-05    0.000000000e+00    0.000000000e+00    0.000000000e+00    0.000000000e+00
      722000000    1.468730867e-01    8.875131607e-01    5.004927516e-05   -1.240521669e-06    0.000000000e+00    0.000000000e+00    0.000000000e+00    0.000000000e+00
      729250000    2.444774956e-01    8.554462790e-01    1.467578113e-05   -1.008808613e-05    0.000000000e+00    0.000000000e+00    0.000000000e+00    0.000000000e+00
      736500000    3.380098045e-01    8.136578798e-01   -1.361593604e-05   -1.037772745e-05    0.000000000e+00    0.000000000e+00    0.000000000e+00    0.000000000e+00
      743750000    4.249868691e-01    7.630159259e-01    2.752058208e-06   -5.896203220e-06    0.000000000e+00    0.000000000e+00    0.000000000e+00    0.000000000e+00
      751000000    5.069279075e-01    7.035852671e-01    2.646818757e-06    1.625064760e-05    0.000000000e+00    0.000000000e+00    0.000000000e+00    0.000000000e+00
      758250000    5.819122195e-01    6.371058822e-01    1.231394708e-05   -7.268041372e-06    0.000000000e+00    0.000000000e+00    0.000000000e+00    0.000000000e+00
      765500000    6.497862935e-01    5.640593171e-01   -1.781061292e-05   -3.375671804e-05    0.000000000e+00    0.000000000e+00    0.000000000e+00    0.000000000e+00
      772750000    7.107276917e-01    4.836716652e-01   -2.024136484e-05    1.795962453e-05    0.000000000e+00    0.000000000e+00    0.000000000e+00    0.000000000e+00
      780000000    7.625536919e-01    3.997505605e-01    4.657171667e-05   -2.977624536e-05    0.000000000e+00    0.000000000e+00    0.000000000e+00    0.000000000e+00
      787250000    8.073283434e-01    3.085559011e-01   -7.017515600e-06    1.402571797e-05    0.000000000e+00    0.000000000e+00    0.000000000e+00    0.000000000e+00
      794500000    8.418105841e-01    2.139698714e-01   -3.725476563e-05    1.183524728e-05    0.000000000e+00    0.000000000e+00    0.000000000e+00    0.000000000e+00
      801750000    8.677058816e-01    1.149926633e-01    1.271534711e-05    1.327227801e-05    0.000000000e+00    0.000000000e+00    0.000000000e+00    0.000000000e+00
      809000000    8.828017116e-01    1.414154656e-02    1.518707722e-05    4.522502422e-06    0.000000000e+00    0.000000000e+00    0.000000000e+00    0.000000000e+00
      816250000    8.880032897e-01   -8.871360868e-02    5.324371159e-06   -3.637932241e-05    0.000000000e+00    0.000000000e+00    0.000000000e+00    0.000000000e+00
      823500000    8.820294142e-01   -1.931592524e-01   -4.601664841e-06   -2.771057189e-05    0.000000000e+00    0.000000000e+00    0.000000000e+00    0.000000000e+00
      830750000    8.649812341e-01   -2.993745208e-01   -2.881512046e-05    1.177005470e-05    0.000000000e+00    0.000000000e+00    0.000000000e+00    0.000000000e+00
      838000000    8.352533579e-01   -4.031512141e-01    2.150330693e-05    3.478210419e-05    0.000000000e+00    0.000000000e+00    0.000000000e+00    0.000000000e+00
      845250000    7.952473164e-01   -5.034686327e-01   -5.264580250e-05   -3.031082451e-05    0.000000000e+00    0.000000000e+00    0.000000000e+00    0.000000000e+00
      852500000    7.423250079e-01   -6.015774012e-01    3.644265234e-05    2.237036824e-05    0.000000000e+00    0.000000000e+00    0.000000000e+00    0.000000000e+00
      859750000    6.792290807e-01   -6.928557754e-01    3.321841359e-05    2.436339855e-05    0.000000000e+00    0.000000000e+00    0.000000000e+00    0.000000000e+00
      867000000    6.012674570e-01   -7.787753344e-01   -7.133930922e-06   -3.617908806e-05    0.000000000e+00    0.000000000e+00    0.000000000e+00    0.000000000e+00
      874250000    5.150030851e-01   -8.549066782e-01    6.013549864e-06   -2.116896212e-05    0.000000000e+00    0.000000000e+00    0.000000000e+00    0.000000000e+00
      881500000    4.153265655e-01   -9.223278761e-01    1.426134259e-05    2.398528159e-05    0.000000000e+00    0.000000000e+00    0.000000000e+00    0.000000000e+00
      888750000    3.116674721e-01   -9.749606252e-01   -3.089383245e-05    1.813285053e-05    0.000000000e+00    0.000000000e+00    0.000000000e+00    0.000000000e+00
      896000000    1.959536970e-01   -1.016304135e+00    4.453584552e-06    7.537193596e-06    0.000000000e+00    0.000000000e+00    0.000000000e+00    0.000000000e+00
      903250000    7.615566254e-02   -1.041226506e+00   -1.079030335e-05   -1.580733806e-05    0.000000000e+00    0.000000000e+00    0.000000000e+00    0.000000000e+00
      910500000   -4.837126657e-02   -1.049317479e+00    4.006270319e-05   -3.538094461e-05    0.000000000e+00    0.000000000e+00    0.000000000e+00    0.000000000e+00
      917750000   -1.711352021e-01   -1.041716337e+00    9.817071259e-06    1.664925367e-05    0.000000000e+00    0.000000000e+00    0.000000000e+00    0.000000000e+00
      925000000   -2.914739549e-01   -1.017587423e+00    2.914387733e-05    7.555820048e-06    0.000000000e+00    0.000000000e+00    0.000000000e+00    0.000000000e+00
      932250000   -4.107369184e-01   -9.750565290e-01   -1.102965325e-05   -1.352280378e-05    0.000000000e+00    0.000000000e+00    0.000000000e+00    0.000000000e+00
      939500000   -5.199437141e-01   -9.193066359e-01   -2.470612526e-05    4.511326551e-05    0.000000000e+00    0.000000000e+00    0.000000000e+00    0.000000000e+00
      946750000   -6.197620034e-01   -8.493212461e-01   -7.325783372e-06   -1.945067197e-05    0.000000000e+00    0.000000000e+00    0.000000000e+00    0.000000000e+00
      954000000   -7.084985375e-01   -7.658970356e-01    2.121273428e-05    1.079216599e-05    0.000000000e+00    0.000000000e+00    0.000000000e+00    0.000000000e+00
      961250000   -7.836010456e-01   -6.749178767e-01   -7.261522114e-06    1.643411815e-05    0.000000000e+00    0.000000000e+00    0.000000000e+00    0.000000000e+00
      968500000   -8.458111286e-01   -5.744723678e-01   -1.500081271e-05   -9.209848940e-06    0.000000000e+00    0.000000000e+00    0.000000000e+00    0.000000000e+00
      975750000   -8.928285837e-01   -4.698303044e-01   -1.449882984e-05    3.259349614e-05    0.000000000e+00    0.000000000e+00    0.000000000e+00    0.000000000e+00
      983000000   -9.260290861e-01   -3.616734743e-01   -4.243105650e-06    6.314367056e-07    0.000000000e+00    0.000000000e+00    0.000000000e+00    0.000000000e+00
      990250000   -9.445215464e-01   -2.531068623e-01   -1.755449921e-05   -8.718110621e-06    0.000000000e+00    0.000000000e+00    0.000000000e+00    0.000000000e+00
      997500000   -9.492345452e-01   -1.459468603e-01    5.027465522e-05    1.974590123e-05    0.000000000e+00    0.000000000e+00    0.000000000e+00    0.000000000e+00
     1004750000   -9.418324828e-01   -4.067497700e-02   -1.405552030e-05    2.886820585e-05    0.000000000e+00    0.000000000e+00    0.000000000e+00    0.000000000e+00
     1012000000   -9.224381447e-01    5.914482474e-02   -1.964438707e-05    1.119729131e-05    0.000000000e+00    0.000000000e+00    0.000000000e+00    0.000000000e+00
     1019250000   -8.925057650e-01    1.542580128e-01    2.847332507e-05   -3.979541361e-06    0.000000000e+00    0.000000000e+00    0.000000000e+00    0.000000000e+00
     1026500000   -8.542581797e-01    2.417477369e-01    1.434050500e-05    8.588656783e-06    0.000000000e+00    0.000000000e+00    0.000000000e+00    0.000000000e+00
     1033750000   -8.074877858e-01    3.258494735e-01   -4.372559488e-06   -2.627260983e-06    0.000000000e+00    0.000000000e+00    0.000000000e+00    0.000000000e+00
     1041000000   -7.547054887e-01    3.983148336e-01   -3.876164556e-06   -1.288484782e-05    0.000000000e+00    0.000000000e+00    0.000000000e+00    0.000000000e+00
