! NanoVNA-App by OneOfEleven et al v1.1.209 (+OD15) 
! Date: 2024-07-30 15:18:16
! Start: 200MHz Stop: 6GHz Points: 801
! S-Parameter data: F S11 S21 S12 S22
# Hz S RI R 50
!     Frequency           S11_Real           S11_Imag           S21_Real           S21_Imag           S12_Real           S12_Imag           S22_Real           S22_Imag
      200000000   -9.987878799e-01   -1.159756333e-01    2.831872553e-05   -3.123749048e-05    0.000000000e+00    0.000000000e+00    0.000000000e+00    0.000000000e+00
      207250000   -1.010178924e+00   -1.650902815e-02    1.763086766e-05   -1.673586667e-05    0.000000000e+00    0.000000000e+00    0.000000000e+00    0.000000000e+00
      214500000   -1.011547208e+00    8.454140276e-02    1.170951873e-05   -9.044073522e-06    0.000000000e+00    0.000000000e+00    0.000000000e+00    0.000000000e+00
      221750000   -1.001700044e+00    1.877331585e-01    6.223097444e-06    1.977197826e-05    0.000000000e+00    0.000000000e+00    0.000000000e+00    0.000000000e+00
      229000000   -9.827371240e-01    2.906692922e-01    2.128072083e-06    8.556060493e-06    0.000000000e+00    0.000000000e+00    0.000000000e+00    0.000000000e+00
      236250000   -9.491586685e-01    3.932124078e-01   -4.681665450e-05   -4.141591489e-05    0.000000000e+00    0.000000000e+00    0.000000000e+00    0.000000000e+00
      243500000   -9.055913091e-01    4.935820103e-01   -1.671724021e-06   -1.182034612e-05    0.000000000e+00    0.000000000e+00    0.000000000e+00    0.000000000e+00
      250750000   -8.492247462e-01    5.899216533e-01   -1.737568527e-05    1.906789839e-05    0.000000000e+00    0.000000000e+00    0.000000000e+00    0.000000000e+00
      258000000   -7.810541391e-01    6.809742451e-01   -1.150369644e-05    2.150610089e-05    0.000000000e+00    0.000000000e+00    0.000000000e+00    0.000000000e+00
      265250000   -7.005550861e-01    7.647674680e-01    2.969894558e-05    5.438923836e-07    0.000000000e+00    0.000000000e+00    0.000000000e+00    0.000000000e+00
      272500000   -6.090499163e-01    8.392279148e-01    2.224929631e-06    3.105960786e-06    0.000000000e+00    0.000000000e+00    0.000000000e+00    0.000000000e+00
      279750000   -5.087522268e-01    9.036755562e-01    2.657063305e-06    1.753401011e-05    0.000000000e+00    0.000000000e+00    0.000000000e+00    0.000000000e+00
      287000000   -3.978329003e-01    9.553494453e-01   -5.006790161e-06   -4.692096263e-05    0.000000000e+00    0.000000000e+00    0.000000000e+00    0.000000000e+00
      294250000   -2.799872458e-01    9.931174517e-01   -1.570489258e-05    5.026347935e-06    0.000000000e+00    0.000000000e+00    0.000000000e+00    0.000000000e+00
      301500000   -1.583535373e-01    1.016438961e+00   -2.493988723e-05   -9.250827134e-06    0.000000000e+00    0.000000000e+00    0.000000000e+00    0.000000000e+00
      308750000   -3.235240653e-02    1.022665977e+00    1.359079033e-05   -2.473313361e-05    0.000000000e+00    0.000000000e+00    0.000000000e+00    0.000000000e+00
      316000000    9.406514466e-02    1.013612866e+00   -1.630559564e-05    5.312263966e-06    0.000000000e+00    0.000000000e+00    0.000000000e+00    0.000000000e+00
      323250000    2.181493491e-01    9.882768989e-01   -1.704879105e-05    1.772865653e-05    0.000000000e+00    0.000000000e+00    0.000000000e+00    0.000000000e+00
      330500000    3.386316299e-01    9.463670850e-01    7.174909115e-06    3.262516111e-05    0.000000000e+00    0.000000000e+00    0.000000000e+00    0.000000000e+00
      337750000    4.520099163e-01    8.894090056e-01    4.223547876e-06    4.598870873e-06    0.000000000e+00    0.000000000e+00    0.000000000e+00    0.000000000e+00
      345000000    5.568936467e-01    8.198114634e-01    2.368632704e-05   -7.539056242e-06    0.000000000e+00    0.000000000e+00    0.000000000e+00    0.000000000e+00
      352250000    6.518329382e-01    7.368620038e-01   -8.275732398e-06    1.271814108e-05    0.000000000e+00    0.000000000e+00    0.000000000e+00    0.000000000e+00
      359500000    7.344915271e-01    6.441519260e-01   -6.875954568e-06    2.463627607e-05    0.000000000e+00    0.000000000e+00    0.000000000e+00    0.000000000e+00
      366750000    8.049027324e-01    5.420266390e-01   -1.972541213e-05   -2.561975271e-05    0.000000000e+00    0.000000000e+00    0.000000000e+00    0.000000000e+00
      374000000    8.619318008e-01    4.346310794e-01   -3.093574196e-05    3.073271364e-05    0.000000000e+00    0.000000000e+00    0.000000000e+00    0.000000000e+00
      381250000    9.056147933e-01    3.199579418e-01   -7.200054824e-06    2.598203719e-05    0.000000000e+00    0.000000000e+00    0.000000000e+00    0.000000000e+00
      388500000    9.345179200e-01    2.047598809e-01    1.970864832e-05    1.232977957e-05    0.000000000e+00    0.000000000e+00    0.000000000e+00    0.000000000e+00
      395750000    9.501227140e-01    8.738835901e-02    9.754672647e-06   -2.659857273e-06    0.000000000e+00    0.000000000e+00    0.000000000e+00    0.000000000e+00
      403000000    9.526042342e-01   -2.903577499e-02   -5.150213838e-07    5.073845387e-06    0.000000000e+00    0.000000000e+00    0.000000000e+00    0.000000000e+00
      410250000    9.415872097e-01   -1.444438845e-01   -5.979090929e-06    7.591210306e-06    0.000000000e+00    0.000000000e+00    0.000000000e+00    0.000000000e+00
      417500000    9.189844131e-01   -2.565878332e-01    3.461726010e-06   -1.253932714e-05    0.000000000e+00    0.000000000e+00    0.000000000e+00    0.000000000e+00
      424750000    8.844673038e-01   -3.643261790e-01    4.215165973e-06    3.783963621e-05    0.000000000e+00    0.000000000e+00    0.000000000e+00    0.000000000e+00
      432000000    8.377608657e-01   -4.669807553e-01   -3.360491246e-05   -2.808403224e-05    0.000000000e+00    0.000000000e+00    0.000000000e+00    0.000000000e+00
      439250000    7.829396725e-01   -5.633413196e-01    4.524365067e-06   -1.500546932e-05    0.000000000e+00    0.000000000e+00    0.000000000e+00    0.000000000e+00
      446500000    7.186349034e-01   -6.520386338e-01   -1.583807170e-05   -1.666601747e-05    0.000000000e+00    0.000000000e+00    0.000000000e+00    0.000000000e+00
      453750000    6.442655325e-01   -7.347013950e-01    2.163182944e-05   -2.093147486e-05    0.000000000e+00    0.000000000e+00    0.000000000e+00    0.000000000e+00
      461000000    5.627555251e-01   -8.074170351e-01    1.036562026e-05   -1.757033169e-05    0.000000000e+00    0.000000000e+00    0.000000000e+00    0.000000000e+00
      468250000    4.755215347e-01   -8.717086911e-01    5.566701293e-05   -2.589821815e-05    0.000000000e+00    0.000000000e+00    0.000000000e+00    0.000000000e+00
      475500000    3.805547059e-01   -9.268387556e-01   -2.107210457e-05    2.622511238e-05    0.000000000e+00    0.000000000e+00    0.000000000e+00    0.000000000e+00
      482750000    2.806760967e-01   -9.717617035e-01   -8.428469300e-07    2.167373896e-05    0.000000000e+00    0.000000000e+00    0.000000000e+00    0.000000000e+00
      490000000    1.769524515e-01   -1.005542517e+00    1.770909876e-05   -2.917274833e-05    0.000000000e+00    0.000000000e+00    0.000000000e+00    0.000000000e+00
      497250000    6.970698386e-02   -1.029725671e+00    5.429796875e-05   -5.604699254e-06    0.000000000e+00    0.000000000e+00    0.000000000e+00    0.000000000e+00
      504500000   -4.094952345e-02   -1.040518403e+00    1.886859536e-06    1.851469278e-06    0.000000000e+00    0.000000000e+00    0.000000000e+00    0.000000000e+00
      511750000   -1.511388272e-01   -1.040960550e+00   -3.475882113e-05    1.231208444e-05    0.000000000e+00    0.000000000e+00    0.000000000e+00    0.000000000e+00
      519000000   -2.627213895e-01   -1.028651237e+00   -6.562098861e-06    3.730598837e-05    0.000000000e+00    0.000000000e+00    0.000000000e+00    0.000000000e+00
      526250000   -3.725692630e-01   -1.004873276e+00    1.316796988e-05   -3.132969141e-06    0.000000000e+00    0.000000000e+00    0.000000000e+00    0.000000000e+00
      533500000   -4.807266593e-01   -9.675852656e-01    1.766253263e-05   -2.651941031e-05    0.000000000e+00    0.000000000e+00    0.000000000e+00    0.000000000e+00
      540750000   -5.836858153e-01   -9.187495708e-01    1.002475619e-05   -1.880340278e-05    0.000000000e+00    0.000000000e+00    0.000000000e+00    0.000000000e+00
      548000000   -6.816779375e-01   -8.585996032e-01   -1.400709152e-06    2.131517977e-05    0.000000000e+00    0.000000000e+00    0.000000000e+00    0.000000000e+00
      555250000   -7.724192142e-01   -7.860841751e-01    2.740789205e-05   -2.113264054e-05    0.000000000e+00    0.000000000e+00    0.000000000e+00    0.000000000e+00
      562500000   -8.549621105e-01   -7.028699517e-01   -9.040348232e-06    5.047954619e-05    0.000000000e+00    0.000000000e+00    0.000000000e+00    0.000000000e+00
      569750000   -9.274294376e-01   -6.099839807e-01    1.118518412e-05   -1.875404269e-05    0.000000000e+00    0.000000000e+00    0.000000000e+00    0.000000000e+00
      577000000   -9.881255627e-01   -5.091354847e-01   -1.967884600e-06    6.700865924e-06    0.000000000e+00    0.000000000e+00    0.000000000e+00    0.000000000e+00
      584250000   -1.036818385e+00   -3.997911811e-01   -1.076050103e-05   -1.982226968e-05    0.000000000e+00    0.000000000e+00    0.000000000e+00    0.000000000e+00
      591500000   -1.073428154e+00   -2.859770060e-01   -3.706663847e-06   -1.210626215e-05    0.000000000e+00    0.000000000e+00    0.000000000e+00    0.000000000e+00
      598750000   -1.094022036e+00   -1.666131765e-01   -6.269663572e-06   -2.783723176e-06    0.000000000e+00    0.000000000e+00    0.000000000e+00    0.000000000e+00
      606000000   -1.101194024e+00   -4.790029302e-02   -7.635913789e-06   -7.107853889e-06    0.000000000e+00    0.000000000e+00    0.000000000e+00    0.000000000e+00
      613250000   -1.093073487e+00    7.171723992e-02   -1.760851592e-05   -2.504047006e-05    0.000000000e+00    0.000000000e+00    0.000000000e+00    0.000000000e+00
      620500000   -1.070621133e+00    1.883906275e-01   -8.260831237e-06    1.033768058e-05    0.000000000e+00    0.000000000e+00    0.000000000e+00    0.000000000e+00
      627750000   -1.033878684e+00    3.029438853e-01   -1.974403858e-06   -3.167428076e-06    0.000000000e+00    0.000000000e+00    0.000000000e+00    0.000000000e+00
      635000000   -9.853181243e-01    4.085719585e-01    1.200288534e-05   -3.732740879e-06    0.000000000e+00    0.000000000e+00    0.000000000e+00    0.000000000e+00
      642250000   -9.239385128e-01    5.086721182e-01   -1.706741750e-05   -1.901667565e-05    0.000000000e+00    0.000000000e+00    0.000000000e+00    0.000000000e+00
      649500000   -8.511842489e-01    5.997952819e-01   -1.263804734e-05   -6.629992276e-05    0.000000000e+00    0.000000000e+00    0.000000000e+00    0.000000000e+00
      656750000   -7.696062326e-01    6.800216436e-01   -2.343207598e-06   -3.660097718e-07    0.000000000e+00    0.000000000e+00    0.000000000e+00    0.000000000e+00
      664000000   -6.805025935e-01    7.502184510e-01   -2.962537110e-06   -1.798104495e-05    0.000000000e+00    0.000000000e+00    0.000000000e+00    0.000000000e+00
      671250000   -5.831544995e-01    8.088577390e-01    1.875124872e-05   -3.386754543e-05    0.000000000e+00    0.000000000e+00    0.000000000e+00    0.000000000e+00
      678500000   -4.824647009e-01    8.558639884e-01   -2.883188426e-05    1.142360270e-05    0.000000000e+00    0.000000000e+00    0.000000000e+00    0.000000000e+00
      685750000   -3.783529103e-01    8.896458745e-01   -1.959037036e-05    1.339521259e-05    0.000000000e+00    0.000000000e+00    0.000000000e+00    0.000000000e+00
      693000000   -2.726555169e-01    9.123324156e-01    1.974403858e-06    3.019440919e-05    0.000000000e+00    0.000000000e+00    0.000000000e+00    0.000000000e+00
      700250000   -1.649083048e-01    9.229401946e-01   -2.349913120e-05   -1.570582390e-05    0.000000000e+00    0.000000000e+00    0.000000000e+00    0.000000000e+00
      707500000   -5.973475054e-02    9.217512012e-01    3.593042493e-06   -3.187824041e-05    0.000000000e+00    0.000000000e+00    0.000000000e+00    0.000000000e+00
      714750000    4.630395398e-02    9.106903076e-01   -1.703482121e-05    2.290122211e-05    0.000000000e+00    0.000000000e+00    0.000000000e+00    0.000000000e+00
      722000000    1.460255980e-01    8.882495761e-01    3.184657544e-05   -2.994202077e-05    0.000000000e+00    0.000000000e+00    0.000000000e+00    0.000000000e+00
      729250000    2.453583926e-01    8.548192978e-01   -1.127365977e-05   -1.037586480e-05    0.000000000e+00    0.000000000e+00    0.000000000e+00    0.000000000e+00
      736500000    3.383186460e-01    8.128329515e-01    2.700649202e-05   -5.619600415e-06    0.000000000e+00    0.000000000e+00    0.000000000e+00    0.000000000e+00
      743750000    4.253383577e-01    7.624698281e-01   -2.147816122e-05    3.422889858e-05    0.000000000e+00    0.000000000e+00    0.000000000e+00    0.000000000e+00
      751000000    5.070453882e-01    7.038612366e-01    2.590194345e-05   -1.237075776e-05    0.000000000e+00    0.000000000e+00    0.000000000e+00    0.000000000e+00
      758250000    5.821701884e-01    6.374784708e-01    2.546235919e-05   -1.074466854e-05    0.000000000e+00    0.000000000e+00    0.000000000e+00    0.000000000e+00
      765500000    6.502076983e-01    5.635392666e-01   -1.361221075e-05    6.205402315e-06    0.000000000e+00    0.000000000e+00    0.000000000e+00    0.000000000e+00
      772750000    7.106041908e-01    4.842543304e-01    1.854076982e-05    1.536123455e-05    0.000000000e+00    0.000000000e+00    0.000000000e+00    0.000000000e+00
      780000000    7.623504996e-01    4.001365006e-01    7.299892604e-05    3.294460475e-05    0.000000000e+00    0.000000000e+00    0.000000000e+00    0.000000000e+00
      787250000    8.072100878e-01    3.077409863e-01    3.044493496e-05   -5.582347512e-06    0.000000000e+00    0.000000000e+00    0.000000000e+00    0.000000000e+00
      794500000    8.416747451e-01    2.142993212e-01   -1.529790461e-05    4.091113806e-05    0.000000000e+00    0.000000000e+00    0.000000000e+00    0.000000000e+00
      801750000    8.671849370e-01    1.158536747e-01    3.830529749e-06    2.687610686e-05    0.000000000e+00    0.000000000e+00    0.000000000e+00    0.000000000e+00
      809000000    8.827452064e-01    1.456309762e-02   -2.049840987e-06   -2.813339233e-05    0.000000000e+00    0.000000000e+00    0.000000000e+00    0.000000000e+00
      816250000    8.880987763e-01   -8.918733150e-02    6.951391697e-06    1.493096352e-05    0.000000000e+00    0.000000000e+00    0.000000000e+00    0.000000000e+00
      823500000    8.817986250e-01   -1.936234087e-01   -2.400949597e-05    1.189485192e-05    0.000000000e+00    0.000000000e+00    0.000000000e+00    0.000000000e+00
      830750000    8.647396564e-01   -2.987110913e-01   -1.149065793e-05    2.247933298e-05    0.000000000e+00    0.000000000e+00    0.000000000e+00    0.000000000e+00
      838000000    8.358319998e-01   -4.023820758e-01   -4.901550710e-06    4.578474909e-05    0.000000000e+00    0.000000000e+00    0.000000000e+00    0.000000000e+00
      845250000    7.953431010e-01   -5.036293864e-01   -1.079216599e-05   -7.532536983e-06    0.000000000e+00    0.000000000e+00    0.000000000e+00    0.000000000e+00
      852500000    7.428777218e-01   -6.002722383e-01   -1.595634967e-05    3.613997251e-05    0.000000000e+00    0.000000000e+00    0.000000000e+00    0.000000000e+00
      859750000    6.789047122e-01   -6.926859021e-01   -2.272240818e-05   -2.011563629e-05    0.000000000e+00    0.000000000e+00    0.000000000e+00    0.000000000e+00
      867000000    6.011829376e-01   -7.789549828e-01   -3.946013749e-06   -1.777987927e-05    0.000000000e+00    0.000000000e+00    0.000000000e+00    0.000000000e+00
      874250000    5.158044100e-01   -8.554961681e-01    4.192814231e-06    3.737024963e-05    0.000000000e+00    0.000000000e+00    0.000000000e+00    0.000000000e+00
      881500000    4.162617028e-01   -9.214372635e-01   -2.649985254e-05    1.987908036e-05    0.000000000e+00    0.000000000e+00    0.000000000e+00    0.000000000e+00
      888750000    3.093013763e-01   -9.753814340e-01   -3.296602517e-05   -2.052448690e-05    0.000000000e+00    0.000000000e+00    0.000000000e+00    0.000000000e+00
      896000000    1.952923238e-01   -1.016126513e+00    1.053232700e-05   -1.453887671e-05    0.000000000e+00    0.000000000e+00    0.000000000e+00    0.000000000e+00
      903250000    7.563188672e-02   -1.041157246e+00   -1.928210258e-05    1.736823469e-05    0.000000000e+00    0.000000000e+00    0.000000000e+00    0.000000000e+00
      910500000   -4.859865084e-02   -1.050259709e+00    2.876017243e-05   -2.007558942e-05    0.000000000e+00    0.000000000e+00    0.000000000e+00    0.000000000e+00
      917750000   -1.710062921e-01   -1.042101741e+00   -3.084819764e-05   -4.976056516e-06    0.000000000e+00    0.000000000e+00    0.000000000e+00    0.000000000e+00
      925000000   -2.931026518e-01   -1.016687155e+00    4.854984581e-06   -2.392660826e-05    0.000000000e+00    0.000000000e+00    0.000000000e+00    0.000000000e+00
      932250000   -4.105940759e-01   -9.749698639e-01   -2.323836088e-05    4.247762263e-06    0.000000000e+00    0.000000000e+00    0.000000000e+00    0.000000000e+00
      939500000   -5.200262666e-01   -9.182527065e-01   -3.789365292e-05    3.604218364e-06    0.000000000e+00    0.000000000e+00    0.000000000e+00    0.000000000e+00
      946750000   -6.200286746e-01   -8.480498195e-01   -1.422688365e-05   -1.344736665e-05    0.000000000e+00    0.000000000e+00    0.000000000e+00    0.000000000e+00
      954000000   -7.081693411e-01   -7.664343715e-01   -1.834053546e-05    5.200877786e-05    0.000000000e+00    0.000000000e+00    0.000000000e+00    0.000000000e+00
      961250000   -7.847363353e-01   -6.741339564e-01    1.013837755e-05    2.047978342e-06    0.000000000e+00    0.000000000e+00    0.000000000e+00    0.000000000e+00
      968500000   -8.457145095e-01   -5.743467212e-01   -2.522952855e-06    3.607757390e-05    0.000000000e+00    0.000000000e+00    0.000000000e+00    0.000000000e+00
      975750000   -8.930315971e-01   -4.693306684e-01    1.897569746e-05   -4.078261554e-05    0.000000000e+00    0.000000000e+00    0.000000000e+00    0.000000000e+00
      983000000   -9.253854156e-01   -3.619888723e-01    5.093403161e-06   -2.581905574e-05    0.000000000e+00    0.000000000e+00    0.000000000e+00    0.000000000e+00
      990250000   -9.439226985e-01   -2.529921830e-01   -6.353482604e-06    2.076849341e-07    0.000000000e+00    0.000000000e+00    0.000000000e+00    0.000000000e+00
      997500000   -9.494278431e-01   -1.458512098e-01    1.015141606e-07   -7.596798241e-06    0.000000000e+00    0.000000000e+00    0.000000000e+00    0.000000000e+00
     1004750000   -9.415975809e-01   -4.170981050e-02   -1.859944314e-05   -1.073349267e-05    0.000000000e+00    0.000000000e+00    0.000000000e+00    0.000000000e+00
     1012000000   -9.225891232e-01    5.908856168e-02    2.471636981e-05   -2.497248352e-05    0.000000000e+00    0.000000000e+00    0.000000000e+00    0.000000000e+00
     1019250000   -8.932597041e-01    1.540386826e-01    8.933246136e-06    5.181133747e-05    0.000000000e+00    0.000000000e+00    0.000000000e+00    0.000000000e+00
     1026500000   -8.543218970e-01    2.422977686e-01    9.937211871e-07   -5.041714758e-05    0.000000000e+00    0.000000000e+00    0.000000000e+00    0.000000000e+00
     1033750000   -8.076322675e-01    3.252804279e-01    4.651118070e-05    2.756435424e-05    0.000000000e+00    0.000000000e+00    0.000000000e+00    0.000000000e+00
     1041000000   -7.540277243e-01    3.997801542e-01    2.905167639e-05    2.244021744e-05    0.000000000e+00    0.000000000e+00    0.000000000e+00    0.000000000e+00
