! NanoVNA-App by OneOfEleven et al v1.1.209 (+OD15) 
! Date: 2024-07-30 15:18:21
! Start: 200MHz Stop: 6GHz Points: 801
! S-Parameter data: F S11 S21 S12 S22
# Hz S RI R 50
!     Frequency           S11_Real           S11_Imag           S21_Real           S21_Imag           S12_Real           S12_Imag           S22_Real           S22_Imag
      200000000   -9.987322092e-01   -1.158051342e-01    6.494112313e-06   -1.962017268e-05    0.000000000e+00    0.000000000e+00    0.000000000e+00    0.000000000e+00
      207250000   -1.010331869e+00   -1.632665657e-02    1.622922719e-05    1.181755215e-05    0.000000000e+00    0.000000000e+00    0.000000000e+00    0.000000000e+00
      214500000   -1.011470318e+00    8.492332697e-02   -1.559592783e-05   -3.911554813e-07    0.000000000e+00    0.000000000e+00    0.000000000e+00    0.000000000e+00
      221750000   -1.002296686e+00    1.873638183e-01    1.358985901e-05   -1.077260822e-05    0.000000000e+00    0.000000000e+00    0.000000000e+00    0.000000000e+00
      229000000   -9.827008247e-01    2.903851271e-01   -1.655984670e-05    5.862675607e-06    0.000000000e+00    0.000000000e+00    0.000000000e+00    0.000000000e+00
      236250000   -9.501326084e-01    3.937070370e-01    1.437962055e-05    2.406071872e-05    0.000000000e+00    0.000000000e+00    0.000000000e+00    0.000000000e+00
      243500000   -9.057875276e-01    4.936847091e-01   -4.979781806e-06    2.806633711e-05    0.000000000e+00    0.000000000e+00    0.000000000e+00    0.000000000e+00
      250750000   -8.494693637e-01    5.899873972e-01    9.966082871e-06   -1.943577081e-05    0.000000000e+00    0.000000000e+00    0.000000000e+00    0.000000000e+00
      258000000   -7.809492946e-01    6.813170910e-01    2.762768418e-05   -3.997143358e-05    0.000000000e+00    0.000000000e+00    0.000000000e+00    0.000000000e+00
      265250000   -7.013679743e-01    7.651792169e-01   -2.792198211e-05   -6.953254342e-06    0.000000000e+00    0.000000000e+00    0.000000000e+00    0.000000000e+00
      272500000   -6.103222370e-01    8.398771882e-01   -4.418566823e-05    1.269113272e-05    0.000000000e+00    0.000000000e+00    0.000000000e+00    0.000000000e+00
      279750000   -5.088121295e-01    9.036214352e-01   -3.575999290e-05    2.420973033e-05    0.000000000e+00    0.000000000e+00    0.000000000e+00    0.000000000e+00
      287000000   -3.975449800e-01    9.553502202e-01    4.918314517e-06    1.038238406e-05    0.000000000e+00    0.000000000e+00    0.000000000e+00    0.000000000e+00
      294250000   -2.806267440e-01    9.931849241e-01    1.342874020e-05   -1.111533493e-05    0.000000000e+00    0.000000000e+00    0.000000000e+00    0.000000000e+00
      301500000   -1.579487175e-01    1.015897512e+00   -6.100162864e-07    3.310758621e-05    0.000000000e+00    0.000000000e+00    0.000000000e+00    0.000000000e+00
      308750000   -3.265147284e-02    1.022665143e+00    1.504085958e-05   -1.741573215e-07    0.000000000e+00    0.000000000e+00    0.000000000e+00    0.000000000e+00
      316000000    9.367568046e-02    1.013628602e+00   -2.560671419e-05    2.304464579e-05    0.000000000e+00    0.000000000e+00    0.000000000e+00    0.000000000e+00
      323250000    2.184420377e-01    9.878475070e-01    1.925788820e-05   -1.750048250e-05    0.000000000e+00    0.000000000e+00    0.000000000e+00    0.000000000e+00
      330500000    3.385445774e-01    9.462956190e-01    3.379117697e-05    2.784188837e-05    0.000000000e+00    0.000000000e+00    0.000000000e+00    0.000000000e+00
      337750000    4.515926540e-01    8.901143074e-01   -1.437216997e-05    1.803319901e-05    0.000000000e+00    0.000000000e+00    0.000000000e+00    0.000000000e+00
      345000000    5.574368238e-01    8.192942739e-01    1.081265509e-06   -8.046627045e-06    0.000000000e+00    0.000000000e+00    0.000000000e+00    0.000000000e+00
      352250000    6.511042714e-01    7.366907597e-01   -7.222406566e-06    1.949165016e-05    0.000000000e+00    0.000000000e+00    0.000000000e+00    0.000000000e+00
      359500000    7.348193526e-01    6.440688372e-01    2.845097333e-05    1.645274460e-05    0.000000000e+00    0.000000000e+00    0.000000000e+00    0.000000000e+00
      366750000    8.053947091e-01    5.422231555e-01   -2.351962030e-05    5.776993930e-06    0.000000000e+00    0.000000000e+00    0.000000000e+00    0.000000000e+00
      374000000    8.620010614e-01    4.344740808e-01    3.129523247e-05   -2.329051495e-05    0.000000000e+00    0.000000000e+00    0.000000000e+00    0.000000000e+00
      381250000    9.050460458e-01    3.199810684e-01   -2.501625568e-05   -1.914706081e-05    0.000000000e+00    0.000000000e+00    0.000000000e+00    0.000000000e+00
      388500000    9.343224764e-01    2.044434845e-01   -2.805143595e-06   -5.546025932e-06    0.000000000e+00    0.000000000e+00    0.000000000e+00    0.000000000e+00
      395750000    9.503380060e-01    8.768765628e-02   -4.195608199e-05    1.011509448e-05    0.000000000e+00    0.000000000e+00    0.000000000e+00    0.000000000e+00
      403000000    9.521816373e-01   -2.938127331e-02    4.307366908e-06   -7.112510502e-06    0.000000000e+00    0.000000000e+00    0.000000000e+00    0.000000000e+00
      410250000    9.420729876e-01   -1.442704350e-01   -1.945532858e-05    1.632794738e-05    0.000000000e+00    0.000000000e+00    0.000000000e+00    0.000000000e+00
      417500000    9.191628695e-01   -2.568959296e-01   -8.136034012e-06   -4.960224032e-06    0.000000000e+00    0.000000000e+00    0.000000000e+00    0.000000000e+00
      424750000    8.840429783e-01   -3.641317189e-01    1.369882375e-05    1.136492938e-05    0.000000000e+00    0.000000000e+00    0.000000000e+00    0.000000000e+00
      432000000    8.380883932e-01   -4.673723280e-01   -2.934876829e-05    1.266784966e-05    0.000000000e+00    0.000000000e+00    0.000000000e+00    0.000000000e+00
      439250000    7.825804949e-01   -5.636863708e-01    2.127792686e-05   -7.554888725e-06    0.000000000e+00    0.000000000e+00    0.000000000e+00    0.000000000e+00
      446500000    7.181186676e-01   -6.520277858e-01   -1.126714051e-05   -2.225209028e-05    0.000000000e+00    0.000000000e+00    0.000000000e+00    0.000000000e+00
      453750000    6.441596746e-01   -7.348009944e-01    1.720990986e-05   -1.386180520e-05    0.000000000e+00    0.000000000e+00    0.000000000e+00    0.000000000e+00
      461000000    5.634394884e-01   -8.073427677e-01   -2.542510629e-05   -4.336237907e-06    0.000000000e+00    0.000000000e+00    0.000000000e+00    0.000000000e+00
      468250000    4.752486646e-01   -8.719559312e-01    1.442618668e-06   -1.064501703e-06    0.000000000e+00    0.000000000e+00    0.000000000e+00    0.000000000e+00
      475500000    3.805248439e-01   -9.270670414e-01    1.038890332e-05    4.192255437e-05    0.000000000e+00    0.000000000e+00    0.000000000e+00    0.000000000e+00
      482750000    2.809520662e-01   -9.716514349e-01   -1.030508429e-05    1.272000372e-05    0.000000000e+00    0.000000000e+00    0.000000000e+00    0.000000000e+00
      490000000    1.767522097e-01   -1.006345034e+00   -2.196338028e-05    8.363276720e-07    0.000000000e+00    0.000000000e+00    0.000000000e+00    0.000000000e+00
      497250000    6.930768490e-02   -1.029919863e+00    2.802908421e-05   -8.516944945e-06    0.000000000e+00    0.000000000e+00    0.000000000e+00    0.000000000e+00
      504500000   -4.031272605e-02   -1.040467262e+00   -1.728348434e-05   -2.080574632e-06    0.000000000e+00    0.000000000e+00    0.000000000e+00    0.000000000e+00
      511750000   -1.519478410e-01   -1.041396856e+00    1.548696309e-05   -1.859664917e-05    0.000000000e+00    0.000000000e+00    0.000000000e+00    0.000000000e+00
      519000000   -2.628821731e-01   -1.028555870e+00    9.369105101e-07   -1.911167055e-05    0.000000000e+00    0.000000000e+00    0.000000000e+00    0.000000000e+00
      526250000   -3.730506599e-01   -1.004606366e+00   -1.940410584e-05   -1.273863018e-05    0.000000000e+00    0.000000000e+00    0.000000000e+00    0.000000000e+00
      533500000   -4.802257121e-01   -9.679309130e-01   -1.592002809e-05   -1.975987107e-05    0.000000000e+00    0.000000000e+00    0.000000000e+00    0.000000000e+00
      540750000   -5.839564800e-01   -9.188820124e-01    6.794929504e-06   -1.592282206e-05    0.000000000e+00    0.000000000e+00    0.000000000e+00    0.000000000e+00
      548000000   -6.815183163e-01   -8.586371541e-01   -3.371387720e-07    8.988194168e-06    0.000000000e+00    0.000000000e+00    0.000000000e+00    0.000000000e+00
      555250000   -7.723075151e-01   -7.864726186e-01   -1.486949623e-05   -1.029670238e-05    0.000000000e+00    0.000000000e+00    0.000000000e+00    0.000000000e+00
      562500000   -8.552696705e-01   -7.020224333e-01   -3.919005394e-06   -2.035871148e-05    0.000000000e+00    0.000000000e+00    0.000000000e+00    0.000000000e+00
      569750000   -9.277253747e-01   -6.094066501e-01    4.151836038e-06    2.012401819e-05    0.000000000e+00    0.000000000e+00    0.000000000e+00    0.000000000e+00
      577000000   -9.885798097e-01   -5.093368292e-01    1.269392669e-06    2.027861774e-05    0.000000000e+00    0.000000000e+00    0.000000000e+00    0.000000000e+00
      584250000   -1.037487149e+00   -3.992107511e-01    1.654028893e-05    4.374515265e-05    0.000000000e+00    0.000000000e+00    0.000000000e+00    0.000000000e+00
      591500000   -1.072337508e+00   -2.860423625e-01    4.738569260e-06    1.592561603e-06    0.000000000e+00    0.000000000e+00    0.000000000e+00    0.000000000e+00
      598750000   -1.094668865e+00   -1.667194515e-01   -2.994388342e-05    1.988559961e-05    0.000000000e+00    0.000000000e+00    0.000000000e+00    0.000000000e+00
      606000000   -1.100978851e+00   -4.781002551e-02    2.081599087e-05    4.170462489e-05    0.000000000e+00    0.000000000e+00    0.000000000e+00    0.000000000e+00
      613250000   -1.093272567e+00    7.193040103e-02    2.065952867e-05   -2.687517554e-05    0.000000000e+00    0.000000000e+00    0.000000000e+00    0.000000000e+00
      620500000   -1.070883036e+00    1.880324036e-01    2.511218190e-05   -1.551955938e-05    0.000000000e+00    0.000000000e+00    0.000000000e+00    0.000000000e+00
      627750000   -1.033976197e+00    3.028197885e-01    2.383254468e-06   -2.482533455e-05    0.000000000e+00    0.000000000e+00    0.000000000e+00    0.000000000e+00
      635000000   -9.850226045e-01    4.084521532e-01    5.402229726e-05    1.281779259e-05    0.000000000e+00    0.000000000e+00    0.000000000e+00    0.000000000e+00
      642250000   -9.228519201e-01    5.095943213e-01   -1.207180321e-05   -2.575945109e-05    0.000000000e+00    0.000000000e+00    0.000000000e+00    0.000000000e+00
      649500000   -8.515805006e-01    5.992774367e-01    3.333948553e-05    7.893890142e-06    0.000000000e+00    0.000000000e+00    0.000000000e+00    0.000000000e+00
      656750000   -7.690345049e-01    6.803869009e-01    1.310929656e-05    1.461990178e-05    0.000000000e+00    0.000000000e+00    0.000000000e+00    0.000000000e+00
      664000000   -6.792094707e-01    7.507057190e-01   -2.461858094e-05    2.206023782e-05    0.000000000e+00    0.000000000e+00    0.000000000e+00    0.000000000e+00
      671250000   -5.825951099e-01    8.085235357e-01   -3.538653255e-05    1.100450754e-05    0.000000000e+00    0.000000000e+00    0.000000000e+00    0.000000000e+00
      678500000   -4.826186001e-01    8.552640676e-01    2.613943070e-05   -3.444403410e-05    0.000000000e+00    0.000000000e+00    0.000000000e+00    0.000000000e+00
      685750000   -3.785319030e-01    8.896991014e-01   -1.620873809e-05    2.741813660e-06    0.000000000e+00    0.000000000e+00    0.000000000e+00    0.000000000e+00
      693000000   -2.722204030e-01    9.121753573e-01    2.712290734e-05   -9.676441550e-06    0.000000000e+00    0.000000000e+00    0.000000000e+00    0.000000000e+00
      700250000   -1.653478444e-01    9.232352972e-01    9.851530194e-06    8.516944945e-06    0.000000000e+00    0.000000000e+00    0.000000000e+00    0.000000000e+00
      707500000   -5.927116051e-02    9.223855138e-01   -1.726765186e-05    1.017190516e-05    0.000000000e+00    0.000000000e+00    0.000000000e+00    0.000000000e+00
      714750000    4.638843238e-02    9.106473327e-01   -1.157633960e-06   -2.561882138e-05    0.000000000e+00    0.000000000e+00    0.000000000e+00    0.000000000e+00
      722000000    1.457267404e-01    8.881646395e-01    6.046984345e-05   -9.480863810e-07    0.000000000e+00    0.000000000e+00    0.000000000e+00    0.000000000e+00
      729250000    2.460297793e-01    8.543869257e-01   -1.746043563e-05   -9.450130165e-06    0.000000000e+00    0.000000000e+00    0.000000000e+00    0.000000000e+00
      736500000    3.375373185e-01    8.128674626e-01   -2.439878881e-05   -9.111128747e-06    0.000000000e+00    0.000000000e+00    0.000000000e+00    0.000000000e+00
      743750000    4.256718755e-01    7.622143626e-01   -3.639608622e-05   -3.288313746e-05    0.000000000e+00    0.000000000e+00    0.000000000e+00    0.000000000e+00
      751000000    5.072509050e-01    7.036766410e-01   -9.204261005e-06    1.921411604e-05    0.000000000e+00    0.000000000e+00    0.000000000e+00    0.000000000e+00
      758250000    5.822369456e-01    6.371107697e-01    5.901791155e-06    3.714114428e-06    0.000000000e+00    0.000000000e+00    0.000000000e+00    0.000000000e+00
      765500000    6.495459676e-01    5.647198558e-01   -1.686625183e-06    2.338364720e-05    0.000000000e+00    0.000000000e+00    0.000000000e+00    0.000000000e+00
      772750000    7.108116150e-01    4.841593504e-01   -5.122739822e-05   -3.922078758e-05    0.000000000e+00    0.000000000e+00    0.000000000e+00    0.000000000e+00
      780000000    7.623534799e-01    3.994348943e-01   -6.607733667e-06   -4.575587809e-05    0.000000000e+00    0.000000000e+00    0.000000000e+00    0.000000000e+00
      787250000    8.074248433e-01    3.075315058e-01    1.690350473e-06    5.381181836e-06    0.000000000e+00    0.000000000e+00    0.000000000e+00    0.000000000e+00
      794500000    8.424854875e-01    2.138215005e-01   -1.497752964e-05   -2.258550376e-05    0.000000000e+00    0.000000000e+00    0.000000000e+00    0.000000000e+00
      801750000    8.670982718e-01    1.149173453e-01   -3.406777978e-06    7.528811693e-06    0.000000000e+00    0.000000000e+00    0.000000000e+00    0.000000000e+00
      809000000    8.830389380e-01    1.450964063e-02   -1.459941268e-05    3.963150084e-05    0.000000000e+00    0.000000000e+00    0.000000000e+00    0.000000000e+00
      816250000    8.878259659e-01   -8.890648186e-02    1.799967140e-05   -2.828426659e-06    0.000000000e+00    0.000000000e+00    0.000000000e+00    0.000000000e+00
      823500000    8.818492889e-01   -1.948859096e-01    2.291798592e-05    2.854410559e-05    0.000000000e+00    0.000000000e+00    0.000000000e+00    0.000000000e+00
      830750000    8.643627763e-01   -2.984631062e-01    3.898330033e-05   -3.200769424e-05    0.000000000e+00    0.000000000e+00    0.000000000e+00    0.000000000e+00
      838000000    8.359893560e-01   -4.020669758e-01   -1.154933125e-05    3.287568688e-07    0.000000000e+00    0.000000000e+00    0.000000000e+00    0.000000000e+00
      845250000    7.953838110e-01   -5.032023787e-01   -3.366358578e-05   -1.334864646e-05    0.000000000e+00    0.000000000e+00    0.000000000e+00    0.000000000e+00
      852500000    7.425585389e-01   -6.017124653e-01    5.891546607e-06   -5.932524800e-06    0.000000000e+00    0.000000000e+00    0.000000000e+00    0.000000000e+00
      859750000    6.787153482e-01   -6.928593516e-01    1.068785787e-05   -5.423091352e-06    0.000000000e+00    0.000000000e+00    0.000000000e+00    0.000000000e+00
      867000000    6.011442542e-01   -7.790200710e-01    3.318954259e-05    2.158991992e-05    0.000000000e+00    0.000000000e+00    0.000000000e+00    0.000000000e+00
      874250000    5.160470009e-01   -8.543062806e-01   -3.997888416e-05   -2.643559128e-05    0.000000000e+00    0.000000000e+00    0.000000000e+00    0.000000000e+00
      881500000    4.161896706e-01   -9.218655229e-01    2.690497786e-05    9.491108358e-06    0.000000000e+00    0.000000000e+00    0.000000000e+00    0.000000000e+00
      888750000    3.093584776e-01   -9.754862189e-01    3.125239164e-05   -5.317386240e-05    0.000000000e+00    0.000000000e+00    0.000000000e+00    0.000000000e+00
      896000000    1.949854046e-01   -1.016298175e+00    3.914348781e-06    4.156399518e-05    0.000000000e+00    0.000000000e+00    0.000000000e+00    0.000000000e+00
      903250000    7.613398880e-02   -1.041013956e+00    2.516526729e-05   -2.186745405e-06    0.000000000e+00    0.000000000e+00    0.000000000e+00    0.000000000e+00
      910500000   -4.688539356e-02   -1.050238967e+00    1.096166670e-05   -8.586794138e-06    0.000000000e+00    0.000000000e+00    0.000000000e+00    0.000000000e+00
      917750000   -1.710629761e-01   -1.042137742e+00   -1.338403672e-05    4.210509360e-06    0.000000000e+00    0.000000000e+00    0.000000000e+00    0.000000000e+00
      925000000   -2.919744849e-01   -1.017270565e+00   -1.465994865e-05    1.452956349e-05    0.000000000e+00    0.000000000e+00    0.000000000e+00    0.000000000e+00
      932250000   -4.109166265e-01   -9.758317471e-01    2.087745816e-05   -2.994760871e-05    0.000000000e+00    0.000000000e+00    0.000000000e+00    0.000000000e+00
      939500000   -5.200834274e-01   -9.191275239e-01    1.383014023e-06   -4.309415817e-05    0.000000000e+00    0.000000000e+00    0.000000000e+00    0.000000000e+00
      946750000   -6.187938452e-01   -8.486568928e-01   -1.693796366e-05   -2.725515515e-05    0.000000000e+00    0.000000000e+00    0.000000000e+00    0.000000000e+00
      954000000   -7.089939117e-01   -7.661199570e-01    1.430697739e-05   -1.689884812e-05    0.000000000e+00    0.000000000e+00    0.000000000e+00    0.000000000e+00
      961250000   -7.840344310e-01   -6.740019917e-01    3.533530980e-05   -5.145650357e-05    0.000000000e+00    0.000000000e+00    0.000000000e+00    0.000000000e+00
      968500000   -8.465360403e-01   -5.729075074e-01    9.341165423e-07   -2.617016435e-05    0.000000000e+00    0.000000000e+00    0.000000000e+00    0.000000000e+00
      975750000   -8.929551244e-01   -4.690411091e-01   -2.095475793e-06    5.180947483e-06    0.000000000e+00    0.000000000e+00    0.000000000e+00    0.000000000e+00
      983000000   -9.258926511e-01   -3.610530496e-01   -8.116476238e-06   -7.729046047e-06    0.000000000e+00    0.000000000e+00    0.000000000e+00    0.000000000e+00
      990250000   -9.443826675e-01   -2.524664104e-01   -9.800307453e-06    1.381523907e-05    0.000000000e+00    0.000000000e+00    0.000000000e+00    0.000000000e+00
      997500000   -9.494367242e-01   -1.452081501e-01    1.603737473e-06   -1.368578523e-05    0.000000000e+00    0.000000000e+00    0.000000000e+00    0.000000000e+00
     1004750000   -9.413220286e-01   -4.065982625e-02    1.099612564e-05    1.180917025e-05    0.000000000e+00    0.000000000e+00    0.000000000e+00    0.000000000e+00
     1012000000   -9.223566651e-01    5.892375112e-02   -6.602145731e-06   -3.402121365e-05    0.000000000e+00    0.000000000e+00    0.000000000e+00    0.000000000e+00
     1019250000   -8.925918341e-01    1.533822864e-01    3.147777170e-05   -5.506910384e-06    0.000000000e+00    0.000000000e+00    0.000000000e+00    0.000000000e+00
     1026500000   -8.548054099e-01    2.429551035e-01   -1.712795347e-05    4.416331649e-06    0.000000000e+00    0.000000000e+00    0.000000000e+00    0.000000000e+00
     1033750000   -8.071340322e-01    3.250923157e-01    1.476146281e-06   -9.265728295e-06    0.000000000e+00    0.000000000e+00    0.000000000e+00    0.000000000e+00
     1041000000   -7.539877295e-01    3.997932374e-01   -1.580454409e-06    7.860921323e-05    0.000000000e+00    0.000000000e+00    0.000000000e+00    0.000000000e+00
