! NanoVNA-App by OneOfEleven et al v1.1.209 (+OD15) 
! Date: 2024-07-30 15:17:39
! Start: 200MHz Stop: 6GHz Points: 801
! S-Parameter data: F S11 S21 S12 S22
# Hz S RI R 50
!     Frequency           S11_Real           S11_Imag           S21_Real           S21_Imag           S12_Real           S12_Imag           S22_Real           S22_Imag
      200000000   -9.989445806e-01   -1.161445007e-01   -1.104176044e-05   -2.267770469e-06    0.000000000e+00    0.000000000e+00    0.000000000e+00    0.000000000e+00
      207250000   -1.010228872e+00   -1.680176146e-02    6.464309990e-06   -2.771150321e-05    0.000000000e+00    0.000000000e+00    0.000000000e+00    0.000000000e+00
      214500000   -1.011339903e+00    8.438067883e-02    8.074566722e-06   -5.353894085e-05    0.000000000e+00    0.000000000e+00    0.000000000e+00    0.000000000e+00
      221750000   -1.002623320e+00    1.875385791e-01   -1.594051719e-05    2.278760076e-05    0.000000000e+00    0.000000000e+00    0.000000000e+00    0.000000000e+00
      229000000   -9.821705818e-01    2.901407778e-01   -3.256835043e-06    1.139007509e-05    0.000000000e+00    0.000000000e+00    0.000000000e+00    0.000000000e+00
      236250000   -9.494430423e-01    3.929979801e-01    1.341477036e-05   -3.330409527e-06    0.000000000e+00    0.000000000e+00    0.000000000e+00    0.000000000e+00
      243500000   -9.060856104e-01    4.929948747e-01   -9.130686522e-06   -2.558901906e-05    0.000000000e+00    0.000000000e+00    0.000000000e+00    0.000000000e+00
      250750000   -8.497692347e-01    5.895412564e-01    2.420600504e-05    1.547485590e-05    0.000000000e+00    0.000000000e+00    0.000000000e+00    0.000000000e+00
      258000000   -7.813959718e-01    6.804825664e-01    7.794238627e-06    2.551916987e-05    0.000000000e+00    0.000000000e+00    0.000000000e+00    0.000000000e+00
      265250000   -7.008038163e-01    7.640212774e-01   -1.067481935e-05    1.540593803e-05    0.000000000e+00    0.000000000e+00    0.000000000e+00    0.000000000e+00
      272500000   -6.099460125e-01    8.386030197e-01    2.196151763e-05   -8.963979781e-06    0.000000000e+00    0.000000000e+00    0.000000000e+00    0.000000000e+00
      279750000   -5.093339086e-01    9.038392305e-01   -1.084059477e-05   -2.732872963e-05    0.000000000e+00    0.000000000e+00    0.000000000e+00    0.000000000e+00
      287000000   -3.980989456e-01    9.550498128e-01   -1.156982034e-05   -1.195073128e-05    0.000000000e+00    0.000000000e+00    0.000000000e+00    0.000000000e+00
      294250000   -2.808918059e-01    9.931020141e-01    1.142732799e-06   -4.329252988e-05    0.000000000e+00    0.000000000e+00    0.000000000e+00    0.000000000e+00
      301500000   -1.578460038e-01    1.015411258e+00   -1.115910709e-05   -7.407739758e-06    0.000000000e+00    0.000000000e+00    0.000000000e+00    0.000000000e+00
      308750000   -3.326109424e-02    1.023499608e+00    1.108273864e-06   -1.281034201e-05    0.000000000e+00    0.000000000e+00    0.000000000e+00    0.000000000e+00
      316000000    9.353837371e-02    1.013724685e+00    2.199783921e-05   -1.967605203e-05    0.000000000e+00    0.000000000e+00    0.000000000e+00    0.000000000e+00
      323250000    2.177467942e-01    9.880238175e-01    1.928955317e-05    2.210959792e-06    0.000000000e+00    0.000000000e+00    0.000000000e+00    0.000000000e+00
      330500000    3.380389810e-01    9.462351203e-01    3.793556243e-05    1.486297697e-05    0.000000000e+00    0.000000000e+00    0.000000000e+00    0.000000000e+00
      337750000    4.510665536e-01    8.904708624e-01   -3.641843796e-05    2.051703632e-06    0.000000000e+00    0.000000000e+00    0.000000000e+00    0.000000000e+00
      345000000    5.566741228e-01    8.202433586e-01   -8.260831237e-06   -4.478357732e-05    0.000000000e+00    0.000000000e+00    0.000000000e+00    0.000000000e+00
      352250000    6.515405178e-01    7.373898029e-01   -2.119038254e-05   -2.784654498e-06    0.000000000e+00    0.000000000e+00    0.000000000e+00    0.000000000e+00
      359500000    7.344464064e-01    6.445533633e-01   -9.313225746e-08   -6.423331797e-06    0.000000000e+00    0.000000000e+00    0.000000000e+00    0.000000000e+00
      366750000    8.048316836e-01    5.427489877e-01    3.831461072e-06    3.181491047e-05    0.000000000e+00    0.000000000e+00    0.000000000e+00    0.000000000e+00
      374000000    8.618418574e-01    4.345619380e-01   -1.175235957e-05   -8.815899491e-06    0.000000000e+00    0.000000000e+00    0.000000000e+00    0.000000000e+00
      381250000    9.049630165e-01    3.206862807e-01    1.955404878e-05   -4.077050835e-05    0.000000000e+00    0.000000000e+00    0.000000000e+00    0.000000000e+00
      388500000    9.347871542e-01    2.050463557e-01    2.010166645e-05   -3.363750875e-05    0.000000000e+00    0.000000000e+00    0.000000000e+00    0.000000000e+00
      395750000    9.503474236e-01    8.788831532e-02    6.438232958e-06   -2.714246511e-05    0.000000000e+00    0.000000000e+00    0.000000000e+00    0.000000000e+00
      403000000    9.523720145e-01   -2.830923535e-02   -1.908373088e-05    1.591537148e-05    0.000000000e+00    0.000000000e+00    0.000000000e+00    0.000000000e+00
      410250000    9.418183565e-01   -1.440092623e-01   -2.345815301e-05   -9.680166841e-06    0.000000000e+00    0.000000000e+00    0.000000000e+00    0.000000000e+00
      417500000    9.189797044e-01   -2.553168535e-01   -1.155585051e-05   -2.617016435e-07    0.000000000e+00    0.000000000e+00    0.000000000e+00    0.000000000e+00
      424750000    8.842749000e-01   -3.642169237e-01    3.525801003e-05   -6.957910955e-06    0.000000000e+00    0.000000000e+00    0.000000000e+00    0.000000000e+00
      432000000    8.391557336e-01   -4.663276374e-01   -1.453422010e-05    1.800060272e-05    0.000000000e+00    0.000000000e+00    0.000000000e+00    0.000000000e+00
      439250000    7.836626768e-01   -5.631047487e-01   -5.364418030e-07    4.220753908e-06    0.000000000e+00    0.000000000e+00    0.000000000e+00    0.000000000e+00
      446500000    7.189493775e-01   -6.514819264e-01   -2.415478230e-05    1.873169094e-05    0.000000000e+00    0.000000000e+00    0.000000000e+00    0.000000000e+00
      453750000    6.446378827e-01   -7.347809076e-01    1.194979995e-05   -2.982933074e-05    0.000000000e+00    0.000000000e+00    0.000000000e+00    0.000000000e+00
      461000000    5.639528036e-01   -8.074165583e-01    1.865625381e-05    2.546329051e-05    0.000000000e+00    0.000000000e+00    0.000000000e+00    0.000000000e+00
      468250000    4.761768878e-01   -8.717374206e-01    8.292496204e-06   -3.867503256e-05    0.000000000e+00    0.000000000e+00    0.000000000e+00    0.000000000e+00
      475500000    3.806198239e-01   -9.268918633e-01    1.161452383e-05   -3.169104457e-05    0.000000000e+00    0.000000000e+00    0.000000000e+00    0.000000000e+00
      482750000    2.814207673e-01   -9.716410041e-01   -5.308538675e-07    7.220543921e-06    0.000000000e+00    0.000000000e+00    0.000000000e+00    0.000000000e+00
      490000000    1.774786264e-01   -1.006269097e+00    2.083368599e-05   -1.230090857e-05    0.000000000e+00    0.000000000e+00    0.000000000e+00    0.000000000e+00
      497250000    6.936818361e-02   -1.029008031e+00   -8.577480912e-06    4.358775914e-05    0.000000000e+00    0.000000000e+00    0.000000000e+00    0.000000000e+00
      504500000   -3.919623047e-02   -1.041644931e+00    2.520158887e-06    1.115910709e-05    0.000000000e+00    0.000000000e+00    0.000000000e+00    0.000000000e+00
      511750000   -1.505473852e-01   -1.041076541e+00    1.923274249e-05    2.052448690e-05    0.000000000e+00    0.000000000e+00    0.000000000e+00    0.000000000e+00
      519000000   -2.618664503e-01   -1.029600859e+00   -1.002848148e-05    3.108475357e-05    0.000000000e+00    0.000000000e+00    0.000000000e+00    0.000000000e+00
      526250000   -3.725708127e-01   -1.004727244e+00    5.197711289e-06   -1.807417721e-05    0.000000000e+00    0.000000000e+00    0.000000000e+00    0.000000000e+00
      533500000   -4.793981016e-01   -9.685378075e-01   -2.587027848e-05   -2.305023372e-06    0.000000000e+00    0.000000000e+00    0.000000000e+00    0.000000000e+00
      540750000   -5.839297771e-01   -9.194090366e-01    3.469921649e-05   -1.576822251e-05    0.000000000e+00    0.000000000e+00    0.000000000e+00    0.000000000e+00
      548000000   -6.813077927e-01   -8.590659499e-01    1.961458474e-05    1.370254904e-05    0.000000000e+00    0.000000000e+00    0.000000000e+00    0.000000000e+00
      555250000   -7.721789479e-01   -7.867267728e-01    6.970949471e-06   -3.925897181e-05    0.000000000e+00    0.000000000e+00    0.000000000e+00    0.000000000e+00
      562500000   -8.542231321e-01   -7.027650476e-01    2.228561789e-05   -1.140590757e-05    0.000000000e+00    0.000000000e+00    0.000000000e+00    0.000000000e+00
      569750000   -9.271123409e-01   -6.106308699e-01   -7.783062756e-06   -1.839362085e-06    0.000000000e+00    0.000000000e+00    0.000000000e+00    0.000000000e+00
      577000000   -9.887164235e-01   -5.081034303e-01    9.220093489e-06   -3.169290721e-06    0.000000000e+00    0.000000000e+00    0.000000000e+00    0.000000000e+00
      584250000   -1.037591338e+00   -4.012574852e-01   -1.737195998e-05   -1.996289939e-05    0.000000000e+00    0.000000000e+00    0.000000000e+00    0.000000000e+00
      591500000   -1.072378278e+00   -2.872731686e-01   -2.034381032e-05    1.532956958e-06    0.000000000e+00    0.000000000e+00    0.000000000e+00    0.000000000e+00
      598750000   -1.094149351e+00   -1.676575392e-01    8.354894817e-06   -1.837871969e-05    0.000000000e+00    0.000000000e+00    0.000000000e+00    0.000000000e+00
      606000000   -1.101404786e+00   -4.830891639e-02   -6.078742445e-06    3.778375685e-06    0.000000000e+00    0.000000000e+00    0.000000000e+00    0.000000000e+00
      613250000   -1.093806386e+00    7.022151351e-02    3.481097519e-05    2.481788397e-05    0.000000000e+00    0.000000000e+00    0.000000000e+00    0.000000000e+00
      620500000   -1.071995497e+00    1.878201216e-01   -2.896878868e-05    1.356471330e-05    0.000000000e+00    0.000000000e+00    0.000000000e+00    0.000000000e+00
      627750000   -1.034280062e+00    3.020250499e-01   -1.928489655e-05    6.129965186e-06    0.000000000e+00    0.000000000e+00    0.000000000e+00    0.000000000e+00
      635000000   -9.863526225e-01    4.081676900e-01   -1.741759479e-05    1.615192741e-05    0.000000000e+00    0.000000000e+00    0.000000000e+00    0.000000000e+00
      642250000   -9.236931801e-01    5.087018609e-01    1.553166658e-05   -1.899432391e-05    0.000000000e+00    0.000000000e+00    0.000000000e+00    0.000000000e+00
      649500000   -8.523280621e-01    5.990415215e-01   -4.043988883e-05    3.583356738e-05    0.000000000e+00    0.000000000e+00    0.000000000e+00    0.000000000e+00
      656750000   -7.706114650e-01    6.796917319e-01    3.194436431e-07    8.516944945e-06    0.000000000e+00    0.000000000e+00    0.000000000e+00    0.000000000e+00
      664000000   -6.803032160e-01    7.495875359e-01   -9.506940842e-06   -1.290999353e-05    0.000000000e+00    0.000000000e+00    0.000000000e+00    0.000000000e+00
      671250000   -5.841541290e-01    8.084610105e-01    2.477690578e-05   -1.555122435e-05    0.000000000e+00    0.000000000e+00    0.000000000e+00    0.000000000e+00
      678500000   -4.838857651e-01    8.550242782e-01   -2.223439515e-05    1.223292202e-05    0.000000000e+00    0.000000000e+00    0.000000000e+00    0.000000000e+00
      685750000   -3.800166845e-01    8.898127675e-01   -2.919230610e-05   -1.815054566e-05    0.000000000e+00    0.000000000e+00    0.000000000e+00    0.000000000e+00
      693000000   -2.738220394e-01    9.126170874e-01   -2.874899656e-05    2.503395081e-05    0.000000000e+00    0.000000000e+00    0.000000000e+00    0.000000000e+00
      700250000   -1.662722230e-01    9.231513143e-01    1.955591142e-05   -3.618095070e-05    0.000000000e+00    0.000000000e+00    0.000000000e+00    0.000000000e+00
      707500000   -5.966563523e-02    9.226263165e-01   -6.748363376e-06   -1.798104495e-05    0.000000000e+00    0.000000000e+00    0.000000000e+00    0.000000000e+00
      714750000    4.515469819e-02    9.107556939e-01   -3.662612289e-05    1.477450132e-05    0.000000000e+00    0.000000000e+00    0.000000000e+00    0.000000000e+00
      722000000    1.471506655e-01    8.878721595e-01    1.920200884e-05    2.859160304e-06    0.000000000e+00    0.000000000e+00    0.000000000e+00    0.000000000e+00
      729250000    2.442999184e-01    8.554722667e-01    2.268049866e-05    4.961621016e-05    0.000000000e+00    0.000000000e+00    0.000000000e+00    0.000000000e+00
      736500000    3.368977606e-01    8.145184517e-01    1.309625804e-05    3.576278687e-06    0.000000000e+00    0.000000000e+00    0.000000000e+00    0.000000000e+00
      743750000    4.246288836e-01    7.629476190e-01    2.830196172e-05   -1.341011375e-05    0.000000000e+00    0.000000000e+00    0.000000000e+00    0.000000000e+00
      751000000    5.060182214e-01    7.046465278e-01   -1.721084118e-05   -1.100450754e-05    0.000000000e+00    0.000000000e+00    0.000000000e+00    0.000000000e+00
      758250000    5.823256373e-01    6.376616359e-01    9.167008102e-06   -3.273319453e-05    0.000000000e+00    0.000000000e+00    0.000000000e+00    0.000000000e+00
      765500000    6.498607993e-01    5.643420219e-01   -1.084338874e-05   -1.022592187e-06    0.000000000e+00    0.000000000e+00    0.000000000e+00    0.000000000e+00
      772750000    7.100926638e-01    4.858004451e-01   -4.855263978e-05    2.257712185e-05    0.000000000e+00    0.000000000e+00    0.000000000e+00    0.000000000e+00
      780000000    7.622658610e-01    4.004771113e-01    5.918554962e-05   -2.343207598e-06    0.000000000e+00    0.000000000e+00    0.000000000e+00    0.000000000e+00
      787250000    8.072059155e-01    3.084035218e-01    1.258309931e-05    1.656822860e-06    0.000000000e+00    0.000000000e+00    0.000000000e+00    0.000000000e+00
      794500000    8.417457938e-01    2.147464454e-01    1.456588507e-06    9.266659617e-07    0.000000000e+00    0.000000000e+00    0.000000000e+00    0.000000000e+00
      801750000    8.675075173e-01    1.162508279e-01    2.653617412e-05    4.498288035e-07    0.000000000e+00    0.000000000e+00    0.000000000e+00    0.000000000e+00
      809000000    8.828391433e-01    1.531617902e-02   -2.891104668e-05   -1.713633537e-05    0.000000000e+00    0.000000000e+00    0.000000000e+00    0.000000000e+00
      816250000    8.882713318e-01   -8.786720783e-02    1.188740134e-05    2.041738480e-05    0.000000000e+00    0.000000000e+00    0.000000000e+00    0.000000000e+00
      823500000    8.817285299e-01   -1.943714172e-01    3.367662430e-05    1.448486000e-05    0.000000000e+00    0.000000000e+00    0.000000000e+00    0.000000000e+00
      830750000    8.650872707e-01   -2.982754707e-01   -1.145526767e-07   -4.469417036e-06    0.000000000e+00    0.000000000e+00    0.000000000e+00    0.000000000e+00
      838000000    8.364192843e-01   -4.020251036e-01   -9.177252650e-06    1.924857497e-05    0.000000000e+00    0.000000000e+00    0.000000000e+00    0.000000000e+00
      845250000    7.958948612e-01   -5.029003620e-01    1.350417733e-05   -3.911554813e-08    0.000000000e+00    0.000000000e+00    0.000000000e+00    0.000000000e+00
      852500000    7.433382273e-01   -6.003603935e-01    3.204960376e-05    4.982575774e-06    0.000000000e+00    0.000000000e+00    0.000000000e+00    0.000000000e+00
      859750000    6.794875860e-01   -6.923333406e-01   -1.349393278e-05    7.243826985e-06    0.000000000e+00    0.000000000e+00    0.000000000e+00    0.000000000e+00
      867000000    6.029955745e-01   -7.786606550e-01   -1.736171544e-05    2.603512257e-05    0.000000000e+00    0.000000000e+00    0.000000000e+00    0.000000000e+00
      874250000    5.159411430e-01   -8.549065590e-01   -1.436565071e-05    1.258403063e-05    0.000000000e+00    0.000000000e+00    0.000000000e+00    0.000000000e+00
      881500000    4.162037969e-01   -9.222218394e-01    2.827867866e-05   -9.533017874e-06    0.000000000e+00    0.000000000e+00    0.000000000e+00    0.000000000e+00
      888750000    3.115642965e-01   -9.753164649e-01   -1.113116741e-05    3.397371620e-05    0.000000000e+00    0.000000000e+00    0.000000000e+00    0.000000000e+00
      896000000    1.967125982e-01   -1.016362309e+00   -3.445893526e-06    1.358799636e-05    0.000000000e+00    0.000000000e+00    0.000000000e+00    0.000000000e+00
      903250000    7.797840238e-02   -1.041129827e+00   -2.740509808e-05   -2.444721758e-06    0.000000000e+00    0.000000000e+00    0.000000000e+00    0.000000000e+00
      910500000   -4.762680084e-02   -1.049671531e+00    5.822628736e-05   -1.730769873e-05    0.000000000e+00    0.000000000e+00    0.000000000e+00    0.000000000e+00
      917750000   -1.700330675e-01   -1.042261720e+00    4.343129694e-05   -9.676441550e-07    0.000000000e+00    0.000000000e+00    0.000000000e+00    0.000000000e+00
      925000000   -2.917771935e-01   -1.017876863e+00   -7.892027497e-06    3.688875586e-05    0.000000000e+00    0.000000000e+00    0.000000000e+00    0.000000000e+00
      932250000   -4.111675024e-01   -9.755287170e-01   -2.498552203e-05   -6.967224181e-06    0.000000000e+00    0.000000000e+00    0.000000000e+00    0.000000000e+00
      939500000   -5.198595524e-01   -9.198707938e-01   -7.815659046e-06   -2.403650433e-05    0.000000000e+00    0.000000000e+00    0.000000000e+00    0.000000000e+00
      946750000   -6.190701723e-01   -8.493226171e-01    2.080947161e-05    2.650916576e-05    0.000000000e+00    0.000000000e+00    0.000000000e+00    0.000000000e+00
      954000000   -7.095640302e-01   -7.658962607e-01    1.893751323e-05    1.048203558e-05    0.000000000e+00    0.000000000e+00    0.000000000e+00    0.000000000e+00
      961250000   -7.838163972e-01   -6.759552360e-01    5.107838660e-05   -1.071020961e-07    0.000000000e+00    0.000000000e+00    0.000000000e+00    0.000000000e+00
      968500000   -8.456907272e-01   -5.750185251e-01    1.717545092e-05   -2.230610698e-05    0.000000000e+00    0.000000000e+00    0.000000000e+00    0.000000000e+00
      975750000   -8.931393027e-01   -4.709021151e-01    1.061707735e-05    1.734402031e-05    0.000000000e+00    0.000000000e+00    0.000000000e+00    0.000000000e+00
      983000000   -9.260132313e-01   -3.626493514e-01   -2.588797361e-05    2.063717693e-05    0.000000000e+00    0.000000000e+00    0.000000000e+00    0.000000000e+00
      990250000   -9.445331097e-01   -2.540530264e-01   -9.139999747e-06    2.197455615e-05    0.000000000e+00    0.000000000e+00    0.000000000e+00    0.000000000e+00
      997500000   -9.495258927e-01   -1.467574388e-01   -3.011245281e-05   -3.116857260e-05    0.000000000e+00    0.000000000e+00    0.000000000e+00    0.000000000e+00
     1004750000   -9.420617223e-01   -4.226998612e-02   -1.638941467e-05    2.912338823e-05    0.000000000e+00    0.000000000e+00    0.000000000e+00    0.000000000e+00
     1012000000   -9.229448438e-01    5.851207674e-02    2.600997686e-05    8.344650269e-07    0.000000000e+00    0.000000000e+00    0.000000000e+00    0.000000000e+00
     1019250000   -8.935956955e-01    1.530077904e-01    2.578832209e-06    2.456828952e-06    0.000000000e+00    0.000000000e+00    0.000000000e+00    0.000000000e+00
     1026500000   -8.548300266e-01    2.419899702e-01   -3.288500011e-06    1.353211701e-06    0.000000000e+00    0.000000000e+00    0.000000000e+00    0.000000000e+00
     1033750000   -8.084959984e-01    3.251535892e-01   -8.748844266e-06    3.004446626e-05    0.000000000e+00    0.000000000e+00    0.000000000e+00    0.000000000e+00
     1041000000   -7.548565865e-01    3.983372152e-01   -1.631490886e-05   -2.218782902e-05    0.000000000e+00    0.000000000e+00    0.000000000e+00    0.000000000e+00
