! NanoVNA-App by OneOfEleven et al v1.1.209 (+OD15) 
! Date: 2024-07-30 15:17:44
! Start: 200MHz Stop: 6GHz Points: 801
! S-Parameter data: F S11 S21 S12 S22
# Hz S RI R 50
!     Frequency           S11_Real           S11_Imag           S21_Real           S21_Imag           S12_Real           S12_Imag           S22_Real           S22_Imag
      200000000   -9.990537167e-01   -1.159891486e-01   -4.723668098e-06    1.675635576e-05    0.000000000e+00    0.000000000e+00    0.000000000e+00    0.000000000e+00
      207250000   -1.010281205e+00   -1.662036590e-02   -2.015382051e-06   -3.314577043e-06    0.000000000e+00    0.000000000e+00    0.000000000e+00    0.000000000e+00
      214500000   -1.011589885e+00    8.448859304e-02    2.411194146e-06    1.329556108e-05    0.000000000e+00    0.000000000e+00    0.000000000e+00    0.000000000e+00
      221750000   -1.002176642e+00    1.875706315e-01   -3.235042095e-05   -2.160668373e-07    0.000000000e+00    0.000000000e+00    0.000000000e+00    0.000000000e+00
      229000000   -9.818781018e-01    2.901606858e-01    2.107396722e-05    6.543472409e-06    0.000000000e+00    0.000000000e+00    0.000000000e+00    0.000000000e+00
      236250000   -9.501572847e-01    3.928936124e-01   -2.883281559e-05    4.416331649e-06    0.000000000e+00    0.000000000e+00    0.000000000e+00    0.000000000e+00
      243500000   -9.062111378e-01    4.933913350e-01   -2.741999924e-05    1.018960029e-05    0.000000000e+00    0.000000000e+00    0.000000000e+00    0.000000000e+00
      250750000   -8.495467305e-01    5.899965763e-01    2.980977297e-05   -1.207832247e-05    0.000000000e+00    0.000000000e+00    0.000000000e+00    0.000000000e+00
      258000000   -7.809464931e-01    6.804401875e-01   -4.914589226e-06    1.279730350e-05    0.000000000e+00    0.000000000e+00    0.000000000e+00    0.000000000e+00
      265250000   -7.017507553e-01    7.646222711e-01    1.901853830e-05    9.817071259e-06    0.000000000e+00    0.000000000e+00    0.000000000e+00    0.000000000e+00
      272500000   -6.102753878e-01    8.394324183e-01   -1.079030335e-05    4.829838872e-06    0.000000000e+00    0.000000000e+00    0.000000000e+00    0.000000000e+00
      279750000   -5.086969137e-01    9.041014910e-01    4.741828889e-05    1.323409379e-05    0.000000000e+00    0.000000000e+00    0.000000000e+00    0.000000000e+00
      287000000   -3.982667923e-01    9.555035233e-01    3.864709288e-05   -1.812167466e-05    0.000000000e+00    0.000000000e+00    0.000000000e+00    0.000000000e+00
      294250000   -2.806811631e-01    9.929876328e-01    2.157315612e-05   -3.537442535e-05    0.000000000e+00    0.000000000e+00    0.000000000e+00    0.000000000e+00
      301500000   -1.579790562e-01    1.015614152e+00   -2.098083496e-05   -9.368173778e-06    0.000000000e+00    0.000000000e+00    0.000000000e+00    0.000000000e+00
      308750000   -3.259465471e-02    1.022773504e+00    5.131587386e-07    8.351169527e-06    0.000000000e+00    0.000000000e+00    0.000000000e+00    0.000000000e+00
      316000000    9.378214180e-02    1.013687968e+00   -4.832074046e-05    4.760921001e-05    0.000000000e+00    0.000000000e+00    0.000000000e+00    0.000000000e+00
      323250000    2.178796530e-01    9.883005619e-01    1.897756010e-05   -1.024454832e-05    0.000000000e+00    0.000000000e+00    0.000000000e+00    0.000000000e+00
      330500000    3.382092118e-01    9.463713765e-01    7.838942111e-06    9.763054550e-06    0.000000000e+00    0.000000000e+00    0.000000000e+00    0.000000000e+00
      337750000    4.510101378e-01    8.904877901e-01    1.349113882e-05   -5.847774446e-06    0.000000000e+00    0.000000000e+00    0.000000000e+00    0.000000000e+00
      345000000    5.571281910e-01    8.202528358e-01   -2.322159708e-05    8.442439139e-06    0.000000000e+00    0.000000000e+00    0.000000000e+00    0.000000000e+00
      352250000    6.513187289e-01    7.368651628e-01   -1.933425665e-06    1.862831414e-05    0.000000000e+00    0.000000000e+00    0.000000000e+00    0.000000000e+00
      359500000    7.344815135e-01    6.443150640e-01   -2.484675497e-05   -2.873968333e-05    0.000000000e+00    0.000000000e+00    0.000000000e+00    0.000000000e+00
      366750000    8.050518036e-01    5.425083041e-01    3.290362656e-06   -1.132208854e-05    0.000000000e+00    0.000000000e+00    0.000000000e+00    0.000000000e+00
      374000000    8.621770740e-01    4.336815476e-01   -7.748603821e-06   -4.082918167e-05    0.000000000e+00    0.000000000e+00    0.000000000e+00    0.000000000e+00
      381250000    9.053225517e-01    3.204676509e-01    9.573064744e-06    1.705065370e-05    0.000000000e+00    0.000000000e+00    0.000000000e+00    0.000000000e+00
      388500000    9.342284799e-01    2.049592584e-01   -1.467671245e-05   -1.117307693e-05    0.000000000e+00    0.000000000e+00    0.000000000e+00    0.000000000e+00
      395750000    9.503712058e-01    8.830104768e-02    3.458000720e-06   -1.873262227e-05    0.000000000e+00    0.000000000e+00    0.000000000e+00    0.000000000e+00
      403000000    9.527487755e-01   -2.906571701e-02    2.655759454e-05   -1.460686326e-05    0.000000000e+00    0.000000000e+00    0.000000000e+00    0.000000000e+00
      410250000    9.415449500e-01   -1.445366740e-01   -1.767370850e-05   -4.805624485e-05    0.000000000e+00    0.000000000e+00    0.000000000e+00    0.000000000e+00
      417500000    9.191805720e-01   -2.556044757e-01   -8.828006685e-06    5.112029612e-06    0.000000000e+00    0.000000000e+00    0.000000000e+00    0.000000000e+00
      424750000    8.845067024e-01   -3.644427359e-01    2.215802670e-05    7.518567145e-06    0.000000000e+00    0.000000000e+00    0.000000000e+00    0.000000000e+00
      432000000    8.390616179e-01   -4.669614434e-01    1.531280577e-05   -6.360001862e-06    0.000000000e+00    0.000000000e+00    0.000000000e+00    0.000000000e+00
      439250000    7.837322950e-01   -5.626153350e-01   -2.252124250e-05   -1.091603190e-05    0.000000000e+00    0.000000000e+00    0.000000000e+00    0.000000000e+00
      446500000    7.188637853e-01   -6.517335773e-01   -2.065487206e-05   -5.693174899e-06    0.000000000e+00    0.000000000e+00    0.000000000e+00    0.000000000e+00
      453750000    6.452922821e-01   -7.343646884e-01    1.839268953e-05    2.240668982e-05    0.000000000e+00    0.000000000e+00    0.000000000e+00    0.000000000e+00
      461000000    5.638468266e-01   -8.071612120e-01    2.533383667e-05   -2.048909664e-08    0.000000000e+00    0.000000000e+00    0.000000000e+00    0.000000000e+00
      468250000    4.760157168e-01   -8.713821769e-01   -8.650124073e-06   -1.465342939e-05    0.000000000e+00    0.000000000e+00    0.000000000e+00    0.000000000e+00
      475500000    3.807456493e-01   -9.270262718e-01    2.468004823e-07   -7.377937436e-06    0.000000000e+00    0.000000000e+00    0.000000000e+00    0.000000000e+00
      482750000    2.814413309e-01   -9.717423320e-01   -1.618824899e-05    8.823908865e-05    0.000000000e+00    0.000000000e+00    0.000000000e+00    0.000000000e+00
      490000000    1.773620397e-01   -1.005932808e+00    2.069957554e-05   -2.312008291e-05    0.000000000e+00    0.000000000e+00    0.000000000e+00    0.000000000e+00
      497250000    6.942003220e-02   -1.028839827e+00   -1.114513725e-05    3.278069198e-05    0.000000000e+00    0.000000000e+00    0.000000000e+00    0.000000000e+00
      504500000   -4.034313187e-02   -1.040682197e+00   -6.164424121e-06    1.496635377e-05    0.000000000e+00    0.000000000e+00    0.000000000e+00    0.000000000e+00
      511750000   -1.508403122e-01   -1.040858388e+00   -1.886766404e-05    1.732259989e-06    0.000000000e+00    0.000000000e+00    0.000000000e+00    0.000000000e+00
      519000000   -2.618174255e-01   -1.029482365e+00   -4.341267049e-05    3.957189620e-06    0.000000000e+00    0.000000000e+00    0.000000000e+00    0.000000000e+00
      526250000   -3.711726069e-01   -1.005304337e+00    5.914829671e-06    1.575704664e-05    0.000000000e+00    0.000000000e+00    0.000000000e+00    0.000000000e+00
      533500000   -4.794916511e-01   -9.680814147e-01    2.303160727e-06    1.692958176e-05    0.000000000e+00    0.000000000e+00    0.000000000e+00    0.000000000e+00
      540750000   -5.829995871e-01   -9.192304015e-01    1.505855471e-05    8.014030755e-06    0.000000000e+00    0.000000000e+00    0.000000000e+00    0.000000000e+00
      548000000   -6.811168790e-01   -8.584595323e-01    2.588890493e-05    5.787424743e-05    0.000000000e+00    0.000000000e+00    0.000000000e+00    0.000000000e+00
      555250000   -7.724863291e-01   -7.862033844e-01    2.553034574e-05   -7.966533303e-06    0.000000000e+00    0.000000000e+00    0.000000000e+00    0.000000000e+00
      562500000   -8.549304605e-01   -7.023151517e-01   -8.633360267e-07   -1.517031342e-05    0.000000000e+00    0.000000000e+00    0.000000000e+00    0.000000000e+00
      569750000   -9.273909926e-01   -6.102445126e-01   -2.974085510e-05    2.747960389e-05    0.000000000e+00    0.000000000e+00    0.000000000e+00    0.000000000e+00
      577000000   -9.882479906e-01   -5.092167854e-01    1.194886863e-06    5.638226867e-06    0.000000000e+00    0.000000000e+00    0.000000000e+00    0.000000000e+00
      584250000   -1.037657499e+00   -4.009020627e-01   -1.194886863e-06    1.102127135e-05    0.000000000e+00    0.000000000e+00    0.000000000e+00    0.000000000e+00
      591500000   -1.073019505e+00   -2.863374352e-01   -9.099021554e-07   -1.487229019e-05    0.000000000e+00    0.000000000e+00    0.000000000e+00    0.000000000e+00
      598750000   -1.094917059e+00   -1.668005735e-01   -6.706453860e-06    4.072673619e-06    0.000000000e+00    0.000000000e+00    0.000000000e+00    0.000000000e+00
      606000000   -1.101534605e+00   -4.826557264e-02    1.136772335e-05   -1.421198249e-05    0.000000000e+00    0.000000000e+00    0.000000000e+00    0.000000000e+00
      613250000   -1.093534350e+00    7.087241858e-02    1.908373088e-05    8.680857718e-06    0.000000000e+00    0.000000000e+00    0.000000000e+00    0.000000000e+00
      620500000   -1.071751475e+00    1.879584193e-01   -2.192705870e-05   -5.942769349e-06    0.000000000e+00    0.000000000e+00    0.000000000e+00    0.000000000e+00
      627750000   -1.035163045e+00    3.027833402e-01    2.499017864e-05    1.424923539e-06    0.000000000e+00    0.000000000e+00    0.000000000e+00    0.000000000e+00
      635000000   -9.860292673e-01    4.080836773e-01   -5.871057510e-06    3.515463322e-05    0.000000000e+00    0.000000000e+00    0.000000000e+00    0.000000000e+00
      642250000   -9.239937067e-01    5.090905428e-01    1.769512892e-06   -2.239923924e-05    0.000000000e+00    0.000000000e+00    0.000000000e+00    0.000000000e+00
      649500000   -8.511211872e-01    5.994792581e-01   -2.658553421e-05   -1.132860780e-05    0.000000000e+00    0.000000000e+00    0.000000000e+00    0.000000000e+00
      656750000   -7.699066401e-01    6.799665689e-01    9.448267519e-06    2.596620470e-05    0.000000000e+00    0.000000000e+00    0.000000000e+00    0.000000000e+00
      664000000   -6.804485321e-01    7.498214245e-01   -2.385210246e-05   -3.446359187e-05    0.000000000e+00    0.000000000e+00    0.000000000e+00    0.000000000e+00
      671250000   -5.854513049e-01    8.082128763e-01    1.735147089e-05    5.657784641e-06    0.000000000e+00    0.000000000e+00    0.000000000e+00    0.000000000e+00
      678500000   -4.828510880e-01    8.546367884e-01   -2.166256309e-06    1.170206815e-05    0.000000000e+00    0.000000000e+00    0.000000000e+00    0.000000000e+00
      685750000   -3.792037368e-01    8.894243240e-01   -3.194902092e-05    1.701153815e-05    0.000000000e+00    0.000000000e+00    0.000000000e+00    0.000000000e+00
      693000000   -2.732800245e-01    9.123808742e-01   -2.584327012e-05    1.551955938e-05    0.000000000e+00    0.000000000e+00    0.000000000e+00    0.000000000e+00
      700250000   -1.656997800e-01    9.237061143e-01   -4.635564983e-05   -7.437542081e-06    0.000000000e+00    0.000000000e+00    0.000000000e+00    0.000000000e+00
      707500000   -6.018741801e-02    9.226603508e-01    5.194917321e-06   -4.631001502e-05    0.000000000e+00    0.000000000e+00    0.000000000e+00    0.000000000e+00
      714750000    4.550497606e-02    9.102619886e-01   -2.035312355e-05   -6.953440607e-05    0.000000000e+00    0.000000000e+00    0.000000000e+00    0.000000000e+00
      722000000    1.455172598e-01    8.885735273e-01    5.341134965e-06   -3.319233656e-05    0.000000000e+00    0.000000000e+00    0.000000000e+00    0.000000000e+00
      729250000    2.451806068e-01    8.552494645e-01   -2.465490252e-05   -7.423572242e-06    0.000000000e+00    0.000000000e+00    0.000000000e+00    0.000000000e+00
      736500000    3.373552263e-01    8.135073781e-01    1.450907439e-05   -1.921132207e-05    0.000000000e+00    0.000000000e+00    0.000000000e+00    0.000000000e+00
      743750000    4.250409901e-01    7.629702091e-01   -2.626795322e-05    2.449750900e-05    0.000000000e+00    0.000000000e+00    0.000000000e+00    0.000000000e+00
      751000000    5.066737533e-01    7.042342424e-01    1.510605216e-06   -3.237091005e-05    0.000000000e+00    0.000000000e+00    0.000000000e+00    0.000000000e+00
      758250000    5.813385248e-01    6.384783983e-01    2.408213913e-05    1.422408968e-05    0.000000000e+00    0.000000000e+00    0.000000000e+00    0.000000000e+00
      765500000    6.501948237e-01    5.644081235e-01   -1.866277307e-05    5.098152906e-05    0.000000000e+00    0.000000000e+00    0.000000000e+00    0.000000000e+00
      772750000    7.111117244e-01    4.841833711e-01    2.269726247e-05   -2.522859722e-05    0.000000000e+00    0.000000000e+00    0.000000000e+00    0.000000000e+00
      780000000    7.624602318e-01    4.006140828e-01    2.217292786e-05   -8.375383914e-06    0.000000000e+00    0.000000000e+00    0.000000000e+00    0.000000000e+00
      787250000    8.074547052e-01    3.088671565e-01    2.708565444e-05   -1.141615212e-05    0.000000000e+00    0.000000000e+00    0.000000000e+00    0.000000000e+00
      794500000    8.425500989e-01    2.146041244e-01    1.003313810e-05    1.450814307e-05    0.000000000e+00    0.000000000e+00    0.000000000e+00    0.000000000e+00
      801750000    8.679345250e-01    1.157675087e-01    6.684102118e-06   -1.614820212e-05    0.000000000e+00    0.000000000e+00    0.000000000e+00    0.000000000e+00
      809000000    8.829610944e-01    1.510359440e-02   -2.152472734e-05   -3.879051656e-05    0.000000000e+00    0.000000000e+00    0.000000000e+00    0.000000000e+00
      816250000    8.880653977e-01   -8.907770365e-02    2.136453986e-05    2.366490662e-05    0.000000000e+00    0.000000000e+00    0.000000000e+00    0.000000000e+00
      823500000    8.817850947e-01   -1.936926842e-01    1.661758870e-05    7.463619113e-06    0.000000000e+00    0.000000000e+00    0.000000000e+00    0.000000000e+00
      830750000    8.651761413e-01   -2.989040911e-01   -5.127862096e-06   -4.066154361e-06    0.000000000e+00    0.000000000e+00    0.000000000e+00    0.000000000e+00
      838000000    8.369367123e-01   -4.009274244e-01    1.191440970e-05   -5.234032869e-06    0.000000000e+00    0.000000000e+00    0.000000000e+00    0.000000000e+00
      845250000    7.964982390e-01   -5.027131438e-01    2.850405872e-05   -3.159325570e-05    0.000000000e+00    0.000000000e+00    0.000000000e+00    0.000000000e+00
      852500000    7.433124185e-01   -6.011752486e-01   -2.984702587e-05   -1.634936780e-05    0.000000000e+00    0.000000000e+00    0.000000000e+00    0.000000000e+00
      859750000    6.795253158e-01   -6.926293373e-01    2.994574606e-05    9.915791452e-06    0.000000000e+00    0.000000000e+00    0.000000000e+00    0.000000000e+00
      867000000    6.023878455e-01   -7.783256173e-01    8.409842849e-07    1.163501292e-05    0.000000000e+00    0.000000000e+00    0.000000000e+00    0.000000000e+00
      874250000    5.161556005e-01   -8.553205729e-01   -2.150889486e-05    2.248212695e-06    0.000000000e+00    0.000000000e+00    0.000000000e+00    0.000000000e+00
      881500000    4.163752496e-01   -9.223992229e-01   -2.938881516e-05    1.128669828e-05    0.000000000e+00    0.000000000e+00    0.000000000e+00    0.000000000e+00
      888750000    3.110814691e-01   -9.749921560e-01   -1.840479672e-05   -2.797134221e-05    0.000000000e+00    0.000000000e+00    0.000000000e+00    0.000000000e+00
      896000000    1.954553872e-01   -1.015853167e+00    1.548044384e-05   -4.286039621e-05    0.000000000e+00    0.000000000e+00    0.000000000e+00    0.000000000e+00
      903250000    7.575271279e-02   -1.041613102e+00    3.165379167e-05   -4.609115422e-05    0.000000000e+00    0.000000000e+00    0.000000000e+00    0.000000000e+00
      910500000   -4.644726962e-02   -1.049951792e+00   -3.454647958e-05    4.596076906e-06    0.000000000e+00    0.000000000e+00    0.000000000e+00    0.000000000e+00
      917750000   -1.709737480e-01   -1.041883349e+00   -3.691762686e-06   -3.718771040e-06    0.000000000e+00    0.000000000e+00    0.000000000e+00    0.000000000e+00
      925000000   -2.917917371e-01   -1.017660379e+00    4.306901246e-05    2.865213901e-05    0.000000000e+00    0.000000000e+00    0.000000000e+00    0.000000000e+00
      932250000   -4.109979570e-01   -9.751992822e-01    3.492832184e-05   -5.206838250e-05    0.000000000e+00    0.000000000e+00    0.000000000e+00    0.000000000e+00
      939500000   -5.195246339e-01   -9.195122123e-01    1.966021955e-06   -2.577900887e-06    0.000000000e+00    0.000000000e+00    0.000000000e+00    0.000000000e+00
      946750000   -6.199944019e-01   -8.486952186e-01   -1.140311360e-05    6.381422281e-06    0.000000000e+00    0.000000000e+00    0.000000000e+00    0.000000000e+00
      954000000   -7.076232433e-01   -7.679398656e-01    4.036258906e-05    1.480802894e-05    0.000000000e+00    0.000000000e+00    0.000000000e+00    0.000000000e+00
      961250000   -7.829082012e-01   -6.758619547e-01   -1.879129559e-05    6.204470992e-06    0.000000000e+00    0.000000000e+00    0.000000000e+00    0.000000000e+00
      968500000   -8.461883664e-01   -5.747839808e-01   -1.514982432e-05   -1.319497824e-05    0.000000000e+00    0.000000000e+00    0.000000000e+00    0.000000000e+00
      975750000   -8.928379416e-01   -4.699873626e-01    1.098215580e-05    1.333933324e-05    0.000000000e+00    0.000000000e+00    0.000000000e+00    0.000000000e+00
      983000000   -9.255514741e-01   -3.628349304e-01    1.901108772e-05    2.537108958e-05    0.000000000e+00    0.000000000e+00    0.000000000e+00    0.000000000e+00
      990250000   -9.447624087e-01   -2.540296316e-01    6.635487080e-05    5.515106022e-05    0.000000000e+00    0.000000000e+00    0.000000000e+00    0.000000000e+00
      997500000   -9.494410157e-01   -1.458292454e-01    2.220273018e-06    2.408493310e-05    0.000000000e+00    0.000000000e+00    0.000000000e+00    0.000000000e+00
     1004750000   -9.419484138e-01   -4.109619185e-02    1.894589514e-05    2.895481884e-06    0.000000000e+00    0.000000000e+00    0.000000000e+00    0.000000000e+00
     1012000000   -9.228722453e-01    5.867882818e-02    4.679802805e-05    1.901574433e-05    0.000000000e+00    0.000000000e+00    0.000000000e+00    0.000000000e+00
     1019250000   -8.932163119e-01    1.529837996e-01    8.512288332e-06    1.966953278e-05    0.000000000e+00    0.000000000e+00    0.000000000e+00    0.000000000e+00
     1026500000   -8.551105261e-01    2.421007752e-01   -4.342757165e-06   -2.669729292e-05    0.000000000e+00    0.000000000e+00    0.000000000e+00    0.000000000e+00
     1033750000   -8.079015613e-01    3.252677023e-01    3.436580300e-06    9.872950613e-06    0.000000000e+00    0.000000000e+00    0.000000000e+00    0.000000000e+00
     1041000000   -7.547810078e-01    3.985283971e-01    1.069437712e-05   -1.186504960e-06    0.000000000e+00    0.000000000e+00    0.000000000e+00    0.000000000e+00
