! NanoVNA-App by OneOfEleven et al v1.1.209 (+OD15) 
! Date: 2024-07-30 15:17:47
! Start: 200MHz Stop: 6GHz Points: 801
! S-Parameter data: F S11 S21 S12 S22
# Hz S RI R 50
!     Frequency           S11_Real           S11_Imag           S21_Real           S21_Imag           S12_Real           S12_Imag           S22_Real           S22_Imag
      200000000   -9.988150001e-01   -1.160574034e-01   -1.440290362e-05   -1.235492527e-05    0.000000000e+00    0.000000000e+00    0.000000000e+00    0.000000000e+00
      207250000   -1.010246038e+00   -1.695474796e-02    8.655712008e-06    9.913928807e-06    0.000000000e+00    0.000000000e+00    0.000000000e+00    0.000000000e+00
      214500000   -1.011677146e+00    8.472515643e-02    4.395842552e-06   -2.661347389e-05    0.000000000e+00    0.000000000e+00    0.000000000e+00    0.000000000e+00
      221750000   -1.002422094e+00    1.871382892e-01   -1.210626215e-05    4.461035132e-07    0.000000000e+00    0.000000000e+00    0.000000000e+00    0.000000000e+00
      229000000   -9.823899865e-01    2.908101678e-01   -1.788884401e-05    7.616356015e-06    0.000000000e+00    0.000000000e+00    0.000000000e+00    0.000000000e+00
      236250000   -9.491432905e-01    3.932992220e-01   -2.601556480e-05   -1.367088407e-05    0.000000000e+00    0.000000000e+00    0.000000000e+00    0.000000000e+00
      243500000   -9.062908292e-01    4.931049347e-01    2.776272595e-06   -1.202616841e-05    0.000000000e+00    0.000000000e+00    0.000000000e+00    0.000000000e+00
      250750000   -8.495488167e-01    5.896532536e-01    1.614447683e-05   -1.520756632e-05    0.000000000e+00    0.000000000e+00    0.000000000e+00    0.000000000e+00
      258000000   -7.810202241e-01    6.806920171e-01   -2.374593168e-05   -2.472102642e-05    0.000000000e+00    0.000000000e+00    0.000000000e+00    0.000000000e+00
      265250000   -7.013232708e-01    7.642924190e-01    1.187529415e-05    2.332869917e-05    0.000000000e+00    0.000000000e+00    0.000000000e+00    0.000000000e+00
      272500000   -6.106986403e-01    8.396946192e-01    2.185907215e-05   -1.647323370e-05    0.000000000e+00    0.000000000e+00    0.000000000e+00    0.000000000e+00
      279750000   -5.080563426e-01    9.034692049e-01   -2.178456634e-05    4.068017006e-06    0.000000000e+00    0.000000000e+00    0.000000000e+00    0.000000000e+00
      287000000   -3.981840014e-01    9.549039006e-01   -2.428516746e-05   -1.269020140e-05    0.000000000e+00    0.000000000e+00    0.000000000e+00    0.000000000e+00
      294250000   -2.806820571e-01    9.932153225e-01    1.013092697e-05   -2.039596438e-06    0.000000000e+00    0.000000000e+00    0.000000000e+00    0.000000000e+00
      301500000   -1.578786820e-01    1.015527368e+00   -6.191432476e-06   -2.353731543e-05    0.000000000e+00    0.000000000e+00    0.000000000e+00    0.000000000e+00
      308750000   -3.212495148e-02    1.022672653e+00   -3.279745579e-05   -1.719687134e-05    0.000000000e+00    0.000000000e+00    0.000000000e+00    0.000000000e+00
      316000000    9.342405200e-02    1.013499737e+00   -2.588517964e-05   -8.888542652e-06    0.000000000e+00    0.000000000e+00    0.000000000e+00    0.000000000e+00
      323250000    2.180841416e-01    9.882117510e-01   -1.583900303e-05    3.143213689e-05    0.000000000e+00    0.000000000e+00    0.000000000e+00    0.000000000e+00
      330500000    3.380208611e-01    9.465245605e-01   -1.310184598e-05   -1.488346606e-05    0.000000000e+00    0.000000000e+00    0.000000000e+00    0.000000000e+00
      337750000    4.521442950e-01    8.901484609e-01    1.028645784e-05    2.706609666e-05    0.000000000e+00    0.000000000e+00    0.000000000e+00    0.000000000e+00
      345000000    5.565605164e-01    8.188960552e-01   -8.974224329e-06   -5.555339158e-06    0.000000000e+00    0.000000000e+00    0.000000000e+00    0.000000000e+00
      352250000    6.515686512e-01    7.368184328e-01   -1.133792102e-05   -2.777483314e-05    0.000000000e+00    0.000000000e+00    0.000000000e+00    0.000000000e+00
      359500000    7.345449328e-01    6.439784169e-01    2.000201494e-05    5.695968866e-06    0.000000000e+00    0.000000000e+00    0.000000000e+00    0.000000000e+00
      366750000    8.049442768e-01    5.427228808e-01    2.112425864e-05    1.718197018e-05    0.000000000e+00    0.000000000e+00    0.000000000e+00    0.000000000e+00
      374000000    8.618865013e-01    4.340421855e-01   -2.031400800e-05    1.185480505e-05    0.000000000e+00    0.000000000e+00    0.000000000e+00    0.000000000e+00
      381250000    9.051192403e-01    3.206581175e-01    3.299769014e-05   -6.536953151e-06    0.000000000e+00    0.000000000e+00    0.000000000e+00    0.000000000e+00
      388500000    9.346833825e-01    2.049995661e-01    1.334957778e-05   -7.433816791e-06    0.000000000e+00    0.000000000e+00    0.000000000e+00    0.000000000e+00
      395750000    9.504404068e-01    8.820006251e-02    4.938803613e-06   -1.589301974e-05    0.000000000e+00    0.000000000e+00    0.000000000e+00    0.000000000e+00
      403000000    9.522782564e-01   -2.955055051e-02    1.561455429e-05    1.088809222e-05    0.000000000e+00    0.000000000e+00    0.000000000e+00    0.000000000e+00
      410250000    9.422188997e-01   -1.436176896e-01    1.653749496e-05    3.276858479e-05    0.000000000e+00    0.000000000e+00    0.000000000e+00    0.000000000e+00
      417500000    9.193218946e-01   -2.562062144e-01    4.245899618e-06   -2.580415457e-05    0.000000000e+00    0.000000000e+00    0.000000000e+00    0.000000000e+00
      424750000    8.842404485e-01   -3.639095724e-01   -1.488160342e-05    9.744428098e-06    0.000000000e+00    0.000000000e+00    0.000000000e+00    0.000000000e+00
      432000000    8.384272456e-01   -4.663530588e-01    6.845220923e-06    1.726392657e-05    0.000000000e+00    0.000000000e+00    0.000000000e+00    0.000000000e+00
      439250000    7.834738493e-01   -5.629748702e-01    2.294126898e-05    3.761611879e-05    0.000000000e+00    0.000000000e+00    0.000000000e+00    0.000000000e+00
      446500000    7.187044024e-01   -6.518874764e-01   -1.470558345e-06   -7.754191756e-06    0.000000000e+00    0.000000000e+00    0.000000000e+00    0.000000000e+00
      453750000    6.442611814e-01   -7.340858579e-01   -7.024966180e-06   -5.625188351e-06    0.000000000e+00    0.000000000e+00    0.000000000e+00    0.000000000e+00
      461000000    5.638224483e-01   -8.071785569e-01   -1.273117959e-05   -3.497116268e-06    0.000000000e+00    0.000000000e+00    0.000000000e+00    0.000000000e+00
      468250000    4.754573405e-01   -8.720033765e-01   -4.796963185e-05   -8.730217814e-06    0.000000000e+00    0.000000000e+00    0.000000000e+00    0.000000000e+00
      475500000    3.803636134e-01   -9.266407490e-01    4.162080586e-05   -1.817662269e-05    0.000000000e+00    0.000000000e+00    0.000000000e+00    0.000000000e+00
      482750000    2.811209261e-01   -9.714237452e-01   -5.515292287e-06   -7.641501725e-06    0.000000000e+00    0.000000000e+00    0.000000000e+00    0.000000000e+00
      490000000    1.767068803e-01   -1.005660295e+00    7.297843695e-06   -8.449889719e-06    0.000000000e+00    0.000000000e+00    0.000000000e+00    0.000000000e+00
      497250000    7.001975924e-02   -1.030085206e+00    3.237929195e-05   -6.834976375e-06    0.000000000e+00    0.000000000e+00    0.000000000e+00    0.000000000e+00
      504500000   -3.969311342e-02   -1.041325808e+00   -7.521361113e-06    4.626717418e-05    0.000000000e+00    0.000000000e+00    0.000000000e+00    0.000000000e+00
      511750000   -1.514552683e-01   -1.040957093e+00    3.362074494e-07   -4.831701517e-06    0.000000000e+00    0.000000000e+00    0.000000000e+00    0.000000000e+00
      519000000   -2.624319494e-01   -1.029371619e+00   -1.670420170e-05    3.598630428e-06    0.000000000e+00    0.000000000e+00    0.000000000e+00    0.000000000e+00
      526250000   -3.723607063e-01   -1.004600286e+00   -3.617163748e-05   -3.687664866e-05    0.000000000e+00    0.000000000e+00    0.000000000e+00    0.000000000e+00
      533500000   -4.797466397e-01   -9.678065777e-01    1.458916813e-05    2.232659608e-05    0.000000000e+00    0.000000000e+00    0.000000000e+00    0.000000000e+00
      540750000   -5.830618143e-01   -9.191815853e-01    1.128204167e-05   -8.932314813e-06    0.000000000e+00    0.000000000e+00    0.000000000e+00    0.000000000e+00
      548000000   -6.816089749e-01   -8.583434820e-01   -2.052914351e-05    3.203749657e-07    0.000000000e+00    0.000000000e+00    0.000000000e+00    0.000000000e+00
      555250000   -7.721317410e-01   -7.860148549e-01   -1.641176641e-05    1.492723823e-05    0.000000000e+00    0.000000000e+00    0.000000000e+00    0.000000000e+00
      562500000   -8.549820781e-01   -7.028223276e-01    4.993099719e-05    4.847161472e-05    0.000000000e+00    0.000000000e+00    0.000000000e+00    0.000000000e+00
      569750000   -9.275341630e-01   -6.101141572e-01    2.383626997e-05    1.559033990e-06    0.000000000e+00    0.000000000e+00    0.000000000e+00    0.000000000e+00
      577000000   -9.881778955e-01   -5.098295212e-01   -3.857072443e-05   -5.177222192e-06    0.000000000e+00    0.000000000e+00    0.000000000e+00    0.000000000e+00
      584250000   -1.037393808e+00   -4.009863138e-01   -2.371147275e-06   -1.509115100e-05    0.000000000e+00    0.000000000e+00    0.000000000e+00    0.000000000e+00
      591500000   -1.073575616e+00   -2.852904499e-01    2.614594996e-05   -1.976545900e-05    0.000000000e+00    0.000000000e+00    0.000000000e+00    0.000000000e+00
      598750000   -1.094662666e+00   -1.682279706e-01    2.789497375e-05   -1.295842230e-05    0.000000000e+00    0.000000000e+00    0.000000000e+00    0.000000000e+00
      606000000   -1.101370692e+00   -4.861614108e-02   -1.343432814e-05   -1.392327249e-05    0.000000000e+00    0.000000000e+00    0.000000000e+00    0.000000000e+00
      613250000   -1.092905402e+00    7.069572806e-02    9.056180716e-06   -4.542991519e-06    0.000000000e+00    0.000000000e+00    0.000000000e+00    0.000000000e+00
      620500000   -1.070958972e+00    1.889184564e-01   -3.176927567e-05   -2.736784518e-05    0.000000000e+00    0.000000000e+00    0.000000000e+00    0.000000000e+00
      627750000   -1.034562945e+00    3.024746180e-01    2.158246934e-05   -2.176593989e-05    0.000000000e+00    0.000000000e+00    0.000000000e+00    0.000000000e+00
      635000000   -9.862178564e-01    4.082287550e-01   -1.481082290e-05    4.505738616e-06    0.000000000e+00    0.000000000e+00    0.000000000e+00    0.000000000e+00
      642250000   -9.234845042e-01    5.091279745e-01   -8.107163012e-06   -2.710334957e-05    0.000000000e+00    0.000000000e+00    0.000000000e+00    0.000000000e+00
      649500000   -8.510829210e-01    5.999791026e-01   -2.450309694e-06    1.456495374e-05    0.000000000e+00    0.000000000e+00    0.000000000e+00    0.000000000e+00
      656750000   -7.705694437e-01    6.795031428e-01   -4.241429269e-05   -4.636123776e-06    0.000000000e+00    0.000000000e+00    0.000000000e+00    0.000000000e+00
      664000000   -6.800416708e-01    7.497022152e-01    2.758577466e-06    1.814123243e-05    0.000000000e+00    0.000000000e+00    0.000000000e+00    0.000000000e+00
      671250000   -5.838157535e-01    8.088388443e-01   -2.502463758e-06    2.020318061e-05    0.000000000e+00    0.000000000e+00    0.000000000e+00    0.000000000e+00
      678500000   -4.831894040e-01    8.552879691e-01    1.075770706e-05   -3.839936107e-05    0.000000000e+00    0.000000000e+00    0.000000000e+00    0.000000000e+00
      685750000   -3.784259260e-01    8.900428414e-01    3.157183528e-06   -2.898275852e-05    0.000000000e+00    0.000000000e+00    0.000000000e+00    0.000000000e+00
      693000000   -2.732712626e-01    9.123193622e-01   -2.529472113e-05    1.248437911e-05    0.000000000e+00    0.000000000e+00    0.000000000e+00    0.000000000e+00
      700250000   -1.654798836e-01    9.231957197e-01   -1.278892159e-05   -3.976467997e-05    0.000000000e+00    0.000000000e+00    0.000000000e+00    0.000000000e+00
      707500000   -5.957505107e-02    9.225236773e-01   -2.473313361e-05   -8.356757462e-06    0.000000000e+00    0.000000000e+00    0.000000000e+00    0.000000000e+00
      714750000    4.716713727e-02    9.104096889e-01   -3.036856651e-05   -3.036111593e-06    0.000000000e+00    0.000000000e+00    0.000000000e+00    0.000000000e+00
      722000000    1.455394626e-01    8.875879049e-01    6.970018148e-06   -9.160488844e-06    0.000000000e+00    0.000000000e+00    0.000000000e+00    0.000000000e+00
      729250000    2.448795736e-01    8.554346561e-01    2.300553024e-05    4.523992538e-05    0.000000000e+00    0.000000000e+00    0.000000000e+00    0.000000000e+00
      736500000    3.365713656e-01    8.136228919e-01    1.486111432e-05    1.966860145e-05    0.000000000e+00    0.000000000e+00    0.000000000e+00    0.000000000e+00
      743750000    4.252802134e-01    7.630117536e-01   -9.190291166e-06   -2.314336598e-05    0.000000000e+00    0.000000000e+00    0.000000000e+00    0.000000000e+00
      751000000    5.069212317e-01    7.039527893e-01    1.382827759e-05   -3.328919411e-05    0.000000000e+00    0.000000000e+00    0.000000000e+00    0.000000000e+00
      758250000    5.823302269e-01    6.375325918e-01   -8.572824299e-06   -1.598149538e-06    0.000000000e+00    0.000000000e+00    0.000000000e+00    0.000000000e+00
      765500000    6.502202153e-01    5.637073517e-01   -2.669263631e-05   -2.882536501e-05    0.000000000e+00    0.000000000e+00    0.000000000e+00    0.000000000e+00
      772750000    7.107007504e-01    4.846671224e-01    3.263726830e-05    1.072697341e-05    0.000000000e+00    0.000000000e+00    0.000000000e+00    0.000000000e+00
      780000000    7.626591921e-01    4.005782306e-01   -1.938641071e-05   -4.207901657e-05    0.000000000e+00    0.000000000e+00    0.000000000e+00    0.000000000e+00
      787250000    8.076462746e-01    3.085478842e-01    3.091990948e-05   -4.112627357e-05    0.000000000e+00    0.000000000e+00    0.000000000e+00    0.000000000e+00
      794500000    8.423599601e-01    2.145133018e-01   -3.305263817e-06    8.732080460e-06    0.000000000e+00    0.000000000e+00    0.000000000e+00    0.000000000e+00
      801750000    8.678309321e-01    1.160469130e-01    6.251968443e-06   -2.072006464e-05    0.000000000e+00    0.000000000e+00    0.000000000e+00    0.000000000e+00
      809000000    8.831169605e-01    1.445789821e-02   -4.324875772e-05   -1.276843250e-06    0.000000000e+00    0.000000000e+00    0.000000000e+00    0.000000000e+00
      816250000    8.879061937e-01   -8.778510243e-02   -3.519468009e-05    3.631506115e-05    0.000000000e+00    0.000000000e+00    0.000000000e+00    0.000000000e+00
      823500000    8.822165132e-01   -1.937571019e-01    4.561990499e-05    3.137625754e-05    0.000000000e+00    0.000000000e+00    0.000000000e+00    0.000000000e+00
      830750000    8.645371199e-01   -2.989751399e-01   -1.060497016e-05   -8.683651686e-06    0.000000000e+00    0.000000000e+00    0.000000000e+00    0.000000000e+00
      838000000    8.362885118e-01   -4.019993842e-01   -5.657784641e-06   -5.152076483e-06    0.000000000e+00    0.000000000e+00    0.000000000e+00    0.000000000e+00
      845250000    7.956155539e-01   -5.036660433e-01    3.643240780e-05    4.259869456e-06    0.000000000e+00    0.000000000e+00    0.000000000e+00    0.000000000e+00
      852500000    7.431162596e-01   -6.011399031e-01   -3.240816295e-05   -7.450580597e-08    0.000000000e+00    0.000000000e+00    0.000000000e+00    0.000000000e+00
      859750000    6.792135835e-01   -6.922859550e-01   -3.060512245e-05   -6.094574928e-06    0.000000000e+00    0.000000000e+00    0.000000000e+00    0.000000000e+00
      867000000    6.022048593e-01   -7.790189981e-01    1.812726259e-05   -4.651024938e-06    0.000000000e+00    0.000000000e+00    0.000000000e+00    0.000000000e+00
      874250000    5.165352225e-01   -8.542038798e-01   -5.768612027e-06   -2.877786756e-07    0.000000000e+00    0.000000000e+00    0.000000000e+00    0.000000000e+00
      881500000    4.165287018e-01   -9.221099019e-01   -1.627951860e-06   -9.836629033e-06    0.000000000e+00    0.000000000e+00    0.000000000e+00    0.000000000e+00
      888750000    3.106384277e-01   -9.754430652e-01    2.669356763e-05   -2.072472125e-05    0.000000000e+00    0.000000000e+00    0.000000000e+00    0.000000000e+00
      896000000    1.964538693e-01   -1.016597867e+00    1.700408757e-05    2.939533442e-05    0.000000000e+00    0.000000000e+00    0.000000000e+00    0.000000000e+00
      903250000    7.616374642e-02   -1.040522337e+00   -2.651382238e-05   -5.301088095e-06    0.000000000e+00    0.000000000e+00    0.000000000e+00    0.000000000e+00
      910500000   -4.801393673e-02   -1.050543547e+00    9.766779840e-06   -6.461516023e-06    0.000000000e+00    0.000000000e+00    0.000000000e+00    0.000000000e+00
      917750000   -1.706225425e-01   -1.042249322e+00   -2.167187631e-05    5.083158612e-05    0.000000000e+00    0.000000000e+00    0.000000000e+00    0.000000000e+00
      925000000   -2.921916544e-01   -1.017212152e+00   -2.723373473e-05    1.894123852e-05    0.000000000e+00    0.000000000e+00    0.000000000e+00    0.000000000e+00
      932250000   -4.099255502e-01   -9.761625528e-01    2.872385085e-05   -1.153443009e-05    0.000000000e+00    0.000000000e+00    0.000000000e+00    0.000000000e+00
      939500000   -5.197951198e-01   -9.193323255e-01   -4.785880446e-05    4.113651812e-06    0.000000000e+00    0.000000000e+00    0.000000000e+00    0.000000000e+00
      946750000   -6.192182899e-01   -8.496779799e-01   -2.182181925e-05    2.572312951e-06    0.000000000e+00    0.000000000e+00    0.000000000e+00    0.000000000e+00
      954000000   -7.080109715e-01   -7.673376203e-01    2.233497798e-05    1.624133438e-05    0.000000000e+00    0.000000000e+00    0.000000000e+00    0.000000000e+00
      961250000   -7.833995819e-01   -6.751823425e-01   -2.435222268e-05    3.242678940e-05    0.000000000e+00    0.000000000e+00    0.000000000e+00    0.000000000e+00
      968500000   -8.457733989e-01   -5.743180513e-01    2.008304000e-05   -3.330782056e-05    0.000000000e+00    0.000000000e+00    0.000000000e+00    0.000000000e+00
      975750000   -8.929971457e-01   -4.701250792e-01    1.318845898e-05   -2.052262425e-05    0.000000000e+00    0.000000000e+00    0.000000000e+00    0.000000000e+00
      983000000   -9.258478880e-01   -3.630397618e-01   -5.437061191e-06   -2.761278301e-05    0.000000000e+00    0.000000000e+00    0.000000000e+00    0.000000000e+00
      990250000   -9.442605376e-01   -2.535692453e-01    2.909637988e-05    1.620221883e-05    0.000000000e+00    0.000000000e+00    0.000000000e+00    0.000000000e+00
      997500000   -9.494716525e-01   -1.457807273e-01    2.301670611e-05   -2.198386937e-05    0.000000000e+00    0.000000000e+00    0.000000000e+00    0.000000000e+00
     1004750000   -9.419475198e-01   -4.165889695e-02    2.276152372e-06    8.338131011e-06    0.000000000e+00    0.000000000e+00    0.000000000e+00    0.000000000e+00
     1012000000   -9.224632978e-01    5.856284872e-02   -3.447383642e-05   -1.178681850e-05    0.000000000e+00    0.000000000e+00    0.000000000e+00    0.000000000e+00
     1019250000   -8.934297562e-01    1.535659134e-01   -1.130998135e-05   -3.524497151e-05    0.000000000e+00    0.000000000e+00    0.000000000e+00    0.000000000e+00
     1026500000   -8.541794419e-01    2.432302684e-01    1.557357609e-05   -1.296587288e-05    0.000000000e+00    0.000000000e+00    0.000000000e+00    0.000000000e+00
     1033750000   -8.080202341e-01    3.238224983e-01   -1.554191113e-05    8.827075362e-06    0.000000000e+00    0.000000000e+00    0.000000000e+00    0.000000000e+00
     1041000000   -7.552106380e-01    3.983480930e-01   -1.907441765e-05    1.918151975e-05    0.000000000e+00    0.000000000e+00    0.000000000e+00    0.000000000e+00
