! NanoVNA-App by OneOfEleven et al v1.1.209 (+OD15) 
! Date: 2024-07-30 15:17:49
! Start: 200MHz Stop: 6GHz Points: 801
! S-Parameter data: F S11 S21 S12 S22
# Hz S RI R 50
!     Frequency           S11_Real           S11_Imag           S21_Real           S21_Imag           S12_Real           S12_Imag           S22_Real           S22_Imag
      200000000   -9.987244606e-01   -1.158812419e-01    1.447182149e-05   -1.797452569e-06    0.000000000e+00    0.000000000e+00    0.000000000e+00    0.000000000e+00
      207250000   -1.010300756e+00   -1.672239788e-02   -2.900790423e-05   -2.358201891e-05    0.000000000e+00    0.000000000e+00    0.000000000e+00    0.000000000e+00
      214500000   -1.012341857e+00    8.436242491e-02   -4.779547453e-06    8.112750947e-06    0.000000000e+00    0.000000000e+00    0.000000000e+00    0.000000000e+00
      221750000   -1.002834797e+00    1.873106658e-01    1.358799636e-06   -4.321336746e-07    0.000000000e+00    0.000000000e+00    0.000000000e+00    0.000000000e+00
      229000000   -9.819559455e-01    2.906124592e-01   -4.908069968e-06   -1.988653094e-05    0.000000000e+00    0.000000000e+00    0.000000000e+00    0.000000000e+00
      236250000   -9.491990209e-01    3.934106827e-01    2.575106919e-06    1.796428114e-05    0.000000000e+00    0.000000000e+00    0.000000000e+00    0.000000000e+00
      243500000   -9.058886766e-01    4.933615029e-01   -2.190098166e-05    2.559274435e-06    0.000000000e+00    0.000000000e+00    0.000000000e+00    0.000000000e+00
      250750000   -8.495652676e-01    5.899062753e-01    1.829117537e-06   -4.208739847e-05    0.000000000e+00    0.000000000e+00    0.000000000e+00    0.000000000e+00
      258000000   -7.814485431e-01    6.809737682e-01    4.244036973e-06   -3.245100379e-05    0.000000000e+00    0.000000000e+00    0.000000000e+00    0.000000000e+00
      265250000   -7.005564570e-01    7.644343972e-01    2.636201680e-05   -6.630085409e-06    0.000000000e+00    0.000000000e+00    0.000000000e+00    0.000000000e+00
      272500000   -6.101593971e-01    8.393935561e-01    1.975335181e-05    2.170167863e-05    0.000000000e+00    0.000000000e+00    0.000000000e+00    0.000000000e+00
      279750000   -5.085217357e-01    9.041011333e-01   -1.170020550e-05    9.053386748e-06    0.000000000e+00    0.000000000e+00    0.000000000e+00    0.000000000e+00
      287000000   -3.983244300e-01    9.550754428e-01    6.369315088e-06   -1.876987517e-05    0.000000000e+00    0.000000000e+00    0.000000000e+00    0.000000000e+00
      294250000   -2.806731761e-01    9.929400086e-01    1.767557114e-05   -2.075266093e-05    0.000000000e+00    0.000000000e+00    0.000000000e+00    0.000000000e+00
      301500000   -1.578949690e-01    1.015388846e+00   -2.954434603e-05   -3.943219781e-06    0.000000000e+00    0.000000000e+00    0.000000000e+00    0.000000000e+00
      308750000   -3.258423135e-02    1.022798777e+00   -6.640329957e-07   -8.286908269e-06    0.000000000e+00    0.000000000e+00    0.000000000e+00    0.000000000e+00
      316000000    9.373698384e-02    1.014109612e+00   -3.634486347e-05    5.824491382e-06    0.000000000e+00    0.000000000e+00    0.000000000e+00    0.000000000e+00
      323250000    2.183461040e-01    9.876105189e-01    3.268662840e-05    8.561648428e-06    0.000000000e+00    0.000000000e+00    0.000000000e+00    0.000000000e+00
      330500000    3.382911086e-01    9.464719892e-01    7.107853889e-06    6.268732250e-06    0.000000000e+00    0.000000000e+00    0.000000000e+00    0.000000000e+00
      337750000    4.512690604e-01    8.901486397e-01    1.087784767e-05    5.588866770e-06    0.000000000e+00    0.000000000e+00    0.000000000e+00    0.000000000e+00
      345000000    5.569925904e-01    8.193444014e-01   -6.968155503e-06    1.417472959e-06    0.000000000e+00    0.000000000e+00    0.000000000e+00    0.000000000e+00
      352250000    6.519961953e-01    7.364358902e-01    2.538412809e-05    8.417293429e-06    0.000000000e+00    0.000000000e+00    0.000000000e+00    0.000000000e+00
      359500000    7.350643277e-01    6.440014243e-01   -1.763552427e-05   -1.764856279e-06    0.000000000e+00    0.000000000e+00    0.000000000e+00    0.000000000e+00
      366750000    8.048447967e-01    5.422695279e-01   -1.891609281e-05    1.321267337e-05    0.000000000e+00    0.000000000e+00    0.000000000e+00    0.000000000e+00
      374000000    8.619965911e-01    4.336252213e-01    3.268942237e-06   -1.676660031e-05    0.000000000e+00    0.000000000e+00    0.000000000e+00    0.000000000e+00
      381250000    9.050816894e-01    3.202812374e-01   -1.052208245e-05    1.994241029e-05    0.000000000e+00    0.000000000e+00    0.000000000e+00    0.000000000e+00
      388500000    9.344118237e-01    2.047893405e-01   -5.280598998e-07   -2.074800432e-05    0.000000000e+00    0.000000000e+00    0.000000000e+00    0.000000000e+00
      395750000    9.503564835e-01    8.749578893e-02   -3.445893526e-08   -2.472102642e-05    0.000000000e+00    0.000000000e+00    0.000000000e+00    0.000000000e+00
      403000000    9.525089860e-01   -2.916985191e-02    6.343889982e-05    1.024361700e-05    0.000000000e+00    0.000000000e+00    0.000000000e+00    0.000000000e+00
      410250000    9.417995811e-01   -1.439212710e-01    6.144866347e-06    2.259667963e-05    0.000000000e+00    0.000000000e+00    0.000000000e+00    0.000000000e+00
      417500000    9.190735221e-01   -2.561418712e-01    1.865718514e-05   -4.064291716e-06    0.000000000e+00    0.000000000e+00    0.000000000e+00    0.000000000e+00
      424750000    8.840059638e-01   -3.642595708e-01   -1.448765397e-05    1.080520451e-05    0.000000000e+00    0.000000000e+00    0.000000000e+00    0.000000000e+00
      432000000    8.382650614e-01   -4.667174518e-01   -1.776497811e-05   -1.165457070e-05    0.000000000e+00    0.000000000e+00    0.000000000e+00    0.000000000e+00
      439250000    7.832566500e-01   -5.632693172e-01   -4.619080573e-05    2.450309694e-06    0.000000000e+00    0.000000000e+00    0.000000000e+00    0.000000000e+00
      446500000    7.185035348e-01   -6.520951390e-01   -4.746951163e-06    2.855155617e-05    0.000000000e+00    0.000000000e+00    0.000000000e+00    0.000000000e+00
      453750000    6.443563104e-01   -7.348032594e-01    7.320195436e-07   -2.863444388e-05    0.000000000e+00    0.000000000e+00    0.000000000e+00    0.000000000e+00
      461000000    5.635241270e-01   -8.070704937e-01    1.089461148e-05   -3.897864372e-05    0.000000000e+00    0.000000000e+00    0.000000000e+00    0.000000000e+00
      468250000    4.751336873e-01   -8.722820878e-01   -3.856141120e-05   -2.053193748e-05    0.000000000e+00    0.000000000e+00    0.000000000e+00    0.000000000e+00
      475500000    3.807434738e-01   -9.269214869e-01    1.480337232e-05   -2.265255898e-05    0.000000000e+00    0.000000000e+00    0.000000000e+00    0.000000000e+00
      482750000    2.811102271e-01   -9.713038206e-01   -5.953945220e-06    5.573872477e-05    0.000000000e+00    0.000000000e+00    0.000000000e+00    0.000000000e+00
      490000000    1.772221774e-01   -1.006140947e+00    3.866851330e-06   -2.284627408e-05    0.000000000e+00    0.000000000e+00    0.000000000e+00    0.000000000e+00
      497250000    6.974722445e-02   -1.029014349e+00   -2.576224506e-05   -1.183059067e-05    0.000000000e+00    0.000000000e+00    0.000000000e+00    0.000000000e+00
      504500000   -4.014911130e-02   -1.040868998e+00   -3.634765744e-05    1.005269587e-05    0.000000000e+00    0.000000000e+00    0.000000000e+00    0.000000000e+00
      511750000   -1.510007381e-01   -1.041250587e+00    1.428276300e-05    2.048630267e-05    0.000000000e+00    0.000000000e+00    0.000000000e+00    0.000000000e+00
      519000000   -2.626497746e-01   -1.028742790e+00   -4.105269909e-05   -9.373761714e-06    0.000000000e+00    0.000000000e+00    0.000000000e+00    0.000000000e+00
      526250000   -3.721707761e-01   -1.004932880e+00    3.222562373e-05    1.377612352e-05    0.000000000e+00    0.000000000e+00    0.000000000e+00    0.000000000e+00
      533500000   -4.797399938e-01   -9.680603743e-01   -5.094334483e-06    3.847666085e-05    0.000000000e+00    0.000000000e+00    0.000000000e+00    0.000000000e+00
      540750000   -5.830383897e-01   -9.197539687e-01   -1.650955528e-05    4.414469004e-06    0.000000000e+00    0.000000000e+00    0.000000000e+00    0.000000000e+00
      548000000   -6.814061403e-01   -8.589084744e-01   -3.698375076e-05   -5.750637501e-05    0.000000000e+00    0.000000000e+00    0.000000000e+00    0.000000000e+00
      555250000   -7.723523974e-01   -7.859350443e-01   -3.653578460e-06   -2.336502075e-05    0.000000000e+00    0.000000000e+00    0.000000000e+00    0.000000000e+00
      562500000   -8.549293280e-01   -7.017673850e-01    1.348182559e-05   -5.180668086e-05    0.000000000e+00    0.000000000e+00    0.000000000e+00    0.000000000e+00
      569750000   -9.272404313e-01   -6.100157499e-01   -3.878679127e-05    6.634742022e-06    0.000000000e+00    0.000000000e+00    0.000000000e+00    0.000000000e+00
      577000000   -9.890771508e-01   -5.082080960e-01   -9.658746421e-06   -6.286427379e-07    0.000000000e+00    0.000000000e+00    0.000000000e+00    0.000000000e+00
      584250000   -1.037191153e+00   -4.002546966e-01   -3.676488996e-05   -4.445854574e-05    0.000000000e+00    0.000000000e+00    0.000000000e+00    0.000000000e+00
      591500000   -1.073183060e+00   -2.863392234e-01    2.341810614e-05    1.332163811e-05    0.000000000e+00    0.000000000e+00    0.000000000e+00    0.000000000e+00
      598750000   -1.094233871e+00   -1.671368927e-01    2.054311335e-05   -8.993782103e-06    0.000000000e+00    0.000000000e+00    0.000000000e+00    0.000000000e+00
      606000000   -1.101164341e+00   -4.734404385e-02    4.711095244e-05   -2.455897629e-06    0.000000000e+00    0.000000000e+00    0.000000000e+00    0.000000000e+00
      613250000   -1.093701124e+00    7.044947892e-02    8.877366781e-06    4.863087088e-05    0.000000000e+00    0.000000000e+00    0.000000000e+00    0.000000000e+00
      620500000   -1.070917606e+00    1.887613088e-01   -1.313164830e-06   -8.814036846e-06    0.000000000e+00    0.000000000e+00    0.000000000e+00    0.000000000e+00
      627750000   -1.034442067e+00    3.021833003e-01   -5.826912820e-05   -1.927930862e-05    0.000000000e+00    0.000000000e+00    0.000000000e+00    0.000000000e+00
      635000000   -9.859276414e-01    4.080641866e-01    6.199814379e-06   -3.937631845e-06    0.000000000e+00    0.000000000e+00    0.000000000e+00    0.000000000e+00
      642250000   -9.239077568e-01    5.086736679e-01    1.882854849e-05    3.070756793e-05    0.000000000e+00    0.000000000e+00    0.000000000e+00    0.000000000e+00
      649500000   -8.512002230e-01    5.992239118e-01   -5.760230124e-06    7.926486433e-06    0.000000000e+00    0.000000000e+00    0.000000000e+00    0.000000000e+00
      656750000   -7.697757483e-01    6.799253821e-01    3.367383033e-05   -3.253668547e-05    0.000000000e+00    0.000000000e+00    0.000000000e+00    0.000000000e+00
      664000000   -6.795654297e-01    7.499927878e-01   -1.889560372e-05   -2.902373672e-05    0.000000000e+00    0.000000000e+00    0.000000000e+00    0.000000000e+00
      671250000   -5.841008425e-01    8.081251979e-01    1.111999154e-05    1.775007695e-05    0.000000000e+00    0.000000000e+00    0.000000000e+00    0.000000000e+00
      678500000   -4.837076068e-01    8.551897407e-01   -9.233132005e-06   -5.850568414e-06    0.000000000e+00    0.000000000e+00    0.000000000e+00    0.000000000e+00
      685750000   -3.790436685e-01    8.899484873e-01   -3.486312926e-05   -1.366250217e-06    0.000000000e+00    0.000000000e+00    0.000000000e+00    0.000000000e+00
      693000000   -2.732498944e-01    9.122901559e-01   -1.327786595e-05    9.551644325e-06    0.000000000e+00    0.000000000e+00    0.000000000e+00    0.000000000e+00
      700250000   -1.658971906e-01    9.230753183e-01   -6.137415767e-07   -6.645917892e-06    0.000000000e+00    0.000000000e+00    0.000000000e+00    0.000000000e+00
      707500000   -5.971383676e-02    9.226347208e-01    4.199333489e-06    3.631785512e-05    0.000000000e+00    0.000000000e+00    0.000000000e+00    0.000000000e+00
      714750000    4.460958019e-02    9.110100269e-01   -1.419894397e-05   -1.193210483e-05    0.000000000e+00    0.000000000e+00    0.000000000e+00    0.000000000e+00
      722000000    1.452566087e-01    8.886603117e-01   -7.298775017e-06   -9.287148714e-06    0.000000000e+00    0.000000000e+00    0.000000000e+00    0.000000000e+00
      729250000    2.453245670e-01    8.548133969e-01   -1.352746040e-05   -5.830079317e-07    0.000000000e+00    0.000000000e+00    0.000000000e+00    0.000000000e+00
      736500000    3.380589187e-01    8.132384419e-01   -3.052130342e-05   -4.947092384e-05    0.000000000e+00    0.000000000e+00    0.000000000e+00    0.000000000e+00
      743750000    4.253119826e-01    7.631696463e-01    2.016499639e-05   -2.786517143e-05    0.000000000e+00    0.000000000e+00    0.000000000e+00    0.000000000e+00
      751000000    5.070645809e-01    7.040526271e-01    2.213194966e-05   -2.139527351e-05    0.000000000e+00    0.000000000e+00    0.000000000e+00    0.000000000e+00
      758250000    5.815947056e-01    6.379463077e-01   -9.406358004e-06    2.159923315e-05    0.000000000e+00    0.000000000e+00    0.000000000e+00    0.000000000e+00
      765500000    6.504681110e-01    5.633568764e-01   -9.657815099e-06   -3.023538738e-05    0.000000000e+00    0.000000000e+00    0.000000000e+00    0.000000000e+00
      772750000    7.105818987e-01    4.850200117e-01    1.894310117e-06   -4.938524216e-05    0.000000000e+00    0.000000000e+00    0.000000000e+00    0.000000000e+00
      780000000    7.627782822e-01    3.997989297e-01   -1.476705074e-05    2.623070031e-05    0.000000000e+00    0.000000000e+00    0.000000000e+00    0.000000000e+00
      787250000    8.069692850e-01    3.089290857e-01   -2.036057413e-05    4.954636097e-06    0.000000000e+00    0.000000000e+00    0.000000000e+00    0.000000000e+00
      794500000    8.419528008e-01    2.145473659e-01    3.014691174e-06    9.933486581e-06    0.000000000e+00    0.000000000e+00    0.000000000e+00    0.000000000e+00
      801750000    8.673577309e-01    1.154862195e-01    1.057423651e-05   -8.985400200e-06    0.000000000e+00    0.000000000e+00    0.000000000e+00    0.000000000e+00
      809000000    8.828944564e-01    1.436813734e-02   -2.712849528e-05   -9.215436876e-06    0.000000000e+00    0.000000000e+00    0.000000000e+00    0.000000000e+00
      816250000    8.881517649e-01   -8.944160491e-02   -1.529231668e-06   -8.661299944e-08    0.000000000e+00    0.000000000e+00    0.000000000e+00    0.000000000e+00
      823500000    8.819057941e-01   -1.938891560e-01    3.586430103e-05   -1.692306250e-05    0.000000000e+00    0.000000000e+00    0.000000000e+00    0.000000000e+00
      830750000    8.650206327e-01   -2.979753911e-01   -4.104245454e-05    4.567205906e-06    0.000000000e+00    0.000000000e+00    0.000000000e+00    0.000000000e+00
      838000000    8.360331059e-01   -4.020687044e-01    1.501664519e-05    2.418737859e-05    0.000000000e+00    0.000000000e+00    0.000000000e+00    0.000000000e+00
      845250000    7.959999442e-01   -5.031627417e-01    4.025176167e-06   -2.616178244e-05    0.000000000e+00    0.000000000e+00    0.000000000e+00    0.000000000e+00
      852500000    7.430583835e-01   -6.006788015e-01    1.038610935e-05    9.248033166e-07    0.000000000e+00    0.000000000e+00    0.000000000e+00    0.000000000e+00
      859750000    6.797831655e-01   -6.921534538e-01    1.861620694e-05   -7.357448339e-07    0.000000000e+00    0.000000000e+00    0.000000000e+00    0.000000000e+00
      867000000    6.019308567e-01   -7.785927653e-01    1.165270805e-05    2.262741327e-05    0.000000000e+00    0.000000000e+00    0.000000000e+00    0.000000000e+00
      874250000    5.157792568e-01   -8.547198772e-01   -4.606973380e-05   -3.926549107e-05    0.000000000e+00    0.000000000e+00    0.000000000e+00    0.000000000e+00
      881500000    4.158137739e-01   -9.216866493e-01    2.461671829e-05    6.043352187e-06    0.000000000e+00    0.000000000e+00    0.000000000e+00    0.000000000e+00
      888750000    3.101575375e-01   -9.755102992e-01    1.233629882e-05    1.323409379e-06    0.000000000e+00    0.000000000e+00    0.000000000e+00    0.000000000e+00
      896000000    1.967092156e-01   -1.015948415e+00   -1.872610301e-05    1.416169107e-05    0.000000000e+00    0.000000000e+00    0.000000000e+00    0.000000000e+00
      903250000    7.619429380e-02   -1.041481256e+00   -2.539996058e-05   -9.074807167e-06    0.000000000e+00    0.000000000e+00    0.000000000e+00    0.000000000e+00
      910500000   -4.711112380e-02   -1.049745679e+00    4.915520549e-06   -6.059184670e-06    0.000000000e+00    0.000000000e+00    0.000000000e+00    0.000000000e+00
      917750000   -1.715134680e-01   -1.041908026e+00   -4.084780812e-06    1.509673893e-05    0.000000000e+00    0.000000000e+00    0.000000000e+00    0.000000000e+00
      925000000   -2.913435400e-01   -1.017366409e+00    1.878291368e-05    3.012642264e-05    0.000000000e+00    0.000000000e+00    0.000000000e+00    0.000000000e+00
      932250000   -4.104645252e-01   -9.752733111e-01    2.899207175e-06    6.979331374e-06    0.000000000e+00    0.000000000e+00    0.000000000e+00    0.000000000e+00
      939500000   -5.211312175e-01   -9.190647006e-01    1.901574433e-05   -2.359785140e-05    0.000000000e+00    0.000000000e+00    0.000000000e+00    0.000000000e+00
      946750000   -6.191038489e-01   -8.490004539e-01    5.625188351e-07   -1.622922719e-05    0.000000000e+00    0.000000000e+00    0.000000000e+00    0.000000000e+00
      954000000   -7.082418799e-01   -7.675063610e-01   -2.900976688e-05   -4.210975021e-05    0.000000000e+00    0.000000000e+00    0.000000000e+00    0.000000000e+00
      961250000   -7.834938169e-01   -6.751981974e-01    1.320615411e-06    4.289578646e-05    0.000000000e+00    0.000000000e+00    0.000000000e+00    0.000000000e+00
      968500000   -8.455727100e-01   -5.742809176e-01    2.680346370e-06    9.325332940e-06    0.000000000e+00    0.000000000e+00    0.000000000e+00    0.000000000e+00
      975750000   -8.923761249e-01   -4.702272415e-01    5.261972547e-07    9.467825294e-06    0.000000000e+00    0.000000000e+00    0.000000000e+00    0.000000000e+00
      983000000   -9.257965684e-01   -3.614897728e-01   -3.946945071e-06    3.974512219e-05    0.000000000e+00    0.000000000e+00    0.000000000e+00    0.000000000e+00
      990250000   -9.446977377e-01   -2.541692257e-01    2.847053111e-06   -9.717419744e-06    0.000000000e+00    0.000000000e+00    0.000000000e+00    0.000000000e+00
      997500000   -9.493433237e-01   -1.467363238e-01   -1.958571374e-06    1.137610525e-05    0.000000000e+00    0.000000000e+00    0.000000000e+00    0.000000000e+00
     1004750000   -9.419754148e-01   -4.084939510e-02    1.044292003e-05   -1.043081284e-05    0.000000000e+00    0.000000000e+00    0.000000000e+00    0.000000000e+00
     1012000000   -9.226744175e-01    5.921634287e-02    5.503185093e-06    2.301018685e-05    0.000000000e+00    0.000000000e+00    0.000000000e+00    0.000000000e+00
     1019250000   -8.928907514e-01    1.535533518e-01   -1.456588507e-06   -4.143454134e-06    0.000000000e+00    0.000000000e+00    0.000000000e+00    0.000000000e+00
     1026500000   -8.545156717e-01    2.428052425e-01   -1.078005880e-05    7.178634405e-06    0.000000000e+00    0.000000000e+00    0.000000000e+00    0.000000000e+00
     1033750000   -8.082097173e-01    3.246725798e-01   -1.264084131e-05   -2.494361252e-05    0.000000000e+00    0.000000000e+00    0.000000000e+00    0.000000000e+00
     1041000000   -7.546257377e-01    3.993070424e-01    1.076515764e-05    1.245457679e-05    0.000000000e+00    0.000000000e+00    0.000000000e+00    0.000000000e+00
