! NanoVNA-App by OneOfEleven et al v1.1.209 (+OD15) 
! Date: 2024-07-30 15:17:52
! Start: 200MHz Stop: 6GHz Points: 801
! S-Parameter data: F S11 S21 S12 S22
# Hz S RI R 50
!     Frequency           S11_Real           S11_Imag           S21_Real           S21_Imag           S12_Real           S12_Imag           S22_Real           S22_Imag
      200000000   -9.989666939e-01   -1.158400699e-01    1.219473779e-05    1.293141395e-05    0.000000000e+00    0.000000000e+00    0.000000000e+00    0.000000000e+00
      207250000   -1.010024905e+00   -1.680284366e-02   -1.876428723e-05   -3.642402589e-06    0.000000000e+00    0.000000000e+00    0.000000000e+00    0.000000000e+00
      214500000   -1.011567950e+00    8.481962234e-02    4.327762872e-05   -3.229826689e-06    0.000000000e+00    0.000000000e+00    0.000000000e+00    0.000000000e+00
      221750000   -1.002045989e+00    1.876071244e-01   -2.614222467e-06   -1.439731568e-05    0.000000000e+00    0.000000000e+00    0.000000000e+00    0.000000000e+00
      229000000   -9.826468229e-01    2.902984917e-01    9.665265679e-06    1.151021570e-05    0.000000000e+00    0.000000000e+00    0.000000000e+00    0.000000000e+00
      236250000   -9.499163628e-01    3.934168518e-01    9.026378393e-06    2.550333738e-05    0.000000000e+00    0.000000000e+00    0.000000000e+00    0.000000000e+00
      243500000   -9.065309167e-01    4.929636717e-01   -1.109298319e-05    2.078805119e-05    0.000000000e+00    0.000000000e+00    0.000000000e+00    0.000000000e+00
      250750000   -8.493599892e-01    5.898953080e-01   -1.932214946e-05    4.960224032e-06    0.000000000e+00    0.000000000e+00    0.000000000e+00    0.000000000e+00
      258000000   -7.808895111e-01    6.806885004e-01   -3.039371222e-05   -7.624737918e-06    0.000000000e+00    0.000000000e+00    0.000000000e+00    0.000000000e+00
      265250000   -7.014928460e-01    7.646763325e-01    2.520158887e-05   -4.083383828e-05    0.000000000e+00    0.000000000e+00    0.000000000e+00    0.000000000e+00
      272500000   -6.095231175e-01    8.399320841e-01    6.496906281e-06    2.997927368e-06    0.000000000e+00    0.000000000e+00    0.000000000e+00    0.000000000e+00
      279750000   -5.091292262e-01    9.039480686e-01   -1.775380224e-05    3.244075924e-05    0.000000000e+00    0.000000000e+00    0.000000000e+00    0.000000000e+00
      287000000   -3.979032338e-01    9.555197358e-01    8.295290172e-06    1.516193151e-05    0.000000000e+00    0.000000000e+00    0.000000000e+00    0.000000000e+00
      294250000   -2.810876369e-01    9.933627844e-01   -2.043135464e-05    3.602635115e-05    0.000000000e+00    0.000000000e+00    0.000000000e+00    0.000000000e+00
      301500000   -1.579551697e-01    1.015798092e+00    1.492910087e-06   -1.080334187e-07    0.000000000e+00    0.000000000e+00    0.000000000e+00    0.000000000e+00
      308750000   -3.257375583e-02    1.023112178e+00    1.414865255e-05   -5.323439837e-06    0.000000000e+00    0.000000000e+00    0.000000000e+00    0.000000000e+00
      316000000    9.365718812e-02    1.013584256e+00    4.290975630e-05    6.169080734e-06    0.000000000e+00    0.000000000e+00    0.000000000e+00    0.000000000e+00
      323250000    2.183832973e-01    9.881999493e-01   -3.042165190e-05   -1.827441156e-05    0.000000000e+00    0.000000000e+00    0.000000000e+00    0.000000000e+00
      330500000    3.381129801e-01    9.463086724e-01    3.595836461e-06   -1.899152994e-05    0.000000000e+00    0.000000000e+00    0.000000000e+00    0.000000000e+00
      337750000    4.514543712e-01    8.898173571e-01    1.403689384e-05   -2.040434629e-05    0.000000000e+00    0.000000000e+00    0.000000000e+00    0.000000000e+00
      345000000    5.568324327e-01    8.200384974e-01    2.088956535e-06   -1.545995474e-06    0.000000000e+00    0.000000000e+00    0.000000000e+00    0.000000000e+00
      352250000    6.510086656e-01    7.372678518e-01    2.334732562e-05    4.911795259e-06    0.000000000e+00    0.000000000e+00    0.000000000e+00    0.000000000e+00
      359500000    7.347555161e-01    6.438330412e-01    5.196779966e-06   -1.831445843e-05    0.000000000e+00    0.000000000e+00    0.000000000e+00    0.000000000e+00
      366750000    8.048520088e-01    5.420649648e-01    1.836940646e-05   -1.203827560e-05    0.000000000e+00    0.000000000e+00    0.000000000e+00    0.000000000e+00
      374000000    8.616896868e-01    4.342215359e-01   -3.845430911e-06    4.923902452e-06    0.000000000e+00    0.000000000e+00    0.000000000e+00    0.000000000e+00
      381250000    9.056816697e-01    3.203352988e-01    1.785624772e-05    2.394802868e-05    0.000000000e+00    0.000000000e+00    0.000000000e+00    0.000000000e+00
      388500000    9.343821406e-01    2.047070414e-01   -1.186132431e-05    2.512149513e-05    0.000000000e+00    0.000000000e+00    0.000000000e+00    0.000000000e+00
      395750000    9.504513741e-01    8.784428984e-02    8.601695299e-06   -4.420522600e-05    0.000000000e+00    0.000000000e+00    0.000000000e+00    0.000000000e+00
      403000000    9.526437521e-01   -2.879784442e-02    1.941062510e-05    2.889521420e-05    0.000000000e+00    0.000000000e+00    0.000000000e+00    0.000000000e+00
      410250000    9.414459467e-01   -1.452501565e-01    7.430091500e-06    6.249174476e-07    0.000000000e+00    0.000000000e+00    0.000000000e+00    0.000000000e+00
      417500000    9.187080860e-01   -2.557705939e-01   -3.014225513e-05   -1.440290362e-05    0.000000000e+00    0.000000000e+00    0.000000000e+00    0.000000000e+00
      424750000    8.846148252e-01   -3.646192551e-01   -7.033348083e-06    5.508773029e-06    0.000000000e+00    0.000000000e+00    0.000000000e+00    0.000000000e+00
      432000000    8.383828402e-01   -4.671123028e-01   -1.071486622e-05   -4.860665649e-05    0.000000000e+00    0.000000000e+00    0.000000000e+00    0.000000000e+00
      439250000    7.833750844e-01   -5.632172823e-01    1.303851604e-06    2.276245505e-05    0.000000000e+00    0.000000000e+00    0.000000000e+00    0.000000000e+00
      446500000    7.186575532e-01   -6.520255208e-01    3.275461495e-05    1.016166061e-05    0.000000000e+00    0.000000000e+00    0.000000000e+00    0.000000000e+00
      453750000    6.442693472e-01   -7.347914577e-01    1.018866897e-06    3.083609045e-06    0.000000000e+00    0.000000000e+00    0.000000000e+00    0.000000000e+00
      461000000    5.638857484e-01   -8.076931834e-01    1.159124076e-05   -3.266055137e-05    0.000000000e+00    0.000000000e+00    0.000000000e+00    0.000000000e+00
      468250000    4.761181176e-01   -8.713306785e-01   -1.484993845e-05    1.434236765e-06    0.000000000e+00    0.000000000e+00    0.000000000e+00    0.000000000e+00
      475500000    3.804098070e-01   -9.269354343e-01   -3.719609231e-05   -1.762993634e-05    0.000000000e+00    0.000000000e+00    0.000000000e+00    0.000000000e+00
      482750000    2.809476852e-01   -9.717434645e-01    1.022126526e-05    2.434756607e-05    0.000000000e+00    0.000000000e+00    0.000000000e+00    0.000000000e+00
      490000000    1.769822389e-01   -1.006156206e+00   -1.124758273e-05    2.205651253e-05    0.000000000e+00    0.000000000e+00    0.000000000e+00    0.000000000e+00
      497250000    6.983396411e-02   -1.028934240e+00   -1.135468483e-05   -2.051983029e-05    0.000000000e+00    0.000000000e+00    0.000000000e+00    0.000000000e+00
      504500000   -4.011896625e-02   -1.041418433e+00    1.613982022e-06    1.864135265e-05    0.000000000e+00    0.000000000e+00    0.000000000e+00    0.000000000e+00
      511750000   -1.509912014e-01   -1.040818930e+00   -2.163369209e-05   -7.541850209e-06    0.000000000e+00    0.000000000e+00    0.000000000e+00    0.000000000e+00
      519000000   -2.633062303e-01   -1.029093027e+00   -3.003515303e-05   -2.989545465e-07    0.000000000e+00    0.000000000e+00    0.000000000e+00    0.000000000e+00
      526250000   -3.721349537e-01   -1.004563451e+00    1.659337431e-05    3.169942647e-05    0.000000000e+00    0.000000000e+00    0.000000000e+00    0.000000000e+00
      533500000   -4.796741903e-01   -9.680782557e-01    2.944841981e-06   -1.262128353e-05    0.000000000e+00    0.000000000e+00    0.000000000e+00    0.000000000e+00
      540750000   -5.829086304e-01   -9.187979698e-01    6.105750799e-06    2.596806735e-05    0.000000000e+00    0.000000000e+00    0.000000000e+00    0.000000000e+00
      548000000   -6.814212203e-01   -8.584836125e-01    1.410301775e-05    1.152977347e-05    0.000000000e+00    0.000000000e+00    0.000000000e+00    0.000000000e+00
      555250000   -7.723589540e-01   -7.867143154e-01    3.247056156e-05    9.602867067e-06    0.000000000e+00    0.000000000e+00    0.000000000e+00    0.000000000e+00
      562500000   -8.547874689e-01   -7.031878829e-01    1.911073923e-05   -1.508370042e-05    0.000000000e+00    0.000000000e+00    0.000000000e+00    0.000000000e+00
      569750000   -9.274091125e-01   -6.098833680e-01    2.159457654e-05   -3.154575825e-05    0.000000000e+00    0.000000000e+00    0.000000000e+00    0.000000000e+00
      577000000   -9.883261919e-01   -5.090417266e-01   -3.501772881e-05   -1.730304211e-05    0.000000000e+00    0.000000000e+00    0.000000000e+00    0.000000000e+00
      584250000   -1.037361145e+00   -4.003345370e-01    1.218914986e-05    4.462897778e-06    0.000000000e+00    0.000000000e+00    0.000000000e+00    0.000000000e+00
      591500000   -1.073086500e+00   -2.855446041e-01   -1.429766417e-05   -2.381764352e-05    0.000000000e+00    0.000000000e+00    0.000000000e+00    0.000000000e+00
      598750000   -1.094607353e+00   -1.672076434e-01    1.171231270e-05    2.208538353e-05    0.000000000e+00    0.000000000e+00    0.000000000e+00    0.000000000e+00
      606000000   -1.101242065e+00   -4.796893895e-02   -1.250393689e-05   -1.104362309e-05    0.000000000e+00    0.000000000e+00    0.000000000e+00    0.000000000e+00
      613250000   -1.093259215e+00    7.186371088e-02   -6.551854312e-06    2.598389983e-05    0.000000000e+00    0.000000000e+00    0.000000000e+00    0.000000000e+00
      620500000   -1.071388960e+00    1.881974936e-01    1.616124064e-05   -1.185573637e-06    0.000000000e+00    0.000000000e+00    0.000000000e+00    0.000000000e+00
      627750000   -1.034081697e+00    3.029789329e-01   -7.126480341e-06   -3.805663437e-05    0.000000000e+00    0.000000000e+00    0.000000000e+00    0.000000000e+00
      635000000   -9.861208797e-01    4.087378085e-01    1.517776400e-05   -2.414081246e-05    0.000000000e+00    0.000000000e+00    0.000000000e+00    0.000000000e+00
      642250000   -9.234455228e-01    5.091983676e-01    2.271495759e-05    1.201406121e-06    0.000000000e+00    0.000000000e+00    0.000000000e+00    0.000000000e+00
      649500000   -8.518412113e-01    5.996907949e-01    3.706943244e-05   -1.585204154e-05    0.000000000e+00    0.000000000e+00    0.000000000e+00    0.000000000e+00
      656750000   -7.694804668e-01    6.800711155e-01    1.834146678e-05    1.918151975e-05    0.000000000e+00    0.000000000e+00    0.000000000e+00    0.000000000e+00
      664000000   -6.799525023e-01    7.503097653e-01   -1.286808401e-05    1.822784543e-05    0.000000000e+00    0.000000000e+00    0.000000000e+00    0.000000000e+00
      671250000   -5.839725137e-01    8.085775375e-01   -1.943390816e-05    1.955963671e-05    0.000000000e+00    0.000000000e+00    0.000000000e+00    0.000000000e+00
      678500000   -4.829930663e-01    8.546046615e-01   -2.929102629e-05    7.523223758e-06    0.000000000e+00    0.000000000e+00    0.000000000e+00    0.000000000e+00
      685750000   -3.781094253e-01    8.900961280e-01   -1.957546920e-05   -2.149492502e-06    0.000000000e+00    0.000000000e+00    0.000000000e+00    0.000000000e+00
      693000000   -2.728286088e-01    9.123649597e-01    1.223757863e-06   -2.408865839e-05    0.000000000e+00    0.000000000e+00    0.000000000e+00    0.000000000e+00
      700250000   -1.657702476e-01    9.232345819e-01   -9.536743164e-07    1.167040318e-05    0.000000000e+00    0.000000000e+00    0.000000000e+00    0.000000000e+00
      707500000   -5.944052339e-02    9.226446152e-01    1.560989767e-05   -8.525326848e-06    0.000000000e+00    0.000000000e+00    0.000000000e+00    0.000000000e+00
      714750000    4.586959258e-02    9.103686213e-01   -1.596380025e-05   -1.828372478e-05    0.000000000e+00    0.000000000e+00    0.000000000e+00    0.000000000e+00
      722000000    1.461843997e-01    8.882682323e-01    1.955870539e-05    2.803187817e-05    0.000000000e+00    0.000000000e+00    0.000000000e+00    0.000000000e+00
      729250000    2.455404848e-01    8.547325730e-01    3.636721522e-05   -5.685724318e-05    0.000000000e+00    0.000000000e+00    0.000000000e+00    0.000000000e+00
      736500000    3.375757933e-01    8.130062819e-01   -2.591125667e-05    2.505257726e-05    0.000000000e+00    0.000000000e+00    0.000000000e+00    0.000000000e+00
      743750000    4.253058434e-01    7.630367279e-01    1.684483141e-05    2.854503691e-05    0.000000000e+00    0.000000000e+00    0.000000000e+00    0.000000000e+00
      751000000    5.072108507e-01    7.036127448e-01   -6.825663149e-06    7.223337889e-06    0.000000000e+00    0.000000000e+00    0.000000000e+00    0.000000000e+00
      758250000    5.822528005e-01    6.375380754e-01    2.193264663e-05   -1.247040927e-06    0.000000000e+00    0.000000000e+00    0.000000000e+00    0.000000000e+00
      765500000    6.499105096e-01    5.641192794e-01    1.813750714e-05    4.503317177e-05    0.000000000e+00    0.000000000e+00    0.000000000e+00    0.000000000e+00
      772750000    7.104908228e-01    4.849972427e-01    1.415610313e-07   -2.998858690e-07    0.000000000e+00    0.000000000e+00    0.000000000e+00    0.000000000e+00
      780000000    7.623406649e-01    4.009551108e-01    1.409742981e-05   -3.964826465e-05    0.000000000e+00    0.000000000e+00    0.000000000e+00    0.000000000e+00
      787250000    8.075476289e-01    3.078194857e-01   -3.507360816e-06   -3.197230399e-06    0.000000000e+00    0.000000000e+00    0.000000000e+00    0.000000000e+00
      794500000    8.417567015e-01    2.143543810e-01    3.164727241e-05    4.628673196e-06    0.000000000e+00    0.000000000e+00    0.000000000e+00    0.000000000e+00
      801750000    8.677685857e-01    1.155491099e-01   -3.992673010e-05   -1.322571188e-05    0.000000000e+00    0.000000000e+00    0.000000000e+00    0.000000000e+00
      809000000    8.829502463e-01    1.509179454e-02   -1.709815115e-05    1.318380237e-05    0.000000000e+00    0.000000000e+00    0.000000000e+00    0.000000000e+00
      816250000    8.884602189e-01   -8.863972127e-02   -2.469215542e-05    2.265069634e-05    0.000000000e+00    0.000000000e+00    0.000000000e+00    0.000000000e+00
      823500000    8.818554282e-01   -1.941913217e-01    1.211185008e-05   -2.706050873e-05    0.000000000e+00    0.000000000e+00    0.000000000e+00    0.000000000e+00
      830750000    8.646559119e-01   -2.984018028e-01    1.470558345e-06   -2.573803067e-05    0.000000000e+00    0.000000000e+00    0.000000000e+00    0.000000000e+00
      838000000    8.359447718e-01   -4.017467499e-01    1.178309321e-05   -1.413468271e-05    0.000000000e+00    0.000000000e+00    0.000000000e+00    0.000000000e+00
      845250000    7.957425714e-01   -5.033309460e-01   -3.025867045e-06    3.368593752e-06    0.000000000e+00    0.000000000e+00    0.000000000e+00    0.000000000e+00
      852500000    7.435690165e-01   -6.001512408e-01    1.272931695e-05    2.281740308e-05    0.000000000e+00    0.000000000e+00    0.000000000e+00    0.000000000e+00
      859750000    6.792818904e-01   -6.923217177e-01   -6.926245987e-06   -6.018113345e-05    0.000000000e+00    0.000000000e+00    0.000000000e+00    0.000000000e+00
      867000000    6.022218466e-01   -7.791188955e-01   -3.764405847e-06    5.859509110e-05    0.000000000e+00    0.000000000e+00    0.000000000e+00    0.000000000e+00
      874250000    5.152570605e-01   -8.550687432e-01    4.848930985e-05    1.440104097e-05    0.000000000e+00    0.000000000e+00    0.000000000e+00    0.000000000e+00
      881500000    4.165893495e-01   -9.218069315e-01   -2.090819180e-05    1.148320735e-05    0.000000000e+00    0.000000000e+00    0.000000000e+00    0.000000000e+00
      888750000    3.105457127e-01   -9.757845402e-01    9.795650840e-06   -1.868046820e-05    0.000000000e+00    0.000000000e+00    0.000000000e+00    0.000000000e+00
      896000000    1.961738169e-01   -1.016219020e+00   -1.472607255e-05   -2.180412412e-05    0.000000000e+00    0.000000000e+00    0.000000000e+00    0.000000000e+00
      903250000    7.412063330e-02   -1.040690780e+00   -4.327856004e-06    2.137385309e-05    0.000000000e+00    0.000000000e+00    0.000000000e+00    0.000000000e+00
      910500000   -4.751692340e-02   -1.050386429e+00   -5.036592484e-06    2.185814083e-06    0.000000000e+00    0.000000000e+00    0.000000000e+00    0.000000000e+00
      917750000   -1.711536944e-01   -1.041623712e+00   -2.865679562e-06   -6.372109056e-06    0.000000000e+00    0.000000000e+00    0.000000000e+00    0.000000000e+00
      925000000   -2.918817103e-01   -1.017691612e+00   -1.027621329e-05    1.622363925e-06    0.000000000e+00    0.000000000e+00    0.000000000e+00    0.000000000e+00
      932250000   -4.108667672e-01   -9.757677913e-01    3.954581916e-05   -3.783777356e-05    0.000000000e+00    0.000000000e+00    0.000000000e+00    0.000000000e+00
      939500000   -5.198317170e-01   -9.194602966e-01    1.313164830e-07    2.959836274e-05    0.000000000e+00    0.000000000e+00    0.000000000e+00    0.000000000e+00
      946750000   -6.186627150e-01   -8.490485549e-01    6.642192602e-06    1.781620085e-05    0.000000000e+00    0.000000000e+00    0.000000000e+00    0.000000000e+00
      954000000   -7.094176412e-01   -7.663373351e-01   -1.351162791e-05   -3.911554813e-07    0.000000000e+00    0.000000000e+00    0.000000000e+00    0.000000000e+00
      961250000   -7.830772400e-01   -6.755548716e-01    4.287809134e-06    4.300847650e-06    0.000000000e+00    0.000000000e+00    0.000000000e+00    0.000000000e+00
      968500000   -8.462005854e-01   -5.736919045e-01    3.511551768e-05    1.714006066e-05    0.000000000e+00    0.000000000e+00    0.000000000e+00    0.000000000e+00
      975750000   -8.926048875e-01   -4.702945650e-01   -4.424341023e-05   -5.084089935e-06    0.000000000e+00    0.000000000e+00    0.000000000e+00    0.000000000e+00
      983000000   -9.258451462e-01   -3.619581461e-01   -1.786649227e-05    7.036142051e-06    0.000000000e+00    0.000000000e+00    0.000000000e+00    0.000000000e+00
      990250000   -9.443961382e-01   -2.535201311e-01   -5.148351192e-06    1.968629658e-05    0.000000000e+00    0.000000000e+00    0.000000000e+00    0.000000000e+00
      997500000   -9.491948485e-01   -1.444555819e-01   -2.835877240e-06   -1.959409565e-05    0.000000000e+00    0.000000000e+00    0.000000000e+00    0.000000000e+00
     1004750000   -9.417656064e-01   -4.116777331e-02    1.414678991e-06    9.698793292e-06    0.000000000e+00    0.000000000e+00    0.000000000e+00    0.000000000e+00
     1012000000   -9.225029945e-01    5.989576131e-02    6.296671927e-06    3.963708878e-06    0.000000000e+00    0.000000000e+00    0.000000000e+00    0.000000000e+00
     1019250000   -8.931927085e-01    1.537725180e-01    2.754572779e-05   -5.095079541e-05    0.000000000e+00    0.000000000e+00    0.000000000e+00    0.000000000e+00
     1026500000   -8.544053435e-01    2.426066250e-01   -1.782551408e-06   -8.326023817e-06    0.000000000e+00    0.000000000e+00    0.000000000e+00    0.000000000e+00
     1033750000   -8.080821633e-01    3.247703612e-01    3.003329039e-05    1.402199268e-05    0.000000000e+00    0.000000000e+00    0.000000000e+00    0.000000000e+00
     1041000000   -7.547817826e-01    3.990918696e-01   -1.832097769e-05   -4.199333489e-05    0.000000000e+00    0.000000000e+00    0.000000000e+00    0.000000000e+00
