! NanoVNA-App by OneOfEleven et al v1.1.209 (+OD15) 
! Date: 2024-07-30 15:17:57
! Start: 200MHz Stop: 6GHz Points: 801
! S-Parameter data: F S11 S21 S12 S22
# Hz S RI R 50
!     Frequency           S11_Real           S11_Imag           S21_Real           S21_Imag           S12_Real           S12_Imag           S22_Real           S22_Imag
      200000000   -9.990010262e-01   -1.158978343e-01   -1.892074943e-05   -4.903227091e-05    0.000000000e+00    0.000000000e+00    0.000000000e+00    0.000000000e+00
      207250000   -1.010337472e+00   -1.673264802e-02    9.648501873e-06   -9.367242455e-06    0.000000000e+00    0.000000000e+00    0.000000000e+00    0.000000000e+00
      214500000   -1.011304259e+00    8.465868235e-02    1.316890121e-05   -1.133792102e-05    0.000000000e+00    0.000000000e+00    0.000000000e+00    0.000000000e+00
      221750000   -1.002175212e+00    1.875269711e-01   -1.320242882e-05    2.811197191e-05    0.000000000e+00    0.000000000e+00    0.000000000e+00    0.000000000e+00
      229000000   -9.819185138e-01    2.906061411e-01   -5.733221769e-06    1.973565668e-05    0.000000000e+00    0.000000000e+00    0.000000000e+00    0.000000000e+00
      236250000   -9.501900077e-01    3.933597505e-01   -2.106651664e-05    2.485699952e-06    0.000000000e+00    0.000000000e+00    0.000000000e+00    0.000000000e+00
      243500000   -9.058083892e-01    4.932601750e-01   -1.026783139e-05    3.266520798e-05    0.000000000e+00    0.000000000e+00    0.000000000e+00    0.000000000e+00
      250750000   -8.494539857e-01    5.901060700e-01    9.198673069e-06   -7.258728147e-06    0.000000000e+00    0.000000000e+00    0.000000000e+00    0.000000000e+00
      258000000   -7.807686925e-01    6.809186339e-01   -5.690380931e-07   -2.419576049e-06    0.000000000e+00    0.000000000e+00    0.000000000e+00    0.000000000e+00
      265250000   -7.011233568e-01    7.649562359e-01   -2.562068403e-06    1.167040318e-05    0.000000000e+00    0.000000000e+00    0.000000000e+00    0.000000000e+00
      272500000   -6.097504497e-01    8.399580121e-01   -1.683365554e-05    3.326684237e-06    0.000000000e+00    0.000000000e+00    0.000000000e+00    0.000000000e+00
      279750000   -5.084620714e-01    9.033573866e-01   -2.884771675e-05    3.742054105e-05    0.000000000e+00    0.000000000e+00    0.000000000e+00    0.000000000e+00
      287000000   -3.977825046e-01    9.557571411e-01   -1.080613583e-05    5.838461220e-06    0.000000000e+00    0.000000000e+00    0.000000000e+00    0.000000000e+00
      294250000   -2.801996171e-01    9.927608371e-01   -5.356967449e-06   -1.587998122e-05    0.000000000e+00    0.000000000e+00    0.000000000e+00    0.000000000e+00
      301500000   -1.582257152e-01    1.016383171e+00   -9.313225746e-08    6.375834346e-06    0.000000000e+00    0.000000000e+00    0.000000000e+00    0.000000000e+00
      308750000   -3.209492192e-02    1.023320198e+00   -1.475773752e-05   -4.049390554e-06    0.000000000e+00    0.000000000e+00    0.000000000e+00    0.000000000e+00
      316000000    9.398420155e-02    1.013646364e+00   -1.855473965e-05    1.175422221e-05    0.000000000e+00    0.000000000e+00    0.000000000e+00    0.000000000e+00
      323250000    2.185928524e-01    9.878421426e-01    8.488073945e-06    1.069251448e-05    0.000000000e+00    0.000000000e+00    0.000000000e+00    0.000000000e+00
      330500000    3.385851979e-01    9.458926320e-01   -2.901535481e-05    2.247188240e-05    0.000000000e+00    0.000000000e+00    0.000000000e+00    0.000000000e+00
      337750000    4.518633485e-01    8.903831840e-01    1.933239400e-05   -1.483410597e-05    0.000000000e+00    0.000000000e+00    0.000000000e+00    0.000000000e+00
      345000000    5.570904016e-01    8.194709420e-01    2.785772085e-05    1.334026456e-05    0.000000000e+00    0.000000000e+00    0.000000000e+00    0.000000000e+00
      352250000    6.514995694e-01    7.368294597e-01   -8.506700397e-06    5.296431482e-06    0.000000000e+00    0.000000000e+00    0.000000000e+00    0.000000000e+00
      359500000    7.352012992e-01    6.440251470e-01   -4.750676453e-06   -1.756567508e-05    0.000000000e+00    0.000000000e+00    0.000000000e+00    0.000000000e+00
      366750000    8.050289750e-01    5.423420668e-01   -3.317836672e-05   -2.877786756e-07    0.000000000e+00    0.000000000e+00    0.000000000e+00    0.000000000e+00
      374000000    8.622840643e-01    4.341155887e-01   -9.112060070e-06   -2.323836088e-05    0.000000000e+00    0.000000000e+00    0.000000000e+00    0.000000000e+00
      381250000    9.048100114e-01    3.205963671e-01    2.004206181e-06    1.711025834e-05    0.000000000e+00    0.000000000e+00    0.000000000e+00    0.000000000e+00
      388500000    9.343407750e-01    2.045772970e-01   -1.135841012e-05    3.847666085e-05    0.000000000e+00    0.000000000e+00    0.000000000e+00    0.000000000e+00
      395750000    9.503468275e-01    8.761388063e-02   -2.021528780e-05    1.520011574e-05    0.000000000e+00    0.000000000e+00    0.000000000e+00    0.000000000e+00
      403000000    9.525519013e-01   -2.895183489e-02    8.334405720e-06    2.457760274e-06    0.000000000e+00    0.000000000e+00    0.000000000e+00    0.000000000e+00
      410250000    9.421109557e-01   -1.444992870e-01   -4.000961781e-06   -1.016538590e-05    0.000000000e+00    0.000000000e+00    0.000000000e+00    0.000000000e+00
      417500000    9.184067845e-01   -2.562790513e-01    1.180637628e-05   -3.805849701e-05    0.000000000e+00    0.000000000e+00    0.000000000e+00    0.000000000e+00
      424750000    8.841980100e-01   -3.650196493e-01   -3.509595990e-05   -7.040798664e-07    0.000000000e+00    0.000000000e+00    0.000000000e+00    0.000000000e+00
      432000000    8.382710218e-01   -4.678169489e-01   -4.002358764e-05    1.531839371e-05    0.000000000e+00    0.000000000e+00    0.000000000e+00    0.000000000e+00
      439250000    7.830415964e-01   -5.635985732e-01   -1.973472536e-05   -4.441384226e-05    0.000000000e+00    0.000000000e+00    0.000000000e+00    0.000000000e+00
      446500000    7.182292938e-01   -6.522888541e-01   -9.555369616e-06    1.498591155e-05    0.000000000e+00    0.000000000e+00    0.000000000e+00    0.000000000e+00
      453750000    6.434698105e-01   -7.347490191e-01    2.618506551e-05   -1.399125904e-05    0.000000000e+00    0.000000000e+00    0.000000000e+00    0.000000000e+00
      461000000    5.642741323e-01   -8.076568842e-01    1.733098179e-05   -4.580151290e-05    0.000000000e+00    0.000000000e+00    0.000000000e+00    0.000000000e+00
      468250000    4.754244089e-01   -8.720833659e-01    4.938151687e-05   -1.818872988e-06    0.000000000e+00    0.000000000e+00    0.000000000e+00    0.000000000e+00
      475500000    3.803085387e-01   -9.269202948e-01    1.823063940e-05    3.304984421e-05    0.000000000e+00    0.000000000e+00    0.000000000e+00    0.000000000e+00
      482750000    2.808344364e-01   -9.716576338e-01   -4.178844392e-05   -1.026410609e-05    0.000000000e+00    0.000000000e+00    0.000000000e+00    0.000000000e+00
      490000000    1.771097630e-01   -1.005545735e+00    5.019828677e-06    2.189446241e-05    0.000000000e+00    0.000000000e+00    0.000000000e+00    0.000000000e+00
      497250000    7.000234723e-02   -1.029268861e+00    2.298597246e-05    3.967341036e-05    0.000000000e+00    0.000000000e+00    0.000000000e+00    0.000000000e+00
      504500000   -4.027046636e-02   -1.040727973e+00   -1.251976937e-05   -5.432404578e-06    0.000000000e+00    0.000000000e+00    0.000000000e+00    0.000000000e+00
      511750000   -1.511783302e-01   -1.040909529e+00    2.907495946e-05   -1.560617238e-05    0.000000000e+00    0.000000000e+00    0.000000000e+00    0.000000000e+00
      519000000   -2.623232305e-01   -1.028910637e+00    2.222228795e-05   -1.571327448e-05    0.000000000e+00    0.000000000e+00    0.000000000e+00    0.000000000e+00
      526250000   -3.728362322e-01   -1.004458785e+00   -1.896359026e-05   -3.088824451e-05    0.000000000e+00    0.000000000e+00    0.000000000e+00    0.000000000e+00
      533500000   -4.797326624e-01   -9.676520228e-01    4.094094038e-06    1.470744610e-05    0.000000000e+00    0.000000000e+00    0.000000000e+00    0.000000000e+00
      540750000   -5.831414461e-01   -9.190181494e-01    3.261305392e-05   -3.252923489e-05    0.000000000e+00    0.000000000e+00    0.000000000e+00    0.000000000e+00
      548000000   -6.818247437e-01   -8.581145406e-01   -3.037229180e-05   -9.576790035e-06    0.000000000e+00    0.000000000e+00    0.000000000e+00    0.000000000e+00
      555250000   -7.724433541e-01   -7.857937217e-01    1.598987728e-05   -4.231929779e-06    0.000000000e+00    0.000000000e+00    0.000000000e+00    0.000000000e+00
      562500000   -8.547518253e-01   -7.021765113e-01   -5.291774869e-06    1.746416092e-05    0.000000000e+00    0.000000000e+00    0.000000000e+00    0.000000000e+00
      569750000   -9.272639751e-01   -6.100803614e-01    3.232061863e-05    1.145061105e-05    0.000000000e+00    0.000000000e+00    0.000000000e+00    0.000000000e+00
      577000000   -9.884923697e-01   -5.084763169e-01   -2.674944699e-05    2.884306014e-06    0.000000000e+00    0.000000000e+00    0.000000000e+00    0.000000000e+00
      584250000   -1.038150430e+00   -3.991974890e-01    9.628944099e-06    5.182623863e-05    0.000000000e+00    0.000000000e+00    0.000000000e+00    0.000000000e+00
      591500000   -1.073053718e+00   -2.861480415e-01    1.746602356e-05   -2.301391214e-05    0.000000000e+00    0.000000000e+00    0.000000000e+00    0.000000000e+00
      598750000   -1.094318748e+00   -1.667086482e-01    4.455447197e-06    2.246722579e-05    0.000000000e+00    0.000000000e+00    0.000000000e+00    0.000000000e+00
      606000000   -1.101087928e+00   -4.842357337e-02    1.651514322e-05    2.768263221e-05    0.000000000e+00    0.000000000e+00    0.000000000e+00    0.000000000e+00
      613250000   -1.093227029e+00    7.046849281e-02    1.558195800e-05    1.440104097e-05    0.000000000e+00    0.000000000e+00    0.000000000e+00    0.000000000e+00
      620500000   -1.070865631e+00    1.893177330e-01   -1.450721174e-05    2.942513674e-05    0.000000000e+00    0.000000000e+00    0.000000000e+00    0.000000000e+00
      627750000   -1.034439445e+00    3.027499616e-01   -2.078805119e-05    4.701316357e-06    0.000000000e+00    0.000000000e+00    0.000000000e+00    0.000000000e+00
      635000000   -9.858621359e-01    4.088476896e-01   -3.171991557e-05   -2.864003181e-05    0.000000000e+00    0.000000000e+00    0.000000000e+00    0.000000000e+00
      642250000   -9.230501056e-01    5.096563697e-01    3.620795906e-05   -8.959323168e-07    0.000000000e+00    0.000000000e+00    0.000000000e+00    0.000000000e+00
      649500000   -8.518556356e-01    5.993641615e-01   -1.381337643e-05   -2.449378371e-07    0.000000000e+00    0.000000000e+00    0.000000000e+00    0.000000000e+00
      656750000   -7.686643600e-01    6.807302237e-01   -2.709496766e-05   -2.157036215e-05    0.000000000e+00    0.000000000e+00    0.000000000e+00    0.000000000e+00
      664000000   -6.798668504e-01    7.504122257e-01    1.921225339e-05    3.551132977e-06    0.000000000e+00    0.000000000e+00    0.000000000e+00    0.000000000e+00
      671250000   -5.839937329e-01    8.084359169e-01   -1.696217805e-05   -7.588416338e-06    0.000000000e+00    0.000000000e+00    0.000000000e+00    0.000000000e+00
      678500000   -4.829832315e-01    8.551361561e-01   -4.407018423e-06    8.447095752e-07    0.000000000e+00    0.000000000e+00    0.000000000e+00    0.000000000e+00
      685750000   -3.787854314e-01    8.897446394e-01    3.341678530e-05   -3.449991345e-05    0.000000000e+00    0.000000000e+00    0.000000000e+00    0.000000000e+00
      693000000   -2.735651433e-01    9.121056795e-01   -3.266893327e-05   -9.477138519e-06    0.000000000e+00    0.000000000e+00    0.000000000e+00    0.000000000e+00
      700250000   -1.641592979e-01    9.236242771e-01    3.165937960e-05   -2.844911069e-05    0.000000000e+00    0.000000000e+00    0.000000000e+00    0.000000000e+00
      707500000   -6.048971042e-02    9.222507477e-01    3.849342465e-05    1.022126526e-05    0.000000000e+00    0.000000000e+00    0.000000000e+00    0.000000000e+00
      714750000    4.559782147e-02    9.106457829e-01   -2.516061068e-05    2.533197403e-05    0.000000000e+00    0.000000000e+00    0.000000000e+00    0.000000000e+00
      722000000    1.463505924e-01    8.882058859e-01    1.065805554e-05   -1.258030534e-05    0.000000000e+00    0.000000000e+00    0.000000000e+00    0.000000000e+00
      729250000    2.443576902e-01    8.555226326e-01    2.568587661e-05   -3.598723561e-05    0.000000000e+00    0.000000000e+00    0.000000000e+00    0.000000000e+00
      736500000    3.377910554e-01    8.132353425e-01    3.794860095e-05    4.134513438e-05    0.000000000e+00    0.000000000e+00    0.000000000e+00    0.000000000e+00
      743750000    4.253509343e-01    7.625627518e-01    2.821721137e-05    6.631016731e-07    0.000000000e+00    0.000000000e+00    0.000000000e+00    0.000000000e+00
      751000000    5.066881776e-01    7.043004036e-01    5.219131708e-06    2.907775342e-05    0.000000000e+00    0.000000000e+00    0.000000000e+00    0.000000000e+00
      758250000    5.824096203e-01    6.370969415e-01    1.226924360e-05   -1.362524927e-06    0.000000000e+00    0.000000000e+00    0.000000000e+00    0.000000000e+00
      765500000    6.503240466e-01    5.640751719e-01    9.897165000e-06   -5.303882062e-06    0.000000000e+00    0.000000000e+00    0.000000000e+00    0.000000000e+00
      772750000    7.104830146e-01    4.849513769e-01   -3.115739673e-05   -7.411465049e-06    0.000000000e+00    0.000000000e+00    0.000000000e+00    0.000000000e+00
      780000000    7.612709999e-01    4.007982314e-01   -1.164060086e-05   -1.579429954e-05    0.000000000e+00    0.000000000e+00    0.000000000e+00    0.000000000e+00
      787250000    8.078155518e-01    3.075666726e-01   -1.031626016e-05   -1.291185617e-05    0.000000000e+00    0.000000000e+00    0.000000000e+00    0.000000000e+00
      794500000    8.417236209e-01    2.139785737e-01   -5.546025932e-06    2.015754580e-05    0.000000000e+00    0.000000000e+00    0.000000000e+00    0.000000000e+00
      801750000    8.679237962e-01    1.153547540e-01   -5.492940545e-06   -1.721829176e-05    0.000000000e+00    0.000000000e+00    0.000000000e+00    0.000000000e+00
      809000000    8.827475905e-01    1.441595796e-02    4.306435585e-06    2.109166235e-05    0.000000000e+00    0.000000000e+00    0.000000000e+00    0.000000000e+00
      816250000    8.877463937e-01   -8.946081996e-02   -1.972261816e-05    4.225876182e-05    0.000000000e+00    0.000000000e+00    0.000000000e+00    0.000000000e+00
      823500000    8.823865652e-01   -1.938083172e-01   -5.326140672e-05    2.047698945e-05    0.000000000e+00    0.000000000e+00    0.000000000e+00    0.000000000e+00
      830750000    8.645877838e-01   -2.989921570e-01   -1.441966742e-05   -1.814588904e-05    0.000000000e+00    0.000000000e+00    0.000000000e+00    0.000000000e+00
      838000000    8.359794617e-01   -4.014518261e-01    2.821348608e-05   -6.303191185e-06    0.000000000e+00    0.000000000e+00    0.000000000e+00    0.000000000e+00
      845250000    7.961528301e-01   -5.028298497e-01    4.137586802e-05    7.780268788e-06    0.000000000e+00    0.000000000e+00    0.000000000e+00    0.000000000e+00
      852500000    7.431538701e-01   -6.003938913e-01    1.339241862e-05    2.618879080e-06    0.000000000e+00    0.000000000e+00    0.000000000e+00    0.000000000e+00
      859750000    6.785315275e-01   -6.928804517e-01    1.182779670e-07   -1.812167466e-05    0.000000000e+00    0.000000000e+00    0.000000000e+00    0.000000000e+00
      867000000    6.011761427e-01   -7.789789438e-01   -5.683396012e-05    5.774199963e-07    0.000000000e+00    0.000000000e+00    0.000000000e+00    0.000000000e+00
      874250000    5.154635310e-01   -8.547703028e-01   -2.184510231e-05   -2.693384886e-05    0.000000000e+00    0.000000000e+00    0.000000000e+00    0.000000000e+00
      881500000    4.155360758e-01   -9.222592115e-01   -2.513267100e-05   -1.623202115e-05    0.000000000e+00    0.000000000e+00    0.000000000e+00    0.000000000e+00
      888750000    3.103778064e-01   -9.752827883e-01   -3.523286432e-05   -7.061287761e-06    0.000000000e+00    0.000000000e+00    0.000000000e+00    0.000000000e+00
      896000000    1.961597949e-01   -1.015846014e+00    4.343409091e-05    2.295058221e-05    0.000000000e+00    0.000000000e+00    0.000000000e+00    0.000000000e+00
      903250000    7.658650726e-02   -1.041406035e+00    7.815659046e-06    1.060403883e-05    0.000000000e+00    0.000000000e+00    0.000000000e+00    0.000000000e+00
      910500000   -4.964739457e-02   -1.049103856e+00    3.508292139e-06   -2.483744174e-05    0.000000000e+00    0.000000000e+00    0.000000000e+00    0.000000000e+00
      917750000   -1.707515419e-01   -1.041708231e+00   -2.012960613e-05   -2.286769450e-05    0.000000000e+00    0.000000000e+00    0.000000000e+00    0.000000000e+00
      925000000   -2.930498719e-01   -1.017048240e+00   -4.289764911e-05   -3.613531590e-06    0.000000000e+00    0.000000000e+00    0.000000000e+00    0.000000000e+00
      932250000   -4.098924398e-01   -9.751740098e-01    2.225209028e-05    1.901760697e-06    0.000000000e+00    0.000000000e+00    0.000000000e+00    0.000000000e+00
      939500000   -5.198197961e-01   -9.187064767e-01   -4.923623055e-05    1.974310726e-05    0.000000000e+00    0.000000000e+00    0.000000000e+00    0.000000000e+00
      946750000   -6.196283102e-01   -8.490942717e-01    1.965090632e-05   -3.939680755e-05    0.000000000e+00    0.000000000e+00    0.000000000e+00    0.000000000e+00
      954000000   -7.079279423e-01   -7.653537989e-01   -2.569425851e-05   -2.093426883e-05    0.000000000e+00    0.000000000e+00    0.000000000e+00    0.000000000e+00
      961250000   -7.835401297e-01   -6.750054955e-01    4.068948328e-05   -1.731514931e-05    0.000000000e+00    0.000000000e+00    0.000000000e+00    0.000000000e+00
      968500000   -8.460872769e-01   -5.741452575e-01   -7.243826985e-06    1.231208444e-06    0.000000000e+00    0.000000000e+00    0.000000000e+00    0.000000000e+00
      975750000   -8.931198716e-01   -4.690220952e-01    3.616977483e-05    2.409983426e-05    0.000000000e+00    0.000000000e+00    0.000000000e+00    0.000000000e+00
      983000000   -9.263415337e-01   -3.613700271e-01   -3.309268504e-05   -5.974434316e-06    0.000000000e+00    0.000000000e+00    0.000000000e+00    0.000000000e+00
      990250000   -9.439798594e-01   -2.527293265e-01    1.695100218e-05    1.100730151e-05    0.000000000e+00    0.000000000e+00    0.000000000e+00    0.000000000e+00
      997500000   -9.493788481e-01   -1.446277797e-01   -8.596107364e-07   -2.140179276e-06    0.000000000e+00    0.000000000e+00    0.000000000e+00    0.000000000e+00
     1004750000   -9.420436025e-01   -4.163312912e-02    3.554858267e-05   -3.323238343e-05    0.000000000e+00    0.000000000e+00    0.000000000e+00    0.000000000e+00
     1012000000   -9.221991301e-01    6.001990288e-02    1.443922520e-05    1.333933324e-05    0.000000000e+00    0.000000000e+00    0.000000000e+00    0.000000000e+00
     1019250000   -8.928989768e-01    1.532158703e-01   -3.684312105e-05    5.916692317e-06    0.000000000e+00    0.000000000e+00    0.000000000e+00    0.000000000e+00
     1026500000   -8.547803164e-01    2.425106466e-01    1.315772533e-05    2.837367356e-05    0.000000000e+00    0.000000000e+00    0.000000000e+00    0.000000000e+00
     1033750000   -8.078230023e-01    3.249375224e-01    1.481547952e-05    1.904554665e-05    0.000000000e+00    0.000000000e+00    0.000000000e+00    0.000000000e+00
     1041000000   -7.547115088e-01    3.995635211e-01   -4.995614290e-06    2.115778625e-05    0.000000000e+00    0.000000000e+00    0.000000000e+00    0.000000000e+00
