! NanoVNA-App by OneOfEleven et al v1.1.209 (+OD15) 
! Date: 2024-07-30 12:33:46
! Start: 50kHz Stop: 5MHz Points: 201
! S-Parameter data: F S11 S21 S12 S22
# Hz S RI R 50
!     Frequency           S11_Real           S11_Imag           S21_Real           S21_Imag           S12_Real           S12_Imag           S22_Real           S22_Imag
          50000    9.963707328e-01   -2.927173488e-02    2.192814463e-05    8.992565199e-06    0.000000000e+00    0.000000000e+00    0.000000000e+00    0.000000000e+00
          74750    9.926109910e-01   -4.272593930e-02   -6.339844549e-05    4.643986813e-06    0.000000000e+00    0.000000000e+00    0.000000000e+00    0.000000000e+00
          99500    9.845759273e-01   -4.989820346e-02   -3.661151277e-05   -7.670926607e-06    0.000000000e+00    0.000000000e+00    0.000000000e+00    0.000000000e+00
         124250    9.785118103e-01   -6.005121768e-02    5.564299045e-06   -8.443720390e-07    0.000000000e+00    0.000000000e+00    0.000000000e+00    0.000000000e+00
         149000    9.719222188e-01   -7.010278106e-02   -2.403389226e-05    9.611359019e-06    0.000000000e+00    0.000000000e+00    0.000000000e+00    0.000000000e+00
         173750    9.708637595e-01   -7.909152657e-02    6.029970336e-06   -9.931968634e-06    0.000000000e+00    0.000000000e+00    0.000000000e+00    0.000000000e+00
         198500    9.637910724e-01   -8.825137466e-02    9.056980730e-07    1.252610946e-05    0.000000000e+00    0.000000000e+00    0.000000000e+00    0.000000000e+00
         223250    9.565100074e-01   -9.635872394e-02    7.728431228e-06   -1.360410010e-06    0.000000000e+00    0.000000000e+00    0.000000000e+00    0.000000000e+00
         248000    9.483031631e-01   -1.031384766e-01    8.415408047e-06    1.423555295e-05    0.000000000e+00    0.000000000e+00    0.000000000e+00    0.000000000e+00
         272750    9.397591949e-01   -1.096772999e-01    1.216696637e-05   -1.039146809e-05    0.000000000e+00    0.000000000e+00    0.000000000e+00    0.000000000e+00
         297500    9.316623807e-01   -1.150583401e-01   -2.125046922e-05    1.242060625e-05    0.000000000e+00    0.000000000e+00    0.000000000e+00    0.000000000e+00
         322250    9.227490425e-01   -1.197872609e-01    7.720089343e-06   -1.990169039e-05    0.000000000e+00    0.000000000e+00    0.000000000e+00    0.000000000e+00
         347000    9.141083956e-01   -1.238400266e-01   -1.413505925e-05   -6.027871223e-06    0.000000000e+00    0.000000000e+00    0.000000000e+00    0.000000000e+00
         371750    9.059796929e-01   -1.267141253e-01    6.347177987e-06    3.351084615e-06    0.000000000e+00    0.000000000e+00    0.000000000e+00    0.000000000e+00
         396500    8.976431489e-01   -1.294063181e-01    1.382000846e-06   -1.367366440e-05    0.000000000e+00    0.000000000e+00    0.000000000e+00    0.000000000e+00
         421250    8.808826804e-01   -1.300228387e-01   -3.280895544e-05    2.231872350e-05    0.000000000e+00    0.000000000e+00    0.000000000e+00    0.000000000e+00
         446000    8.741077781e-01   -1.315803528e-01    1.810149661e-05    2.849399061e-05    0.000000000e+00    0.000000000e+00    0.000000000e+00    0.000000000e+00
         470750    8.674319386e-01   -1.316806078e-01   -4.806645393e-06    1.673422958e-05    0.000000000e+00    0.000000000e+00    0.000000000e+00    0.000000000e+00
         495500    8.603239059e-01   -1.312761605e-01   -1.122870526e-05    1.056549900e-05    0.000000000e+00    0.000000000e+00    0.000000000e+00    0.000000000e+00
         520250    8.540760279e-01   -1.307745129e-01   -2.021530781e-05   -1.764906528e-06    0.000000000e+00    0.000000000e+00    0.000000000e+00    0.000000000e+00
         545000    8.488427401e-01   -1.302688420e-01   -2.146406223e-05   -7.066631497e-06    0.000000000e+00    0.000000000e+00    0.000000000e+00    0.000000000e+00
         569750    8.428668380e-01   -1.292383671e-01    1.289186275e-05   -1.825279287e-05    0.000000000e+00    0.000000000e+00    0.000000000e+00    0.000000000e+00
         594500    8.378375769e-01   -1.276998818e-01   -2.627603499e-05   -1.625119876e-05    0.000000000e+00    0.000000000e+00    0.000000000e+00    0.000000000e+00
         619250    8.327655196e-01   -1.269718409e-01    4.636073209e-05    3.954433123e-05    0.000000000e+00    0.000000000e+00    0.000000000e+00    0.000000000e+00
         644000    8.286311626e-01   -1.254191846e-01   -5.548869922e-06   -1.400804831e-05    0.000000000e+00    0.000000000e+00    0.000000000e+00    0.000000000e+00
         668750    8.242734671e-01   -1.237361208e-01   -3.283347178e-05    1.934776628e-05    0.000000000e+00    0.000000000e+00    0.000000000e+00    0.000000000e+00
         693500    8.203312159e-01   -1.225712299e-01    5.819785656e-06   -2.160352415e-05    0.000000000e+00    0.000000000e+00    0.000000000e+00    0.000000000e+00
         718250    8.168557882e-01   -1.206294894e-01    4.204724519e-06    1.531994894e-05    0.000000000e+00    0.000000000e+00    0.000000000e+00    0.000000000e+00
         743000    8.132759929e-01   -1.191107407e-01   -1.066488949e-05   -1.604515637e-05    0.000000000e+00    0.000000000e+00    0.000000000e+00    0.000000000e+00
         767750    8.098891973e-01   -1.173920110e-01    2.687540109e-05   -1.245463500e-05    0.000000000e+00    0.000000000e+00    0.000000000e+00    0.000000000e+00
         792500    8.068754077e-01   -1.158571988e-01   -3.582604768e-05    1.929137761e-05    0.000000000e+00    0.000000000e+00    0.000000000e+00    0.000000000e+00
         817250    8.039473295e-01   -1.144245192e-01    1.655614028e-06   -1.268544929e-05    0.000000000e+00    0.000000000e+00    0.000000000e+00    0.000000000e+00
         842000    8.012662530e-01   -1.124641299e-01    2.252202830e-05    1.061155899e-06    0.000000000e+00    0.000000000e+00    0.000000000e+00    0.000000000e+00
         866750    7.988252640e-01   -1.113448963e-01    1.983432230e-05   -2.937670070e-05    0.000000000e+00    0.000000000e+00    0.000000000e+00    0.000000000e+00
         891500    7.961497307e-01   -1.096812487e-01   -2.742184370e-05   -2.006211980e-05    0.000000000e+00    0.000000000e+00    0.000000000e+00    0.000000000e+00
         916250    7.939754128e-01   -1.081362814e-01    6.233008025e-05   -2.492688691e-05    0.000000000e+00    0.000000000e+00    0.000000000e+00    0.000000000e+00
         941000    7.918531299e-01   -1.065791696e-01    2.766887337e-05   -2.546320684e-05    0.000000000e+00    0.000000000e+00    0.000000000e+00    0.000000000e+00
         965750    7.894898057e-01   -1.048438251e-01    4.826395889e-05   -2.848408258e-06    0.000000000e+00    0.000000000e+00    0.000000000e+00    0.000000000e+00
         990500    7.880085707e-01   -1.032265648e-01    2.439016043e-06    7.092322448e-06    0.000000000e+00    0.000000000e+00    0.000000000e+00    0.000000000e+00
        1015250    7.861141562e-01   -1.017324179e-01    3.302240293e-05   -5.686197710e-06    0.000000000e+00    0.000000000e+00    0.000000000e+00    0.000000000e+00
        1040000    7.841566205e-01   -1.007702872e-01    3.004757855e-05   -2.752268665e-05    0.000000000e+00    0.000000000e+00    0.000000000e+00    0.000000000e+00
        1064750    7.822568417e-01   -9.922305495e-02   -2.385657172e-05    1.642709663e-06    0.000000000e+00    0.000000000e+00    0.000000000e+00    0.000000000e+00
        1089500    7.812303305e-01   -9.762958437e-02   -2.421115096e-05   -5.667523965e-06    0.000000000e+00    0.000000000e+00    0.000000000e+00    0.000000000e+00
        1114250    7.795121670e-01   -9.657056630e-02    8.362993867e-06   -2.451179353e-05    0.000000000e+00    0.000000000e+00    0.000000000e+00    0.000000000e+00
        1139000    7.779950500e-01   -9.523338825e-02    3.148536780e-05   -2.344904897e-05    0.000000000e+00    0.000000000e+00    0.000000000e+00    0.000000000e+00
        1163750    7.765666842e-01   -9.392452985e-02    4.167110455e-05   -2.616938445e-06    0.000000000e+00    0.000000000e+00    0.000000000e+00    0.000000000e+00
        1188500    7.755681872e-01   -9.240739793e-02    7.081351669e-06   -1.050741776e-05    0.000000000e+00    0.000000000e+00    0.000000000e+00    0.000000000e+00
        1213250    7.742040753e-01   -9.174120426e-02    4.275196261e-06    2.933504402e-05    0.000000000e+00    0.000000000e+00    0.000000000e+00    0.000000000e+00
        1238000    7.732369900e-01   -9.041956812e-02    2.143145593e-06   -1.759614315e-05    0.000000000e+00    0.000000000e+00    0.000000000e+00    0.000000000e+00
        1262750    7.720437646e-01   -8.911985159e-02   -9.350805158e-06    3.191428914e-05    0.000000000e+00    0.000000000e+00    0.000000000e+00    0.000000000e+00
        1287500    7.707685828e-01   -8.802233636e-02    3.762060442e-05   -2.113383744e-06    0.000000000e+00    0.000000000e+00    0.000000000e+00    0.000000000e+00
        1312250    7.698630095e-01   -8.697367460e-02    5.358769704e-05   -3.837769327e-06    0.000000000e+00    0.000000000e+00    0.000000000e+00    0.000000000e+00
        1337000    7.688891888e-01   -8.571396768e-02    1.444333702e-05   -2.614319965e-05    0.000000000e+00    0.000000000e+00    0.000000000e+00    0.000000000e+00
        1361750    7.683169842e-01   -8.445746452e-02    1.030680050e-05   -2.727946594e-05    0.000000000e+00    0.000000000e+00    0.000000000e+00    0.000000000e+00
        1386500    7.670904994e-01   -8.375514299e-02   -3.249827932e-05    1.673753832e-05    0.000000000e+00    0.000000000e+00    0.000000000e+00    0.000000000e+00
        1411250    7.660607696e-01   -8.289442211e-02    1.524638628e-05   -1.448013427e-05    0.000000000e+00    0.000000000e+00    0.000000000e+00    0.000000000e+00
        1436000    7.655114532e-01   -8.174264431e-02    7.157780146e-06   -1.047605019e-05    0.000000000e+00    0.000000000e+00    0.000000000e+00    0.000000000e+00
        1460750    7.647907734e-01   -8.071646839e-02    3.493010081e-05    3.667124111e-05    0.000000000e+00    0.000000000e+00    0.000000000e+00    0.000000000e+00
        1485500    7.640509605e-01   -7.980282605e-02   -9.557108569e-06   -2.189458064e-05    0.000000000e+00    0.000000000e+00    0.000000000e+00    0.000000000e+00
        1510250    7.637062073e-01   -7.896664739e-02    5.741754194e-06   -1.965580850e-05    0.000000000e+00    0.000000000e+00    0.000000000e+00    0.000000000e+00
        1535000    7.624251246e-01   -7.765183598e-02    1.639391303e-05   -2.178110208e-06    0.000000000e+00    0.000000000e+00    0.000000000e+00    0.000000000e+00
        1559750    7.621079683e-01   -7.713864744e-02    4.741444627e-06    1.540424819e-05    0.000000000e+00    0.000000000e+00    0.000000000e+00    0.000000000e+00
        1584500    7.616069317e-01   -7.629446685e-02   -2.052921263e-05   -5.499325198e-05    0.000000000e+00    0.000000000e+00    0.000000000e+00    0.000000000e+00
        1609250    7.606127262e-01   -7.525476813e-02    3.122420367e-06    1.626378253e-05    0.000000000e+00    0.000000000e+00    0.000000000e+00    0.000000000e+00
        1634000    7.600071430e-01   -7.487825304e-02   -2.968554872e-05    5.199217867e-06    0.000000000e+00    0.000000000e+00    0.000000000e+00    0.000000000e+00
        1658750    7.595756650e-01   -7.386681437e-02   -3.534098596e-07    2.135524846e-05    0.000000000e+00    0.000000000e+00    0.000000000e+00    0.000000000e+00
        1683500    7.593502998e-01   -7.313653827e-02   -2.840252137e-06   -2.630647032e-05    0.000000000e+00    0.000000000e+00    0.000000000e+00    0.000000000e+00
        1708250    7.582451701e-01   -7.196382433e-02    1.487602958e-06    9.052376299e-06    0.000000000e+00    0.000000000e+00    0.000000000e+00    0.000000000e+00
        1733000    7.581613064e-01   -7.150886953e-02    3.730262688e-05    3.925621058e-05    0.000000000e+00    0.000000000e+00    0.000000000e+00    0.000000000e+00
        1757750    7.575178742e-01   -7.081025839e-02   -1.468158280e-05    5.264218544e-06    0.000000000e+00    0.000000000e+00    0.000000000e+00    0.000000000e+00
        1782500    7.573716640e-01   -6.988926232e-02    2.678213059e-05    3.066626596e-05    0.000000000e+00    0.000000000e+00    0.000000000e+00    0.000000000e+00
        1807250    7.564135194e-01   -6.921520084e-02    1.996311948e-05    1.458479892e-05    0.000000000e+00    0.000000000e+00    0.000000000e+00    0.000000000e+00
        1832000    7.561168075e-01   -6.829917431e-02    4.226605961e-05   -4.088486821e-05    0.000000000e+00    0.000000000e+00    0.000000000e+00    0.000000000e+00
        1856750    7.557349205e-01   -6.778635085e-02   -1.175926968e-06   -1.439636071e-05    0.000000000e+00    0.000000000e+00    0.000000000e+00    0.000000000e+00
        1881500    7.552971244e-01   -6.756164879e-02    1.259534474e-05    6.621633474e-06    0.000000000e+00    0.000000000e+00    0.000000000e+00    0.000000000e+00
        1906250    7.549151778e-01   -6.658033282e-02    1.418695774e-05   -5.091521871e-06    0.000000000e+00    0.000000000e+00    0.000000000e+00    0.000000000e+00
        1931000    7.546413541e-01   -6.611718237e-02   -1.457113012e-05   -9.675818546e-06    0.000000000e+00    0.000000000e+00    0.000000000e+00    0.000000000e+00
        1955750    7.542119026e-01   -6.527449936e-02   -5.311057066e-06   -5.709441098e-07    0.000000000e+00    0.000000000e+00    0.000000000e+00    0.000000000e+00
        1980500    7.537266016e-01   -6.479108334e-02   -1.345539204e-05   -5.563033483e-06    0.000000000e+00    0.000000000e+00    0.000000000e+00    0.000000000e+00
        2005250    7.536999583e-01   -6.400605291e-02   -2.721474812e-05   -1.299410724e-05    0.000000000e+00    0.000000000e+00    0.000000000e+00    0.000000000e+00
        2030000    7.532353401e-01   -6.391344965e-02   -5.734946171e-05    1.521031754e-05    0.000000000e+00    0.000000000e+00    0.000000000e+00    0.000000000e+00
        2054750    7.531329393e-01   -6.295588613e-02    4.408637324e-06   -5.314936425e-05    0.000000000e+00    0.000000000e+00    0.000000000e+00    0.000000000e+00
        2079500    7.527958155e-01   -6.246758625e-02   -1.911760410e-05   -2.688748282e-05    0.000000000e+00    0.000000000e+00    0.000000000e+00    0.000000000e+00
        2104250    7.524660230e-01   -6.190273538e-02   -3.751765689e-05   -1.799813072e-05    0.000000000e+00    0.000000000e+00    0.000000000e+00    0.000000000e+00
        2129000    7.520303130e-01   -6.121422723e-02    4.181684199e-05   -1.717938540e-05    0.000000000e+00    0.000000000e+00    0.000000000e+00    0.000000000e+00
        2153750    7.514767647e-01   -6.089051813e-02    4.628820898e-05    5.182101631e-06    0.000000000e+00    0.000000000e+00    0.000000000e+00    0.000000000e+00
        2178500    7.514743805e-01   -6.037707627e-02   -1.778328624e-05    1.985297331e-06    0.000000000e+00    0.000000000e+00    0.000000000e+00    0.000000000e+00
        2203250    7.508780956e-01   -5.999409035e-02   -1.720506589e-05   -5.968057303e-05    0.000000000e+00    0.000000000e+00    0.000000000e+00    0.000000000e+00
        2228000    7.510524988e-01   -5.948233232e-02    4.726036786e-05    6.923500678e-06    0.000000000e+00    0.000000000e+00    0.000000000e+00    0.000000000e+00
        2252750    7.506249547e-01   -5.859647319e-02    3.489902520e-05   -6.755188224e-05    0.000000000e+00    0.000000000e+00    0.000000000e+00    0.000000000e+00
        2277500    7.503154874e-01   -5.832196772e-02   -7.646605809e-06    2.143602978e-05    0.000000000e+00    0.000000000e+00    0.000000000e+00    0.000000000e+00
        2302250    7.502534389e-01   -5.799774826e-02    5.475417311e-06    1.135568164e-05    0.000000000e+00    0.000000000e+00    0.000000000e+00    0.000000000e+00
        2327000    7.497463226e-01   -5.760258809e-02   -4.746025752e-06   -9.612777831e-06    0.000000000e+00    0.000000000e+00    0.000000000e+00    0.000000000e+00
        2351750    7.494905591e-01   -5.699970201e-02    2.663710347e-06    2.584010508e-05    0.000000000e+00    0.000000000e+00    0.000000000e+00    0.000000000e+00
        2376500    7.496662736e-01   -5.660685152e-02    5.047620652e-05   -1.507878278e-05    0.000000000e+00    0.000000000e+00    0.000000000e+00    0.000000000e+00
        2401250    7.493757010e-01   -5.628104135e-02   -9.393863365e-06    8.998305020e-06    0.000000000e+00    0.000000000e+00    0.000000000e+00    0.000000000e+00
        2426000    7.490994334e-01   -5.595918372e-02   -2.879178282e-05    2.327646507e-05    0.000000000e+00    0.000000000e+00    0.000000000e+00    0.000000000e+00
        2450750    7.486872673e-01   -5.524680018e-02   -5.474630143e-06    2.422161560e-05    0.000000000e+00    0.000000000e+00    0.000000000e+00    0.000000000e+00
        2475500    7.487481833e-01   -5.477429181e-02   -1.696530308e-05    8.021543181e-06    0.000000000e+00    0.000000000e+00    0.000000000e+00    0.000000000e+00
        2500250    7.485001087e-01   -5.437776819e-02   -1.486904875e-05   -4.680553957e-06    0.000000000e+00    0.000000000e+00    0.000000000e+00    0.000000000e+00
        2525000    7.481891513e-01   -5.365002528e-02    7.464976079e-05   -6.014705377e-06    0.000000000e+00    0.000000000e+00    0.000000000e+00    0.000000000e+00
        2549750    7.478767037e-01   -5.361010879e-02   -2.257853885e-05   -5.215308647e-06    0.000000000e+00    0.000000000e+00    0.000000000e+00    0.000000000e+00
        2574500    7.476555705e-01   -5.316464603e-02   -3.133834980e-05    2.585489483e-06    0.000000000e+00    0.000000000e+00    0.000000000e+00    0.000000000e+00
        2599250    7.477456331e-01   -5.286548287e-02   -2.248155215e-05   -3.731561083e-05    0.000000000e+00    0.000000000e+00    0.000000000e+00    0.000000000e+00
        2624000    7.474254966e-01   -5.269678682e-02    2.378590409e-07    7.753717910e-06    0.000000000e+00    0.000000000e+00    0.000000000e+00    0.000000000e+00
        2648750    7.472432256e-01   -5.202434584e-02   -9.638740266e-06    5.091704224e-06    0.000000000e+00    0.000000000e+00    0.000000000e+00    0.000000000e+00
        2673500    7.470191717e-01   -5.173241347e-02   -2.099524318e-05   -1.953612991e-05    0.000000000e+00    0.000000000e+00    0.000000000e+00    0.000000000e+00
        2698250    7.468543649e-01   -5.161042511e-02   -4.341307067e-05   -6.975771976e-05    0.000000000e+00    0.000000000e+00    0.000000000e+00    0.000000000e+00
        2723000    7.466918826e-01   -5.112158135e-02    1.001607961e-05    1.503034400e-05    0.000000000e+00    0.000000000e+00    0.000000000e+00    0.000000000e+00
        2747750    7.467870712e-01   -5.094029754e-02   -7.239389106e-06   -3.208752241e-05    0.000000000e+00    0.000000000e+00    0.000000000e+00    0.000000000e+00
        2772500    7.467278838e-01   -5.034150928e-02   -1.428838914e-05   -6.669157301e-06    0.000000000e+00    0.000000000e+00    0.000000000e+00    0.000000000e+00
        2797250    7.461487651e-01   -5.025223643e-02   -1.512396830e-05    6.890031727e-06    0.000000000e+00    0.000000000e+00    0.000000000e+00    0.000000000e+00
        2822000    7.460960150e-01   -4.967654124e-02   -6.578496141e-06   -1.770884592e-05    0.000000000e+00    0.000000000e+00    0.000000000e+00    0.000000000e+00
        2846750    7.462818027e-01   -4.962651059e-02    1.295835773e-05   -1.212071948e-05    0.000000000e+00    0.000000000e+00    0.000000000e+00    0.000000000e+00
        2871500    7.459575534e-01   -4.916122928e-02   -4.901766715e-06   -2.969059278e-05    0.000000000e+00    0.000000000e+00    0.000000000e+00    0.000000000e+00
        2896250    7.457625270e-01   -4.902368039e-02    5.060340482e-05   -7.380685929e-06    0.000000000e+00    0.000000000e+00    0.000000000e+00    0.000000000e+00
        2921000    7.459364533e-01   -4.850663990e-02    2.547054009e-06    9.298821624e-08    0.000000000e+00    0.000000000e+00    0.000000000e+00    0.000000000e+00
