! NanoVNA-App by OneOfEleven et al v1.1.209 (+OD15) 
! Date: 2024-07-30 12:33:51
! Start: 50kHz Stop: 5MHz Points: 201
! S-Parameter data: F S11 S21 S12 S22
# Hz S RI R 50
!     Frequency           S11_Real           S11_Imag           S21_Real           S21_Imag           S12_Real           S12_Imag           S22_Real           S22_Imag
          50000    9.957795143e-01   -2.909546718e-02   -1.138190964e-05   -4.072774027e-05    0.000000000e+00    0.000000000e+00    0.000000000e+00    0.000000000e+00
          74750    9.920099378e-01   -4.266457632e-02   -4.898182669e-05    7.566471140e-06    0.000000000e+00    0.000000000e+00    0.000000000e+00    0.000000000e+00
          99500    9.845210910e-01   -4.999477416e-02   -1.648412763e-05    1.602276279e-05    0.000000000e+00    0.000000000e+00    0.000000000e+00    0.000000000e+00
         124250    9.786292911e-01   -6.015927345e-02    2.533698171e-05    3.255705451e-05    0.000000000e+00    0.000000000e+00    0.000000000e+00    0.000000000e+00
         149000    9.719860554e-01   -7.017433643e-02    3.361545532e-05   -6.331719305e-06    0.000000000e+00    0.000000000e+00    0.000000000e+00    0.000000000e+00
         173750    9.707932472e-01   -7.915321738e-02   -1.152536356e-06    1.469939434e-05    0.000000000e+00    0.000000000e+00    0.000000000e+00    0.000000000e+00
         198500    9.638557434e-01   -8.832012117e-02    2.989896302e-06    6.348393072e-06    0.000000000e+00    0.000000000e+00    0.000000000e+00    0.000000000e+00
         223250    9.561100006e-01   -9.596403688e-02   -7.143372386e-06   -7.682685464e-06    0.000000000e+00    0.000000000e+00    0.000000000e+00    0.000000000e+00
         248000    9.481568336e-01   -1.034276038e-01    2.669383548e-06    8.873235856e-06    0.000000000e+00    0.000000000e+00    0.000000000e+00    0.000000000e+00
         272750    9.397782087e-01   -1.097955033e-01    1.063904983e-05    7.587600976e-06    0.000000000e+00    0.000000000e+00    0.000000000e+00    0.000000000e+00
         297500    9.316396713e-01   -1.151872724e-01    1.127277073e-06   -5.243805390e-06    0.000000000e+00    0.000000000e+00    0.000000000e+00    0.000000000e+00
         322250    9.229129553e-01   -1.200264767e-01    3.941706382e-06   -8.803377227e-07    0.000000000e+00    0.000000000e+00    0.000000000e+00    0.000000000e+00
         347000    9.141358733e-01   -1.237925068e-01    2.735315866e-05   -4.222971711e-06    0.000000000e+00    0.000000000e+00    0.000000000e+00    0.000000000e+00
         371750    9.058837295e-01   -1.270239949e-01   -2.988940105e-05    4.598170108e-06    0.000000000e+00    0.000000000e+00    0.000000000e+00    0.000000000e+00
         396500    8.976485729e-01   -1.290672719e-01   -7.780377928e-06   -2.130170469e-05    0.000000000e+00    0.000000000e+00    0.000000000e+00    0.000000000e+00
         421250    8.809564710e-01   -1.300991476e-01    5.444647741e-06    2.015793825e-06    0.000000000e+00    0.000000000e+00    0.000000000e+00    0.000000000e+00
         446000    8.739096522e-01   -1.311329454e-01   -3.575260780e-05    1.719420652e-05    0.000000000e+00    0.000000000e+00    0.000000000e+00    0.000000000e+00
         470750    8.678270578e-01   -1.318342537e-01   -4.070087743e-05   -2.269939614e-05    0.000000000e+00    0.000000000e+00    0.000000000e+00    0.000000000e+00
         495500    8.605772853e-01   -1.312260032e-01   -3.318210247e-06   -7.917148650e-06    0.000000000e+00    0.000000000e+00    0.000000000e+00    0.000000000e+00
         520250    8.540518284e-01   -1.302833557e-01   -9.960733223e-06    1.082815106e-05    0.000000000e+00    0.000000000e+00    0.000000000e+00    0.000000000e+00
         545000    8.487252593e-01   -1.300376356e-01    1.496473146e-06    1.032507680e-05    0.000000000e+00    0.000000000e+00    0.000000000e+00    0.000000000e+00
         569750    8.432579637e-01   -1.294560134e-01    2.975090320e-05   -3.137868043e-05    0.000000000e+00    0.000000000e+00    0.000000000e+00    0.000000000e+00
         594500    8.374079466e-01   -1.273390651e-01   -2.495795707e-05   -2.362702617e-05    0.000000000e+00    0.000000000e+00    0.000000000e+00    0.000000000e+00
         619250    8.328984976e-01   -1.268984973e-01   -3.060033850e-05   -5.617392617e-06    0.000000000e+00    0.000000000e+00    0.000000000e+00    0.000000000e+00
         644000    8.288714886e-01   -1.254809201e-01    1.196134872e-05    4.733560854e-05    0.000000000e+00    0.000000000e+00    0.000000000e+00    0.000000000e+00
         668750    8.238986135e-01   -1.236435547e-01    3.645725155e-05    1.630633051e-06    0.000000000e+00    0.000000000e+00    0.000000000e+00    0.000000000e+00
         693500    8.203634620e-01   -1.227756888e-01   -3.706218649e-06    4.161360630e-05    0.000000000e+00    0.000000000e+00    0.000000000e+00    0.000000000e+00
         718250    8.179079890e-01   -1.209516153e-01    1.838353819e-05    4.749303116e-05    0.000000000e+00    0.000000000e+00    0.000000000e+00    0.000000000e+00
         743000    8.131694198e-01   -1.191404760e-01   -5.789653187e-06    7.673369510e-06    0.000000000e+00    0.000000000e+00    0.000000000e+00    0.000000000e+00
         767750    8.096426725e-01   -1.177661791e-01   -2.635717647e-05   -2.179545663e-05    0.000000000e+00    0.000000000e+00    0.000000000e+00    0.000000000e+00
         792500    8.072118759e-01   -1.157151982e-01   -1.674589839e-05    1.201518262e-05    0.000000000e+00    0.000000000e+00    0.000000000e+00    0.000000000e+00
         817250    8.043000698e-01   -1.141971350e-01   -1.234726824e-05    1.151015749e-05    0.000000000e+00    0.000000000e+00    0.000000000e+00    0.000000000e+00
         842000    8.017264605e-01   -1.124665067e-01   -1.566546962e-05   -7.321483281e-06    0.000000000e+00    0.000000000e+00    0.000000000e+00    0.000000000e+00
         866750    7.989968061e-01   -1.108069792e-01    4.704370076e-05    1.793292540e-05    0.000000000e+00    0.000000000e+00    0.000000000e+00    0.000000000e+00
         891500    7.966028452e-01   -1.092892587e-01   -7.904398444e-06   -5.232684998e-05    0.000000000e+00    0.000000000e+00    0.000000000e+00    0.000000000e+00
         916250    7.937753797e-01   -1.084394306e-01   -9.346293155e-06   -2.582831985e-05    0.000000000e+00    0.000000000e+00    0.000000000e+00    0.000000000e+00
         941000    7.913690805e-01   -1.067200825e-01   -2.737362774e-05   -2.167561797e-05    0.000000000e+00    0.000000000e+00    0.000000000e+00    0.000000000e+00
         965750    7.892136574e-01   -1.052210703e-01   -2.794942020e-06   -4.986842396e-05    0.000000000e+00    0.000000000e+00    0.000000000e+00    0.000000000e+00
         990500    7.881541252e-01   -1.032879278e-01    1.115499799e-06    2.764057899e-05    0.000000000e+00    0.000000000e+00    0.000000000e+00    0.000000000e+00
        1015250    7.858304977e-01   -1.021648273e-01    3.336328518e-05    1.242607595e-05    0.000000000e+00    0.000000000e+00    0.000000000e+00    0.000000000e+00
        1040000    7.840797305e-01   -1.009524390e-01   -2.917160964e-05    7.280576938e-06    0.000000000e+00    0.000000000e+00    0.000000000e+00    0.000000000e+00
        1064750    7.817396522e-01   -9.932113439e-02   -1.014099234e-05   -3.565522638e-05    0.000000000e+00    0.000000000e+00    0.000000000e+00    0.000000000e+00
        1089500    7.812605500e-01   -9.743447602e-02   -2.777540431e-05   -5.909180800e-06    0.000000000e+00    0.000000000e+00    0.000000000e+00    0.000000000e+00
        1114250    7.792795300e-01   -9.698496759e-02    1.288216117e-05    5.583191978e-06    0.000000000e+00    0.000000000e+00    0.000000000e+00    0.000000000e+00
        1139000    7.781032920e-01   -9.530544281e-02    2.986766049e-05    3.235701797e-06    0.000000000e+00    0.000000000e+00    0.000000000e+00    0.000000000e+00
        1163750    7.769467831e-01   -9.393046051e-02   -6.461478279e-06   -9.080947166e-06    0.000000000e+00    0.000000000e+00    0.000000000e+00    0.000000000e+00
        1188500    7.753596306e-01   -9.245176613e-02    2.183547804e-05   -1.854246148e-05    0.000000000e+00    0.000000000e+00    0.000000000e+00    0.000000000e+00
        1213250    7.744425535e-01   -9.173151851e-02    1.194522611e-05   -2.103553743e-05    0.000000000e+00    0.000000000e+00    0.000000000e+00    0.000000000e+00
        1238000    7.732380629e-01   -8.992699534e-02   -3.929184459e-05   -2.002021392e-05    0.000000000e+00    0.000000000e+00    0.000000000e+00    0.000000000e+00
        1262750    7.721143365e-01   -8.870401978e-02   -2.270760888e-05    1.700522444e-05    0.000000000e+00    0.000000000e+00    0.000000000e+00    0.000000000e+00
        1287500    7.708667517e-01   -8.781851828e-02    7.616640232e-06    2.168795254e-05    0.000000000e+00    0.000000000e+00    0.000000000e+00    0.000000000e+00
        1312250    7.702034712e-01   -8.720277995e-02    1.838487947e-06    1.832620910e-05    0.000000000e+00    0.000000000e+00    0.000000000e+00    0.000000000e+00
        1337000    7.692810893e-01   -8.540094644e-02    2.404888801e-05   -1.582075674e-05    0.000000000e+00    0.000000000e+00    0.000000000e+00    0.000000000e+00
        1361750    7.681784630e-01   -8.451883495e-02    1.977583088e-05   -3.248230496e-05    0.000000000e+00    0.000000000e+00    0.000000000e+00    0.000000000e+00
        1386500    7.670643926e-01   -8.391002566e-02   -2.759985000e-05    7.716624168e-06    0.000000000e+00    0.000000000e+00    0.000000000e+00    0.000000000e+00
        1411250    7.661393285e-01   -8.240190148e-02   -2.646531175e-05    1.794421223e-05    0.000000000e+00    0.000000000e+00    0.000000000e+00    0.000000000e+00
        1436000    7.656195760e-01   -8.158395439e-02    2.163458339e-05    1.017695013e-05    0.000000000e+00    0.000000000e+00    0.000000000e+00    0.000000000e+00
        1460750    7.646035552e-01   -8.089587092e-02   -5.360264822e-06    1.571219582e-05    0.000000000e+00    0.000000000e+00    0.000000000e+00    0.000000000e+00
        1485500    7.640551329e-01   -7.991426438e-02    7.940801879e-06    1.887638973e-05    0.000000000e+00    0.000000000e+00    0.000000000e+00    0.000000000e+00
        1510250    7.633230090e-01   -7.854779065e-02   -2.750958174e-06   -7.185852155e-06    0.000000000e+00    0.000000000e+00    0.000000000e+00    0.000000000e+00
        1535000    7.622771859e-01   -7.818801701e-02    2.294139813e-05    2.922171916e-05    0.000000000e+00    0.000000000e+00    0.000000000e+00    0.000000000e+00
        1559750    7.618091106e-01   -7.695131004e-02    4.859659748e-05    4.275523315e-05    0.000000000e+00    0.000000000e+00    0.000000000e+00    0.000000000e+00
        1584500    7.612624764e-01   -7.595760375e-02   -1.658211090e-06    2.569011485e-05    0.000000000e+00    0.000000000e+00    0.000000000e+00    0.000000000e+00
        1609250    7.606506348e-01   -7.565370202e-02   -2.615541416e-05   -4.884606824e-05    0.000000000e+00    0.000000000e+00    0.000000000e+00    0.000000000e+00
        1634000    7.600409985e-01   -7.447254658e-02    2.817743371e-05   -5.302784757e-06    0.000000000e+00    0.000000000e+00    0.000000000e+00    0.000000000e+00
        1658750    7.596642971e-01   -7.393527031e-02   -1.976163549e-05   -2.259970825e-05    0.000000000e+00    0.000000000e+00    0.000000000e+00    0.000000000e+00
        1683500    7.590383291e-01   -7.283973694e-02   -7.673016626e-06   -2.714160291e-05    0.000000000e+00    0.000000000e+00    0.000000000e+00    0.000000000e+00
        1708250    7.581963539e-01   -7.214359194e-02   -2.171623782e-05   -4.058008199e-05    0.000000000e+00    0.000000000e+00    0.000000000e+00    0.000000000e+00
        1733000    7.581194639e-01   -7.127983123e-02   -6.602281246e-06   -7.154800551e-05    0.000000000e+00    0.000000000e+00    0.000000000e+00    0.000000000e+00
        1757750    7.575668693e-01   -7.070877403e-02    2.151014087e-05    7.703265510e-06    0.000000000e+00    0.000000000e+00    0.000000000e+00    0.000000000e+00
        1782500    7.568886876e-01   -7.016918808e-02   -1.927048470e-05   -1.152238565e-05    0.000000000e+00    0.000000000e+00    0.000000000e+00    0.000000000e+00
        1807250    7.567694783e-01   -6.934498996e-02   -4.316721515e-06    2.510578815e-05    0.000000000e+00    0.000000000e+00    0.000000000e+00    0.000000000e+00
        1832000    7.561445236e-01   -6.828960031e-02    3.221775557e-07    5.257261000e-05    0.000000000e+00    0.000000000e+00    0.000000000e+00    0.000000000e+00
        1856750    7.556526661e-01   -6.819815189e-02    3.102375558e-06   -2.128548203e-06    0.000000000e+00    0.000000000e+00    0.000000000e+00    0.000000000e+00
        1881500    7.555717826e-01   -6.731856614e-02    1.237689867e-05   -3.200210267e-05    0.000000000e+00    0.000000000e+00    0.000000000e+00    0.000000000e+00
        1906250    7.552648783e-01   -6.644054502e-02    1.939614776e-05   -2.782350566e-05    0.000000000e+00    0.000000000e+00    0.000000000e+00    0.000000000e+00
        1931000    7.547179461e-01   -6.581396610e-02   -5.153781785e-06   -8.213411093e-06    0.000000000e+00    0.000000000e+00    0.000000000e+00    0.000000000e+00
        1955750    7.545133233e-01   -6.534589827e-02    3.877365998e-06    2.110574496e-05    0.000000000e+00    0.000000000e+00    0.000000000e+00    0.000000000e+00
        1980500    7.541233897e-01   -6.489524990e-02    1.632716521e-05   -3.603172809e-05    0.000000000e+00    0.000000000e+00    0.000000000e+00    0.000000000e+00
        2005250    7.533719540e-01   -6.390365958e-02   -1.728523421e-05   -1.543757207e-05    0.000000000e+00    0.000000000e+00    0.000000000e+00    0.000000000e+00
        2030000    7.530918717e-01   -6.368808448e-02    2.341946811e-06    4.172112767e-06    0.000000000e+00    0.000000000e+00    0.000000000e+00    0.000000000e+00
        2054750    7.531363368e-01   -6.283446401e-02    5.799042628e-05    2.316242535e-05    0.000000000e+00    0.000000000e+00    0.000000000e+00    0.000000000e+00
        2079500    7.524160743e-01   -6.219876185e-02    3.938023292e-05   -1.772896212e-05    0.000000000e+00    0.000000000e+00    0.000000000e+00    0.000000000e+00
        2104250    7.525714040e-01   -6.158207357e-02    1.438165509e-05    4.250861821e-05    0.000000000e+00    0.000000000e+00    0.000000000e+00    0.000000000e+00
        2129000    7.522956729e-01   -6.139401719e-02    2.816519373e-05   -1.164757305e-05    0.000000000e+00    0.000000000e+00    0.000000000e+00    0.000000000e+00
        2153750    7.516914010e-01   -6.087602302e-02    2.073623909e-05    1.714184327e-05    0.000000000e+00    0.000000000e+00    0.000000000e+00    0.000000000e+00
        2178500    7.511206865e-01   -6.025357544e-02    1.336314654e-05   -1.319019248e-05    0.000000000e+00    0.000000000e+00    0.000000000e+00    0.000000000e+00
        2203250    7.511583567e-01   -5.975390598e-02    2.029746975e-05    3.252343959e-05    0.000000000e+00    0.000000000e+00    0.000000000e+00    0.000000000e+00
        2228000    7.507870197e-01   -5.927551538e-02   -1.338968900e-06    2.136131297e-05    0.000000000e+00    0.000000000e+00    0.000000000e+00    0.000000000e+00
        2252750    7.503846884e-01   -5.867434666e-02    1.749066359e-05    2.142764788e-05    0.000000000e+00    0.000000000e+00    0.000000000e+00    0.000000000e+00
        2277500    7.502498031e-01   -5.857118219e-02   -2.571010918e-05    3.746577931e-05    0.000000000e+00    0.000000000e+00    0.000000000e+00    0.000000000e+00
        2302250    7.498779893e-01   -5.784417689e-02    8.727097338e-06    4.602076842e-06    0.000000000e+00    0.000000000e+00    0.000000000e+00    0.000000000e+00
        2327000    7.497331500e-01   -5.748145282e-02   -3.869490683e-05    2.076596866e-05    0.000000000e+00    0.000000000e+00    0.000000000e+00    0.000000000e+00
        2351750    7.498568892e-01   -5.719190463e-02    2.129908808e-06   -2.077456520e-05    0.000000000e+00    0.000000000e+00    0.000000000e+00    0.000000000e+00
        2376500    7.491100430e-01   -5.631935596e-02    8.789683307e-06    1.641809286e-05    0.000000000e+00    0.000000000e+00    0.000000000e+00    0.000000000e+00
        2401250    7.491971254e-01   -5.623117462e-02    3.409125202e-05   -2.164666876e-05    0.000000000e+00    0.000000000e+00    0.000000000e+00    0.000000000e+00
        2426000    7.489891052e-01   -5.602603033e-02   -3.757530976e-06   -1.116555450e-05    0.000000000e+00    0.000000000e+00    0.000000000e+00    0.000000000e+00
        2450750    7.487704158e-01   -5.558043346e-02   -7.760406334e-06   -6.572421171e-06    0.000000000e+00    0.000000000e+00    0.000000000e+00    0.000000000e+00
        2475500    7.485868931e-01   -5.465442315e-02   -9.856007637e-06    1.539177356e-05    0.000000000e+00    0.000000000e+00    0.000000000e+00    0.000000000e+00
        2500250    7.481732368e-01   -5.460518971e-02    2.452643093e-05    4.624911298e-07    0.000000000e+00    0.000000000e+00    0.000000000e+00    0.000000000e+00
        2525000    7.482537031e-01   -5.408189073e-02   -1.704948409e-05    3.771112824e-05    0.000000000e+00    0.000000000e+00    0.000000000e+00    0.000000000e+00
        2549750    7.478411198e-01   -5.397089943e-02   -2.155338188e-05   -3.537212251e-05    0.000000000e+00    0.000000000e+00    0.000000000e+00    0.000000000e+00
        2574500    7.475607395e-01   -5.344204605e-02    2.109761454e-06   -4.740830263e-05    0.000000000e+00    0.000000000e+00    0.000000000e+00    0.000000000e+00
        2599250    7.475752234e-01   -5.287134647e-02   -4.676066965e-05   -1.556225652e-05    0.000000000e+00    0.000000000e+00    0.000000000e+00    0.000000000e+00
        2624000    7.476574779e-01   -5.257976428e-02   -3.460943617e-06   -2.108047374e-05    0.000000000e+00    0.000000000e+00    0.000000000e+00    0.000000000e+00
        2648750    7.472833395e-01   -5.210807547e-02   -1.156308281e-05    2.584453978e-05    0.000000000e+00    0.000000000e+00    0.000000000e+00    0.000000000e+00
        2673500    7.471860647e-01   -5.215096846e-02   -1.600134965e-05   -1.028778570e-05    0.000000000e+00    0.000000000e+00    0.000000000e+00    0.000000000e+00
        2698250    7.469438314e-01   -5.169494823e-02    1.738347964e-05   -1.524574418e-05    0.000000000e+00    0.000000000e+00    0.000000000e+00    0.000000000e+00
        2723000    7.468575239e-01   -5.122761056e-02    1.867274659e-05    3.563011660e-06    0.000000000e+00    0.000000000e+00    0.000000000e+00    0.000000000e+00
        2747750    7.467125654e-01   -5.085489526e-02    2.890901487e-05   -1.371405415e-05    0.000000000e+00    0.000000000e+00    0.000000000e+00    0.000000000e+00
        2772500    7.467546463e-01   -5.073117092e-02   -1.204920318e-05   -2.032244447e-05    0.000000000e+00    0.000000000e+00    0.000000000e+00    0.000000000e+00
        2797250    7.463238239e-01   -5.014416948e-02    2.554901039e-05    7.032900612e-06    0.000000000e+00    0.000000000e+00    0.000000000e+00    0.000000000e+00
        2822000    7.461089492e-01   -4.976037517e-02    6.934948033e-06    1.714761538e-06    0.000000000e+00    0.000000000e+00    0.000000000e+00    0.000000000e+00
        2846750    7.463052869e-01   -4.972310364e-02    4.630519470e-05   -4.470527711e-05    0.000000000e+00    0.000000000e+00    0.000000000e+00    0.000000000e+00
        2871500    7.459729314e-01   -4.894713685e-02    3.678392432e-06   -9.840349776e-06    0.000000000e+00    0.000000000e+00    0.000000000e+00    0.000000000e+00
        2896250    7.458489537e-01   -4.881951213e-02    3.724323960e-06    2.549086457e-05    0.000000000e+00    0.000000000e+00    0.000000000e+00    0.000000000e+00
        2921000    7.458401322e-01   -4.852278158e-02   -1.205065564e-05   -1.869040898e-05    0.000000000e+00    0.000000000e+00    0.000000000e+00    0.000000000e+00
