! NanoVNA-App by OneOfEleven et al v1.1.209 (+OD15) 
! Date: 2024-07-30 12:06:43
! Start: 50kHz Stop: 6GHz Points: 801
! S-Parameter data: F S11 S21 S12 S22
# Hz S RI R 50
!     Frequency           S11_Real           S11_Imag           S21_Real           S21_Imag           S12_Real           S12_Imag           S22_Real           S22_Imag
          50000   -1.484642620e-03   -2.979013138e-03    8.317425454e-06   -3.605705615e-06    0.000000000e+00    0.000000000e+00    0.000000000e+00    0.000000000e+00
        7549938    4.109630245e-04   -4.860714544e-04   -9.728981240e-06   -4.140513738e-06    0.000000000e+00    0.000000000e+00    0.000000000e+00    0.000000000e+00
       15049875   -1.133101796e-05   -4.106914275e-04    4.676356184e-06   -3.851936344e-05    0.000000000e+00    0.000000000e+00    0.000000000e+00    0.000000000e+00
       22549813   -1.113871913e-04   -2.811774320e-04    4.458385592e-05   -1.466180208e-07    0.000000000e+00    0.000000000e+00    0.000000000e+00    0.000000000e+00
       30049750   -9.312077600e-05   -1.839196775e-04    1.666767457e-05    2.292420868e-05    0.000000000e+00    0.000000000e+00    0.000000000e+00    0.000000000e+00
       37549688   -9.792441415e-05   -1.991994941e-04    2.263249371e-05    2.267465607e-05    0.000000000e+00    0.000000000e+00    0.000000000e+00    0.000000000e+00
       45049625   -1.669320045e-04   -2.053720527e-04   -2.703661085e-05    2.096579738e-05    0.000000000e+00    0.000000000e+00    0.000000000e+00    0.000000000e+00
       52549563   -5.634787522e-05   -2.629753435e-04   -2.920058978e-05   -2.518431393e-05    0.000000000e+00    0.000000000e+00    0.000000000e+00    0.000000000e+00
       60049500   -1.826463267e-04   -2.639388549e-04   -1.002719364e-05   -2.594105354e-05    0.000000000e+00    0.000000000e+00    0.000000000e+00    0.000000000e+00
       67549438   -1.099319343e-04   -3.831986978e-04    7.352918601e-06   -2.742245124e-05    0.000000000e+00    0.000000000e+00    0.000000000e+00    0.000000000e+00
       75049375   -9.590201080e-05   -1.423421490e-04   -7.569522495e-06   -9.433377272e-06    0.000000000e+00    0.000000000e+00    0.000000000e+00    0.000000000e+00
       82549313   -1.598233503e-04   -2.338595077e-04    3.862213998e-05    8.410196642e-06    0.000000000e+00    0.000000000e+00    0.000000000e+00    0.000000000e+00
       90049250   -1.715910184e-04   -2.011084580e-04   -4.510737597e-07   -3.244899563e-05    0.000000000e+00    0.000000000e+00    0.000000000e+00    0.000000000e+00
       97549188   -1.829125395e-04   -3.152731515e-04    1.288568728e-05    1.437283481e-05    0.000000000e+00    0.000000000e+00    0.000000000e+00    0.000000000e+00
      105049125   -1.535429910e-04   -1.023400328e-04   -4.496577276e-06    4.693333176e-05    0.000000000e+00    0.000000000e+00    0.000000000e+00    0.000000000e+00
      112549063   -5.324596714e-06   -8.537835674e-05    2.300906999e-05   -1.739404070e-05    0.000000000e+00    0.000000000e+00    0.000000000e+00    0.000000000e+00
      120049000   -1.775796991e-04   -2.593033423e-04    9.544673958e-07    8.997075383e-06    0.000000000e+00    0.000000000e+00    0.000000000e+00    0.000000000e+00
      127548938   -7.514596655e-05   -2.939509868e-04    6.691543149e-06    2.103020961e-05    0.000000000e+00    0.000000000e+00    0.000000000e+00    0.000000000e+00
      135048875    4.260597416e-05   -2.284838120e-04    3.333511631e-05    3.838007615e-05    0.000000000e+00    0.000000000e+00    0.000000000e+00    0.000000000e+00
      142548813   -8.208762301e-05   -1.981705282e-04    2.141684490e-05   -1.487031022e-05    0.000000000e+00    0.000000000e+00    0.000000000e+00    0.000000000e+00
      150048750   -4.363431071e-05   -1.998422376e-04   -4.909718427e-06    6.966773981e-06    0.000000000e+00    0.000000000e+00    0.000000000e+00    0.000000000e+00
      157548688   -1.464074739e-04   -2.434015187e-04   -1.928404890e-05    2.435316128e-05    0.000000000e+00    0.000000000e+00    0.000000000e+00    0.000000000e+00
      165048625   -6.411020877e-05   -1.224419684e-04   -4.496238944e-06   -1.358969348e-05    0.000000000e+00    0.000000000e+00    0.000000000e+00    0.000000000e+00
      172548563   -1.662330760e-04   -2.288052638e-04    2.580002365e-05    1.144314956e-05    0.000000000e+00    0.000000000e+00    0.000000000e+00    0.000000000e+00
      180048500   -1.654227235e-04   -1.807096414e-04    2.690420115e-05    2.506048986e-05    0.000000000e+00    0.000000000e+00    0.000000000e+00    0.000000000e+00
      187548438   -1.294423419e-04   -3.121454210e-04   -4.913129942e-06   -3.596124952e-05    0.000000000e+00    0.000000000e+00    0.000000000e+00    0.000000000e+00
      195048375   -2.040729159e-04   -2.354307217e-04    2.947193570e-05    2.533457700e-05    0.000000000e+00    0.000000000e+00    0.000000000e+00    0.000000000e+00
      202548313   -1.266833715e-04   -1.826142397e-04   -1.854451170e-06    3.783603461e-05    0.000000000e+00    0.000000000e+00    0.000000000e+00    0.000000000e+00
      210048250   -2.516862005e-04   -2.471648913e-04   -3.853098860e-06    3.312248009e-05    0.000000000e+00    0.000000000e+00    0.000000000e+00    0.000000000e+00
      217548188   -1.420207118e-04   -1.998351800e-04   -4.870918565e-05   -6.007808679e-06    0.000000000e+00    0.000000000e+00    0.000000000e+00    0.000000000e+00
      225048125   -1.393419952e-04   -2.063131105e-04   -2.124420462e-06    8.876623724e-06    0.000000000e+00    0.000000000e+00    0.000000000e+00    0.000000000e+00
      232548063   -1.672419021e-04   -2.225116477e-04   -2.725078957e-05    5.498528481e-05    0.000000000e+00    0.000000000e+00    0.000000000e+00    0.000000000e+00
      240048000   -1.971538732e-04   -1.821958867e-04   -2.079327533e-05    3.477658174e-05    0.000000000e+00    0.000000000e+00    0.000000000e+00    0.000000000e+00
      247547938   -2.251720580e-04   -1.471995638e-04   -1.415160114e-05   -4.937095946e-05    0.000000000e+00    0.000000000e+00    0.000000000e+00    0.000000000e+00
      255047875   -2.228835510e-04   -2.459521929e-04    1.051707022e-05    2.506924830e-06    0.000000000e+00    0.000000000e+00    0.000000000e+00    0.000000000e+00
      262547813   -1.706046460e-04   -2.580875298e-04    2.605475674e-05   -9.198066437e-06    0.000000000e+00    0.000000000e+00    0.000000000e+00    0.000000000e+00
      270047750   -2.096454409e-04   -3.426764742e-04   -1.645745942e-05    2.571739606e-05    0.000000000e+00    0.000000000e+00    0.000000000e+00    0.000000000e+00
      277547688   -2.797983470e-04   -4.372291442e-04    3.331541848e-06   -3.590074994e-05    0.000000000e+00    0.000000000e+00    0.000000000e+00    0.000000000e+00
      285047625   -2.820257796e-04   -4.244998854e-04   -3.700121306e-05    3.275478093e-06    0.000000000e+00    0.000000000e+00    0.000000000e+00    0.000000000e+00
      292547563   -2.244931529e-04   -3.765365400e-04   -1.418663715e-06    2.090911585e-05    0.000000000e+00    0.000000000e+00    0.000000000e+00    0.000000000e+00
      300047500   -1.979830413e-04   -3.806306340e-04    2.602681707e-05    2.027650226e-05    0.000000000e+00    0.000000000e+00    0.000000000e+00    0.000000000e+00
      307547438   -2.484009019e-04   -4.367536167e-04   -1.001415148e-05    1.027549115e-05    0.000000000e+00    0.000000000e+00    0.000000000e+00    0.000000000e+00
      315047375   -1.560379897e-04   -4.883887595e-04    1.222199899e-05    2.479158138e-05    0.000000000e+00    0.000000000e+00    0.000000000e+00    0.000000000e+00
      322547313   -2.617178834e-04   -5.503509892e-04   -2.961364407e-05    2.582207708e-05    0.000000000e+00    0.000000000e+00    0.000000000e+00    0.000000000e+00
      330047250   -1.466082613e-04   -4.808169033e-04    2.479576551e-06    1.855634946e-05    0.000000000e+00    0.000000000e+00    0.000000000e+00    0.000000000e+00
      337547188   -1.267183543e-04   -6.424293388e-04    1.406618594e-05    5.533317093e-08    0.000000000e+00    0.000000000e+00    0.000000000e+00    0.000000000e+00
      345047125   -7.507817827e-06   -5.529299378e-04    2.234028216e-06    6.220947398e-06    0.000000000e+00    0.000000000e+00    0.000000000e+00    0.000000000e+00
      352547063   -1.054395907e-04   -4.943413078e-04   -3.482745160e-05   -1.874079862e-05    0.000000000e+00    0.000000000e+00    0.000000000e+00    0.000000000e+00
      360047000   -7.116686174e-05   -5.212981487e-04   -3.379797636e-05   -1.581113247e-05    0.000000000e+00    0.000000000e+00    0.000000000e+00    0.000000000e+00
      367546938    1.864284513e-07   -5.693644634e-04   -1.164864534e-05    4.109295787e-06    0.000000000e+00    0.000000000e+00    0.000000000e+00    0.000000000e+00
      375046875    2.017471561e-04   -6.089846138e-04    1.047132719e-05   -3.110033140e-05    0.000000000e+00    0.000000000e+00    0.000000000e+00    0.000000000e+00
      382546813    9.763774142e-05   -5.606633495e-04    2.324282468e-05   -2.781285730e-05    0.000000000e+00    0.000000000e+00    0.000000000e+00    0.000000000e+00
      390046750    1.777871512e-04   -4.601060064e-04   -1.646736018e-05   -1.890425301e-05    0.000000000e+00    0.000000000e+00    0.000000000e+00    0.000000000e+00
      397546688    2.167574130e-04   -3.903339384e-04    1.293320383e-05   -3.463920439e-05    0.000000000e+00    0.000000000e+00    0.000000000e+00    0.000000000e+00
      405046625    1.892536675e-04   -5.922563141e-04    7.869053661e-06   -8.416055607e-06    0.000000000e+00    0.000000000e+00    0.000000000e+00    0.000000000e+00
      412546563    2.544338931e-04   -4.358489823e-04    1.875207658e-06   -5.561946818e-05    0.000000000e+00    0.000000000e+00    0.000000000e+00    0.000000000e+00
      420046500    3.338202368e-04   -2.742386132e-04   -1.727255949e-05   -1.528466055e-05    0.000000000e+00    0.000000000e+00    0.000000000e+00    0.000000000e+00
      427546438    3.607399703e-04   -4.190289765e-04   -3.556825322e-05    4.944068496e-05    0.000000000e+00    0.000000000e+00    0.000000000e+00    0.000000000e+00
      435046375    2.520493872e-04   -3.018210991e-04   -1.558420990e-05    1.851794150e-05    0.000000000e+00    0.000000000e+00    0.000000000e+00    0.000000000e+00
      442546313    3.447612980e-04   -2.532096405e-04    7.384364380e-06    1.118551336e-05    0.000000000e+00    0.000000000e+00    0.000000000e+00    0.000000000e+00
      450046250    3.254194744e-04   -2.932627103e-04    1.331688873e-05    1.724186404e-05    0.000000000e+00    0.000000000e+00    0.000000000e+00    0.000000000e+00
      457546188    3.940742754e-04   -3.142009955e-04   -3.544064748e-05    2.624362423e-05    0.000000000e+00    0.000000000e+00    0.000000000e+00    0.000000000e+00
      465046125    3.541785700e-04   -1.100245790e-04   -3.727499279e-05   -2.700684490e-05    0.000000000e+00    0.000000000e+00    0.000000000e+00    0.000000000e+00
      472546063    2.994018723e-04   -1.269149798e-04   -2.686148582e-05    2.108257468e-05    0.000000000e+00    0.000000000e+00    0.000000000e+00    0.000000000e+00
      480046000    3.739191452e-04   -1.456509053e-04    3.268800356e-05   -2.381161175e-05    0.000000000e+00    0.000000000e+00    0.000000000e+00    0.000000000e+00
      487545938    2.373894968e-04   -8.077255188e-05    4.595639984e-05   -3.281402030e-07    0.000000000e+00    0.000000000e+00    0.000000000e+00    0.000000000e+00
      495045875    2.507010067e-04    1.401413647e-05   -4.338800136e-05   -1.264630555e-05    0.000000000e+00    0.000000000e+00    0.000000000e+00    0.000000000e+00
      502545813    1.815187570e-04    3.563026985e-05   -3.415915899e-06    3.713382830e-05    0.000000000e+00    0.000000000e+00    0.000000000e+00    0.000000000e+00
      510045750    8.672904369e-05   -7.361550615e-06    3.373895743e-05   -1.419310411e-05    0.000000000e+00    0.000000000e+00    0.000000000e+00    0.000000000e+00
      517545688    4.845007425e-05    4.618043931e-06   -3.282408443e-06   -2.304131885e-05    0.000000000e+00    0.000000000e+00    0.000000000e+00    0.000000000e+00
      525045625    5.248903835e-05   -7.187629672e-05    1.166346738e-05    2.920716270e-06    0.000000000e+00    0.000000000e+00    0.000000000e+00    0.000000000e+00
      532545563   -4.464989615e-05   -5.415768101e-05    3.226646004e-05    4.402445120e-05    0.000000000e+00    0.000000000e+00    0.000000000e+00    0.000000000e+00
      540045500   -1.431544297e-05   -8.361809887e-05   -2.182080243e-05   -1.027858616e-06    0.000000000e+00    0.000000000e+00    0.000000000e+00    0.000000000e+00
      547545438   -1.371169055e-04   -1.527435088e-04    3.754128193e-05    1.464950947e-05    0.000000000e+00    0.000000000e+00    0.000000000e+00    0.000000000e+00
      555045375   -1.232666400e-04    4.187079867e-06   -1.442902249e-05   -1.889428313e-05    0.000000000e+00    0.000000000e+00    0.000000000e+00    0.000000000e+00
      562545313   -1.447401737e-04   -4.150662062e-05   -1.521257491e-05    6.692420698e-07    0.000000000e+00    0.000000000e+00    0.000000000e+00    0.000000000e+00
      570045250   -1.665477321e-04   -7.881209058e-06   -1.618460556e-05    1.522653110e-05    0.000000000e+00    0.000000000e+00    0.000000000e+00    0.000000000e+00
      577545188   -3.060182789e-04   -9.034646791e-05    3.206463953e-05    2.894646059e-06    0.000000000e+00    0.000000000e+00    0.000000000e+00    0.000000000e+00
      585045125   -2.443852136e-04   -1.759814040e-04    1.948463796e-05   -1.337302365e-05    0.000000000e+00    0.000000000e+00    0.000000000e+00    0.000000000e+00
      592545063   -2.595720871e-04   -1.983481779e-04   -3.572908827e-05   -9.426545148e-06    0.000000000e+00    0.000000000e+00    0.000000000e+00    0.000000000e+00
      600045000   -2.397301578e-04   -3.301198303e-04    5.785923804e-06   -2.045667861e-05    0.000000000e+00    0.000000000e+00    0.000000000e+00    0.000000000e+00
      607544938   -3.256536438e-04   -2.972665243e-04    1.718800740e-05   -1.613544373e-05    0.000000000e+00    0.000000000e+00    0.000000000e+00    0.000000000e+00
      615044875   -2.006147261e-04   -4.922883236e-04    2.345249413e-06    4.570661622e-05    0.000000000e+00    0.000000000e+00    0.000000000e+00    0.000000000e+00
      622544813   -2.548233897e-04   -4.856604210e-04   -8.130868082e-06    1.997177787e-05    0.000000000e+00    0.000000000e+00    0.000000000e+00    0.000000000e+00
      630044750   -1.481380459e-04   -5.089325714e-04    9.102523109e-06   -1.394459650e-05    0.000000000e+00    0.000000000e+00    0.000000000e+00    0.000000000e+00
      637544688   -7.960037328e-05   -4.723992315e-04   -2.969723027e-05   -4.149063534e-05    0.000000000e+00    0.000000000e+00    0.000000000e+00    0.000000000e+00
      645044625   -2.720559496e-05   -5.823349347e-04   -4.114274270e-05   -1.394788069e-05    0.000000000e+00    0.000000000e+00    0.000000000e+00    0.000000000e+00
      652544563   -1.618255192e-04   -5.495088408e-04   -4.322323366e-05   -2.789615246e-05    0.000000000e+00    0.000000000e+00    0.000000000e+00    0.000000000e+00
      660044500   -1.346653244e-05   -5.615538685e-04   -1.255372808e-06   -2.961826249e-05    0.000000000e+00    0.000000000e+00    0.000000000e+00    0.000000000e+00
      667544438    1.363648480e-04   -6.270526210e-04    1.643397809e-05    7.798887964e-06    0.000000000e+00    0.000000000e+00    0.000000000e+00    0.000000000e+00
      675044375   -5.198843792e-05   -6.172378780e-04   -6.313424365e-06    3.347577876e-05    0.000000000e+00    0.000000000e+00    0.000000000e+00    0.000000000e+00
      682544313    2.096583194e-04   -7.591504254e-04    3.274677874e-05    5.303177659e-06    0.000000000e+00    0.000000000e+00    0.000000000e+00    0.000000000e+00
      690044250    2.301658678e-04   -5.414284533e-04    1.791097588e-06   -1.212180359e-05    0.000000000e+00    0.000000000e+00    0.000000000e+00    0.000000000e+00
      697544188    1.202140556e-04   -7.956508780e-04    1.855117625e-05    1.146623526e-05    0.000000000e+00    0.000000000e+00    0.000000000e+00    0.000000000e+00
      705044125    2.957414545e-04   -6.624326343e-04   -2.760513780e-05    2.214161213e-05    0.000000000e+00    0.000000000e+00    0.000000000e+00    0.000000000e+00
      712544063    4.600591201e-04   -6.513060653e-04    2.690143447e-05   -9.078791663e-06    0.000000000e+00    0.000000000e+00    0.000000000e+00    0.000000000e+00
      720044000    3.558932804e-04   -6.091737305e-04   -2.207952457e-05   -8.180953955e-06    0.000000000e+00    0.000000000e+00    0.000000000e+00    0.000000000e+00
      727543938    4.023387737e-04   -4.626818700e-04   -7.656145499e-06    2.840980596e-05    0.000000000e+00    0.000000000e+00    0.000000000e+00    0.000000000e+00
      735043875    4.464074154e-04   -4.156412615e-04   -1.206681372e-05   -1.044344117e-05    0.000000000e+00    0.000000000e+00    0.000000000e+00    0.000000000e+00
      742543813    5.886260769e-04   -3.575235605e-04    2.179979310e-05   -4.998015356e-05    0.000000000e+00    0.000000000e+00    0.000000000e+00    0.000000000e+00
      750043750    5.411695456e-04   -4.065957910e-04    7.833446580e-05    2.779348324e-05    0.000000000e+00    0.000000000e+00    0.000000000e+00    0.000000000e+00
      757543688    4.683066218e-04   -1.533211471e-04    1.876795432e-05    6.548289821e-05    0.000000000e+00    0.000000000e+00    0.000000000e+00    0.000000000e+00
      765043625    4.873934085e-04   -1.949373836e-04    6.013400343e-05    5.117178807e-05    0.000000000e+00    0.000000000e+00    0.000000000e+00    0.000000000e+00
      772543563    5.692726700e-04   -2.030683099e-04   -8.116150639e-06   -1.120115485e-05    0.000000000e+00    0.000000000e+00    0.000000000e+00    0.000000000e+00
      780043500    6.375530502e-04   -5.673393025e-05   -3.822165309e-05   -2.832552354e-06    0.000000000e+00    0.000000000e+00    0.000000000e+00    0.000000000e+00
      787543438    3.706316347e-04   -2.150110049e-06    1.066345067e-05   -2.100650272e-05    0.000000000e+00    0.000000000e+00    0.000000000e+00    0.000000000e+00
      795043375    3.984812938e-04   -1.162895751e-05   -7.207589533e-06    3.234752876e-05    0.000000000e+00    0.000000000e+00    0.000000000e+00    0.000000000e+00
      802543313    4.215548106e-04    9.569321992e-05    6.586532891e-06    9.897318705e-06    0.000000000e+00    0.000000000e+00    0.000000000e+00    0.000000000e+00
      810043250    2.693659335e-04    1.862020581e-04    5.546807529e-07   -9.067610335e-06    0.000000000e+00    0.000000000e+00    0.000000000e+00    0.000000000e+00
      817543188    3.602926154e-04   -6.324182777e-06    9.365714504e-06   -1.263298782e-05    0.000000000e+00    0.000000000e+00    0.000000000e+00    0.000000000e+00
      825043125    2.182599419e-04    4.621244898e-06   -3.375874076e-05    1.158605755e-05    0.000000000e+00    0.000000000e+00    0.000000000e+00    0.000000000e+00
      832543063    1.416865998e-04    1.432680292e-04    1.466844788e-05   -1.523818264e-05    0.000000000e+00    0.000000000e+00    0.000000000e+00    0.000000000e+00
      840043000    1.554294577e-04    2.281947818e-04    8.411148883e-06   -1.840205641e-06    0.000000000e+00    0.000000000e+00    0.000000000e+00    0.000000000e+00
      847542938    6.978154852e-05    3.991229096e-05    3.600898026e-06   -2.184395817e-05    0.000000000e+00    0.000000000e+00    0.000000000e+00    0.000000000e+00
      855042875    8.515391528e-05    1.709058852e-04    3.547763117e-05    3.210755312e-05    0.000000000e+00    0.000000000e+00    0.000000000e+00    0.000000000e+00
      862542813   -1.148258307e-04   -3.366253054e-07   -4.437584721e-05   -2.258831591e-05    0.000000000e+00    0.000000000e+00    0.000000000e+00    0.000000000e+00
      870042750   -9.546332149e-05   -1.754734840e-04   -1.704551664e-06   -1.348503974e-05    0.000000000e+00    0.000000000e+00    0.000000000e+00    0.000000000e+00
