! NanoVNA-App by OneOfEleven et al v1.1.209 (+OD15) 
! Date: 2024-07-30 12:17:31
! Start: 50kHz Stop: 6GHz Points: 801
! S-Parameter data: F S11 S21 S12 S22
# Hz S RI R 50
!     Frequency           S11_Real           S11_Imag           S21_Real           S21_Imag           S12_Real           S12_Imag           S22_Real           S22_Imag
          50000   -4.244228359e-03   -8.094419725e-03   -3.812173873e-06    1.073569729e-05    0.000000000e+00    0.000000000e+00    0.000000000e+00    0.000000000e+00
        7549938    1.099781482e-03   -1.228672336e-03   -4.608599556e-05   -3.510834722e-05    0.000000000e+00    0.000000000e+00    0.000000000e+00    0.000000000e+00
       15049875    1.096368287e-04   -8.317104657e-04   -1.555638300e-05    4.340004125e-06    0.000000000e+00    0.000000000e+00    0.000000000e+00    0.000000000e+00
       22549813   -2.590346230e-05   -5.189790973e-04    1.598868221e-05    9.367841812e-06    0.000000000e+00    0.000000000e+00    0.000000000e+00    0.000000000e+00
       30049750   -8.553551015e-05   -4.946247791e-04    3.285121784e-05    2.666328146e-05    0.000000000e+00    0.000000000e+00    0.000000000e+00    0.000000000e+00
       37549688    5.322482684e-05   -3.190826392e-04   -3.761288463e-05   -5.451001016e-06    0.000000000e+00    0.000000000e+00    0.000000000e+00    0.000000000e+00
       45049625   -1.078529822e-04   -4.334191035e-04    2.629411210e-05    6.229796327e-06    0.000000000e+00    0.000000000e+00    0.000000000e+00    0.000000000e+00
       52549563   -7.833293057e-05   -4.101196828e-04   -3.683953764e-05    2.471533207e-06    0.000000000e+00    0.000000000e+00    0.000000000e+00    0.000000000e+00
       60049500   -7.133100735e-05   -2.648384834e-04   -2.999517528e-05    4.520562470e-06    0.000000000e+00    0.000000000e+00    0.000000000e+00    0.000000000e+00
       67549438   -2.002213441e-04   -3.981266927e-04    1.158672057e-05   -3.788683898e-05    0.000000000e+00    0.000000000e+00    0.000000000e+00    0.000000000e+00
       75049375   -1.048233607e-04   -3.739818349e-04    1.789292469e-06    3.265218311e-06    0.000000000e+00    0.000000000e+00    0.000000000e+00    0.000000000e+00
       82549313   -6.579946785e-05   -2.921237028e-04    4.380494283e-05    8.224850717e-06    0.000000000e+00    0.000000000e+00    0.000000000e+00    0.000000000e+00
       90049250   -1.229619957e-04   -3.801116254e-04   -1.788916052e-05   -1.496717414e-05    0.000000000e+00    0.000000000e+00    0.000000000e+00    0.000000000e+00
       97549188   -2.018423547e-04   -3.074794949e-04   -1.569951019e-05    1.320664865e-06    0.000000000e+00    0.000000000e+00    0.000000000e+00    0.000000000e+00
      105049125   -3.040243882e-06   -3.620841308e-04    1.910444917e-05   -2.345689381e-06    0.000000000e+00    0.000000000e+00    0.000000000e+00    0.000000000e+00
      112549063    1.543139952e-04   -3.130965051e-04    1.114504698e-06   -1.263506238e-05    0.000000000e+00    0.000000000e+00    0.000000000e+00    0.000000000e+00
      120049000    5.397905170e-06   -3.584134683e-04   -5.482770121e-06   -2.191923340e-05    0.000000000e+00    0.000000000e+00    0.000000000e+00    0.000000000e+00
      127548938   -4.325710324e-05   -2.881363325e-04    1.622365016e-05   -5.593515652e-06    0.000000000e+00    0.000000000e+00    0.000000000e+00    0.000000000e+00
      135048875    1.327418140e-04   -2.332337899e-04    9.744434237e-07    2.090227645e-05    0.000000000e+00    0.000000000e+00    0.000000000e+00    0.000000000e+00
      142548813    1.731324155e-04   -1.481460349e-04   -2.158610368e-05    1.826425091e-06    0.000000000e+00    0.000000000e+00    0.000000000e+00    0.000000000e+00
      150048750    9.992070409e-05   -2.690149704e-04    2.198227958e-05    2.685617255e-05    0.000000000e+00    0.000000000e+00    0.000000000e+00    0.000000000e+00
      157548688    1.635254594e-04   -2.142548183e-04   -1.631231135e-05   -4.184745194e-06    0.000000000e+00    0.000000000e+00    0.000000000e+00    0.000000000e+00
      165048625    4.746532795e-05   -1.525419648e-04    2.286430572e-05   -2.374818541e-05    0.000000000e+00    0.000000000e+00    0.000000000e+00    0.000000000e+00
      172548563   -1.399351822e-05   -1.639488328e-04    4.381425606e-05   -2.106819011e-05    0.000000000e+00    0.000000000e+00    0.000000000e+00    0.000000000e+00
      180048500    9.801321721e-05   -1.579886739e-04   -2.835071427e-05    2.257904043e-06    0.000000000e+00    0.000000000e+00    0.000000000e+00    0.000000000e+00
      187548438    6.993881834e-05   -1.112556638e-04    5.182413588e-05    8.326253919e-06    0.000000000e+00    0.000000000e+00    0.000000000e+00    0.000000000e+00
      195048375   -2.690315159e-05   -9.044684703e-05   -1.329329552e-05   -1.053969572e-05    0.000000000e+00    0.000000000e+00    0.000000000e+00    0.000000000e+00
      202548313    5.860408055e-05   -1.296448609e-04   -5.105765013e-05   -4.999254088e-06    0.000000000e+00    0.000000000e+00    0.000000000e+00    0.000000000e+00
      210048250   -1.003896177e-04   -1.498103666e-04    2.159576616e-05    1.010740561e-05    0.000000000e+00    0.000000000e+00    0.000000000e+00    0.000000000e+00
      217548188   -4.556141721e-05   -1.104994008e-04   -5.999007044e-06    1.372732459e-05    0.000000000e+00    0.000000000e+00    0.000000000e+00    0.000000000e+00
      225048125   -1.341019088e-04   -1.214579970e-04   -6.950585885e-06    5.717587555e-06    0.000000000e+00    0.000000000e+00    0.000000000e+00    0.000000000e+00
      232548063   -2.077103709e-04   -1.296178380e-04    1.962559281e-06   -1.415271754e-06    0.000000000e+00    0.000000000e+00    0.000000000e+00    0.000000000e+00
      240048000   -1.463171793e-04   -9.012716328e-05   -2.985496758e-05    6.314401162e-06    0.000000000e+00    0.000000000e+00    0.000000000e+00    0.000000000e+00
      247547938   -2.120358840e-04   -1.163282468e-05   -3.344640209e-05   -1.756360325e-05    0.000000000e+00    0.000000000e+00    0.000000000e+00    0.000000000e+00
      255047875   -1.603246201e-04   -2.183059551e-04    3.674041000e-05   -2.104054875e-05    0.000000000e+00    0.000000000e+00    0.000000000e+00    0.000000000e+00
      262547813   -1.448933908e-04   -2.731257991e-04    3.551782720e-05    1.827811502e-06    0.000000000e+00    0.000000000e+00    0.000000000e+00    0.000000000e+00
      270047750   -2.166223130e-04   -1.412757701e-04   -1.181845983e-05    1.235663694e-05    0.000000000e+00    0.000000000e+00    0.000000000e+00    0.000000000e+00
      277547688   -3.625879472e-04   -1.937438356e-04   -1.851389607e-05    2.980600584e-06    0.000000000e+00    0.000000000e+00    0.000000000e+00    0.000000000e+00
      285047625   -1.794461714e-04   -2.319694468e-04   -3.841012949e-05   -1.622746822e-05    0.000000000e+00    0.000000000e+00    0.000000000e+00    0.000000000e+00
      292547563   -1.523696410e-04   -4.296238185e-04   -3.249508518e-05    4.319607797e-06    0.000000000e+00    0.000000000e+00    0.000000000e+00    0.000000000e+00
      300047500   -2.617984428e-04   -4.117748758e-04   -1.725121911e-05    5.385946679e-06    0.000000000e+00    0.000000000e+00    0.000000000e+00    0.000000000e+00
      307547438   -3.120038891e-04   -4.657398968e-04   -2.273515929e-05    6.487851806e-06    0.000000000e+00    0.000000000e+00    0.000000000e+00    0.000000000e+00
      315047375   -2.818276698e-04   -3.328442981e-04   -1.106244963e-05   -3.283305341e-05    0.000000000e+00    0.000000000e+00    0.000000000e+00    0.000000000e+00
      322547313   -2.583905880e-04   -4.216757079e-04   -1.559651309e-06   -1.394033916e-05    0.000000000e+00    0.000000000e+00    0.000000000e+00    0.000000000e+00
      330047250   -1.455596357e-04   -4.822469782e-04    1.652759056e-05   -3.744599724e-07    0.000000000e+00    0.000000000e+00    0.000000000e+00    0.000000000e+00
      337547188   -5.960451017e-05   -5.253602285e-04    2.301826498e-05    4.211832857e-05    0.000000000e+00    0.000000000e+00    0.000000000e+00    0.000000000e+00
      345047125    4.722681842e-05   -6.239819922e-04    3.126497177e-05   -4.947005436e-06    0.000000000e+00    0.000000000e+00    0.000000000e+00    0.000000000e+00
      352547063    5.055553265e-05   -6.404474261e-04   -5.155603048e-06   -8.306874406e-06    0.000000000e+00    0.000000000e+00    0.000000000e+00    0.000000000e+00
      360047000    1.157527149e-04   -5.247176159e-04    5.610113476e-06   -2.810027581e-05    0.000000000e+00    0.000000000e+00    0.000000000e+00    0.000000000e+00
      367546938    1.581338875e-04   -4.783553595e-04   -1.263586273e-05    1.732534315e-06    0.000000000e+00    0.000000000e+00    0.000000000e+00    0.000000000e+00
      375046875    1.790812821e-04   -5.331631401e-04    2.147907935e-06   -4.190211257e-06    0.000000000e+00    0.000000000e+00    0.000000000e+00    0.000000000e+00
      382546813    3.992301936e-04   -5.088383332e-04    8.579441783e-06   -3.688586366e-05    0.000000000e+00    0.000000000e+00    0.000000000e+00    0.000000000e+00
      390046750    3.584750812e-04   -5.428856821e-04   -1.731374141e-05   -4.579207598e-05    0.000000000e+00    0.000000000e+00    0.000000000e+00    0.000000000e+00
      397546688    5.104269949e-04   -4.250210477e-04    3.738186251e-06    3.738557098e-06    0.000000000e+00    0.000000000e+00    0.000000000e+00    0.000000000e+00
      405046625    5.937974784e-04   -5.039547686e-04   -2.373461939e-05   -3.281695899e-05    0.000000000e+00    0.000000000e+00    0.000000000e+00    0.000000000e+00
      412546563    5.560712889e-04   -3.729782184e-04   -1.698971209e-05   -1.001896362e-05    0.000000000e+00    0.000000000e+00    0.000000000e+00    0.000000000e+00
      420046500    4.640393017e-04   -3.358158574e-04   -4.222198186e-05   -1.183405857e-06    0.000000000e+00    0.000000000e+00    0.000000000e+00    0.000000000e+00
      427546438    6.887858617e-04   -1.423152571e-04   -1.132078523e-05    1.228141900e-05    0.000000000e+00    0.000000000e+00    0.000000000e+00    0.000000000e+00
      435046375    6.112365518e-04   -8.628932846e-05   -2.925367426e-06   -3.056846617e-05    0.000000000e+00    0.000000000e+00    0.000000000e+00    0.000000000e+00
      442546313    5.971103674e-04    1.288307831e-04   -1.498572692e-05   -2.269838114e-05    0.000000000e+00    0.000000000e+00    0.000000000e+00    0.000000000e+00
      450046250    9.044537437e-04    1.268226624e-04   -3.527203035e-06   -6.684672371e-06    0.000000000e+00    0.000000000e+00    0.000000000e+00    0.000000000e+00
      457546188    6.545448559e-04    1.352541440e-04    1.127789528e-05   -1.839229662e-05    0.000000000e+00    0.000000000e+00    0.000000000e+00    0.000000000e+00
      465046125    5.398479989e-04    2.850435849e-04   -6.881519766e-06    9.959527233e-06    0.000000000e+00    0.000000000e+00    0.000000000e+00    0.000000000e+00
      472546063    5.574571551e-04    4.434747098e-04   -4.514275497e-05   -1.717752093e-05    0.000000000e+00    0.000000000e+00    0.000000000e+00    0.000000000e+00
      480046000    4.933641176e-04    4.597088555e-04    2.865939905e-06   -3.413818922e-05    0.000000000e+00    0.000000000e+00    0.000000000e+00    0.000000000e+00
      487545938    5.276614102e-04    5.698201712e-04    1.597723895e-05   -3.844189996e-05    0.000000000e+00    0.000000000e+00    0.000000000e+00    0.000000000e+00
      495045875    2.651058603e-04    7.368898368e-04    2.738751937e-05    9.900085388e-06    0.000000000e+00    0.000000000e+00    0.000000000e+00    0.000000000e+00
      502545813    1.679635898e-04    7.135000778e-04   -1.956712731e-05   -1.257859913e-05    0.000000000e+00    0.000000000e+00    0.000000000e+00    0.000000000e+00
      510045750    9.639675409e-05    8.162935264e-04    2.527321521e-05   -3.819099220e-06    0.000000000e+00    0.000000000e+00    0.000000000e+00    0.000000000e+00
      517545688   -1.671760401e-04    8.459341479e-04   -4.428681132e-05   -1.083660391e-05    0.000000000e+00    0.000000000e+00    0.000000000e+00    0.000000000e+00
      525045625   -1.674790692e-04    7.508054841e-04    1.363229239e-05    2.595870319e-05    0.000000000e+00    0.000000000e+00    0.000000000e+00    0.000000000e+00
      532545563   -3.142333298e-04    7.967853453e-04   -1.745765258e-05    4.983769486e-06    0.000000000e+00    0.000000000e+00    0.000000000e+00    0.000000000e+00
      540045500   -4.997134092e-04    7.373510161e-04    1.790398528e-05   -3.226398621e-05    0.000000000e+00    0.000000000e+00    0.000000000e+00    0.000000000e+00
      547545438   -5.986007745e-04    5.984677700e-04    4.002882997e-05    7.886199455e-06    0.000000000e+00    0.000000000e+00    0.000000000e+00    0.000000000e+00
      555045375   -6.377698737e-04    5.616799463e-04   -9.861234503e-06    2.822186616e-05    0.000000000e+00    0.000000000e+00    0.000000000e+00    0.000000000e+00
      562545313   -8.795354515e-04    4.395613214e-04   -5.184113434e-06    1.095479001e-05    0.000000000e+00    0.000000000e+00    0.000000000e+00    0.000000000e+00
      570045250   -1.013736357e-03    3.857091069e-04    4.223468204e-05    1.030745693e-06    0.000000000e+00    0.000000000e+00    0.000000000e+00    0.000000000e+00
      577545188   -9.555743891e-04    3.204490931e-04   -1.501227234e-05   -5.463743219e-05    0.000000000e+00    0.000000000e+00    0.000000000e+00    0.000000000e+00
      585045125   -1.031887368e-03    1.099723813e-04   -2.466476872e-05   -3.812338036e-05    0.000000000e+00    0.000000000e+00    0.000000000e+00    0.000000000e+00
      592545063   -1.116973814e-03    7.413075764e-06    1.310078824e-05    4.441745477e-05    0.000000000e+00    0.000000000e+00    0.000000000e+00    0.000000000e+00
      600045000   -1.153751859e-03   -1.556425850e-04   -3.749928965e-06   -2.821738599e-05    0.000000000e+00    0.000000000e+00    0.000000000e+00    0.000000000e+00
      607544938   -1.099781832e-03   -4.621110274e-04    3.944451521e-07    1.487765803e-05    0.000000000e+00    0.000000000e+00    0.000000000e+00    0.000000000e+00
      615044875   -1.118989661e-03   -5.670551909e-04   -6.499363280e-06    5.217007856e-05    0.000000000e+00    0.000000000e+00    0.000000000e+00    0.000000000e+00
      622544813   -9.831766365e-04   -6.043814356e-04    1.572223482e-05    1.730173062e-05    0.000000000e+00    0.000000000e+00    0.000000000e+00    0.000000000e+00
      630044750   -1.091467682e-03   -7.967636338e-04    1.665365562e-05   -1.531822704e-06    0.000000000e+00    0.000000000e+00    0.000000000e+00    0.000000000e+00
      637544688   -9.634931921e-04   -1.089765225e-03   -7.387244750e-06   -2.329489325e-05    0.000000000e+00    0.000000000e+00    0.000000000e+00    0.000000000e+00
      645044625   -9.218127234e-04   -1.134844846e-03    5.309389962e-06    9.151855920e-06    0.000000000e+00    0.000000000e+00    0.000000000e+00    0.000000000e+00
      652544563   -7.201445405e-04   -1.283184509e-03   -2.027549817e-05    3.798248144e-06    0.000000000e+00    0.000000000e+00    0.000000000e+00    0.000000000e+00
      660044500   -5.148007185e-04   -1.352824620e-03   -1.588436862e-05    1.938136484e-05    0.000000000e+00    0.000000000e+00    0.000000000e+00    0.000000000e+00
      667544438   -4.431708658e-04   -1.389677520e-03    2.360606413e-05    9.379249605e-06    0.000000000e+00    0.000000000e+00    0.000000000e+00    0.000000000e+00
      675044375   -2.161773300e-04   -1.358178677e-03   -3.312119588e-06   -8.843880096e-06    0.000000000e+00    0.000000000e+00    0.000000000e+00    0.000000000e+00
      682544313    6.565148942e-05   -1.555373543e-03    4.043573063e-05    2.830022459e-05    0.000000000e+00    0.000000000e+00    0.000000000e+00    0.000000000e+00
      690044250    2.860716777e-04   -1.511366689e-03   -6.546139502e-06   -1.414094731e-05    0.000000000e+00    0.000000000e+00    0.000000000e+00    0.000000000e+00
      697544188    2.423405240e-04   -1.381021575e-03    1.519281432e-05   -2.528570258e-05    0.000000000e+00    0.000000000e+00    0.000000000e+00    0.000000000e+00
      705044125    4.451543791e-04   -1.327599981e-03    2.451996625e-05    2.196458809e-05    0.000000000e+00    0.000000000e+00    0.000000000e+00    0.000000000e+00
      712544063    6.264260155e-04   -1.254118513e-03   -9.719707350e-07    4.684727173e-05    0.000000000e+00    0.000000000e+00    0.000000000e+00    0.000000000e+00
      720044000    8.241937612e-04   -1.114070183e-03    1.702087138e-05   -7.638864190e-06    0.000000000e+00    0.000000000e+00    0.000000000e+00    0.000000000e+00
      727543938    8.856529603e-04   -9.555479628e-04   -7.382133390e-06   -2.994586430e-05    0.000000000e+00    0.000000000e+00    0.000000000e+00    0.000000000e+00
      735043875    1.018448849e-03   -9.279451333e-04    5.014828730e-07   -2.778717862e-05    0.000000000e+00    0.000000000e+00    0.000000000e+00    0.000000000e+00
      742543813    1.123510883e-03   -7.489765412e-04    2.349554052e-05   -2.326450704e-05    0.000000000e+00    0.000000000e+00    0.000000000e+00    0.000000000e+00
      750043750    1.272413996e-03   -4.634588840e-04    3.533700510e-05    1.504907573e-06    0.000000000e+00    0.000000000e+00    0.000000000e+00    0.000000000e+00
      757543688    1.292114728e-03   -3.933618718e-04    4.364390770e-05    2.799951108e-05    0.000000000e+00    0.000000000e+00    0.000000000e+00    0.000000000e+00
      765043625    1.356243738e-03   -6.686458801e-05    2.803513780e-05    3.783262218e-05    0.000000000e+00    0.000000000e+00    0.000000000e+00    0.000000000e+00
      772543563    1.165835769e-03    2.018070336e-05   -1.016661463e-05    6.016845873e-05    0.000000000e+00    0.000000000e+00    0.000000000e+00    0.000000000e+00
      780043500    1.239096862e-03    2.131464280e-04   -1.563314072e-05   -1.241864538e-05    0.000000000e+00    0.000000000e+00    0.000000000e+00    0.000000000e+00
      787543438    1.095156767e-03    3.039178264e-04   -6.260868759e-06    4.171397086e-05    0.000000000e+00    0.000000000e+00    0.000000000e+00    0.000000000e+00
      795043375    9.227041155e-04    4.744366161e-04    1.345825240e-06   -3.631173240e-05    0.000000000e+00    0.000000000e+00    0.000000000e+00    0.000000000e+00
      802543313    9.500704473e-04    7.533614407e-04   -2.052535820e-05    1.751108357e-05    0.000000000e+00    0.000000000e+00    0.000000000e+00    0.000000000e+00
      810043250    6.447241758e-04    7.473364822e-04    2.773326196e-05   -1.609411811e-05    0.000000000e+00    0.000000000e+00    0.000000000e+00    0.000000000e+00
      817543188    4.951991141e-04    8.777282201e-04    3.549630492e-06    5.592488037e-07    0.000000000e+00    0.000000000e+00    0.000000000e+00    0.000000000e+00
      825043125    4.672465730e-04    1.063936856e-03   -6.556107110e-06   -3.084025957e-05    0.000000000e+00    0.000000000e+00    0.000000000e+00    0.000000000e+00
      832543063    2.371426672e-04    1.034611254e-03    7.941330296e-06    2.210238017e-05    0.000000000e+00    0.000000000e+00    0.000000000e+00    0.000000000e+00
      840043000    4.821204493e-05    9.688441642e-04    8.016199899e-07   -2.948716065e-05    0.000000000e+00    0.000000000e+00    0.000000000e+00    0.000000000e+00
      847542938   -2.322654036e-04    1.017625909e-03    2.440201570e-05   -1.547004285e-05    0.000000000e+00    0.000000000e+00    0.000000000e+00    0.000000000e+00
      855042875   -2.724431979e-04    9.261422092e-04    2.213034168e-05   -4.451244968e-05    0.000000000e+00    0.000000000e+00    0.000000000e+00    0.000000000e+00
      862542813   -6.156695308e-04    8.999397396e-04   -2.035751641e-05    1.885744859e-05    0.000000000e+00    0.000000000e+00    0.000000000e+00    0.000000000e+00
      870042750   -7.854919531e-04    5.079476978e-04   -1.517422879e-05   -2.511907769e-05    0.000000000e+00    0.000000000e+00    0.000000000e+00    0.000000000e+00
