! NanoVNA-App by OneOfEleven et al v1.1.209 (+OD15) 
! Date: 2024-07-30 12:39:33
! Start: 50kHz Stop: 6GHz Points: 801
! S-Parameter data: F S11 S21 S12 S22
# Hz S RI R 50
!     Frequency           S11_Real           S11_Imag           S21_Real           S21_Imag           S12_Real           S12_Imag           S22_Real           S22_Imag
          50000    3.135670209e-03    6.273623556e-03   -8.051544683e-06    7.246015230e-06    0.000000000e+00    0.000000000e+00    0.000000000e+00    0.000000000e+00
        7549938   -1.067221048e-03    8.505894220e-04    2.314979429e-05   -1.769021037e-05    0.000000000e+00    0.000000000e+00    0.000000000e+00    0.000000000e+00
       15049875   -1.572323090e-04    5.298958276e-04    5.827640507e-06    7.888248547e-06    0.000000000e+00    0.000000000e+00    0.000000000e+00    0.000000000e+00
       22549813   -2.116761752e-04    3.543940838e-04   -1.784157939e-05   -1.918160706e-05    0.000000000e+00    0.000000000e+00    0.000000000e+00    0.000000000e+00
       30049750   -5.391217564e-05    2.691191330e-04    1.753225297e-05    5.367071572e-05    0.000000000e+00    0.000000000e+00    0.000000000e+00    0.000000000e+00
       37549688    5.472814883e-05    2.030808973e-04   -3.023758109e-05   -1.770925155e-05    0.000000000e+00    0.000000000e+00    0.000000000e+00    0.000000000e+00
       45049625    1.094902545e-04    1.586753788e-04    2.837363718e-05   -9.552570191e-06    0.000000000e+00    0.000000000e+00    0.000000000e+00    0.000000000e+00
       52549563    7.691366045e-05    1.546873827e-04   -4.471863576e-05    7.878797987e-06    0.000000000e+00    0.000000000e+00    0.000000000e+00    0.000000000e+00
       60049500    1.059269198e-04   -1.921645526e-05   -2.353439959e-05   -1.021016215e-05    0.000000000e+00    0.000000000e+00    0.000000000e+00    0.000000000e+00
       67549438    1.597272349e-04   -1.376528235e-05   -2.191863132e-05    2.901782500e-05    0.000000000e+00    0.000000000e+00    0.000000000e+00    0.000000000e+00
       75049375    9.301711543e-05    6.541504990e-05    1.800651444e-05   -3.932034815e-05    0.000000000e+00    0.000000000e+00    0.000000000e+00    0.000000000e+00
       82549313    2.108361950e-04   -5.019888340e-05    5.377095295e-05   -1.372268889e-05    0.000000000e+00    0.000000000e+00    0.000000000e+00    0.000000000e+00
       90049250    1.765919442e-04   -3.020298027e-05   -1.859236545e-05    3.796076999e-05    0.000000000e+00    0.000000000e+00    0.000000000e+00    0.000000000e+00
       97549188    5.386137855e-05    3.059393202e-05   -2.399204459e-05   -3.029450681e-06    0.000000000e+00    0.000000000e+00    0.000000000e+00    0.000000000e+00
      105049125    1.438617182e-04    8.237082511e-05   -2.306840906e-05   -1.957895392e-06    0.000000000e+00    0.000000000e+00    0.000000000e+00    0.000000000e+00
      112549063    3.942648254e-05    9.902341117e-05    9.812229109e-06   -2.838002001e-05    0.000000000e+00    0.000000000e+00    0.000000000e+00    0.000000000e+00
      120049000    6.031946396e-05    2.424286140e-05   -1.640638948e-05    1.347577290e-05    0.000000000e+00    0.000000000e+00    0.000000000e+00    0.000000000e+00
      127548938    1.137868385e-04    7.665633166e-05   -1.699196764e-05   -3.370458944e-05    0.000000000e+00    0.000000000e+00    0.000000000e+00    0.000000000e+00
      135048875    1.846500963e-04   -7.606372674e-05    2.487670645e-05    1.683781011e-05    0.000000000e+00    0.000000000e+00    0.000000000e+00    0.000000000e+00
      142548813    8.615299157e-05    1.023335699e-05   -1.378066190e-05   -2.091090209e-05    0.000000000e+00    0.000000000e+00    0.000000000e+00    0.000000000e+00
      150048750    9.537321603e-06    3.546128937e-05   -2.423079877e-06    6.465722890e-06    0.000000000e+00    0.000000000e+00    0.000000000e+00    0.000000000e+00
      157548688   -3.597896648e-05   -9.322520054e-05    3.980464498e-06   -1.025806796e-05    0.000000000e+00    0.000000000e+00    0.000000000e+00    0.000000000e+00
      165048625   -1.122223421e-05    5.220745879e-05   -9.376039998e-07   -1.723018613e-05    0.000000000e+00    0.000000000e+00    0.000000000e+00    0.000000000e+00
      172548563   -3.912446846e-05    4.280231587e-05    2.504558688e-05   -1.926790674e-06    0.000000000e+00    0.000000000e+00    0.000000000e+00    0.000000000e+00
      180048500   -8.657578292e-06   -2.201475763e-05    3.444883259e-05    3.284337799e-05    0.000000000e+00    0.000000000e+00    0.000000000e+00    0.000000000e+00
      187548438   -4.324304609e-05    1.821430305e-05    6.186086102e-05    1.425869686e-05    0.000000000e+00    0.000000000e+00    0.000000000e+00    0.000000000e+00
      195048375   -5.993036029e-05   -8.403995889e-05   -7.437155091e-06   -1.809536570e-06    0.000000000e+00    0.000000000e+00    0.000000000e+00    0.000000000e+00
      202548313   -3.344183278e-05   -1.085333715e-04   -1.209826223e-05    8.739522855e-06    0.000000000e+00    0.000000000e+00    0.000000000e+00    0.000000000e+00
      210048250   -1.246148022e-04   -1.796740689e-04    5.446264367e-06    4.444344813e-05    0.000000000e+00    0.000000000e+00    0.000000000e+00    0.000000000e+00
      217548188    1.709046410e-05   -8.148701454e-05   -1.288987187e-05   -3.771699267e-05    0.000000000e+00    0.000000000e+00    0.000000000e+00    0.000000000e+00
      225048125   -1.324140903e-04   -1.829163375e-04    1.732902820e-05   -1.372964198e-05    0.000000000e+00    0.000000000e+00    0.000000000e+00    0.000000000e+00
      232548063   -6.741445395e-05   -3.466439375e-04   -3.593243673e-05   -1.704970600e-05    0.000000000e+00    0.000000000e+00    0.000000000e+00    0.000000000e+00
      240048000   -2.306141541e-04   -2.937722311e-04   -1.103850082e-05   -1.048584068e-06    0.000000000e+00    0.000000000e+00    0.000000000e+00    0.000000000e+00
      247547938   -9.688238788e-05   -2.731973655e-04    1.642433381e-05   -1.646574856e-05    0.000000000e+00    0.000000000e+00    0.000000000e+00    0.000000000e+00
      255047875   -1.429390522e-05   -3.954028944e-04   -5.565891115e-06   -1.239522771e-05    0.000000000e+00    0.000000000e+00    0.000000000e+00    0.000000000e+00
      262547813    3.282080070e-05   -3.945426433e-04    1.762239663e-06    1.454855828e-05    0.000000000e+00    0.000000000e+00    0.000000000e+00    0.000000000e+00
      270047750   -3.019625365e-05   -5.021245452e-04   -5.643627901e-06   -1.564453851e-05    0.000000000e+00    0.000000000e+00    0.000000000e+00    0.000000000e+00
      277547688    4.904835805e-05   -4.756693961e-04   -3.044336336e-05    1.172866291e-06    0.000000000e+00    0.000000000e+00    0.000000000e+00    0.000000000e+00
      285047625    1.709797652e-04   -4.906504764e-04    2.413129550e-05   -1.363592219e-05    0.000000000e+00    0.000000000e+00    0.000000000e+00    0.000000000e+00
      292547563    2.065634180e-04   -6.061230670e-04   -1.217651061e-05   -1.402752059e-05    0.000000000e+00    0.000000000e+00    0.000000000e+00    0.000000000e+00
      300047500    3.375169472e-04   -5.789633724e-04    2.815643938e-06   -1.498374240e-05    0.000000000e+00    0.000000000e+00    0.000000000e+00    0.000000000e+00
      307547438    4.142238467e-04   -6.503663026e-04   -2.236262662e-05    7.017774806e-06    0.000000000e+00    0.000000000e+00    0.000000000e+00    0.000000000e+00
      315047375    4.053827433e-04   -5.993391387e-04    1.439240714e-05   -3.678259964e-05    0.000000000e+00    0.000000000e+00    0.000000000e+00    0.000000000e+00
      322547313    6.126163062e-04   -5.117975525e-04   -3.319108873e-05    5.297501957e-06    0.000000000e+00    0.000000000e+00    0.000000000e+00    0.000000000e+00
      330047250    6.861707661e-04   -5.216408172e-04   -2.335222598e-05   -1.569098276e-05    0.000000000e+00    0.000000000e+00    0.000000000e+00    0.000000000e+00
      337547188    6.061382592e-04   -5.939323455e-04   -4.579715551e-06    8.405649169e-06    0.000000000e+00    0.000000000e+00    0.000000000e+00    0.000000000e+00
      345047125    7.924103411e-04   -5.466120783e-04    1.818128294e-05   -3.140103217e-05    0.000000000e+00    0.000000000e+00    0.000000000e+00    0.000000000e+00
      352547063    7.961824886e-04   -4.892126890e-04   -1.222157152e-05   -6.426605978e-06    0.000000000e+00    0.000000000e+00    0.000000000e+00    0.000000000e+00
      360047000    9.074647678e-04   -3.911922977e-04   -2.441134484e-06   -1.763582623e-05    0.000000000e+00    0.000000000e+00    0.000000000e+00    0.000000000e+00
      367546938    9.848369518e-04   -7.289810310e-05   -2.296991624e-05    1.358283771e-05    0.000000000e+00    0.000000000e+00    0.000000000e+00    0.000000000e+00
      375046875    1.025471021e-03   -1.233152871e-04   -2.705050429e-05   -1.969146979e-05    0.000000000e+00    0.000000000e+00    0.000000000e+00    0.000000000e+00
      382546813    1.109250472e-03   -3.812371506e-05    2.958848881e-06   -2.584989670e-05    0.000000000e+00    0.000000000e+00    0.000000000e+00    0.000000000e+00
      390046750    1.129308017e-03    4.157998410e-05   -5.212188989e-05   -1.864375372e-05    0.000000000e+00    0.000000000e+00    0.000000000e+00    0.000000000e+00
      397546688    1.237152028e-03    1.612476481e-04    7.825744433e-06    3.820524398e-06    0.000000000e+00    0.000000000e+00    0.000000000e+00    0.000000000e+00
      405046625    1.190213137e-03    2.648430527e-04    1.012753546e-05   -1.164590049e-05    0.000000000e+00    0.000000000e+00    0.000000000e+00    0.000000000e+00
      412546563    1.206933870e-03    4.003446957e-04   -6.859683253e-06   -1.273564430e-05    0.000000000e+00    0.000000000e+00    0.000000000e+00    0.000000000e+00
      420046500    1.028691535e-03    6.027611671e-04   -2.583614878e-05   -8.187928870e-06    0.000000000e+00    0.000000000e+00    0.000000000e+00    0.000000000e+00
      427546438    1.141192624e-03    6.904599140e-04   -1.956943197e-05    1.936705303e-05    0.000000000e+00    0.000000000e+00    0.000000000e+00    0.000000000e+00
      435046375    8.820337243e-04    8.489179891e-04   -2.544610425e-06   -1.002585918e-06    0.000000000e+00    0.000000000e+00    0.000000000e+00    0.000000000e+00
      442546313    1.033891691e-03    9.318609955e-04    3.158075924e-05    8.626271665e-06    0.000000000e+00    0.000000000e+00    0.000000000e+00    0.000000000e+00
      450046250    9.051130619e-04    9.266137495e-04    2.438087722e-05   -3.941179784e-06    0.000000000e+00    0.000000000e+00    0.000000000e+00    0.000000000e+00
      457546188    7.746938500e-04    1.127750496e-03   -1.263479476e-06    6.012334779e-06    0.000000000e+00    0.000000000e+00    0.000000000e+00    0.000000000e+00
      465046125    5.774659221e-04    1.216604724e-03    2.252820377e-05   -3.507069778e-05    0.000000000e+00    0.000000000e+00    0.000000000e+00    0.000000000e+00
      472546063    5.152659141e-04    1.278139884e-03    2.344453969e-05    2.192715328e-05    0.000000000e+00    0.000000000e+00    0.000000000e+00    0.000000000e+00
      480046000    2.318237821e-04    1.245974796e-03    1.242135295e-05    2.067886817e-05    0.000000000e+00    0.000000000e+00    0.000000000e+00    0.000000000e+00
      487545938    1.193776770e-04    1.292294939e-03   -2.748152656e-05    1.274165970e-05    0.000000000e+00    0.000000000e+00    0.000000000e+00    0.000000000e+00
      495045875    7.098133665e-06    1.254794886e-03    1.961657290e-05    3.885141996e-05    0.000000000e+00    0.000000000e+00    0.000000000e+00    0.000000000e+00
      502545813   -1.328641229e-04    1.442769775e-03   -3.351997862e-07   -1.762271677e-05    0.000000000e+00    0.000000000e+00    0.000000000e+00    0.000000000e+00
      510045750   -3.971415863e-04    1.335503883e-03    1.464121215e-05    9.360981494e-06    0.000000000e+00    0.000000000e+00    0.000000000e+00    0.000000000e+00
      517545688   -5.747362738e-04    1.267331420e-03   -4.269529654e-06   -3.497530633e-05    0.000000000e+00    0.000000000e+00    0.000000000e+00    0.000000000e+00
      525045625   -8.088753093e-04    1.190969720e-03    1.450864511e-05    7.667636964e-06    0.000000000e+00    0.000000000e+00    0.000000000e+00    0.000000000e+00
      532545563   -9.868390625e-04    9.472072124e-04    2.658351514e-05    3.089195525e-05    0.000000000e+00    0.000000000e+00    0.000000000e+00    0.000000000e+00
      540045500   -1.024944359e-03    8.448901935e-04    2.175769259e-05    2.883095476e-06    0.000000000e+00    0.000000000e+00    0.000000000e+00    0.000000000e+00
      547545438   -1.068430138e-03    7.011980051e-04   -6.137206583e-06   -2.646003304e-05    0.000000000e+00    0.000000000e+00    0.000000000e+00    0.000000000e+00
      555045375   -1.357557485e-03    5.723631475e-04   -3.163055226e-05    3.221280167e-07    0.000000000e+00    0.000000000e+00    0.000000000e+00    0.000000000e+00
      562545313   -1.507366542e-03    3.040581360e-04    3.356072557e-05    3.549242683e-05    0.000000000e+00    0.000000000e+00    0.000000000e+00    0.000000000e+00
      570045250   -1.551559661e-03    3.735988867e-05   -2.559118366e-05   -4.710327630e-06    0.000000000e+00    0.000000000e+00    0.000000000e+00    0.000000000e+00
      577545188   -1.529887668e-03   -1.466656977e-04    1.051770414e-05   -1.453343612e-05    0.000000000e+00    0.000000000e+00    0.000000000e+00    0.000000000e+00
      585045125   -1.609865343e-03   -4.142022517e-04   -2.361258703e-05   -8.451273970e-06    0.000000000e+00    0.000000000e+00    0.000000000e+00    0.000000000e+00
      592545063   -1.635721652e-03   -4.390833783e-04    3.432379890e-05    2.815178277e-06    0.000000000e+00    0.000000000e+00    0.000000000e+00    0.000000000e+00
      600045000   -1.518279896e-03   -8.519506664e-04    3.116739026e-05    9.810385563e-06    0.000000000e+00    0.000000000e+00    0.000000000e+00    0.000000000e+00
      607544938   -1.446919749e-03   -1.025521080e-03   -2.246205986e-05    3.223477324e-05    0.000000000e+00    0.000000000e+00    0.000000000e+00    0.000000000e+00
      615044875   -1.175082405e-03   -1.190561219e-03    3.109328827e-05   -6.041429970e-06    0.000000000e+00    0.000000000e+00    0.000000000e+00    0.000000000e+00
      622544813   -1.055296976e-03   -1.529029687e-03   -3.540204261e-06   -4.295597682e-05    0.000000000e+00    0.000000000e+00    0.000000000e+00    0.000000000e+00
      630044750   -9.974223794e-04   -1.732126344e-03    2.933363976e-05    5.051802418e-06    0.000000000e+00    0.000000000e+00    0.000000000e+00    0.000000000e+00
      637544688   -7.749092183e-04   -1.869423548e-03   -3.212751471e-05    1.720557862e-06    0.000000000e+00    0.000000000e+00    0.000000000e+00    0.000000000e+00
      645044625   -4.746220075e-04   -1.937434543e-03    3.605321399e-05   -7.572572031e-06    0.000000000e+00    0.000000000e+00    0.000000000e+00    0.000000000e+00
      652544563   -1.176544174e-04   -1.979370834e-03   -3.633764209e-05   -5.435804269e-05    0.000000000e+00    0.000000000e+00    0.000000000e+00    0.000000000e+00
      660044500    1.816775330e-04   -2.122133505e-03    1.872322173e-05   -1.496637833e-05    0.000000000e+00    0.000000000e+00    0.000000000e+00    0.000000000e+00
      667544438    4.315956612e-04   -2.098582685e-03    3.630646461e-05    1.300099393e-05    0.000000000e+00    0.000000000e+00    0.000000000e+00    0.000000000e+00
      675044375    7.196594379e-04   -2.215097193e-03    1.994884769e-05   -7.769041872e-07    0.000000000e+00    0.000000000e+00    0.000000000e+00    0.000000000e+00
      682544313    1.052705105e-03   -2.138406038e-03   -6.264421160e-08    2.214977576e-05    0.000000000e+00    0.000000000e+00    0.000000000e+00    0.000000000e+00
      690044250    1.436622348e-03   -1.981405308e-03   -1.553908078e-05   -2.604717793e-07    0.000000000e+00    0.000000000e+00    0.000000000e+00    0.000000000e+00
      697544188    1.702222973e-03   -1.985359704e-03   -1.673392762e-05    3.789330094e-06    0.000000000e+00    0.000000000e+00    0.000000000e+00    0.000000000e+00
      705044125    1.938364119e-03   -1.649884041e-03    3.479709267e-05    2.107609362e-05    0.000000000e+00    0.000000000e+00    0.000000000e+00    0.000000000e+00
      712544063    2.125330968e-03   -1.704002148e-03   -7.723466297e-06   -1.630905899e-05    0.000000000e+00    0.000000000e+00    0.000000000e+00    0.000000000e+00
      720044000    2.434905851e-03   -1.201058389e-03   -1.459178930e-05    2.262515045e-05    0.000000000e+00    0.000000000e+00    0.000000000e+00    0.000000000e+00
      727543938    2.560921945e-03   -8.668896044e-04    6.658611710e-06   -6.073803888e-06    0.000000000e+00    0.000000000e+00    0.000000000e+00    0.000000000e+00
      735043875    2.784980927e-03   -6.398912519e-04    2.010185017e-05   -1.981862079e-05    0.000000000e+00    0.000000000e+00    0.000000000e+00    0.000000000e+00
      742543813    2.782267751e-03   -1.957959175e-04   -8.156832337e-06   -4.669002010e-05    0.000000000e+00    0.000000000e+00    0.000000000e+00    0.000000000e+00
      750043750    2.985319123e-03    6.330479664e-05    8.212629837e-06   -3.254243711e-05    0.000000000e+00    0.000000000e+00    0.000000000e+00    0.000000000e+00
      757543688    3.136309562e-03    3.429662902e-04   -4.880962024e-06    2.017720180e-05    0.000000000e+00    0.000000000e+00    0.000000000e+00    0.000000000e+00
      765043625    2.871905686e-03    6.839881535e-04    1.110929043e-05    1.764728222e-05    0.000000000e+00    0.000000000e+00    0.000000000e+00    0.000000000e+00
      772543563    2.908811439e-03    1.052410807e-03    3.669958460e-06    6.216123438e-06    0.000000000e+00    0.000000000e+00    0.000000000e+00    0.000000000e+00
      780043500    2.748498227e-03    1.537718228e-03    1.090138721e-05   -1.427934149e-05    0.000000000e+00    0.000000000e+00    0.000000000e+00    0.000000000e+00
      787543438    2.558556385e-03    1.811764552e-03   -2.698569006e-05    4.632022410e-06    0.000000000e+00    0.000000000e+00    0.000000000e+00    0.000000000e+00
      795043375    2.260054694e-03    2.115743468e-03    2.728136678e-05   -6.593983017e-06    0.000000000e+00    0.000000000e+00    0.000000000e+00    0.000000000e+00
      802543313    2.081787447e-03    2.419406548e-03   -6.483865491e-06   -1.256348423e-05    0.000000000e+00    0.000000000e+00    0.000000000e+00    0.000000000e+00
      810043250    1.708285999e-03    2.608238021e-03   -8.031115613e-07   -1.583733865e-05    0.000000000e+00    0.000000000e+00    0.000000000e+00    0.000000000e+00
      817543188    1.440309687e-03    2.828346798e-03   -1.798536869e-05    1.013706151e-05    0.000000000e+00    0.000000000e+00    0.000000000e+00    0.000000000e+00
      825043125    9.104465717e-04    2.969905734e-03   -6.388658676e-06   -1.235900709e-05    0.000000000e+00    0.000000000e+00    0.000000000e+00    0.000000000e+00
      832543063    5.974821397e-04    3.147286130e-03   -1.926447112e-05   -2.008831416e-06    0.000000000e+00    0.000000000e+00    0.000000000e+00    0.000000000e+00
      840043000    1.061564180e-04    3.377113957e-03    2.870186108e-05   -3.310508691e-05    0.000000000e+00    0.000000000e+00    0.000000000e+00    0.000000000e+00
      847542938   -1.166245056e-04    3.170436947e-03    1.042390159e-05    2.391471571e-05    0.000000000e+00    0.000000000e+00    0.000000000e+00    0.000000000e+00
      855042875   -7.038692129e-04    3.225929802e-03   -6.695450793e-06    3.050450869e-05    0.000000000e+00    0.000000000e+00    0.000000000e+00    0.000000000e+00
      862542813   -1.198343234e-03    3.013762413e-03   -1.618237548e-05    1.879594856e-05    0.000000000e+00    0.000000000e+00    0.000000000e+00    0.000000000e+00
      870042750   -1.547392807e-03    2.799903974e-03   -1.601521217e-05   -3.071444371e-05    0.000000000e+00    0.000000000e+00    0.000000000e+00    0.000000000e+00
