! NanoVNA-App
! Date: 2024-06-25 16:10:32
! Start: 200MHz Stop: 6GHz Points: 801
! S-Parameter data: F S11 S21 S12 S22
# Hz S RI R 50
!     Frequency           S11_Real           S11_Imag           S21_Real           S21_Imag           S12_Real           S12_Imag           S22_Real           S22_Imag
      200000000   -9.983724952e-01   -1.182827130e-01    2.051796764e-05    2.076849341e-07    0.000000000e+00    0.000000000e+00    0.000000000e+00    0.000000000e+00
      207250000   -1.010263443e+00   -1.949465089e-02    1.991353929e-05   -1.651886851e-05    0.000000000e+00    0.000000000e+00    0.000000000e+00    0.000000000e+00
      214500000   -1.011568069e+00    8.193454891e-02   -1.722574234e-05   -4.738569260e-06    0.000000000e+00    0.000000000e+00    0.000000000e+00    0.000000000e+00
      221750000   -1.003156185e+00    1.844858676e-01    1.810584217e-05   -1.493748277e-05    0.000000000e+00    0.000000000e+00    0.000000000e+00    0.000000000e+00
      229000000   -9.824050665e-01    2.876115739e-01   -1.286529005e-05    3.054738045e-05    0.000000000e+00    0.000000000e+00    0.000000000e+00    0.000000000e+00
      236250000   -9.517214298e-01    3.902536035e-01    2.658087760e-05    2.809707075e-05    0.000000000e+00    0.000000000e+00    0.000000000e+00    0.000000000e+00
      243500000   -9.079651237e-01    4.902666509e-01   -2.466142178e-06    2.094916999e-05    0.000000000e+00    0.000000000e+00    0.000000000e+00    0.000000000e+00
      250750000   -8.520973921e-01    5.868842006e-01   -5.980022252e-06    1.385249197e-05    0.000000000e+00    0.000000000e+00    0.000000000e+00    0.000000000e+00
      258000000   -7.836701870e-01    6.783493757e-01    6.792135537e-06   -2.100691199e-05    0.000000000e+00    0.000000000e+00    0.000000000e+00    0.000000000e+00
      265250000   -7.049677372e-01    7.621359229e-01    2.012588084e-06    9.972602129e-06    0.000000000e+00    0.000000000e+00    0.000000000e+00    0.000000000e+00
      272500000   -6.131456494e-01    8.374816775e-01    3.068801016e-05    3.106333315e-05    0.000000000e+00    0.000000000e+00    0.000000000e+00    0.000000000e+00
      279750000   -5.132675171e-01    9.021217227e-01    2.002343535e-05    5.398411304e-05    0.000000000e+00    0.000000000e+00    0.000000000e+00    0.000000000e+00
      287000000   -4.027168751e-01    9.539475441e-01   -1.750327647e-05   -1.580640674e-05    0.000000000e+00    0.000000000e+00    0.000000000e+00    0.000000000e+00
      294250000   -2.858155668e-01    9.924064279e-01   -1.464225352e-05   -3.619864583e-05    0.000000000e+00    0.000000000e+00    0.000000000e+00    0.000000000e+00
      301500000   -1.631888747e-01    1.015802026e+00    1.857988536e-06    2.069212496e-05    0.000000000e+00    0.000000000e+00    0.000000000e+00    0.000000000e+00
      308750000   -3.852421790e-02    1.024208426e+00    2.576131374e-05   -3.693345934e-05    0.000000000e+00    0.000000000e+00    0.000000000e+00    0.000000000e+00
      316000000    8.860299736e-02    1.014863968e+00   -2.532359213e-05    1.710467041e-05    0.000000000e+00    0.000000000e+00    0.000000000e+00    0.000000000e+00
      323250000    2.129237354e-01    9.906554818e-01   -7.414259017e-06    1.730676740e-05    0.000000000e+00    0.000000000e+00    0.000000000e+00    0.000000000e+00
      330500000    3.330155909e-01    9.499092698e-01    2.114754170e-05    3.321096301e-06    0.000000000e+00    0.000000000e+00    0.000000000e+00    0.000000000e+00
      337750000    4.469007850e-01    8.943598866e-01   -3.972090781e-06   -3.364868462e-06    0.000000000e+00    0.000000000e+00    0.000000000e+00    0.000000000e+00
      345000000    5.523231030e-01    8.241751790e-01    7.202848792e-06    1.098681241e-05    0.000000000e+00    0.000000000e+00    0.000000000e+00    0.000000000e+00
      352250000    6.478846073e-01    7.428125739e-01   -8.853152394e-06   -1.874845475e-05    0.000000000e+00    0.000000000e+00    0.000000000e+00    0.000000000e+00
      359500000    7.314538956e-01    6.503521800e-01   -3.929901868e-05   -2.741534263e-05    0.000000000e+00    0.000000000e+00    0.000000000e+00    0.000000000e+00
      366750000    8.025931120e-01    5.490089059e-01   -6.417743862e-06    4.408974200e-05    0.000000000e+00    0.000000000e+00    0.000000000e+00    0.000000000e+00
      374000000    8.601717353e-01    4.417473078e-01   -3.642868251e-05    1.544971019e-05    0.000000000e+00    0.000000000e+00    0.000000000e+00    0.000000000e+00
      381250000    9.051530957e-01    3.276396394e-01   -5.102716386e-06    1.493282616e-05    0.000000000e+00    0.000000000e+00    0.000000000e+00    0.000000000e+00
      388500000    9.342135191e-01    2.127649933e-01    3.170967102e-05   -1.516193151e-06    0.000000000e+00    0.000000000e+00    0.000000000e+00    0.000000000e+00
      395750000    9.516692162e-01    9.501207620e-02    4.319101572e-05    6.835907698e-07    0.000000000e+00    0.000000000e+00    0.000000000e+00    0.000000000e+00
      403000000    9.545445442e-01   -2.163803019e-02   -3.902241588e-06    4.341825843e-06    0.000000000e+00    0.000000000e+00    0.000000000e+00    0.000000000e+00
      410250000    9.446372986e-01   -1.372569799e-01   -2.109818161e-05    1.946929842e-05    0.000000000e+00    0.000000000e+00    0.000000000e+00    0.000000000e+00
      417500000    9.232046008e-01   -2.490765452e-01    7.793307304e-06    1.309067011e-05    0.000000000e+00    0.000000000e+00    0.000000000e+00    0.000000000e+00
      424750000    8.895367384e-01   -3.579623699e-01    2.392008901e-05    2.773478627e-06    0.000000000e+00    0.000000000e+00    0.000000000e+00    0.000000000e+00
      432000000    8.428120017e-01   -4.608465135e-01   -5.752313882e-05   -3.249105066e-05    0.000000000e+00    0.000000000e+00    0.000000000e+00    0.000000000e+00
      439250000    7.893534899e-01   -5.580626130e-01   -8.573755622e-06   -9.910203516e-06    0.000000000e+00    0.000000000e+00    0.000000000e+00    0.000000000e+00
      446500000    7.244953513e-01   -6.475176215e-01    4.979036748e-05   -2.593826503e-05    0.000000000e+00    0.000000000e+00    0.000000000e+00    0.000000000e+00
      453750000    6.513678432e-01   -7.303641438e-01    5.933456123e-06    4.740431905e-07    0.000000000e+00    0.000000000e+00    0.000000000e+00    0.000000000e+00
      461000000    5.710269213e-01   -8.046848774e-01   -1.302361488e-05   -4.577450454e-06    0.000000000e+00    0.000000000e+00    0.000000000e+00    0.000000000e+00
      468250000    4.827179313e-01   -8.694644570e-01   -3.073364496e-06   -4.589557648e-06    0.000000000e+00    0.000000000e+00    0.000000000e+00    0.000000000e+00
      475500000    3.885368705e-01   -9.247983694e-01   -1.071020961e-07    6.724148989e-07    0.000000000e+00    0.000000000e+00    0.000000000e+00    0.000000000e+00
      482750000    2.888829708e-01   -9.704962373e-01    6.035156548e-05    5.579553545e-06    0.000000000e+00    0.000000000e+00    0.000000000e+00    0.000000000e+00
      490000000    1.852560788e-01   -1.005738854e+00   -2.080574632e-06   -1.223292202e-05    0.000000000e+00    0.000000000e+00    0.000000000e+00    0.000000000e+00
      497250000    7.783383876e-02   -1.029767036e+00   -9.005889297e-07   -5.587004125e-06    0.000000000e+00    0.000000000e+00    0.000000000e+00    0.000000000e+00
      504500000   -3.151660413e-02   -1.043614626e+00    5.148816854e-05    2.455897629e-05    0.000000000e+00    0.000000000e+00    0.000000000e+00    0.000000000e+00
      511750000   -1.436105520e-01   -1.043974996e+00   -7.241964340e-06   -4.188157618e-06    0.000000000e+00    0.000000000e+00    0.000000000e+00    0.000000000e+00
      519000000   -2.556357682e-01   -1.032400012e+00    2.871640027e-05    1.589767635e-05    0.000000000e+00    0.000000000e+00    0.000000000e+00    0.000000000e+00
      526250000   -3.651141822e-01   -1.009283662e+00   -2.191867679e-05    3.384705633e-05    0.000000000e+00    0.000000000e+00    0.000000000e+00    0.000000000e+00
      533500000   -4.733486474e-01   -9.736537933e-01    3.959983587e-06   -9.722076356e-06    0.000000000e+00    0.000000000e+00    0.000000000e+00    0.000000000e+00
      540750000   -5.773849487e-01   -9.245247245e-01    9.162351489e-06    2.183951437e-06    0.000000000e+00    0.000000000e+00    0.000000000e+00    0.000000000e+00
      548000000   -6.766799092e-01   -8.641846776e-01    1.526437700e-05    6.198883057e-06    0.000000000e+00    0.000000000e+00    0.000000000e+00    0.000000000e+00
      555250000   -7.676349878e-01   -7.933180332e-01    4.245061427e-05    7.902272046e-06    0.000000000e+00    0.000000000e+00    0.000000000e+00    0.000000000e+00
      562500000   -8.511319757e-01   -7.100644112e-01    2.223346382e-05    3.396533430e-06    0.000000000e+00    0.000000000e+00    0.000000000e+00    0.000000000e+00
      569750000   -9.247712493e-01   -6.186142564e-01    3.367289901e-05    2.203136683e-05    0.000000000e+00    0.000000000e+00    0.000000000e+00    0.000000000e+00
      577000000   -9.872570634e-01   -5.172510147e-01    4.111230373e-05   -1.571420580e-05    0.000000000e+00    0.000000000e+00    0.000000000e+00    0.000000000e+00
      584250000   -1.036351800e+00   -4.081735313e-01    1.454073936e-05   -3.954954445e-05    0.000000000e+00    0.000000000e+00    0.000000000e+00    0.000000000e+00
      591500000   -1.073469162e+00   -2.950620353e-01    1.731142402e-05   -5.553476512e-06    0.000000000e+00    0.000000000e+00    0.000000000e+00    0.000000000e+00
      598750000   -1.095891118e+00   -1.763020307e-01   -1.409091055e-05   -3.641191870e-05    0.000000000e+00    0.000000000e+00    0.000000000e+00    0.000000000e+00
      606000000   -1.103600740e+00   -5.642423406e-02   -1.200754195e-05    3.115925938e-05    0.000000000e+00    0.000000000e+00    0.000000000e+00    0.000000000e+00
      613250000   -1.096880913e+00    6.341981888e-02   -2.254080027e-05   -2.253707498e-05    0.000000000e+00    0.000000000e+00    0.000000000e+00    0.000000000e+00
      620500000   -1.075807810e+00    1.798286885e-01    3.444682807e-05   -1.322943717e-05    0.000000000e+00    0.000000000e+00    0.000000000e+00    0.000000000e+00
      627750000   -1.040391207e+00    2.951466739e-01   -9.886920452e-06   -1.502223313e-06    0.000000000e+00    0.000000000e+00    0.000000000e+00    0.000000000e+00
      635000000   -9.922091961e-01    4.013434052e-01    3.305543214e-05    4.474632442e-05    0.000000000e+00    0.000000000e+00    0.000000000e+00    0.000000000e+00
      642250000   -9.317061901e-01    5.028015971e-01   -8.397735655e-06   -2.309307456e-05    0.000000000e+00    0.000000000e+00    0.000000000e+00    0.000000000e+00
      649500000   -8.599671125e-01    5.946475863e-01    2.818182111e-06   -7.683411241e-07    0.000000000e+00    0.000000000e+00    0.000000000e+00    0.000000000e+00
      656750000   -7.786564231e-01    6.763672233e-01   -2.947542816e-05   -1.152977347e-06    0.000000000e+00    0.000000000e+00    0.000000000e+00    0.000000000e+00
      664000000   -6.893004775e-01    7.479436994e-01   -1.328345388e-05   -4.319474101e-06    0.000000000e+00    0.000000000e+00    0.000000000e+00    0.000000000e+00
      671250000   -5.936051011e-01    8.066110611e-01    3.029592335e-05    4.268158227e-05    0.000000000e+00    0.000000000e+00    0.000000000e+00    0.000000000e+00
      678500000   -4.924288392e-01    8.550152183e-01    2.706423402e-06    7.144175470e-06    0.000000000e+00    0.000000000e+00    0.000000000e+00    0.000000000e+00
      685750000   -3.884516954e-01    8.907607198e-01    2.610124648e-05   -5.555711687e-05    0.000000000e+00    0.000000000e+00    0.000000000e+00    0.000000000e+00
      693000000   -2.827458978e-01    9.144752622e-01   -5.961395800e-06    4.750676453e-06    0.000000000e+00    0.000000000e+00    0.000000000e+00    0.000000000e+00
      700250000   -1.752214134e-01    9.258515239e-01    5.087815225e-06   -9.286217391e-06    0.000000000e+00    0.000000000e+00    0.000000000e+00    0.000000000e+00
      707500000   -6.868202239e-02    9.266740084e-01   -2.600438893e-05   -9.310431778e-06    0.000000000e+00    0.000000000e+00    0.000000000e+00    0.000000000e+00
      714750000    3.806205839e-02    9.145072103e-01   -1.937244087e-05    1.080334187e-06    0.000000000e+00    0.000000000e+00    0.000000000e+00    0.000000000e+00
      722000000    1.374073476e-01    8.936102390e-01   -1.774914563e-05    7.562339306e-07    0.000000000e+00    0.000000000e+00    0.000000000e+00    0.000000000e+00
      729250000    2.382397652e-01    8.610902429e-01   -1.247227192e-05   -2.319458872e-05    0.000000000e+00    0.000000000e+00    0.000000000e+00    0.000000000e+00
      736500000    3.303698599e-01    8.209147453e-01    1.435261220e-05   -4.337076098e-05    0.000000000e+00    0.000000000e+00    0.000000000e+00    0.000000000e+00
      743750000    4.187856615e-01    7.714582682e-01    1.412630081e-05   -1.527182758e-05    0.000000000e+00    0.000000000e+00    0.000000000e+00    0.000000000e+00
      751000000    5.011797547e-01    7.126998901e-01   -2.036243677e-05    3.194902092e-05    0.000000000e+00    0.000000000e+00    0.000000000e+00    0.000000000e+00
      758250000    5.773546100e-01    6.469020844e-01   -2.700649202e-05    3.887154162e-05    0.000000000e+00    0.000000000e+00    0.000000000e+00    0.000000000e+00
      765500000    6.464614868e-01    5.754095316e-01   -2.056546509e-05    5.896203220e-06    0.000000000e+00    0.000000000e+00    0.000000000e+00    0.000000000e+00
      772750000    7.086072564e-01    4.948573411e-01    3.064796329e-05   -2.506561577e-05    0.000000000e+00    0.000000000e+00    0.000000000e+00    0.000000000e+00
      780000000    7.600552440e-01    4.120932519e-01    9.490177035e-07   -2.423208207e-05    0.000000000e+00    0.000000000e+00    0.000000000e+00    0.000000000e+00
      787250000    8.071151972e-01    3.198714256e-01   -1.405458897e-05   -1.851562411e-05    0.000000000e+00    0.000000000e+00    0.000000000e+00    0.000000000e+00
      794500000    8.435022831e-01    2.257111222e-01    3.889389336e-05   -1.005828381e-07    0.000000000e+00    0.000000000e+00    0.000000000e+00    0.000000000e+00
      801750000    8.699835539e-01    1.284672916e-01    4.821456969e-06    3.627594560e-05    0.000000000e+00    0.000000000e+00    0.000000000e+00    0.000000000e+00
      809000000    8.867691755e-01    2.613320015e-02   -3.185123205e-07   -1.081358641e-05    0.000000000e+00    0.000000000e+00    0.000000000e+00    0.000000000e+00
      816250000    8.933193684e-01   -7.666090876e-02    1.598522067e-05   -3.174506128e-05    0.000000000e+00    0.000000000e+00    0.000000000e+00    0.000000000e+00
      823500000    8.886274695e-01   -1.832982153e-01   -1.621805131e-05    8.532777429e-06    0.000000000e+00    0.000000000e+00    0.000000000e+00    0.000000000e+00
      830750000    8.728815317e-01   -2.873696089e-01    4.535540938e-07    2.798438072e-05    0.000000000e+00    0.000000000e+00    0.000000000e+00    0.000000000e+00
      838000000    8.449088335e-01   -3.937778771e-01   -4.322268069e-06   -1.182872802e-05    0.000000000e+00    0.000000000e+00    0.000000000e+00    0.000000000e+00
      845250000    8.064479828e-01   -4.939887822e-01   -2.664420754e-05   -1.055561006e-05    0.000000000e+00    0.000000000e+00    0.000000000e+00    0.000000000e+00
      852500000    7.532532811e-01   -5.937845111e-01    2.067349851e-05   -9.316019714e-06    0.000000000e+00    0.000000000e+00    0.000000000e+00    0.000000000e+00
      859750000    6.913343072e-01   -6.860951781e-01    4.589278251e-05    3.176741302e-06    0.000000000e+00    0.000000000e+00    0.000000000e+00    0.000000000e+00
      867000000    6.145341396e-01   -7.748835087e-01    3.514159471e-05   -3.189314157e-05    0.000000000e+00    0.000000000e+00    0.000000000e+00    0.000000000e+00
      874250000    5.291576982e-01   -8.518037796e-01    3.311876208e-05    3.391597420e-05    0.000000000e+00    0.000000000e+00    0.000000000e+00    0.000000000e+00
      881500000    4.296982288e-01   -9.209251404e-01   -1.467298716e-05   -1.722201705e-05    0.000000000e+00    0.000000000e+00    0.000000000e+00    0.000000000e+00
      888750000    3.245113194e-01   -9.758245349e-01    2.882257104e-05   -3.154575825e-05    0.000000000e+00    0.000000000e+00    0.000000000e+00    0.000000000e+00
      896000000    2.093923539e-01   -1.017633319e+00   -1.065619290e-05    6.223842502e-05    0.000000000e+00    0.000000000e+00    0.000000000e+00    0.000000000e+00
      903250000    9.006746858e-02   -1.045183539e+00    2.084393054e-05   -2.751126885e-06    0.000000000e+00    0.000000000e+00    0.000000000e+00    0.000000000e+00
      910500000   -3.533050790e-02   -1.055356979e+00   -1.300033182e-05    2.721697092e-05    0.000000000e+00    0.000000000e+00    0.000000000e+00    0.000000000e+00
      917750000   -1.595972031e-01   -1.050047040e+00    2.992711961e-05   -3.247521818e-06    0.000000000e+00    0.000000000e+00    0.000000000e+00    0.000000000e+00
      925000000   -2.809369266e-01   -1.027109504e+00    2.189911902e-05   -6.235204637e-06    0.000000000e+00    0.000000000e+00    0.000000000e+00    0.000000000e+00
      932250000   -4.010010958e-01   -9.867497683e-01    6.594695151e-06    1.931004226e-05    0.000000000e+00    0.000000000e+00    0.000000000e+00    0.000000000e+00
      939500000   -5.121800900e-01   -9.313682318e-01    2.648495138e-05    5.990825593e-05    0.000000000e+00    0.000000000e+00    0.000000000e+00    0.000000000e+00
      946750000   -6.127133369e-01   -8.623836040e-01    1.477077603e-05    5.532056093e-07    0.000000000e+00    0.000000000e+00    0.000000000e+00    0.000000000e+00
      954000000   -7.061586380e-01   -7.766192555e-01    9.566545486e-06   -2.432614565e-05    0.000000000e+00    0.000000000e+00    0.000000000e+00    0.000000000e+00
      961250000   -7.814224362e-01   -6.876105666e-01    3.511458635e-05    1.413095742e-05    0.000000000e+00    0.000000000e+00    0.000000000e+00    0.000000000e+00
      968500000   -8.461185098e-01   -5.859567523e-01    1.170299947e-05    1.534819603e-05    0.000000000e+00    0.000000000e+00    0.000000000e+00    0.000000000e+00
      975750000   -8.943563700e-01   -4.829753339e-01    1.866091043e-05    2.993270755e-06    0.000000000e+00    0.000000000e+00    0.000000000e+00    0.000000000e+00
      983000000   -9.293258190e-01   -3.724827766e-01   -7.037073374e-06   -2.905633301e-05    0.000000000e+00    0.000000000e+00    0.000000000e+00    0.000000000e+00
      990250000   -9.484211802e-01   -2.638588846e-01   -2.901069820e-06    3.558862954e-05    0.000000000e+00    0.000000000e+00    0.000000000e+00    0.000000000e+00
      997500000   -9.544363022e-01   -1.552787721e-01    1.224037260e-05   -2.362206578e-05    0.000000000e+00    0.000000000e+00    0.000000000e+00    0.000000000e+00
     1004750000   -9.475706816e-01   -5.007734150e-02    1.977197826e-05    5.454756320e-06    0.000000000e+00    0.000000000e+00    0.000000000e+00    0.000000000e+00
     1012000000   -9.294743538e-01    5.146479234e-02   -1.311860979e-05   -2.285372466e-05    0.000000000e+00    0.000000000e+00    0.000000000e+00    0.000000000e+00
     1019250000   -9.003148675e-01    1.463967562e-01    5.733594298e-05    1.724343747e-05    0.000000000e+00    0.000000000e+00    0.000000000e+00    0.000000000e+00
     1026500000   -8.626952767e-01    2.366746068e-01   -6.437581033e-05   -1.253746450e-05    0.000000000e+00    0.000000000e+00    0.000000000e+00    0.000000000e+00
     1033750000   -8.168959022e-01    3.180871904e-01   -1.341197640e-05    7.674098015e-07    0.000000000e+00    0.000000000e+00    0.000000000e+00    0.000000000e+00
     1041000000   -7.630851865e-01    3.951810598e-01    2.040900290e-05   -2.300366759e-05    0.000000000e+00    0.000000000e+00    0.000000000e+00    0.000000000e+00
