! NanoVNA-App
! Date: 2024-06-25 16:10:58
! Start: 200MHz Stop: 6GHz Points: 801
! S-Parameter data: F S11 S21 S12 S22
# Hz S RI R 50
!     Frequency           S11_Real           S11_Imag           S21_Real           S21_Imag           S12_Real           S12_Imag           S22_Real           S22_Imag
      200000000   -9.983103871e-01   -1.184573770e-01   -2.459716052e-05    2.609845251e-05    0.000000000e+00    0.000000000e+00    0.000000000e+00    0.000000000e+00
      207250000   -1.010037899e+00   -1.935196854e-02   -1.299381256e-05    2.431403846e-05    0.000000000e+00    0.000000000e+00    0.000000000e+00    0.000000000e+00
      214500000   -1.011956930e+00    8.146813512e-02    1.304131001e-05   -2.020038664e-06    0.000000000e+00    0.000000000e+00    0.000000000e+00    0.000000000e+00
      221750000   -1.002318501e+00    1.847043186e-01    5.166698247e-05   -1.773610711e-05    0.000000000e+00    0.000000000e+00    0.000000000e+00    0.000000000e+00
      229000000   -9.827221036e-01    2.875511050e-01    1.118145883e-05    2.217851579e-05    0.000000000e+00    0.000000000e+00    0.000000000e+00    0.000000000e+00
      236250000   -9.505659938e-01    3.902184367e-01    1.245830208e-05    4.322081804e-05    0.000000000e+00    0.000000000e+00    0.000000000e+00    0.000000000e+00
      243500000   -9.074763060e-01    4.900483787e-01    1.901481301e-05   -3.621913493e-06    0.000000000e+00    0.000000000e+00    0.000000000e+00    0.000000000e+00
      250750000   -8.516027331e-01    5.869545341e-01    2.408400178e-06    2.687796950e-05    0.000000000e+00    0.000000000e+00    0.000000000e+00    0.000000000e+00
      258000000   -7.838813663e-01    6.776750088e-01   -1.353211701e-05    9.366311133e-06    0.000000000e+00    0.000000000e+00    0.000000000e+00    0.000000000e+00
      265250000   -7.047555447e-01    7.621253133e-01   -2.935342491e-05   -9.748153389e-06    0.000000000e+00    0.000000000e+00    0.000000000e+00    0.000000000e+00
      272500000   -6.137315035e-01    8.373184800e-01    3.925524652e-06   -4.217959940e-06    0.000000000e+00    0.000000000e+00    0.000000000e+00    0.000000000e+00
      279750000   -5.134654641e-01    9.020955563e-01   -3.806315362e-06    1.041684300e-05    0.000000000e+00    0.000000000e+00    0.000000000e+00    0.000000000e+00
      287000000   -4.026185870e-01    9.542000890e-01   -1.314748079e-05    1.202337444e-06    0.000000000e+00    0.000000000e+00    0.000000000e+00    0.000000000e+00
      294250000   -2.857077718e-01    9.923167229e-01   -1.907348633e-05    2.660322934e-05    0.000000000e+00    0.000000000e+00    0.000000000e+00    0.000000000e+00
      301500000   -1.636874378e-01    1.015720725e+00    1.785997301e-05   -2.929009497e-06    0.000000000e+00    0.000000000e+00    0.000000000e+00    0.000000000e+00
      308750000   -3.780928999e-02    1.022977710e+00    3.325007856e-05   -9.547919035e-06    0.000000000e+00    0.000000000e+00    0.000000000e+00    0.000000000e+00
      316000000    8.837204427e-02    1.014686108e+00   -2.129748464e-05    1.258589327e-05    0.000000000e+00    0.000000000e+00    0.000000000e+00    0.000000000e+00
      323250000    2.127155811e-01    9.904598594e-01   -6.184913218e-06    7.558614016e-06    0.000000000e+00    0.000000000e+00    0.000000000e+00    0.000000000e+00
      330500000    3.330632746e-01    9.497413039e-01   -3.288686275e-05   -3.869645298e-06    0.000000000e+00    0.000000000e+00    0.000000000e+00    0.000000000e+00
      337750000    4.471728206e-01    8.936602473e-01    5.804933608e-06   -2.537202090e-05    0.000000000e+00    0.000000000e+00    0.000000000e+00    0.000000000e+00
      345000000    5.523533821e-01    8.247910142e-01    1.066271216e-05   -3.111548722e-06    0.000000000e+00    0.000000000e+00    0.000000000e+00    0.000000000e+00
      352250000    6.478506327e-01    7.428803444e-01   -3.111828119e-05   -4.333443940e-06    0.000000000e+00    0.000000000e+00    0.000000000e+00    0.000000000e+00
      359500000    7.314631939e-01    6.508712769e-01   -1.382082701e-06   -8.878298104e-06    0.000000000e+00    0.000000000e+00    0.000000000e+00    0.000000000e+00
      366750000    8.025553226e-01    5.493748188e-01   -1.218263060e-05    3.899540752e-05    0.000000000e+00    0.000000000e+00    0.000000000e+00    0.000000000e+00
      374000000    8.604617715e-01    4.416606724e-01    2.985261381e-05    2.568680793e-05    0.000000000e+00    0.000000000e+00    0.000000000e+00    0.000000000e+00
      381250000    9.042475820e-01    3.279046416e-01   -5.375593901e-06    2.840999514e-05    0.000000000e+00    0.000000000e+00    0.000000000e+00    0.000000000e+00
      388500000    9.344458580e-01    2.124709785e-01    6.775371730e-06    5.913898349e-07    0.000000000e+00    0.000000000e+00    0.000000000e+00    0.000000000e+00
      395750000    9.516293406e-01    9.528034180e-02   -2.215895802e-05    3.188755363e-05    0.000000000e+00    0.000000000e+00    0.000000000e+00    0.000000000e+00
      403000000    9.541671872e-01   -2.217710577e-02    3.058463335e-05   -3.447942436e-05    0.000000000e+00    0.000000000e+00    0.000000000e+00    0.000000000e+00
      410250000    9.446334839e-01   -1.369247437e-01   -3.649853170e-06   -2.274196595e-05    0.000000000e+00    0.000000000e+00    0.000000000e+00    0.000000000e+00
      417500000    9.223378897e-01   -2.495130748e-01    2.055149525e-05    1.810770482e-05    0.000000000e+00    0.000000000e+00    0.000000000e+00    0.000000000e+00
      424750000    8.889479637e-01   -3.576265574e-01    9.926967323e-06   -6.744638085e-06    0.000000000e+00    0.000000000e+00    0.000000000e+00    0.000000000e+00
      432000000    8.435492516e-01   -4.615533948e-01    1.456774771e-05   -4.207622260e-05    0.000000000e+00    0.000000000e+00    0.000000000e+00    0.000000000e+00
      439250000    7.891908288e-01   -5.579971671e-01   -2.320855856e-06   -1.868233085e-06    0.000000000e+00    0.000000000e+00    0.000000000e+00    0.000000000e+00
      446500000    7.249376178e-01   -6.474249959e-01   -3.244820982e-05   -1.544505358e-05    0.000000000e+00    0.000000000e+00    0.000000000e+00    0.000000000e+00
      453750000    6.515170932e-01   -7.303639054e-01   -1.237355173e-05    2.689938992e-05    0.000000000e+00    0.000000000e+00    0.000000000e+00    0.000000000e+00
      461000000    5.705882907e-01   -8.037115335e-01    4.593282938e-06    2.718809992e-05    0.000000000e+00    0.000000000e+00    0.000000000e+00    0.000000000e+00
      468250000    4.830872715e-01   -8.690457940e-01   -6.029382348e-06   -4.329718649e-06    0.000000000e+00    0.000000000e+00    0.000000000e+00    0.000000000e+00
      475500000    3.878222704e-01   -9.252134562e-01   -3.359746188e-05    5.858018994e-07    0.000000000e+00    0.000000000e+00    0.000000000e+00    0.000000000e+00
      482750000    2.894890606e-01   -9.707641006e-01    3.501772881e-06    1.150649041e-05    0.000000000e+00    0.000000000e+00    0.000000000e+00    0.000000000e+00
      490000000    1.854845434e-01   -1.006114006e+00   -4.278495908e-06    2.857577056e-05    0.000000000e+00    0.000000000e+00    0.000000000e+00    0.000000000e+00
      497250000    7.793422043e-02   -1.030663610e+00    7.569789886e-06    2.697110176e-06    0.000000000e+00    0.000000000e+00    0.000000000e+00    0.000000000e+00
      504500000   -3.228607401e-02   -1.042426229e+00    2.640392631e-05   -6.091222167e-05    0.000000000e+00    0.000000000e+00    0.000000000e+00    0.000000000e+00
      511750000   -1.433826983e-01   -1.044218898e+00   -3.267079592e-06    1.773331314e-05    0.000000000e+00    0.000000000e+00    0.000000000e+00    0.000000000e+00
      519000000   -2.548269928e-01   -1.032951951e+00   -2.307910472e-05   -2.994108945e-05    0.000000000e+00    0.000000000e+00    0.000000000e+00    0.000000000e+00
      526250000   -3.659640253e-01   -1.008720279e+00    9.294599295e-07    7.858499885e-06    0.000000000e+00    0.000000000e+00    0.000000000e+00    0.000000000e+00
      533500000   -4.732636213e-01   -9.730680585e-01    9.499490261e-08    2.196338028e-05    0.000000000e+00    0.000000000e+00    0.000000000e+00    0.000000000e+00
      540750000   -5.771453381e-01   -9.247614145e-01    5.657132715e-05    7.941387594e-06    0.000000000e+00    0.000000000e+00    0.000000000e+00    0.000000000e+00
      548000000   -6.765244007e-01   -8.659080267e-01    8.703209460e-06   -4.982575774e-06    0.000000000e+00    0.000000000e+00    0.000000000e+00    0.000000000e+00
      555250000   -7.676537633e-01   -7.926695943e-01    3.573391587e-05    2.484209836e-05    0.000000000e+00    0.000000000e+00    0.000000000e+00    0.000000000e+00
      562500000   -8.507469296e-01   -7.107939720e-01   -2.329889685e-05    2.785027027e-05    0.000000000e+00    0.000000000e+00    0.000000000e+00    0.000000000e+00
      569750000   -9.245353937e-01   -6.177424788e-01    1.970399171e-05    5.851592869e-05    0.000000000e+00    0.000000000e+00    0.000000000e+00    0.000000000e+00
      577000000   -9.865533113e-01   -5.171406269e-01   -2.511404455e-05    4.017353058e-05    0.000000000e+00    0.000000000e+00    0.000000000e+00    0.000000000e+00
      584250000   -1.036359310e+00   -4.088701308e-01    4.176516086e-05    1.847930253e-05    0.000000000e+00    0.000000000e+00    0.000000000e+00    0.000000000e+00
      591500000   -1.072892547e+00   -2.941160798e-01    1.999922097e-05   -3.863126040e-06    0.000000000e+00    0.000000000e+00    0.000000000e+00    0.000000000e+00
      598750000   -1.095918298e+00   -1.761555970e-01   -2.680066973e-05    7.664784789e-06    0.000000000e+00    0.000000000e+00    0.000000000e+00    0.000000000e+00
      606000000   -1.103440762e+00   -5.677210167e-02    3.578234464e-05   -2.358015627e-05    0.000000000e+00    0.000000000e+00    0.000000000e+00    0.000000000e+00
      613250000   -1.096947432e+00    6.320421398e-02   -1.349765807e-05    2.244487405e-05    0.000000000e+00    0.000000000e+00    0.000000000e+00    0.000000000e+00
      620500000   -1.075652242e+00    1.799846143e-01   -1.812353730e-05    5.572102964e-06    0.000000000e+00    0.000000000e+00    0.000000000e+00    0.000000000e+00
      627750000   -1.040966868e+00    2.948349714e-01    3.368128091e-05   -2.217013389e-05    0.000000000e+00    0.000000000e+00    0.000000000e+00    0.000000000e+00
      635000000   -9.926819205e-01    4.019446373e-01    3.804452717e-06    9.746290743e-06    0.000000000e+00    0.000000000e+00    0.000000000e+00    0.000000000e+00
      642250000   -9.310293794e-01    5.034446716e-01   -2.561975271e-05    3.025867045e-05    0.000000000e+00    0.000000000e+00    0.000000000e+00    0.000000000e+00
      649500000   -8.596366048e-01    5.943353176e-01    2.403371036e-05   -4.585646093e-05    0.000000000e+00    0.000000000e+00    0.000000000e+00    0.000000000e+00
      656750000   -7.786924243e-01    6.766254902e-01   -3.550574183e-05   -8.096918464e-06    0.000000000e+00    0.000000000e+00    0.000000000e+00    0.000000000e+00
      664000000   -6.896212697e-01    7.477633357e-01   -5.007348955e-05   -2.091564238e-05    0.000000000e+00    0.000000000e+00    0.000000000e+00    0.000000000e+00
      671250000   -5.942684412e-01    8.067792058e-01    1.060403883e-05    1.005176455e-05    0.000000000e+00    0.000000000e+00    0.000000000e+00    0.000000000e+00
      678500000   -4.919081330e-01    8.548640609e-01    1.774448901e-05    1.067016274e-05    0.000000000e+00    0.000000000e+00    0.000000000e+00    0.000000000e+00
      685750000   -3.882254958e-01    8.905678391e-01    2.354383469e-06   -2.903398126e-05    0.000000000e+00    0.000000000e+00    0.000000000e+00    0.000000000e+00
      693000000   -2.814828157e-01    9.145930409e-01    7.162056863e-05   -3.915000707e-05    0.000000000e+00    0.000000000e+00    0.000000000e+00    0.000000000e+00
      700250000   -1.748076379e-01    9.260815978e-01   -4.945788532e-05   -5.114823580e-06    0.000000000e+00    0.000000000e+00    0.000000000e+00    0.000000000e+00
      707500000   -6.935904175e-02    9.255824089e-01    7.949769497e-06    1.748371869e-05    0.000000000e+00    0.000000000e+00    0.000000000e+00    0.000000000e+00
      714750000    3.650453314e-02    9.155066013e-01   -1.351349056e-05    4.522129893e-05    0.000000000e+00    0.000000000e+00    0.000000000e+00    0.000000000e+00
      722000000    1.388090104e-01    8.932173848e-01   -1.026503742e-05    5.182810128e-06    0.000000000e+00    0.000000000e+00    0.000000000e+00    0.000000000e+00
      729250000    2.361456007e-01    8.620987535e-01    4.878267646e-06   -1.049786806e-05    0.000000000e+00    0.000000000e+00    0.000000000e+00    0.000000000e+00
      736500000    3.302513659e-01    8.211297393e-01    3.059767187e-05   -1.894682646e-05    0.000000000e+00    0.000000000e+00    0.000000000e+00    0.000000000e+00
      743750000    4.187310040e-01    7.708226442e-01    2.323929220e-05   -5.516223609e-06    0.000000000e+00    0.000000000e+00    0.000000000e+00    0.000000000e+00
      751000000    5.006864071e-01    7.136552930e-01    3.663077950e-05   -1.973938197e-05    0.000000000e+00    0.000000000e+00    0.000000000e+00    0.000000000e+00
      758250000    5.769200921e-01    6.472683549e-01   -1.850072294e-05    8.012168109e-06    0.000000000e+00    0.000000000e+00    0.000000000e+00    0.000000000e+00
      765500000    6.465514302e-01    5.750252008e-01   -3.118999302e-05    2.889428288e-05    0.000000000e+00    0.000000000e+00    0.000000000e+00    0.000000000e+00
      772750000    7.084327340e-01    4.945337176e-01   -9.421259165e-06    2.708844841e-05    0.000000000e+00    0.000000000e+00    0.000000000e+00    0.000000000e+00
      780000000    7.606965899e-01    4.111201465e-01   -2.747122198e-05    6.661750376e-06    0.000000000e+00    0.000000000e+00    0.000000000e+00    0.000000000e+00
      787250000    8.074067235e-01    3.198654056e-01    1.548137516e-05    3.105215728e-05    0.000000000e+00    0.000000000e+00    0.000000000e+00    0.000000000e+00
      794500000    8.428695798e-01    2.270711660e-01    4.073604941e-06    1.118518412e-05    0.000000000e+00    0.000000000e+00    0.000000000e+00    0.000000000e+00
      801750000    8.698362708e-01    1.276054233e-01    8.998438716e-06    1.465529203e-05    0.000000000e+00    0.000000000e+00    0.000000000e+00    0.000000000e+00
      809000000    8.868320584e-01    2.595295198e-02    5.582347512e-06    1.879967749e-05    0.000000000e+00    0.000000000e+00    0.000000000e+00    0.000000000e+00
      816250000    8.930259347e-01   -7.759321481e-02   -6.609596312e-06   -4.622433335e-05    0.000000000e+00    0.000000000e+00    0.000000000e+00    0.000000000e+00
      823500000    8.879886866e-01   -1.841149777e-01   -4.649162292e-05    1.206248999e-05    0.000000000e+00    0.000000000e+00    0.000000000e+00    0.000000000e+00
      830750000    8.730928898e-01   -2.883022428e-01    6.634742022e-06    2.353545278e-05    0.000000000e+00    0.000000000e+00    0.000000000e+00    0.000000000e+00
      838000000    8.457755446e-01   -3.924473822e-01   -1.502782106e-05   -5.468726158e-06    0.000000000e+00    0.000000000e+00    0.000000000e+00    0.000000000e+00
      845250000    8.058470488e-01   -4.951591790e-01    1.519173384e-05   -3.821961582e-05    0.000000000e+00    0.000000000e+00    0.000000000e+00    0.000000000e+00
      852500000    7.541038990e-01   -5.933326483e-01   -1.398380846e-05    9.724870324e-06    0.000000000e+00    0.000000000e+00    0.000000000e+00    0.000000000e+00
      859750000    6.907824874e-01   -6.864987612e-01    1.036562026e-05    2.616085112e-05    0.000000000e+00    0.000000000e+00    0.000000000e+00    0.000000000e+00
      867000000    6.141841412e-01   -7.745432258e-01    9.558163583e-06    1.545995474e-05    0.000000000e+00    0.000000000e+00    0.000000000e+00    0.000000000e+00
      874250000    5.292952657e-01   -8.526114821e-01    9.033828974e-06    1.210719347e-08    0.000000000e+00    0.000000000e+00    0.000000000e+00    0.000000000e+00
      881500000    4.299755991e-01   -9.211896658e-01   -6.190501153e-06   -2.732686698e-05    0.000000000e+00    0.000000000e+00    0.000000000e+00    0.000000000e+00
      888750000    3.257715404e-01   -9.754455686e-01    1.301430166e-05   -4.125665873e-05    0.000000000e+00    0.000000000e+00    0.000000000e+00    0.000000000e+00
      896000000    2.095536888e-01   -1.017755032e+00   -2.849381417e-05   -1.430511475e-06    0.000000000e+00    0.000000000e+00    0.000000000e+00    0.000000000e+00
      903250000    9.123772383e-02   -1.044950485e+00    3.039930016e-05    4.776101559e-05    0.000000000e+00    0.000000000e+00    0.000000000e+00    0.000000000e+00
      910500000   -3.464152291e-02   -1.055591226e+00   -1.772586256e-05   -1.297052950e-05    0.000000000e+00    0.000000000e+00    0.000000000e+00    0.000000000e+00
      917750000   -1.588459760e-01   -1.050181150e+00   -4.647299647e-07   -1.437403262e-05    0.000000000e+00    0.000000000e+00    0.000000000e+00    0.000000000e+00
      925000000   -2.809314430e-01   -1.026720643e+00   -3.567896783e-06    1.844111830e-05    0.000000000e+00    0.000000000e+00    0.000000000e+00    0.000000000e+00
      932250000   -4.017910957e-01   -9.862192273e-01    3.110244870e-05    3.058649600e-05    0.000000000e+00    0.000000000e+00    0.000000000e+00    0.000000000e+00
      939500000   -5.121273994e-01   -9.316027164e-01    4.204642028e-05    7.857568562e-06    0.000000000e+00    0.000000000e+00    0.000000000e+00    0.000000000e+00
      946750000   -6.144055128e-01   -8.617029786e-01   -1.912377775e-05    2.934224904e-05    0.000000000e+00    0.000000000e+00    0.000000000e+00    0.000000000e+00
      954000000   -7.053713202e-01   -7.796982527e-01   -1.531653106e-05   -8.691102266e-06    0.000000000e+00    0.000000000e+00    0.000000000e+00    0.000000000e+00
      961250000   -7.816886902e-01   -6.878913045e-01   -3.703217953e-05    8.199363947e-06    0.000000000e+00    0.000000000e+00    0.000000000e+00    0.000000000e+00
      968500000   -8.467562199e-01   -5.865550637e-01   -5.927868187e-06   -5.221925676e-06    0.000000000e+00    0.000000000e+00    0.000000000e+00    0.000000000e+00
      975750000   -8.940421343e-01   -4.831718504e-01    5.681067705e-06   -1.324247569e-05    0.000000000e+00    0.000000000e+00    0.000000000e+00    0.000000000e+00
      983000000   -9.292449951e-01   -3.724137843e-01    1.242104918e-05    2.355221659e-05    0.000000000e+00    0.000000000e+00    0.000000000e+00    0.000000000e+00
      990250000   -9.485896230e-01   -2.643087506e-01    8.491985500e-05   -1.269299537e-05    0.000000000e+00    0.000000000e+00    0.000000000e+00    0.000000000e+00
      997500000   -9.549716711e-01   -1.559047699e-01    3.244262189e-05   -1.133419573e-05    0.000000000e+00    0.000000000e+00    0.000000000e+00    0.000000000e+00
     1004750000   -9.478785396e-01   -5.074527860e-02   -2.321228385e-05    3.582704812e-05    0.000000000e+00    0.000000000e+00    0.000000000e+00    0.000000000e+00
     1012000000   -9.295610785e-01    5.068339407e-02   -1.210067421e-05    1.579243690e-05    0.000000000e+00    0.000000000e+00    0.000000000e+00    0.000000000e+00
     1019250000   -9.010893703e-01    1.466280967e-01    8.308328688e-06   -3.377161920e-05    0.000000000e+00    0.000000000e+00    0.000000000e+00    0.000000000e+00
     1026500000   -8.625577092e-01    2.349938601e-01    5.139969289e-06    4.171393812e-05    0.000000000e+00    0.000000000e+00    0.000000000e+00    0.000000000e+00
     1033750000   -8.165792823e-01    3.189099729e-01    1.580454409e-06   -5.720183253e-06    0.000000000e+00    0.000000000e+00    0.000000000e+00    0.000000000e+00
     1041000000   -7.638966441e-01    3.944056928e-01   -3.397185355e-05   -2.630054951e-06    0.000000000e+00    0.000000000e+00    0.000000000e+00    0.000000000e+00
