! NanoVNA-App
! Date: 2024-06-25 16:11:01
! Start: 200MHz Stop: 6GHz Points: 801
! S-Parameter data: F S11 S21 S12 S22
# Hz S RI R 50
!     Frequency           S11_Real           S11_Imag           S21_Real           S21_Imag           S12_Real           S12_Imag           S22_Real           S22_Imag
      200000000   -9.981902838e-01   -1.183123216e-01    3.366731107e-06    4.318542778e-06    0.000000000e+00    0.000000000e+00    0.000000000e+00    0.000000000e+00
      207250000   -1.010220528e+00   -1.932071149e-02   -3.277231008e-05    9.322538972e-07    0.000000000e+00    0.000000000e+00    0.000000000e+00    0.000000000e+00
      214500000   -1.011765838e+00    8.211471140e-02    6.579793990e-06    2.108793706e-05    0.000000000e+00    0.000000000e+00    0.000000000e+00    0.000000000e+00
      221750000   -1.002176523e+00    1.844192892e-01   -2.797972411e-05   -5.494803190e-07    0.000000000e+00    0.000000000e+00    0.000000000e+00    0.000000000e+00
      229000000   -9.829959273e-01    2.874212861e-01    6.216578186e-06    1.607090235e-05    0.000000000e+00    0.000000000e+00    0.000000000e+00    0.000000000e+00
      236250000   -9.512308836e-01    3.903104067e-01   -9.397976100e-06   -4.467554390e-06    0.000000000e+00    0.000000000e+00    0.000000000e+00    0.000000000e+00
      243500000   -9.081416130e-01    4.898811877e-01   -1.461151987e-05   -4.823319614e-06    0.000000000e+00    0.000000000e+00    0.000000000e+00    0.000000000e+00
      250750000   -8.514763117e-01    5.869953036e-01    3.784056753e-05   -1.984648407e-06    0.000000000e+00    0.000000000e+00    0.000000000e+00    0.000000000e+00
      258000000   -7.840534449e-01    6.779494882e-01   -2.762861550e-05    1.127365977e-05    0.000000000e+00    0.000000000e+00    0.000000000e+00    0.000000000e+00
      265250000   -7.041286826e-01    7.617225051e-01   -5.898997188e-06    2.037175000e-05    0.000000000e+00    0.000000000e+00    0.000000000e+00    0.000000000e+00
      272500000   -6.131185293e-01    8.373795152e-01   -4.382710904e-05   -3.509689122e-05    0.000000000e+00    0.000000000e+00    0.000000000e+00    0.000000000e+00
      279750000   -5.125517249e-01    9.013468623e-01   -1.670233905e-05    7.815659046e-06    0.000000000e+00    0.000000000e+00    0.000000000e+00    0.000000000e+00
      287000000   -4.026603699e-01    9.542069435e-01   -6.259419024e-06   -3.455299884e-05    0.000000000e+00    0.000000000e+00    0.000000000e+00    0.000000000e+00
      294250000   -2.861117721e-01    9.924747944e-01    2.199783921e-05    3.191642463e-05    0.000000000e+00    0.000000000e+00    0.000000000e+00    0.000000000e+00
      301500000   -1.629148573e-01    1.015531898e+00    1.355446875e-05   -2.140924335e-05    0.000000000e+00    0.000000000e+00    0.000000000e+00    0.000000000e+00
      308750000   -3.821685538e-02    1.024216652e+00    9.700655937e-06   -2.781022340e-05    0.000000000e+00    0.000000000e+00    0.000000000e+00    0.000000000e+00
      316000000    8.814968914e-02    1.015154004e+00    2.172589302e-05   -1.181382686e-05    0.000000000e+00    0.000000000e+00    0.000000000e+00    0.000000000e+00
      323250000    2.125159055e-01    9.905563593e-01   -5.194917321e-06   -2.058222890e-07    0.000000000e+00    0.000000000e+00    0.000000000e+00    0.000000000e+00
      330500000    3.328844905e-01    9.497759938e-01   -1.394841820e-05    2.644117922e-05    0.000000000e+00    0.000000000e+00    0.000000000e+00    0.000000000e+00
      337750000    4.464591742e-01    8.941623569e-01    4.105456173e-05    5.840323865e-06    0.000000000e+00    0.000000000e+00    0.000000000e+00    0.000000000e+00
      345000000    5.525621772e-01    8.241456151e-01   -4.851166159e-05   -4.563480616e-06    0.000000000e+00    0.000000000e+00    0.000000000e+00    0.000000000e+00
      352250000    6.476382613e-01    7.429525256e-01    2.392940223e-05    1.736078411e-05    0.000000000e+00    0.000000000e+00    0.000000000e+00    0.000000000e+00
      359500000    7.313321829e-01    6.499441862e-01   -2.453941852e-05   -4.516914487e-06    0.000000000e+00    0.000000000e+00    0.000000000e+00    0.000000000e+00
      366750000    8.026725054e-01    5.492146611e-01   -2.392008901e-05    2.827774733e-05    0.000000000e+00    0.000000000e+00    0.000000000e+00    0.000000000e+00
      374000000    8.603720069e-01    4.418173432e-01    1.396983862e-05   -8.026137948e-06    0.000000000e+00    0.000000000e+00    0.000000000e+00    0.000000000e+00
      381250000    9.051173329e-01    3.285470605e-01   -1.947395504e-06    3.626570106e-06    0.000000000e+00    0.000000000e+00    0.000000000e+00    0.000000000e+00
      388500000    9.347730875e-01    2.120471001e-01    2.170167863e-05   -4.156120121e-05    0.000000000e+00    0.000000000e+00    0.000000000e+00    0.000000000e+00
      395750000    9.514783621e-01    9.523524344e-02   -1.166295260e-05   -2.105254680e-05    0.000000000e+00    0.000000000e+00    0.000000000e+00    0.000000000e+00
      403000000    9.545376301e-01   -2.163003199e-02    1.176446676e-05   -6.794556975e-05    0.000000000e+00    0.000000000e+00    0.000000000e+00    0.000000000e+00
      410250000    9.445692301e-01   -1.372662485e-01    5.434080958e-05   -1.561082900e-05    0.000000000e+00    0.000000000e+00    0.000000000e+00    0.000000000e+00
      417500000    9.227370024e-01   -2.489680797e-01   -3.364868462e-06    7.893890142e-06    0.000000000e+00    0.000000000e+00    0.000000000e+00    0.000000000e+00
      424750000    8.885393143e-01   -3.582369685e-01    4.524923861e-05    9.072013199e-06    0.000000000e+00    0.000000000e+00    0.000000000e+00    0.000000000e+00
      432000000    8.443568945e-01   -4.607785940e-01    4.503875971e-06   -1.081451774e-05    0.000000000e+00    0.000000000e+00    0.000000000e+00    0.000000000e+00
      439250000    7.893827558e-01   -5.578128099e-01    3.550015390e-05    3.121886402e-05    0.000000000e+00    0.000000000e+00    0.000000000e+00    0.000000000e+00
      446500000    7.253208160e-01   -6.471706629e-01   -1.979060471e-06    9.154900908e-07    0.000000000e+00    0.000000000e+00    0.000000000e+00    0.000000000e+00
      453750000    6.507579684e-01   -7.307090759e-01    1.392327249e-06   -7.275491953e-06    0.000000000e+00    0.000000000e+00    0.000000000e+00    0.000000000e+00
      461000000    5.704285502e-01   -8.044239879e-01    3.101583570e-05    1.999922097e-05    0.000000000e+00    0.000000000e+00    0.000000000e+00    0.000000000e+00
      468250000    4.829729497e-01   -8.691630960e-01    2.458691597e-07    8.167698979e-07    0.000000000e+00    0.000000000e+00    0.000000000e+00    0.000000000e+00
      475500000    3.885276616e-01   -9.252213836e-01    8.977949619e-06    1.780688763e-06    0.000000000e+00    0.000000000e+00    0.000000000e+00    0.000000000e+00
      482750000    2.886268198e-01   -9.709625840e-01    3.334041685e-05    2.394430339e-06    0.000000000e+00    0.000000000e+00    0.000000000e+00    0.000000000e+00
      490000000    1.850617975e-01   -1.006098628e+00    6.795860827e-06   -1.423712820e-05    0.000000000e+00    0.000000000e+00    0.000000000e+00    0.000000000e+00
      497250000    7.803294808e-02   -1.030344367e+00    1.391768456e-05    2.582091838e-05    0.000000000e+00    0.000000000e+00    0.000000000e+00    0.000000000e+00
      504500000   -3.217644989e-02   -1.043165088e+00    1.188647002e-05    2.425815910e-05    0.000000000e+00    0.000000000e+00    0.000000000e+00    0.000000000e+00
      511750000   -1.430760920e-01   -1.044351339e+00    2.535991371e-06    3.613531590e-06    0.000000000e+00    0.000000000e+00    0.000000000e+00    0.000000000e+00
      519000000   -2.548361421e-01   -1.033023119e+00    4.325993359e-06   -2.022087574e-05    0.000000000e+00    0.000000000e+00    0.000000000e+00    0.000000000e+00
      526250000   -3.654371798e-01   -1.009164691e+00   -2.518575639e-05    4.153698683e-06    0.000000000e+00    0.000000000e+00    0.000000000e+00    0.000000000e+00
      533500000   -4.737242460e-01   -9.732579589e-01    1.548975706e-05   -2.336688340e-06    0.000000000e+00    0.000000000e+00    0.000000000e+00    0.000000000e+00
      540750000   -5.770936608e-01   -9.247888327e-01   -1.421198249e-05   -1.438707113e-05    0.000000000e+00    0.000000000e+00    0.000000000e+00    0.000000000e+00
      548000000   -6.763288975e-01   -8.652116656e-01    1.087132841e-05   -2.030283213e-05    0.000000000e+00    0.000000000e+00    0.000000000e+00    0.000000000e+00
      555250000   -7.682069540e-01   -7.930402756e-01   -8.936971426e-06    1.621432602e-06    0.000000000e+00    0.000000000e+00    0.000000000e+00    0.000000000e+00
      562500000   -8.508955836e-01   -7.107307911e-01   -1.269299537e-05    3.296602517e-05    0.000000000e+00    0.000000000e+00    0.000000000e+00    0.000000000e+00
      569750000   -9.240819216e-01   -6.186391115e-01   -2.416688949e-05   -3.230758011e-06    0.000000000e+00    0.000000000e+00    0.000000000e+00    0.000000000e+00
      577000000   -9.865779281e-01   -5.170407891e-01   -8.300878108e-06   -3.690086305e-05    0.000000000e+00    0.000000000e+00    0.000000000e+00    0.000000000e+00
      584250000   -1.036578178e+00   -4.074102640e-01   -3.765337169e-06   -3.024004400e-06    0.000000000e+00    0.000000000e+00    0.000000000e+00    0.000000000e+00
      591500000   -1.073180914e+00   -2.959553897e-01   -1.027528197e-05    5.224347115e-05    0.000000000e+00    0.000000000e+00    0.000000000e+00    0.000000000e+00
      598750000   -1.095891595e+00   -1.760361791e-01    3.173761070e-05   -3.567896783e-05    0.000000000e+00    0.000000000e+00    0.000000000e+00    0.000000000e+00
      606000000   -1.103798509e+00   -5.697154626e-02    2.034939826e-06   -8.743256330e-06    0.000000000e+00    0.000000000e+00    0.000000000e+00    0.000000000e+00
      613250000   -1.096890211e+00    6.202052534e-02    3.385636955e-05   -2.135057002e-05    0.000000000e+00    0.000000000e+00    0.000000000e+00    0.000000000e+00
      620500000   -1.076074958e+00    1.809918880e-01   -7.981713861e-05    2.991873771e-05    0.000000000e+00    0.000000000e+00    0.000000000e+00    0.000000000e+00
      627750000   -1.040631413e+00    2.952084541e-01   -4.413537681e-06   -6.940215826e-06    0.000000000e+00    0.000000000e+00    0.000000000e+00    0.000000000e+00
      635000000   -9.920637012e-01    4.022622705e-01    3.147218376e-05    3.969296813e-06    0.000000000e+00    0.000000000e+00    0.000000000e+00    0.000000000e+00
      642250000   -9.309668541e-01    5.035502911e-01   -1.671165228e-05   -1.232139766e-06    0.000000000e+00    0.000000000e+00    0.000000000e+00    0.000000000e+00
      649500000   -8.601489663e-01    5.941230655e-01    2.829357982e-05    1.645460725e-05    0.000000000e+00    0.000000000e+00    0.000000000e+00    0.000000000e+00
      656750000   -7.785281539e-01    6.764616370e-01    3.576371819e-05    1.315213740e-05    0.000000000e+00    0.000000000e+00    0.000000000e+00    0.000000000e+00
      664000000   -6.893988848e-01    7.475873828e-01   -2.830754966e-05   -3.557652235e-07    0.000000000e+00    0.000000000e+00    0.000000000e+00    0.000000000e+00
      671250000   -5.939519405e-01    8.071565628e-01    1.679826528e-05    1.577846706e-05    0.000000000e+00    0.000000000e+00    0.000000000e+00    0.000000000e+00
      678500000   -4.924725294e-01    8.551807404e-01    1.804437488e-05    3.075227141e-06    0.000000000e+00    0.000000000e+00    0.000000000e+00    0.000000000e+00
      685750000   -3.885036707e-01    8.907228708e-01   -6.861053407e-06    1.684296876e-05    0.000000000e+00    0.000000000e+00    0.000000000e+00    0.000000000e+00
      693000000   -2.811064422e-01    9.141077995e-01    2.129748464e-05    6.410945207e-05    0.000000000e+00    0.000000000e+00    0.000000000e+00    0.000000000e+00
      700250000   -1.758249700e-01    9.260601401e-01    1.865625381e-05   -2.742744982e-06    0.000000000e+00    0.000000000e+00    0.000000000e+00    0.000000000e+00
      707500000   -6.751658022e-02    9.258669615e-01   -2.898834646e-05   -8.983537555e-06    0.000000000e+00    0.000000000e+00    0.000000000e+00    0.000000000e+00
      714750000    3.718301654e-02    9.153644443e-01   -3.503356129e-05    3.139115870e-05    0.000000000e+00    0.000000000e+00    0.000000000e+00    0.000000000e+00
      722000000    1.380128711e-01    8.934147358e-01    5.504116416e-05   -7.413327694e-07    0.000000000e+00    0.000000000e+00    0.000000000e+00    0.000000000e+00
      729250000    2.375498712e-01    8.617910743e-01    7.365830243e-06   -1.227483153e-05    0.000000000e+00    0.000000000e+00    0.000000000e+00    0.000000000e+00
      736500000    3.303359747e-01    8.206586242e-01    6.826594472e-06    4.691071808e-06    0.000000000e+00    0.000000000e+00    0.000000000e+00    0.000000000e+00
      743750000    4.186578989e-01    7.714485526e-01   -1.073442400e-05    1.121312380e-06    0.000000000e+00    0.000000000e+00    0.000000000e+00    0.000000000e+00
      751000000    5.012916327e-01    7.130814195e-01   -2.260785550e-05   -3.443099558e-06    0.000000000e+00    0.000000000e+00    0.000000000e+00    0.000000000e+00
      758250000    5.768635273e-01    6.477888227e-01   -2.386979759e-06   -1.072045416e-05    0.000000000e+00    0.000000000e+00    0.000000000e+00    0.000000000e+00
      765500000    6.463204622e-01    5.750312805e-01   -2.158433199e-05    2.961419523e-05    0.000000000e+00    0.000000000e+00    0.000000000e+00    0.000000000e+00
      772750000    7.080789804e-01    4.953964353e-01   -5.802232772e-05   -3.283005208e-05    0.000000000e+00    0.000000000e+00    0.000000000e+00    0.000000000e+00
      780000000    7.606077790e-01    4.115366042e-01   -1.821387559e-05    2.063158900e-05    0.000000000e+00    0.000000000e+00    0.000000000e+00    0.000000000e+00
      787250000    8.069384098e-01    3.201126158e-01    1.257378608e-05   -1.745671034e-05    0.000000000e+00    0.000000000e+00    0.000000000e+00    0.000000000e+00
      794500000    8.430022001e-01    2.259795368e-01   -4.044547677e-05   -1.683086157e-05    0.000000000e+00    0.000000000e+00    0.000000000e+00    0.000000000e+00
      801750000    8.699396253e-01    1.273263842e-01    2.463534474e-05   -7.444992661e-06    0.000000000e+00    0.000000000e+00    0.000000000e+00    0.000000000e+00
      809000000    8.867677450e-01    2.642975561e-02    4.584901035e-06   -2.088397741e-05    0.000000000e+00    0.000000000e+00    0.000000000e+00    0.000000000e+00
      816250000    8.933227062e-01   -7.670809329e-02    1.152046025e-06   -1.205597073e-05    0.000000000e+00    0.000000000e+00    0.000000000e+00    0.000000000e+00
      823500000    8.889649510e-01   -1.832003742e-01    4.431232810e-06   -2.968311310e-05    0.000000000e+00    0.000000000e+00    0.000000000e+00    0.000000000e+00
      830750000    8.734626770e-01   -2.871777415e-01   -1.716427505e-06   -5.642324686e-05    0.000000000e+00    0.000000000e+00    0.000000000e+00    0.000000000e+00
      838000000    8.459399343e-01   -3.927487135e-01   -8.456408978e-07    9.788200259e-06    0.000000000e+00    0.000000000e+00    0.000000000e+00    0.000000000e+00
      845250000    8.060864210e-01   -4.949671626e-01   -6.071664393e-05    3.390014172e-07    0.000000000e+00    0.000000000e+00    0.000000000e+00    0.000000000e+00
      852500000    7.536185384e-01   -5.941357613e-01    5.886238068e-05    4.365947098e-05    0.000000000e+00    0.000000000e+00    0.000000000e+00    0.000000000e+00
      859750000    6.912603974e-01   -6.864219308e-01    1.648906618e-05    8.806586266e-06    0.000000000e+00    0.000000000e+00    0.000000000e+00    0.000000000e+00
      867000000    6.150459647e-01   -7.738021612e-01    1.041963696e-05   -1.083221287e-05    0.000000000e+00    0.000000000e+00    0.000000000e+00    0.000000000e+00
      874250000    5.287759900e-01   -8.521298170e-01   -3.040675074e-05    9.274110198e-06    0.000000000e+00    0.000000000e+00    0.000000000e+00    0.000000000e+00
      881500000    4.292721152e-01   -9.209840894e-01    2.813246101e-05    1.441687346e-05    0.000000000e+00    0.000000000e+00    0.000000000e+00    0.000000000e+00
      888750000    3.250259459e-01   -9.756984711e-01    2.658925951e-06   -3.319699317e-05    0.000000000e+00    0.000000000e+00    0.000000000e+00    0.000000000e+00
      896000000    2.094496787e-01   -1.018221378e+00    3.446545452e-05    9.955838323e-07    0.000000000e+00    0.000000000e+00    0.000000000e+00    0.000000000e+00
      903250000    9.069543332e-02   -1.045007229e+00   -4.661269486e-05    2.117641270e-05    0.000000000e+00    0.000000000e+00    0.000000000e+00    0.000000000e+00
      910500000   -3.530580550e-02   -1.055612922e+00    2.840626985e-05    1.308508217e-06    0.000000000e+00    0.000000000e+00    0.000000000e+00    0.000000000e+00
      917750000   -1.595702618e-01   -1.049610615e+00   -4.214234650e-06    3.858003765e-05    0.000000000e+00    0.000000000e+00    0.000000000e+00    0.000000000e+00
      925000000   -2.809720039e-01   -1.026553750e+00   -1.369416714e-05   -1.597218215e-06    0.000000000e+00    0.000000000e+00    0.000000000e+00    0.000000000e+00
      932250000   -4.032243490e-01   -9.856993556e-01    2.077780664e-06   -1.147389412e-06    0.000000000e+00    0.000000000e+00    0.000000000e+00    0.000000000e+00
      939500000   -5.123054385e-01   -9.315469861e-01    1.571141183e-06   -5.485489964e-07    0.000000000e+00    0.000000000e+00    0.000000000e+00    0.000000000e+00
      946750000   -6.136156321e-01   -8.617581725e-01   -7.042661309e-06    3.113411367e-06    0.000000000e+00    0.000000000e+00    0.000000000e+00    0.000000000e+00
      954000000   -7.042920589e-01   -7.787261009e-01    2.969428897e-05    3.371387720e-06    0.000000000e+00    0.000000000e+00    0.000000000e+00    0.000000000e+00
      961250000   -7.816059589e-01   -6.880794168e-01    1.405831426e-05    4.136003554e-06    0.000000000e+00    0.000000000e+00    0.000000000e+00    0.000000000e+00
      968500000   -8.462027907e-01   -5.866275430e-01   -2.423115075e-05   -9.234994650e-06    0.000000000e+00    0.000000000e+00    0.000000000e+00    0.000000000e+00
      975750000   -8.942892551e-01   -4.823662043e-01   -5.329214036e-05   -1.460220665e-05    0.000000000e+00    0.000000000e+00    0.000000000e+00    0.000000000e+00
      983000000   -9.289122820e-01   -3.742968142e-01    7.739290595e-06    2.574734390e-05    0.000000000e+00    0.000000000e+00    0.000000000e+00    0.000000000e+00
      990250000   -9.484989047e-01   -2.645398378e-01   -1.880433410e-05   -1.419149339e-05    0.000000000e+00    0.000000000e+00    0.000000000e+00    0.000000000e+00
      997500000   -9.546913505e-01   -1.552339941e-01   -1.400895417e-05   -1.487415284e-05    0.000000000e+00    0.000000000e+00    0.000000000e+00    0.000000000e+00
     1004750000   -9.472208023e-01   -5.110483989e-02   -4.721619189e-05    7.440336049e-06    0.000000000e+00    0.000000000e+00    0.000000000e+00    0.000000000e+00
     1012000000   -9.295759201e-01    5.118014663e-02   -2.019666135e-05    1.274142414e-05    0.000000000e+00    0.000000000e+00    0.000000000e+00    0.000000000e+00
     1019250000   -9.000099301e-01    1.472156197e-01   -2.009794116e-06   -2.646259964e-05    0.000000000e+00    0.000000000e+00    0.000000000e+00    0.000000000e+00
     1026500000   -8.620879650e-01    2.354743928e-01   -4.807487130e-06    4.786904901e-05    0.000000000e+00    0.000000000e+00    0.000000000e+00    0.000000000e+00
     1033750000   -8.164911866e-01    3.188966513e-01   -1.079030335e-05    4.400778562e-05    0.000000000e+00    0.000000000e+00    0.000000000e+00    0.000000000e+00
     1041000000   -7.638674974e-01    3.942337334e-01    1.620501280e-05    1.593958586e-05    0.000000000e+00    0.000000000e+00    0.000000000e+00    0.000000000e+00
