! NanoVNA-App
! Date: 2024-06-25 16:11:06
! Start: 200MHz Stop: 6GHz Points: 801
! S-Parameter data: F S11 S21 S12 S22
# Hz S RI R 50
!     Frequency           S11_Real           S11_Imag           S21_Real           S21_Imag           S12_Real           S12_Imag           S22_Real           S22_Imag
      200000000   -9.976277947e-01   -1.181968674e-01    1.396704465e-05   -2.286955714e-05    0.000000000e+00    0.000000000e+00    0.000000000e+00    0.000000000e+00
      207250000   -1.010032654e+00   -1.927580684e-02    5.724839866e-06    4.710629582e-06    0.000000000e+00    0.000000000e+00    0.000000000e+00    0.000000000e+00
      214500000   -1.011312485e+00    8.183194697e-02    5.131307989e-05    2.282205969e-05    0.000000000e+00    0.000000000e+00    0.000000000e+00    0.000000000e+00
      221750000   -1.003142238e+00    1.849169135e-01    1.446716487e-05   -2.644956112e-07    0.000000000e+00    0.000000000e+00    0.000000000e+00    0.000000000e+00
      229000000   -9.831549525e-01    2.879866064e-01    9.665265679e-06   -2.781860530e-05    0.000000000e+00    0.000000000e+00    0.000000000e+00    0.000000000e+00
      236250000   -9.514092207e-01    3.903338909e-01    1.211371273e-05   -2.223532647e-05    0.000000000e+00    0.000000000e+00    0.000000000e+00    0.000000000e+00
      243500000   -9.072474837e-01    4.904492199e-01    7.964670658e-06   -2.380833030e-05    0.000000000e+00    0.000000000e+00    0.000000000e+00    0.000000000e+00
      250750000   -8.516209126e-01    5.865585804e-01    1.415144652e-05   -4.066992551e-05    0.000000000e+00    0.000000000e+00    0.000000000e+00    0.000000000e+00
      258000000   -7.843616009e-01    6.783229709e-01   -1.056212932e-05    3.073364496e-08    0.000000000e+00    0.000000000e+00    0.000000000e+00    0.000000000e+00
      265250000   -7.044491172e-01    7.617027164e-01   -3.151595592e-06   -1.774076372e-05    0.000000000e+00    0.000000000e+00    0.000000000e+00    0.000000000e+00
      272500000   -6.128364205e-01    8.369325995e-01    1.877918839e-05   -7.079914212e-06    0.000000000e+00    0.000000000e+00    0.000000000e+00    0.000000000e+00
      279750000   -5.127978921e-01    9.011931419e-01    2.717599273e-05   -3.173947334e-05    0.000000000e+00    0.000000000e+00    0.000000000e+00    0.000000000e+00
      287000000   -4.026082456e-01    9.539948702e-01    4.474073648e-06   -3.955326974e-06    0.000000000e+00    0.000000000e+00    0.000000000e+00    0.000000000e+00
      294250000   -2.856935859e-01    9.923636317e-01   -3.025867045e-06   -2.418551594e-05    0.000000000e+00    0.000000000e+00    0.000000000e+00    0.000000000e+00
      301500000   -1.635942608e-01    1.015552998e+00    1.234933734e-05    3.556907177e-05    0.000000000e+00    0.000000000e+00    0.000000000e+00    0.000000000e+00
      308750000   -3.831736743e-02    1.024103045e+00   -1.103989780e-05    1.669581980e-05    0.000000000e+00    0.000000000e+00    0.000000000e+00    0.000000000e+00
      316000000    8.788212389e-02    1.014585257e+00   -4.856847227e-06    4.592351615e-06    0.000000000e+00    0.000000000e+00    0.000000000e+00    0.000000000e+00
      323250000    2.128871828e-01    9.904435277e-01   -3.425776958e-05    9.215436876e-06    0.000000000e+00    0.000000000e+00    0.000000000e+00    0.000000000e+00
      330500000    3.329484165e-01    9.497063160e-01   -5.092844367e-05    2.740509808e-05    0.000000000e+00    0.000000000e+00    0.000000000e+00    0.000000000e+00
      337750000    4.467524588e-01    8.936356902e-01    1.141708344e-05   -3.232527524e-05    0.000000000e+00    0.000000000e+00    0.000000000e+00    0.000000000e+00
      345000000    5.522865057e-01    8.245583773e-01    3.793276846e-06    2.101808786e-05    0.000000000e+00    0.000000000e+00    0.000000000e+00    0.000000000e+00
      352250000    6.476246715e-01    7.432461381e-01   -6.249174476e-07    2.056825906e-05    0.000000000e+00    0.000000000e+00    0.000000000e+00    0.000000000e+00
      359500000    7.313721180e-01    6.497656703e-01   -8.000992239e-06    1.801177859e-06    0.000000000e+00    0.000000000e+00    0.000000000e+00    0.000000000e+00
      366750000    8.026091456e-01    5.494247675e-01   -2.990476787e-06   -4.021450877e-06    0.000000000e+00    0.000000000e+00    0.000000000e+00    0.000000000e+00
      374000000    8.602941632e-01    4.412447214e-01   -2.667214721e-05   -1.542828977e-05    0.000000000e+00    0.000000000e+00    0.000000000e+00    0.000000000e+00
      381250000    9.045840502e-01    3.280070126e-01    2.575293183e-05    1.022592187e-06    0.000000000e+00    0.000000000e+00    0.000000000e+00    0.000000000e+00
      388500000    9.350203276e-01    2.126882672e-01    4.262011498e-05   -2.287328243e-05    0.000000000e+00    0.000000000e+00    0.000000000e+00    0.000000000e+00
      395750000    9.515596032e-01    9.550413489e-02    2.948567271e-05   -5.381926894e-05    0.000000000e+00    0.000000000e+00    0.000000000e+00    0.000000000e+00
      403000000    9.546659589e-01   -2.187584341e-02    5.021970719e-05    1.502223313e-05    0.000000000e+00    0.000000000e+00    0.000000000e+00    0.000000000e+00
      410250000    9.445039034e-01   -1.368165910e-01    4.228204489e-07   -2.519879490e-05    0.000000000e+00    0.000000000e+00    0.000000000e+00    0.000000000e+00
      417500000    9.229398370e-01   -2.492993176e-01   -4.550535232e-05    3.021769226e-05    0.000000000e+00    0.000000000e+00    0.000000000e+00    0.000000000e+00
      424750000    8.892464638e-01   -3.582373261e-01   -3.417022526e-06    3.396347165e-05    0.000000000e+00    0.000000000e+00    0.000000000e+00    0.000000000e+00
      432000000    8.433716893e-01   -4.612742960e-01   -3.852695227e-05   -2.122484148e-06    0.000000000e+00    0.000000000e+00    0.000000000e+00    0.000000000e+00
      439250000    7.890812755e-01   -5.579695702e-01   -3.845710307e-05   -4.612840712e-06    0.000000000e+00    0.000000000e+00    0.000000000e+00    0.000000000e+00
      446500000    7.252050042e-01   -6.478451490e-01    3.324914724e-05   -2.695247531e-05    0.000000000e+00    0.000000000e+00    0.000000000e+00    0.000000000e+00
      453750000    6.515784264e-01   -7.305129766e-01   -2.038665116e-06    2.070702612e-05    0.000000000e+00    0.000000000e+00    0.000000000e+00    0.000000000e+00
      461000000    5.706057549e-01   -8.047289848e-01   -1.350883394e-05    5.071982741e-06    0.000000000e+00    0.000000000e+00    0.000000000e+00    0.000000000e+00
      468250000    4.830191135e-01   -8.690065742e-01    1.290254295e-05    2.324953675e-05    0.000000000e+00    0.000000000e+00    0.000000000e+00    0.000000000e+00
      475500000    3.882397711e-01   -9.254313111e-01    1.710094512e-05   -2.146046609e-05    0.000000000e+00    0.000000000e+00    0.000000000e+00    0.000000000e+00
      482750000    2.894455791e-01   -9.708365202e-01   -4.879850894e-05    9.745359421e-06    0.000000000e+00    0.000000000e+00    0.000000000e+00    0.000000000e+00
      490000000    1.857055426e-01   -1.006099582e+00   -4.235655069e-06   -1.361407340e-05    0.000000000e+00    0.000000000e+00    0.000000000e+00    0.000000000e+00
      497250000    7.815706730e-02   -1.029992819e+00   -3.043562174e-06    2.125091851e-05    0.000000000e+00    0.000000000e+00    0.000000000e+00    0.000000000e+00
      504500000   -3.186728060e-02   -1.042272806e+00    2.243369818e-05    2.456270158e-05    0.000000000e+00    0.000000000e+00    0.000000000e+00    0.000000000e+00
      511750000   -1.431885958e-01   -1.044190764e+00   -2.232939005e-05    1.718569547e-05    0.000000000e+00    0.000000000e+00    0.000000000e+00    0.000000000e+00
      519000000   -2.551357746e-01   -1.032936335e+00    4.941597581e-06    3.664568067e-05    0.000000000e+00    0.000000000e+00    0.000000000e+00    0.000000000e+00
      526250000   -3.649491966e-01   -1.009500265e+00    2.869311720e-05    3.110058606e-05    0.000000000e+00    0.000000000e+00    0.000000000e+00    0.000000000e+00
      533500000   -4.735118747e-01   -9.731058478e-01    1.179613173e-05   -1.627486199e-05    0.000000000e+00    0.000000000e+00    0.000000000e+00    0.000000000e+00
      540750000   -5.778082013e-01   -9.245286584e-01   -3.082677722e-07    1.397542655e-05    0.000000000e+00    0.000000000e+00    0.000000000e+00    0.000000000e+00
      548000000   -6.760405302e-01   -8.662713170e-01   -1.260172576e-05   -2.635922283e-05    0.000000000e+00    0.000000000e+00    0.000000000e+00    0.000000000e+00
      555250000   -7.677995563e-01   -7.938713431e-01   -3.394111991e-05    3.055948764e-05    0.000000000e+00    0.000000000e+00    0.000000000e+00    0.000000000e+00
      562500000   -8.513415456e-01   -7.097625136e-01   -2.781860530e-06   -3.599468619e-05    0.000000000e+00    0.000000000e+00    0.000000000e+00    0.000000000e+00
      569750000   -9.238193631e-01   -6.188147068e-01   -3.399141133e-05    1.740269363e-05    0.000000000e+00    0.000000000e+00    0.000000000e+00    0.000000000e+00
      577000000   -9.868748188e-01   -5.173577666e-01   -1.255888492e-05   -2.269260585e-05    0.000000000e+00    0.000000000e+00    0.000000000e+00    0.000000000e+00
      584250000   -1.036477089e+00   -4.078319669e-01   -1.909211278e-05    5.325395614e-05    0.000000000e+00    0.000000000e+00    0.000000000e+00    0.000000000e+00
      591500000   -1.072490335e+00   -2.951551080e-01    2.990569919e-05    1.537706703e-05    0.000000000e+00    0.000000000e+00    0.000000000e+00    0.000000000e+00
      598750000   -1.096444726e+00   -1.762181669e-01   -5.853362381e-06    3.219582140e-05    0.000000000e+00    0.000000000e+00    0.000000000e+00    0.000000000e+00
      606000000   -1.103772163e+00   -5.685634166e-02   -8.757226169e-06    3.735534847e-06    0.000000000e+00    0.000000000e+00    0.000000000e+00    0.000000000e+00
      613250000   -1.096988320e+00    6.296034902e-02   -1.083407551e-05   -2.775900066e-05    0.000000000e+00    0.000000000e+00    0.000000000e+00    0.000000000e+00
      620500000   -1.076109648e+00    1.797996759e-01    1.294631511e-05   -3.366917372e-05    0.000000000e+00    0.000000000e+00    0.000000000e+00    0.000000000e+00
      627750000   -1.040743232e+00    2.950068712e-01    3.938563168e-05   -2.015754580e-05    0.000000000e+00    0.000000000e+00    0.000000000e+00    0.000000000e+00
      635000000   -9.927107692e-01    4.021500945e-01    2.552755177e-05   -1.002941281e-05    0.000000000e+00    0.000000000e+00    0.000000000e+00    0.000000000e+00
      642250000   -9.319573045e-01    5.028136969e-01   -3.607105464e-05    7.037352771e-05    0.000000000e+00    0.000000000e+00    0.000000000e+00    0.000000000e+00
      649500000   -8.597504497e-01    5.950716734e-01   -1.367367804e-05    2.249330282e-05    0.000000000e+00    0.000000000e+00    0.000000000e+00    0.000000000e+00
      656750000   -7.790088058e-01    6.764656901e-01    2.216827124e-05    2.772919834e-05    0.000000000e+00    0.000000000e+00    0.000000000e+00    0.000000000e+00
      664000000   -6.892845035e-01    7.479557991e-01   -1.134071499e-05   -8.407980204e-06    0.000000000e+00    0.000000000e+00    0.000000000e+00    0.000000000e+00
      671250000   -5.945547223e-01    8.065678477e-01    4.299916327e-06    1.942738891e-06    0.000000000e+00    0.000000000e+00    0.000000000e+00    0.000000000e+00
      678500000   -4.927674532e-01    8.554462790e-01   -2.830289304e-06   -2.065487206e-05    0.000000000e+00    0.000000000e+00    0.000000000e+00    0.000000000e+00
      685750000   -3.887374103e-01    8.908017874e-01    1.167971641e-05    9.943731129e-06    0.000000000e+00    0.000000000e+00    0.000000000e+00    0.000000000e+00
      693000000   -2.817398310e-01    9.140248299e-01    3.185123205e-07   -2.430472523e-05    0.000000000e+00    0.000000000e+00    0.000000000e+00    0.000000000e+00
      700250000   -1.748904437e-01    9.262442589e-01    1.803971827e-06   -4.079937935e-05    0.000000000e+00    0.000000000e+00    0.000000000e+00    0.000000000e+00
      707500000   -6.872501969e-02    9.263245463e-01    2.910289913e-05    2.266000956e-05    0.000000000e+00    0.000000000e+00    0.000000000e+00    0.000000000e+00
      714750000    3.733804449e-02    9.149081707e-01    5.913898349e-06    2.333428711e-05    0.000000000e+00    0.000000000e+00    0.000000000e+00    0.000000000e+00
      722000000    1.363832802e-01    8.934904337e-01   -3.231782466e-05   -1.147948205e-05    0.000000000e+00    0.000000000e+00    0.000000000e+00    0.000000000e+00
      729250000    2.371103168e-01    8.616997004e-01    8.083507419e-05    1.783017069e-05    0.000000000e+00    0.000000000e+00    0.000000000e+00    0.000000000e+00
      736500000    3.296394348e-01    8.208400607e-01    8.214265108e-06   -1.967698336e-05    0.000000000e+00    0.000000000e+00    0.000000000e+00    0.000000000e+00
      743750000    4.182227552e-01    7.711454034e-01    4.495121539e-05   -3.174878657e-06    0.000000000e+00    0.000000000e+00    0.000000000e+00    0.000000000e+00
      751000000    5.010146499e-01    7.133690715e-01    2.004206181e-05    6.387010217e-06    0.000000000e+00    0.000000000e+00    0.000000000e+00    0.000000000e+00
      758250000    5.769776106e-01    6.480175853e-01    1.263711601e-05   -4.071090370e-05    0.000000000e+00    0.000000000e+00    0.000000000e+00    0.000000000e+00
      765500000    6.461656690e-01    5.748648643e-01    2.990756184e-05   -3.494974226e-05    0.000000000e+00    0.000000000e+00    0.000000000e+00    0.000000000e+00
      772750000    7.084358931e-01    4.952498972e-01    2.802163363e-05   -2.272520214e-05    0.000000000e+00    0.000000000e+00    0.000000000e+00    0.000000000e+00
      780000000    7.605080009e-01    4.120781422e-01   -4.061032087e-05   -2.326443791e-05    0.000000000e+00    0.000000000e+00    0.000000000e+00    0.000000000e+00
      787250000    8.076471686e-01    3.208560944e-01    3.523472697e-05    1.659430563e-05    0.000000000e+00    0.000000000e+00    0.000000000e+00    0.000000000e+00
      794500000    8.430092335e-01    2.271021605e-01   -2.776086330e-05   -1.722201705e-05    0.000000000e+00    0.000000000e+00    0.000000000e+00    0.000000000e+00
      801750000    8.700974584e-01    1.273982227e-01    2.977252007e-05    2.120807767e-05    0.000000000e+00    0.000000000e+00    0.000000000e+00    0.000000000e+00
      809000000    8.868162632e-01    2.645735256e-02    4.229135811e-06   -4.740431905e-06    0.000000000e+00    0.000000000e+00    0.000000000e+00    0.000000000e+00
      816250000    8.932793140e-01   -7.660790533e-02    3.059580922e-05   -1.706741750e-05    0.000000000e+00    0.000000000e+00    0.000000000e+00    0.000000000e+00
      823500000    8.883381486e-01   -1.832925826e-01   -4.101451486e-05    1.971609890e-06    0.000000000e+00    0.000000000e+00    0.000000000e+00    0.000000000e+00
      830750000    8.721567988e-01   -2.885582149e-01    1.558102667e-05   -1.390650868e-05    0.000000000e+00    0.000000000e+00    0.000000000e+00    0.000000000e+00
      838000000    8.449129462e-01   -3.926771879e-01    6.873160601e-06    1.125130802e-05    0.000000000e+00    0.000000000e+00    0.000000000e+00    0.000000000e+00
      845250000    8.053190708e-01   -4.948474169e-01   -3.135483712e-05   -1.607090235e-05    0.000000000e+00    0.000000000e+00    0.000000000e+00    0.000000000e+00
      852500000    7.536392808e-01   -5.939710736e-01   -2.625677735e-05    3.338139504e-05    0.000000000e+00    0.000000000e+00    0.000000000e+00    0.000000000e+00
      859750000    6.909226179e-01   -6.871747971e-01   -1.598056406e-05    1.760385931e-05    0.000000000e+00    0.000000000e+00    0.000000000e+00    0.000000000e+00
      867000000    6.151000857e-01   -7.739250064e-01    2.544373274e-06    8.754432201e-08    0.000000000e+00    0.000000000e+00    0.000000000e+00    0.000000000e+00
      874250000    5.291437507e-01   -8.520302773e-01   -1.550652087e-05    1.301150769e-05    0.000000000e+00    0.000000000e+00    0.000000000e+00    0.000000000e+00
      881500000    4.295990467e-01   -9.210466743e-01    1.352466643e-05    2.165604383e-05    0.000000000e+00    0.000000000e+00    0.000000000e+00    0.000000000e+00
      888750000    3.248239458e-01   -9.753829837e-01   -4.683062434e-05   -9.508803487e-07    0.000000000e+00    0.000000000e+00    0.000000000e+00    0.000000000e+00
      896000000    2.099850476e-01   -1.018006206e+00    1.294445246e-05    1.081265509e-06    0.000000000e+00    0.000000000e+00    0.000000000e+00    0.000000000e+00
      903250000    8.999378234e-02   -1.045024753e+00   -1.270603389e-05   -4.614982754e-05    0.000000000e+00    0.000000000e+00    0.000000000e+00    0.000000000e+00
      910500000   -3.465963155e-02   -1.056077957e+00    1.678429544e-05   -1.100450754e-05    0.000000000e+00    0.000000000e+00    0.000000000e+00    0.000000000e+00
      917750000   -1.585041732e-01   -1.050231099e+00   -2.872850746e-05    2.306979150e-05    0.000000000e+00    0.000000000e+00    0.000000000e+00    0.000000000e+00
      925000000   -2.809647322e-01   -1.026781321e+00   -1.783855259e-05    2.783443779e-05    0.000000000e+00    0.000000000e+00    0.000000000e+00    0.000000000e+00
      932250000   -4.016315043e-01   -9.860632420e-01   -6.275903434e-05   -7.964670658e-06    0.000000000e+00    0.000000000e+00    0.000000000e+00    0.000000000e+00
      939500000   -5.122833848e-01   -9.317151904e-01   -1.741945744e-05   -2.578832209e-05    0.000000000e+00    0.000000000e+00    0.000000000e+00    0.000000000e+00
      946750000   -6.137208939e-01   -8.613443375e-01    2.296268940e-05   -1.252070069e-05    0.000000000e+00    0.000000000e+00    0.000000000e+00    0.000000000e+00
      954000000   -7.042757273e-01   -7.807103992e-01    2.356246114e-06   -8.790753782e-06    0.000000000e+00    0.000000000e+00    0.000000000e+00    0.000000000e+00
      961250000   -7.818876505e-01   -6.878610849e-01    2.235453576e-05   -1.861527562e-05    0.000000000e+00    0.000000000e+00    0.000000000e+00    0.000000000e+00
      968500000   -8.462240696e-01   -5.868628621e-01    7.791444659e-06    5.022715777e-05    0.000000000e+00    0.000000000e+00    0.000000000e+00    0.000000000e+00
      975750000   -8.940411806e-01   -4.821269512e-01   -9.916722775e-06    5.747377872e-05    0.000000000e+00    0.000000000e+00    0.000000000e+00    0.000000000e+00
      983000000   -9.294228554e-01   -3.734875619e-01    2.264976501e-05    2.786517143e-06    0.000000000e+00    0.000000000e+00    0.000000000e+00    0.000000000e+00
      990250000   -9.484653473e-01   -2.654115558e-01    3.261398524e-05   -2.164300531e-05    0.000000000e+00    0.000000000e+00    0.000000000e+00    0.000000000e+00
      997500000   -9.542961717e-01   -1.551061869e-01   -3.015808761e-05    3.718771040e-06    0.000000000e+00    0.000000000e+00    0.000000000e+00    0.000000000e+00
     1004750000   -9.478489757e-01   -5.111844465e-02    9.565614164e-06    2.477783710e-05    0.000000000e+00    0.000000000e+00    0.000000000e+00    0.000000000e+00
     1012000000   -9.293011427e-01    5.131992325e-02    2.718716860e-05   -3.220979124e-05    0.000000000e+00    0.000000000e+00    0.000000000e+00    0.000000000e+00
     1019250000   -9.006992579e-01    1.454728693e-01    2.068560570e-05   -3.117788583e-05    0.000000000e+00    0.000000000e+00    0.000000000e+00    0.000000000e+00
     1026500000   -8.630766869e-01    2.360073924e-01   -3.694277257e-05    4.237797111e-05    0.000000000e+00    0.000000000e+00    0.000000000e+00    0.000000000e+00
     1033750000   -8.164927363e-01    3.188842237e-01    1.758895814e-05   -1.891143620e-05    0.000000000e+00    0.000000000e+00    0.000000000e+00    0.000000000e+00
     1041000000   -7.645164132e-01    3.931959569e-01   -2.071727067e-05   -9.855255485e-06    0.000000000e+00    0.000000000e+00    0.000000000e+00    0.000000000e+00
