! NanoVNA-App
! Date: 2024-06-25 16:11:08
! Start: 200MHz Stop: 6GHz Points: 801
! S-Parameter data: F S11 S21 S12 S22
# Hz S RI R 50
!     Frequency           S11_Real           S11_Imag           S21_Real           S21_Imag           S12_Real           S12_Imag           S22_Real           S22_Imag
      200000000   -9.986512661e-01   -1.185378805e-01    2.407468855e-06   -6.742775440e-06    0.000000000e+00    0.000000000e+00    0.000000000e+00    0.000000000e+00
      207250000   -1.010106802e+00   -1.937167533e-02   -9.563751519e-06   -1.111160964e-05    0.000000000e+00    0.000000000e+00    0.000000000e+00    0.000000000e+00
      214500000   -1.011741400e+00    8.144235611e-02   -1.236051321e-05   -9.456649423e-06    0.000000000e+00    0.000000000e+00    0.000000000e+00    0.000000000e+00
      221750000   -1.002372146e+00    1.844615340e-01    1.771748066e-05   -3.158580512e-05    0.000000000e+00    0.000000000e+00    0.000000000e+00    0.000000000e+00
      229000000   -9.836309552e-01    2.874549031e-01    1.189764589e-05   -7.539056242e-06    0.000000000e+00    0.000000000e+00    0.000000000e+00    0.000000000e+00
      236250000   -9.519093633e-01    3.905768991e-01    9.239651263e-06    1.155771315e-05    0.000000000e+00    0.000000000e+00    0.000000000e+00    0.000000000e+00
      243500000   -9.082871079e-01    4.899761081e-01   -1.229159534e-05   -1.603737473e-05    0.000000000e+00    0.000000000e+00    0.000000000e+00    0.000000000e+00
      250750000   -8.518233299e-01    5.872402787e-01    6.135553122e-06   -7.039867342e-06    0.000000000e+00    0.000000000e+00    0.000000000e+00    0.000000000e+00
      258000000   -7.837463021e-01    6.778249741e-01    3.229267895e-05   -1.590792090e-05    0.000000000e+00    0.000000000e+00    0.000000000e+00    0.000000000e+00
      265250000   -7.042436004e-01    7.620599270e-01   -1.553446054e-05    6.136484444e-06    0.000000000e+00    0.000000000e+00    0.000000000e+00    0.000000000e+00
      272500000   -6.138379574e-01    8.370761871e-01   -1.690257341e-05   -1.545064151e-06    0.000000000e+00    0.000000000e+00    0.000000000e+00    0.000000000e+00
      279750000   -5.124630928e-01    9.017848969e-01   -8.264556527e-06   -2.608355135e-05    0.000000000e+00    0.000000000e+00    0.000000000e+00    0.000000000e+00
      287000000   -4.027911723e-01    9.537484646e-01    1.806765795e-07   -1.652631909e-05    0.000000000e+00    0.000000000e+00    0.000000000e+00    0.000000000e+00
      294250000   -2.853921652e-01    9.923489690e-01   -3.016367555e-05   -8.127652109e-06    0.000000000e+00    0.000000000e+00    0.000000000e+00    0.000000000e+00
      301500000   -1.629487872e-01    1.015687346e+00   -3.047846258e-05   -5.261041224e-06    0.000000000e+00    0.000000000e+00    0.000000000e+00    0.000000000e+00
      308750000   -3.771417588e-02    1.023496747e+00   -1.242756844e-05    1.728814095e-05    0.000000000e+00    0.000000000e+00    0.000000000e+00    0.000000000e+00
      316000000    8.800054342e-02    1.015679955e+00    1.819804311e-06    7.404014468e-07    0.000000000e+00    0.000000000e+00    0.000000000e+00    0.000000000e+00
      323250000    2.126133293e-01    9.904760718e-01   -4.610791802e-05   -3.341492265e-05    0.000000000e+00    0.000000000e+00    0.000000000e+00    0.000000000e+00
      330500000    3.329122365e-01    9.497990608e-01   -1.002848148e-05   -3.486406058e-05    0.000000000e+00    0.000000000e+00    0.000000000e+00    0.000000000e+00
      337750000    4.468759894e-01    8.943449259e-01    6.381422281e-06    1.504365355e-05    0.000000000e+00    0.000000000e+00    0.000000000e+00    0.000000000e+00
      345000000    5.524474978e-01    8.243992329e-01   -1.279637218e-05   -3.335718066e-05    0.000000000e+00    0.000000000e+00    0.000000000e+00    0.000000000e+00
      352250000    6.475064158e-01    7.423589826e-01   -8.557923138e-06   -2.190936357e-05    0.000000000e+00    0.000000000e+00    0.000000000e+00    0.000000000e+00
      359500000    7.314395308e-01    6.508319974e-01    1.544319093e-05    4.715379328e-05    0.000000000e+00    0.000000000e+00    0.000000000e+00    0.000000000e+00
      366750000    8.027979136e-01    5.493350625e-01   -4.600733519e-06    2.143811435e-05    0.000000000e+00    0.000000000e+00    0.000000000e+00    0.000000000e+00
      374000000    8.600836396e-01    4.413164258e-01   -3.306102008e-05   -1.864600927e-05    0.000000000e+00    0.000000000e+00    0.000000000e+00    0.000000000e+00
      381250000    9.043270350e-01    3.276417851e-01    6.211921573e-07   -1.341290772e-05    0.000000000e+00    0.000000000e+00    0.000000000e+00    0.000000000e+00
      388500000    9.344836473e-01    2.126637548e-01    4.420336336e-05    1.387950033e-05    0.000000000e+00    0.000000000e+00    0.000000000e+00    0.000000000e+00
      395750000    9.509528875e-01    9.547637403e-02   -1.814868301e-05   -2.464558929e-05    0.000000000e+00    0.000000000e+00    0.000000000e+00    0.000000000e+00
      403000000    9.544881582e-01   -2.220264822e-02    3.818795085e-05    3.111828119e-05    0.000000000e+00    0.000000000e+00    0.000000000e+00    0.000000000e+00
      410250000    9.444319010e-01   -1.368715614e-01    4.161614925e-05   -1.593865454e-05    0.000000000e+00    0.000000000e+00    0.000000000e+00    0.000000000e+00
      417500000    9.229605794e-01   -2.488662899e-01    8.123926818e-06   -1.590512693e-05    0.000000000e+00    0.000000000e+00    0.000000000e+00    0.000000000e+00
      424750000    8.886311054e-01   -3.578130603e-01   -6.658956409e-07    1.628883183e-06    0.000000000e+00    0.000000000e+00    0.000000000e+00    0.000000000e+00
      432000000    8.437906504e-01   -4.613342881e-01   -8.437782526e-07    6.384216249e-05    0.000000000e+00    0.000000000e+00    0.000000000e+00    0.000000000e+00
      439250000    7.889697552e-01   -5.577010512e-01   -6.865710020e-06   -1.146085560e-05    0.000000000e+00    0.000000000e+00    0.000000000e+00    0.000000000e+00
      446500000    7.250002623e-01   -6.472963095e-01   -1.250114292e-05    2.468284220e-05    0.000000000e+00    0.000000000e+00    0.000000000e+00    0.000000000e+00
      453750000    6.514230967e-01   -7.306936383e-01   -1.643877476e-05   -8.433125913e-06    0.000000000e+00    0.000000000e+00    0.000000000e+00    0.000000000e+00
      461000000    5.703946948e-01   -8.040061593e-01   -1.461431384e-05    2.337619662e-06    0.000000000e+00    0.000000000e+00    0.000000000e+00    0.000000000e+00
      468250000    4.834072292e-01   -8.693751097e-01   -5.918554962e-06   -7.580965757e-07    0.000000000e+00    0.000000000e+00    0.000000000e+00    0.000000000e+00
      475500000    3.885514736e-01   -9.253778458e-01   -3.421772271e-05   -4.295259714e-06    0.000000000e+00    0.000000000e+00    0.000000000e+00    0.000000000e+00
      482750000    2.888274789e-01   -9.704101086e-01   -3.877002746e-05    2.469681203e-05    0.000000000e+00    0.000000000e+00    0.000000000e+00    0.000000000e+00
      490000000    1.851394176e-01   -1.006260991e+00   -1.143291593e-05   -1.304503530e-05    0.000000000e+00    0.000000000e+00    0.000000000e+00    0.000000000e+00
      497250000    7.775703073e-02   -1.030265570e+00    4.851259291e-06    2.766028047e-07    0.000000000e+00    0.000000000e+00    0.000000000e+00    0.000000000e+00
      504500000   -3.149024397e-02   -1.043488741e+00   -1.569930464e-05    3.176089376e-05    0.000000000e+00    0.000000000e+00    0.000000000e+00    0.000000000e+00
      511750000   -1.435614675e-01   -1.044115543e+00    9.955838323e-06   -1.375935972e-05    0.000000000e+00    0.000000000e+00    0.000000000e+00    0.000000000e+00
      519000000   -2.545742989e-01   -1.032601714e+00    8.220784366e-06    4.489906132e-05    0.000000000e+00    0.000000000e+00    0.000000000e+00    0.000000000e+00
      526250000   -3.659593463e-01   -1.009400129e+00   -2.739951015e-06   -2.470705658e-05    0.000000000e+00    0.000000000e+00    0.000000000e+00    0.000000000e+00
      533500000   -4.736768007e-01   -9.734619260e-01    8.700415492e-06    3.918074071e-05    0.000000000e+00    0.000000000e+00    0.000000000e+00    0.000000000e+00
      540750000   -5.780113339e-01   -9.242171645e-01   -2.502463758e-05    1.148786396e-05    0.000000000e+00    0.000000000e+00    0.000000000e+00    0.000000000e+00
      548000000   -6.762108207e-01   -8.655794859e-01    1.653842628e-05    2.821162343e-05    0.000000000e+00    0.000000000e+00    0.000000000e+00    0.000000000e+00
      555250000   -7.676212788e-01   -7.933084965e-01    1.388601959e-06    3.493297845e-05    0.000000000e+00    0.000000000e+00    0.000000000e+00    0.000000000e+00
      562500000   -8.511039615e-01   -7.111321688e-01   -1.344177872e-05    1.325178891e-05    0.000000000e+00    0.000000000e+00    0.000000000e+00    0.000000000e+00
      569750000   -9.242108464e-01   -6.184042692e-01    1.841597259e-05   -2.933666110e-07    0.000000000e+00    0.000000000e+00    0.000000000e+00    0.000000000e+00
      577000000   -9.870505929e-01   -5.172749162e-01    2.625863999e-05   -1.436099410e-05    0.000000000e+00    0.000000000e+00    0.000000000e+00    0.000000000e+00
      584250000   -1.036301732e+00   -4.089838862e-01   -2.982374281e-05    1.579523087e-06    0.000000000e+00    0.000000000e+00    0.000000000e+00    0.000000000e+00
      591500000   -1.072572947e+00   -2.951843739e-01    2.263672650e-05   -1.664645970e-05    0.000000000e+00    0.000000000e+00    0.000000000e+00    0.000000000e+00
      598750000   -1.096226692e+00   -1.764842868e-01   -2.327933908e-05   -4.650466144e-05    0.000000000e+00    0.000000000e+00    0.000000000e+00    0.000000000e+00
      606000000   -1.103587985e+00   -5.724161491e-02    3.011059016e-05   -1.948513091e-05    0.000000000e+00    0.000000000e+00    0.000000000e+00    0.000000000e+00
      613250000   -1.097364783e+00    6.183417886e-02    9.096227586e-06   -1.241546124e-05    0.000000000e+00    0.000000000e+00    0.000000000e+00    0.000000000e+00
      620500000   -1.075518370e+00    1.806612909e-01    4.665926099e-06    7.526017725e-06    0.000000000e+00    0.000000000e+00    0.000000000e+00    0.000000000e+00
      627750000   -1.040571332e+00    2.948038578e-01    2.414546907e-05   -9.762123227e-06    0.000000000e+00    0.000000000e+00    0.000000000e+00    0.000000000e+00
      635000000   -9.928771257e-01    4.014687836e-01    3.541912884e-05    3.721006215e-05    0.000000000e+00    0.000000000e+00    0.000000000e+00    0.000000000e+00
      642250000   -9.309779406e-01    5.028693676e-01   -5.432404578e-06   -9.624287486e-06    0.000000000e+00    0.000000000e+00    0.000000000e+00    0.000000000e+00
      649500000   -8.607802391e-01    5.945041180e-01   -1.409742981e-05    1.457519829e-05    0.000000000e+00    0.000000000e+00    0.000000000e+00    0.000000000e+00
      656750000   -7.787066698e-01    6.768746972e-01   -2.288352698e-05   -6.590038538e-06    0.000000000e+00    0.000000000e+00    0.000000000e+00    0.000000000e+00
      664000000   -6.892676950e-01    7.469494343e-01    2.627354115e-05   -2.989545465e-07    0.000000000e+00    0.000000000e+00    0.000000000e+00    0.000000000e+00
      671250000   -5.930410028e-01    8.067250848e-01    4.395842552e-05    2.279598266e-05    0.000000000e+00    0.000000000e+00    0.000000000e+00    0.000000000e+00
      678500000   -4.924173653e-01    8.549324870e-01    1.423712820e-05    3.083609045e-05    0.000000000e+00    0.000000000e+00    0.000000000e+00    0.000000000e+00
      685750000   -3.875540197e-01    8.910245299e-01    8.548609912e-06   -7.389113307e-06    0.000000000e+00    0.000000000e+00    0.000000000e+00    0.000000000e+00
      693000000   -2.829137146e-01    9.140275121e-01   -1.909211278e-05    1.236051321e-05    0.000000000e+00    0.000000000e+00    0.000000000e+00    0.000000000e+00
      700250000   -1.751647741e-01    9.262577295e-01   -2.896413207e-07    1.121126115e-05    0.000000000e+00    0.000000000e+00    0.000000000e+00    0.000000000e+00
      707500000   -6.822022796e-02    9.265533686e-01   -3.227964044e-06   -4.078540951e-05    0.000000000e+00    0.000000000e+00    0.000000000e+00    0.000000000e+00
      714750000    3.764303774e-02    9.153937101e-01    2.330821007e-05   -1.142919064e-05    0.000000000e+00    0.000000000e+00    0.000000000e+00    0.000000000e+00
      722000000    1.370499879e-01    8.936722279e-01   -1.064687967e-05    1.898966730e-06    0.000000000e+00    0.000000000e+00    0.000000000e+00    0.000000000e+00
      729250000    2.371213585e-01    8.619525433e-01   -2.793408930e-05    4.245899618e-06    0.000000000e+00    0.000000000e+00    0.000000000e+00    0.000000000e+00
      736500000    3.299926221e-01    8.211978078e-01    1.067481935e-05   -1.810397953e-05    0.000000000e+00    0.000000000e+00    0.000000000e+00    0.000000000e+00
      743750000    4.178925455e-01    7.711727023e-01   -4.424713552e-06    1.446343958e-05    0.000000000e+00    0.000000000e+00    0.000000000e+00    0.000000000e+00
      751000000    5.012178421e-01    7.125688791e-01    1.979060471e-06   -3.193505108e-06    0.000000000e+00    0.000000000e+00    0.000000000e+00    0.000000000e+00
      758250000    5.772951841e-01    6.471912265e-01    3.686454147e-05    5.388632417e-06    0.000000000e+00    0.000000000e+00    0.000000000e+00    0.000000000e+00
      765500000    6.462173462e-01    5.753272176e-01   -3.620982170e-06   -1.159589738e-05    0.000000000e+00    0.000000000e+00    0.000000000e+00    0.000000000e+00
      772750000    7.077314258e-01    4.959347546e-01    3.159325570e-05    1.579988748e-05    0.000000000e+00    0.000000000e+00    0.000000000e+00    0.000000000e+00
      780000000    7.611805201e-01    4.111957550e-01    1.371279359e-05   -9.760260582e-07    0.000000000e+00    0.000000000e+00    0.000000000e+00    0.000000000e+00
      787250000    8.075198531e-01    3.213164806e-01   -3.836117685e-06   -8.035451174e-06    0.000000000e+00    0.000000000e+00    0.000000000e+00    0.000000000e+00
      794500000    8.434423208e-01    2.266710997e-01    5.592592061e-06   -3.572367132e-05    0.000000000e+00    0.000000000e+00    0.000000000e+00    0.000000000e+00
      801750000    8.699581623e-01    1.271069646e-01    1.303851604e-06   -1.101754606e-05    0.000000000e+00    0.000000000e+00    0.000000000e+00    0.000000000e+00
      809000000    8.869765401e-01    2.619587630e-02   -4.607066512e-05    2.481974661e-06    0.000000000e+00    0.000000000e+00    0.000000000e+00    0.000000000e+00
      816250000    8.933597803e-01   -7.680467516e-02   -2.666376531e-06   -7.776543498e-07    0.000000000e+00    0.000000000e+00    0.000000000e+00    0.000000000e+00
      823500000    8.880046010e-01   -1.834984720e-01   -1.096539199e-05    1.988653094e-05    0.000000000e+00    0.000000000e+00    0.000000000e+00    0.000000000e+00
      830750000    8.730715513e-01   -2.874686420e-01    5.360692739e-06   -1.359637827e-05    0.000000000e+00    0.000000000e+00    0.000000000e+00    0.000000000e+00
      838000000    8.447316885e-01   -3.932645023e-01    2.174545079e-05   -8.186977357e-05    0.000000000e+00    0.000000000e+00    0.000000000e+00    0.000000000e+00
      845250000    8.062258959e-01   -4.945131242e-01    2.778414637e-05   -4.069879651e-07    0.000000000e+00    0.000000000e+00    0.000000000e+00    0.000000000e+00
      852500000    7.538468242e-01   -5.935947895e-01   -1.780875027e-05    2.596899867e-05    0.000000000e+00    0.000000000e+00    0.000000000e+00    0.000000000e+00
      859750000    6.908273101e-01   -6.869094372e-01   -1.140590757e-05   -1.531094313e-06    0.000000000e+00    0.000000000e+00    0.000000000e+00    0.000000000e+00
      867000000    6.143426299e-01   -7.745736837e-01   -3.085937351e-05    2.025626600e-05    0.000000000e+00    0.000000000e+00    0.000000000e+00    0.000000000e+00
      874250000    5.293650031e-01   -8.520723581e-01   -1.026783139e-05   -1.467857510e-05    0.000000000e+00    0.000000000e+00    0.000000000e+00    0.000000000e+00
      881500000    4.294811189e-01   -9.206891656e-01    4.672538489e-05   -2.301577479e-05    0.000000000e+00    0.000000000e+00    0.000000000e+00    0.000000000e+00
      888750000    3.242574334e-01   -9.760936499e-01    7.195398211e-06   -1.858919859e-05    0.000000000e+00    0.000000000e+00    0.000000000e+00    0.000000000e+00
      896000000    2.105865330e-01   -1.018209577e+00    1.353397965e-05   -7.173977792e-06    0.000000000e+00    0.000000000e+00    0.000000000e+00    0.000000000e+00
      903250000    9.111617506e-02   -1.045383811e+00    3.056228161e-05    3.079697490e-05    0.000000000e+00    0.000000000e+00    0.000000000e+00    0.000000000e+00
      910500000   -3.496364132e-02   -1.056221485e+00   -2.136081457e-05    9.778887033e-07    0.000000000e+00    0.000000000e+00    0.000000000e+00    0.000000000e+00
      917750000   -1.581173837e-01   -1.049941778e+00    1.464970410e-05   -4.986021668e-05    0.000000000e+00    0.000000000e+00    0.000000000e+00    0.000000000e+00
      925000000   -2.811496854e-01   -1.027495742e+00   -1.927837729e-07    1.925230026e-05    0.000000000e+00    0.000000000e+00    0.000000000e+00    0.000000000e+00
      932250000   -4.015075564e-01   -9.863830209e-01    3.119744360e-05   -1.418963075e-05    0.000000000e+00    0.000000000e+00    0.000000000e+00    0.000000000e+00
      939500000   -5.123797655e-01   -9.314517379e-01    4.466623068e-06    1.078192145e-05    0.000000000e+00    0.000000000e+00    0.000000000e+00    0.000000000e+00
      946750000   -6.134233475e-01   -8.616490960e-01    1.023802906e-05    9.951181710e-06    0.000000000e+00    0.000000000e+00    0.000000000e+00    0.000000000e+00
      954000000   -7.039551139e-01   -7.805670500e-01    1.486949623e-05   -5.449075252e-05    0.000000000e+00    0.000000000e+00    0.000000000e+00    0.000000000e+00
      961250000   -7.817365527e-01   -6.877788901e-01   -2.760253847e-05    3.533158451e-05    0.000000000e+00    0.000000000e+00    0.000000000e+00    0.000000000e+00
      968500000   -8.461679220e-01   -5.861538053e-01    1.782178879e-05   -6.696209311e-06    0.000000000e+00    0.000000000e+00    0.000000000e+00    0.000000000e+00
      975750000   -8.940983415e-01   -4.830132127e-01   -2.944283187e-05   -1.613423228e-05    0.000000000e+00    0.000000000e+00    0.000000000e+00    0.000000000e+00
      983000000   -9.292792082e-01   -3.734148145e-01    1.466087997e-05    2.011843026e-05    0.000000000e+00    0.000000000e+00    0.000000000e+00    0.000000000e+00
      990250000   -9.482235312e-01   -2.625082731e-01   -4.133582115e-05    1.327879727e-05    0.000000000e+00    0.000000000e+00    0.000000000e+00    0.000000000e+00
      997500000   -9.544019699e-01   -1.555038989e-01    7.962808013e-06   -3.512110561e-05    0.000000000e+00    0.000000000e+00    0.000000000e+00    0.000000000e+00
     1004750000   -9.480707645e-01   -5.075501651e-02    2.575106919e-06    2.911966294e-05    0.000000000e+00    0.000000000e+00    0.000000000e+00    0.000000000e+00
     1012000000   -9.295105338e-01    5.058008060e-02   -1.539662480e-05   -8.237548172e-06    0.000000000e+00    0.000000000e+00    0.000000000e+00    0.000000000e+00
     1019250000   -9.010349512e-01    1.461327225e-01    1.949537545e-05    1.264642924e-05    0.000000000e+00    0.000000000e+00    0.000000000e+00    0.000000000e+00
     1026500000   -8.624218702e-01    2.351833433e-01   -7.652677596e-06   -3.611668944e-06    0.000000000e+00    0.000000000e+00    0.000000000e+00    0.000000000e+00
     1033750000   -8.170551658e-01    3.183387518e-01   -1.012627035e-05    1.133419573e-06    0.000000000e+00    0.000000000e+00    0.000000000e+00    0.000000000e+00
     1041000000   -7.638661861e-01    3.946555555e-01   -1.174490899e-05   -1.859758049e-05    0.000000000e+00    0.000000000e+00    0.000000000e+00    0.000000000e+00
