! NanoVNA-App
! Date: 2024-06-25 16:11:22
! Start: 200MHz Stop: 6GHz Points: 801
! S-Parameter data: F S11 S21 S12 S22
# Hz S RI R 50
!     Frequency           S11_Real           S11_Imag           S21_Real           S21_Imag           S12_Real           S12_Imag           S22_Real           S22_Imag
      200000000   -9.985875487e-01   -1.180047020e-01   -1.413095742e-05   -9.815208614e-06    0.000000000e+00    0.000000000e+00    0.000000000e+00    0.000000000e+00
      207250000   -1.010084152e+00   -1.910728589e-02   -8.027069271e-06   -1.600105315e-05    0.000000000e+00    0.000000000e+00    0.000000000e+00    0.000000000e+00
      214500000   -1.011698842e+00    8.170118183e-02    7.276423275e-06    2.436619252e-05    0.000000000e+00    0.000000000e+00    0.000000000e+00    0.000000000e+00
      221750000   -1.002431631e+00    1.849496365e-01    4.350207746e-06   -7.270835340e-06    0.000000000e+00    0.000000000e+00    0.000000000e+00    0.000000000e+00
      229000000   -9.820193052e-01    2.877052128e-01    1.901481301e-05    9.953975677e-06    0.000000000e+00    0.000000000e+00    0.000000000e+00    0.000000000e+00
      236250000   -9.505995512e-01    3.900901079e-01    4.213768989e-05    3.037881106e-05    0.000000000e+00    0.000000000e+00    0.000000000e+00    0.000000000e+00
      243500000   -9.079732895e-01    4.899916053e-01   -4.259869456e-06   -1.405365765e-06    0.000000000e+00    0.000000000e+00    0.000000000e+00    0.000000000e+00
      250750000   -8.518050313e-01    5.871645212e-01   -6.373971701e-06    2.758577466e-05    0.000000000e+00    0.000000000e+00    0.000000000e+00    0.000000000e+00
      258000000   -7.838504314e-01    6.781912446e-01   -1.306459308e-05   -3.152340651e-05    0.000000000e+00    0.000000000e+00    0.000000000e+00    0.000000000e+00
      265250000   -7.041621804e-01    7.616451979e-01   -1.925416291e-05   -1.181941479e-05    0.000000000e+00    0.000000000e+00    0.000000000e+00    0.000000000e+00
      272500000   -6.137392521e-01    8.374086022e-01    4.175771028e-05   -4.842877388e-07    0.000000000e+00    0.000000000e+00    0.000000000e+00    0.000000000e+00
      279750000   -5.130773187e-01    9.017878771e-01   -3.086589277e-05    8.130446076e-06    0.000000000e+00    0.000000000e+00    0.000000000e+00    0.000000000e+00
      287000000   -4.023675919e-01    9.543706775e-01   -4.629604518e-06   -9.467825294e-06    0.000000000e+00    0.000000000e+00    0.000000000e+00    0.000000000e+00
      294250000   -2.860168815e-01    9.921643138e-01    1.395586878e-05    1.338589936e-05    0.000000000e+00    0.000000000e+00    0.000000000e+00    0.000000000e+00
      301500000   -1.636855006e-01    1.015917063e+00   -3.759097308e-05   -2.643279731e-05    0.000000000e+00    0.000000000e+00    0.000000000e+00    0.000000000e+00
      308750000   -3.779196739e-02    1.022867799e+00    4.325062037e-06   -1.533888280e-05    0.000000000e+00    0.000000000e+00    0.000000000e+00    0.000000000e+00
      316000000    8.830388635e-02    1.014748693e+00   -2.382136881e-05    1.649279147e-05    0.000000000e+00    0.000000000e+00    0.000000000e+00    0.000000000e+00
      323250000    2.123304754e-01    9.907604456e-01   -6.406102329e-05    3.530923277e-05    0.000000000e+00    0.000000000e+00    0.000000000e+00    0.000000000e+00
      330500000    3.329470754e-01    9.495145082e-01   -1.660455018e-05   -3.634952009e-06    0.000000000e+00    0.000000000e+00    0.000000000e+00    0.000000000e+00
      337750000    4.468941987e-01    8.939286470e-01   -9.494833648e-06    2.561137080e-05    0.000000000e+00    0.000000000e+00    0.000000000e+00    0.000000000e+00
      345000000    5.523581505e-01    8.237845302e-01    1.270323992e-05    2.703629434e-06    0.000000000e+00    0.000000000e+00    0.000000000e+00    0.000000000e+00
      352250000    6.476749778e-01    7.431073785e-01    8.190050721e-06   -1.541618258e-05    0.000000000e+00    0.000000000e+00    0.000000000e+00    0.000000000e+00
      359500000    7.314096093e-01    6.504504681e-01    2.766959369e-06   -4.230625927e-05    0.000000000e+00    0.000000000e+00    0.000000000e+00    0.000000000e+00
      366750000    8.026160002e-01    5.494029522e-01    1.151114702e-06   -2.185441554e-05    0.000000000e+00    0.000000000e+00    0.000000000e+00    0.000000000e+00
      374000000    8.603409529e-01    4.417977631e-01    1.948326826e-05    2.072006464e-05    0.000000000e+00    0.000000000e+00    0.000000000e+00    0.000000000e+00
      381250000    9.049770236e-01    3.283414543e-01   -3.312341869e-05    1.002941281e-05    0.000000000e+00    0.000000000e+00    0.000000000e+00    0.000000000e+00
      388500000    9.344552159e-01    2.127127498e-01   -4.436820745e-06   -3.622844815e-07    0.000000000e+00    0.000000000e+00    0.000000000e+00    0.000000000e+00
      395750000    9.512094855e-01    9.555921704e-02   -3.321841359e-05    7.152557373e-07    0.000000000e+00    0.000000000e+00    0.000000000e+00    0.000000000e+00
      403000000    9.544352889e-01   -2.179811336e-02   -2.134870738e-05   -7.039867342e-06    0.000000000e+00    0.000000000e+00    0.000000000e+00    0.000000000e+00
      410250000    9.450519681e-01   -1.375735104e-01   -2.165976912e-05    9.008683264e-06    0.000000000e+00    0.000000000e+00    0.000000000e+00    0.000000000e+00
      417500000    9.231485724e-01   -2.490613014e-01    9.723007679e-07   -3.786385059e-05    0.000000000e+00    0.000000000e+00    0.000000000e+00    0.000000000e+00
      424750000    8.886122704e-01   -3.582900167e-01   -3.560259938e-05   -5.416758358e-05    0.000000000e+00    0.000000000e+00    0.000000000e+00    0.000000000e+00
      432000000    8.438404799e-01   -4.606670737e-01    1.247599721e-05   -1.944880933e-05    0.000000000e+00    0.000000000e+00    0.000000000e+00    0.000000000e+00
      439250000    7.894191742e-01   -5.576303005e-01    2.746563405e-05    1.388043165e-05    0.000000000e+00    0.000000000e+00    0.000000000e+00    0.000000000e+00
      446500000    7.245170474e-01   -6.480340958e-01    2.629961818e-05    1.229345798e-05    0.000000000e+00    0.000000000e+00    0.000000000e+00    0.000000000e+00
      453750000    6.513518691e-01   -7.306376696e-01    1.163687557e-05    3.339443356e-05    0.000000000e+00    0.000000000e+00    0.000000000e+00    0.000000000e+00
      461000000    5.710764527e-01   -8.043153882e-01    1.248344779e-05   -6.608013064e-05    0.000000000e+00    0.000000000e+00    0.000000000e+00    0.000000000e+00
      468250000    4.831291437e-01   -8.694310188e-01   -1.202244312e-05    9.254552424e-06    0.000000000e+00    0.000000000e+00    0.000000000e+00    0.000000000e+00
      475500000    3.881647289e-01   -9.253118038e-01   -3.454647958e-05   -1.402758062e-05    0.000000000e+00    0.000000000e+00    0.000000000e+00    0.000000000e+00
      482750000    2.888575792e-01   -9.708086252e-01    1.443736255e-05   -5.676411092e-06    0.000000000e+00    0.000000000e+00    0.000000000e+00    0.000000000e+00
      490000000    1.851863116e-01   -1.006480098e+00   -1.293327659e-05    6.604939699e-06    0.000000000e+00    0.000000000e+00    0.000000000e+00    0.000000000e+00
      497250000    7.757876813e-02   -1.030732870e+00   -4.406366497e-05    4.473049194e-05    0.000000000e+00    0.000000000e+00    0.000000000e+00    0.000000000e+00
      504500000   -3.165628389e-02   -1.043351173e+00   -1.023896039e-05   -3.562681377e-05    0.000000000e+00    0.000000000e+00    0.000000000e+00    0.000000000e+00
      511750000   -1.430957466e-01   -1.044262648e+00   -9.062699974e-06    4.275329411e-05    0.000000000e+00    0.000000000e+00    0.000000000e+00    0.000000000e+00
      519000000   -2.545672953e-01   -1.032673359e+00    2.151727676e-05   -3.825966269e-05    0.000000000e+00    0.000000000e+00    0.000000000e+00    0.000000000e+00
      526250000   -3.659320474e-01   -1.009253263e+00    4.539266229e-06    2.407655120e-05    0.000000000e+00    0.000000000e+00    0.000000000e+00    0.000000000e+00
      533500000   -4.736667275e-01   -9.732905030e-01    1.730676740e-05    9.077601135e-06    0.000000000e+00    0.000000000e+00    0.000000000e+00    0.000000000e+00
      540750000   -5.777438283e-01   -9.252700806e-01   -3.042630851e-06   -1.589022577e-05    0.000000000e+00    0.000000000e+00    0.000000000e+00    0.000000000e+00
      548000000   -6.764780283e-01   -8.642086387e-01    2.689287066e-05    1.199264079e-05    0.000000000e+00    0.000000000e+00    0.000000000e+00    0.000000000e+00
      555250000   -7.684055567e-01   -7.920213342e-01    1.098960638e-07    6.959773600e-06    0.000000000e+00    0.000000000e+00    0.000000000e+00    0.000000000e+00
      562500000   -8.511308432e-01   -7.104719281e-01   -4.675239325e-06    8.143484592e-06    0.000000000e+00    0.000000000e+00    0.000000000e+00    0.000000000e+00
      569750000   -9.242377877e-01   -6.188489199e-01   -1.277774572e-05   -3.440305591e-06    0.000000000e+00    0.000000000e+00    0.000000000e+00    0.000000000e+00
      577000000   -9.870703220e-01   -5.176432133e-01    7.211230695e-06   -2.386979759e-05    0.000000000e+00    0.000000000e+00    0.000000000e+00    0.000000000e+00
      584250000   -1.037030339e+00   -4.090184271e-01   -1.670140773e-05    1.024454832e-06    0.000000000e+00    0.000000000e+00    0.000000000e+00    0.000000000e+00
      591500000   -1.072906971e+00   -2.942401767e-01   -2.172775567e-06   -4.322268069e-06    0.000000000e+00    0.000000000e+00    0.000000000e+00    0.000000000e+00
      598750000   -1.095393658e+00   -1.767609417e-01    6.366521120e-06    3.768689930e-05    0.000000000e+00    0.000000000e+00    0.000000000e+00    0.000000000e+00
      606000000   -1.103377819e+00   -5.759965628e-02   -7.224269211e-06    1.628603786e-05    0.000000000e+00    0.000000000e+00    0.000000000e+00    0.000000000e+00
      613250000   -1.097106457e+00    6.334438175e-02    4.098750651e-05    5.074404180e-05    0.000000000e+00    0.000000000e+00    0.000000000e+00    0.000000000e+00
      620500000   -1.076627016e+00    1.796424985e-01   -1.947581768e-05   -5.132332444e-05    0.000000000e+00    0.000000000e+00    0.000000000e+00    0.000000000e+00
      627750000   -1.040759802e+00    2.952467501e-01   -1.635774970e-05   -1.053232700e-05    0.000000000e+00    0.000000000e+00    0.000000000e+00    0.000000000e+00
      635000000   -9.927764535e-01    4.017975032e-01   -3.658607602e-05   -1.268554479e-05    0.000000000e+00    0.000000000e+00    0.000000000e+00    0.000000000e+00
      642250000   -9.318222404e-01    5.026533008e-01   -2.582557499e-05   -3.115087748e-05    0.000000000e+00    0.000000000e+00    0.000000000e+00    0.000000000e+00
      649500000   -8.590370417e-01    5.952114463e-01   -4.071742296e-06   -4.300475121e-05    0.000000000e+00    0.000000000e+00    0.000000000e+00    0.000000000e+00
      656750000   -7.792606950e-01    6.760392785e-01    1.275818795e-05    2.115685493e-05    0.000000000e+00    0.000000000e+00    0.000000000e+00    0.000000000e+00
      664000000   -6.891116500e-01    7.478402257e-01   -6.894581020e-06    9.348616004e-06    0.000000000e+00    0.000000000e+00    0.000000000e+00    0.000000000e+00
      671250000   -5.929651856e-01    8.066697717e-01   -5.630776286e-06    9.816139936e-07    0.000000000e+00    0.000000000e+00    0.000000000e+00    0.000000000e+00
      678500000   -4.920900166e-01    8.550398946e-01    1.501664519e-05    2.633593976e-05    0.000000000e+00    0.000000000e+00    0.000000000e+00    0.000000000e+00
      685750000   -3.880838454e-01    8.902744651e-01   -2.308376133e-05    2.131983638e-05    0.000000000e+00    0.000000000e+00    0.000000000e+00    0.000000000e+00
      693000000   -2.820434570e-01    9.147874713e-01    2.419576049e-06    2.657156438e-05    0.000000000e+00    0.000000000e+00    0.000000000e+00    0.000000000e+00
      700250000   -1.755175442e-01    9.258815646e-01   -3.295578063e-05    4.308298230e-05    0.000000000e+00    0.000000000e+00    0.000000000e+00    0.000000000e+00
      707500000   -6.890897453e-02    9.260565639e-01    1.815520227e-05   -2.010259777e-05    0.000000000e+00    0.000000000e+00    0.000000000e+00    0.000000000e+00
      714750000    3.600821272e-02    9.150899649e-01    9.769573808e-06   -1.735053957e-06    0.000000000e+00    0.000000000e+00    0.000000000e+00    0.000000000e+00
      722000000    1.380966306e-01    8.937485218e-01   -1.051742584e-05    9.225681424e-06    0.000000000e+00    0.000000000e+00    0.000000000e+00    0.000000000e+00
      729250000    2.377133965e-01    8.612223864e-01    2.673827112e-05   -9.630806744e-06    0.000000000e+00    0.000000000e+00    0.000000000e+00    0.000000000e+00
      736500000    3.303264678e-01    8.210861087e-01    2.491753548e-05    1.841969788e-05    0.000000000e+00    0.000000000e+00    0.000000000e+00    0.000000000e+00
      743750000    4.186946452e-01    7.710823417e-01    1.634377986e-05    2.011097968e-05    0.000000000e+00    0.000000000e+00    0.000000000e+00    0.000000000e+00
      751000000    5.012928843e-01    7.137038112e-01   -1.716520637e-05    2.655480057e-05    0.000000000e+00    0.000000000e+00    0.000000000e+00    0.000000000e+00
      758250000    5.767638087e-01    6.482350230e-01    2.311542630e-05   -1.973006874e-05    0.000000000e+00    0.000000000e+00    0.000000000e+00    0.000000000e+00
      765500000    6.463745832e-01    5.751103759e-01    1.273676753e-05    2.108234912e-05    0.000000000e+00    0.000000000e+00    0.000000000e+00    0.000000000e+00
      772750000    7.081133127e-01    4.959181249e-01   -1.471489668e-07   -1.715403050e-05    0.000000000e+00    0.000000000e+00    0.000000000e+00    0.000000000e+00
      780000000    7.615707517e-01    4.111242294e-01   -3.654044122e-05    6.727874279e-06    0.000000000e+00    0.000000000e+00    0.000000000e+00    0.000000000e+00
      787250000    8.065568209e-01    3.203398585e-01    2.770777792e-05   -2.878718078e-06    0.000000000e+00    0.000000000e+00    0.000000000e+00    0.000000000e+00
      794500000    8.434516788e-01    2.261115313e-01    2.451427281e-05   -4.258938134e-06    0.000000000e+00    0.000000000e+00    0.000000000e+00    0.000000000e+00
      801750000    8.701034784e-01    1.284324676e-01   -2.495944500e-07    4.120543599e-05    0.000000000e+00    0.000000000e+00    0.000000000e+00    0.000000000e+00
      809000000    8.863638639e-01    2.531144582e-02   -5.930662155e-06   -8.972361684e-06    0.000000000e+00    0.000000000e+00    0.000000000e+00    0.000000000e+00
      816250000    8.933665752e-01   -7.682373375e-02   -2.173334360e-05   -2.123415470e-07    0.000000000e+00    0.000000000e+00    0.000000000e+00    0.000000000e+00
      823500000    8.888068795e-01   -1.834921241e-01    2.035405487e-05   -2.174638212e-05    0.000000000e+00    0.000000000e+00    0.000000000e+00    0.000000000e+00
      830750000    8.730310798e-01   -2.881191671e-01    2.572219819e-05   -3.173388541e-05    0.000000000e+00    0.000000000e+00    0.000000000e+00    0.000000000e+00
      838000000    8.454384804e-01   -3.922537267e-01    3.552995622e-06    1.271162182e-05    0.000000000e+00    0.000000000e+00    0.000000000e+00    0.000000000e+00
      845250000    8.063671589e-01   -4.941110313e-01   -1.870840788e-05   -8.355826139e-06    0.000000000e+00    0.000000000e+00    0.000000000e+00    0.000000000e+00
      852500000    7.534110546e-01   -5.944399834e-01   -7.374212146e-06    5.958601832e-06    0.000000000e+00    0.000000000e+00    0.000000000e+00    0.000000000e+00
      859750000    6.914015412e-01   -6.864764690e-01    2.506840974e-05   -5.377270281e-05    0.000000000e+00    0.000000000e+00    0.000000000e+00    0.000000000e+00
      867000000    6.149770021e-01   -7.745102644e-01    6.859190762e-06   -2.290122211e-06    0.000000000e+00    0.000000000e+00    0.000000000e+00    0.000000000e+00
      874250000    5.287690163e-01   -8.513073921e-01    9.830109775e-06    9.499490261e-08    0.000000000e+00    0.000000000e+00    0.000000000e+00    0.000000000e+00
      881500000    4.302083850e-01   -9.209973216e-01   -2.365093678e-05    1.014117151e-05    0.000000000e+00    0.000000000e+00    0.000000000e+00    0.000000000e+00
      888750000    3.253951669e-01   -9.758311510e-01   -1.903250813e-05    1.079589128e-05    0.000000000e+00    0.000000000e+00    0.000000000e+00    0.000000000e+00
      896000000    2.100744098e-01   -1.018079162e+00    1.229532063e-05   -1.971889287e-05    0.000000000e+00    0.000000000e+00    0.000000000e+00    0.000000000e+00
      903250000    9.062191844e-02   -1.044826865e+00    3.737956285e-05    2.603139728e-05    0.000000000e+00    0.000000000e+00    0.000000000e+00    0.000000000e+00
      910500000   -3.450220823e-02   -1.056005359e+00   -9.644776583e-06    1.007877290e-05    0.000000000e+00    0.000000000e+00    0.000000000e+00    0.000000000e+00
      917750000   -1.587446779e-01   -1.050130129e+00    6.625428796e-06   -2.205371857e-06    0.000000000e+00    0.000000000e+00    0.000000000e+00    0.000000000e+00
      925000000   -2.812302411e-01   -1.026539564e+00    2.890173346e-05    1.198332757e-05    0.000000000e+00    0.000000000e+00    0.000000000e+00    0.000000000e+00
      932250000   -4.011266530e-01   -9.866364598e-01    1.498125494e-05    3.361795098e-05    0.000000000e+00    0.000000000e+00    0.000000000e+00    0.000000000e+00
      939500000   -5.126345158e-01   -9.314252734e-01    2.995133400e-05   -5.972571671e-06    0.000000000e+00    0.000000000e+00    0.000000000e+00    0.000000000e+00
      946750000   -6.146385074e-01   -8.609859347e-01    7.146969438e-06   -8.087605238e-06    0.000000000e+00    0.000000000e+00    0.000000000e+00    0.000000000e+00
      954000000   -7.038668394e-01   -7.803132534e-01   -2.959277481e-05   -3.353133798e-05    0.000000000e+00    0.000000000e+00    0.000000000e+00    0.000000000e+00
      961250000   -7.821823955e-01   -6.875913143e-01    2.607051283e-05    1.721829176e-05    0.000000000e+00    0.000000000e+00    0.000000000e+00    0.000000000e+00
      968500000   -8.469685912e-01   -5.858788490e-01    2.576783299e-05   -4.440732300e-05    0.000000000e+00    0.000000000e+00    0.000000000e+00    0.000000000e+00
      975750000   -8.942955136e-01   -4.829829931e-01    6.360001862e-06   -2.502743155e-05    0.000000000e+00    0.000000000e+00    0.000000000e+00    0.000000000e+00
      983000000   -9.291582704e-01   -3.735376298e-01    1.324433833e-05    1.588836312e-06    0.000000000e+00    0.000000000e+00    0.000000000e+00    0.000000000e+00
      990250000   -9.481218457e-01   -2.640887797e-01   -1.832004637e-05    5.515292287e-06    0.000000000e+00    0.000000000e+00    0.000000000e+00    0.000000000e+00
      997500000   -9.546450973e-01   -1.548606455e-01    1.797918230e-05    4.082545638e-05    0.000000000e+00    0.000000000e+00    0.000000000e+00    0.000000000e+00
     1004750000   -9.478187561e-01   -5.049876496e-02   -5.744583905e-05    9.667128325e-07    0.000000000e+00    0.000000000e+00    0.000000000e+00    0.000000000e+00
     1012000000   -9.293977022e-01    5.083559081e-02    4.288926721e-05    7.092952728e-06    0.000000000e+00    0.000000000e+00    0.000000000e+00    0.000000000e+00
     1019250000   -9.002959728e-01    1.460873187e-01    1.527555287e-05   -1.212861389e-05    0.000000000e+00    0.000000000e+00    0.000000000e+00    0.000000000e+00
     1026500000   -8.624976873e-01    2.348909229e-01   -9.530223906e-06   -6.037764251e-06    0.000000000e+00    0.000000000e+00    0.000000000e+00    0.000000000e+00
     1033750000   -8.164439201e-01    3.196052015e-01   -4.349276423e-06    1.171976328e-05    0.000000000e+00    0.000000000e+00    0.000000000e+00    0.000000000e+00
     1041000000   -7.643346786e-01    3.935685456e-01    5.835015327e-05    5.663093179e-05    0.000000000e+00    0.000000000e+00    0.000000000e+00    0.000000000e+00
