! NanoVNA-App
! Date: 2024-06-25 16:10:37
! Start: 200MHz Stop: 6GHz Points: 801
! S-Parameter data: F S11 S21 S12 S22
# Hz S RI R 50
!     Frequency           S11_Real           S11_Imag           S21_Real           S21_Imag           S12_Real           S12_Imag           S22_Real           S22_Imag
      200000000   -9.987066388e-01   -1.182651147e-01    5.064532161e-06    1.860037446e-05    0.000000000e+00    0.000000000e+00    0.000000000e+00    0.000000000e+00
      207250000   -1.010049462e+00   -1.935702935e-02   -4.912726581e-06   -4.680827260e-06    0.000000000e+00    0.000000000e+00    0.000000000e+00    0.000000000e+00
      214500000   -1.012117505e+00    8.170442283e-02   -2.041365951e-05    1.027155668e-05    0.000000000e+00    0.000000000e+00    0.000000000e+00    0.000000000e+00
      221750000   -1.002524734e+00    1.848788261e-01   -2.284720540e-05   -6.101094186e-06    0.000000000e+00    0.000000000e+00    0.000000000e+00    0.000000000e+00
      229000000   -9.824764132e-01    2.876896560e-01   -2.197362483e-05   -3.862194717e-06    0.000000000e+00    0.000000000e+00    0.000000000e+00    0.000000000e+00
      236250000   -9.506417513e-01    3.902327120e-01    1.438427716e-05   -1.676008105e-05    0.000000000e+00    0.000000000e+00    0.000000000e+00    0.000000000e+00
      243500000   -9.080238938e-01    4.899533987e-01    3.017019480e-05    3.296975046e-05    0.000000000e+00    0.000000000e+00    0.000000000e+00    0.000000000e+00
      250750000   -8.518978953e-01    5.867702365e-01    2.393219620e-05    1.094210893e-05    0.000000000e+00    0.000000000e+00    0.000000000e+00    0.000000000e+00
      258000000   -7.840780616e-01    6.778171659e-01   -1.220032573e-07   -2.791080624e-05    0.000000000e+00    0.000000000e+00    0.000000000e+00    0.000000000e+00
      265250000   -7.045474648e-01    7.624787092e-01   -1.536216587e-05    1.319777220e-05    0.000000000e+00    0.000000000e+00    0.000000000e+00    0.000000000e+00
      272500000   -6.129564047e-01    8.373355865e-01    3.714952618e-05   -1.664552838e-05    0.000000000e+00    0.000000000e+00    0.000000000e+00    0.000000000e+00
      279750000   -5.134705305e-01    9.019265175e-01   -4.876405001e-06    5.590450019e-05    0.000000000e+00    0.000000000e+00    0.000000000e+00    0.000000000e+00
      287000000   -4.026246369e-01    9.542477727e-01   -1.543015242e-05   -6.795860827e-06    0.000000000e+00    0.000000000e+00    0.000000000e+00    0.000000000e+00
      294250000   -2.853268385e-01    9.923116565e-01    2.144835889e-06   -1.480709761e-05    0.000000000e+00    0.000000000e+00    0.000000000e+00    0.000000000e+00
      301500000   -1.634794176e-01    1.015982509e+00    1.794937998e-05    1.674983650e-05    0.000000000e+00    0.000000000e+00    0.000000000e+00    0.000000000e+00
      308750000   -3.746191040e-02    1.022978306e+00    2.156011760e-05   -2.312380821e-05    0.000000000e+00    0.000000000e+00    0.000000000e+00    0.000000000e+00
      316000000    8.818829060e-02    1.015774131e+00    1.139845699e-05   -3.714114428e-05    0.000000000e+00    0.000000000e+00    0.000000000e+00    0.000000000e+00
      323250000    2.126252502e-01    9.902544022e-01   -1.302920282e-06   -3.862287849e-05    0.000000000e+00    0.000000000e+00    0.000000000e+00    0.000000000e+00
      330500000    3.331194222e-01    9.497246742e-01   -4.784576595e-05   -2.727843821e-05    0.000000000e+00    0.000000000e+00    0.000000000e+00    0.000000000e+00
      337750000    4.465889633e-01    8.941284418e-01   -2.974364907e-05    2.798438072e-05    0.000000000e+00    0.000000000e+00    0.000000000e+00    0.000000000e+00
      345000000    5.528236628e-01    8.235453367e-01   -8.950941265e-06   -3.484357148e-05    0.000000000e+00    0.000000000e+00    0.000000000e+00    0.000000000e+00
      352250000    6.472995281e-01    7.421775460e-01    4.500150681e-06    3.825873137e-06    0.000000000e+00    0.000000000e+00    0.000000000e+00    0.000000000e+00
      359500000    7.313811183e-01    6.501457691e-01    3.107823431e-05   -1.746136695e-05    0.000000000e+00    0.000000000e+00    0.000000000e+00    0.000000000e+00
      366750000    8.025617003e-01    5.491353273e-01   -3.222376108e-06    1.385528594e-05    0.000000000e+00    0.000000000e+00    0.000000000e+00    0.000000000e+00
      374000000    8.604417443e-01    4.412346780e-01   -1.550093293e-05   -5.353242159e-06    0.000000000e+00    0.000000000e+00    0.000000000e+00    0.000000000e+00
      381250000    9.050385356e-01    3.280655444e-01   -2.126023173e-05    5.457550287e-06    0.000000000e+00    0.000000000e+00    0.000000000e+00    0.000000000e+00
      388500000    9.352900982e-01    2.122963816e-01    3.050174564e-05   -5.165114999e-06    0.000000000e+00    0.000000000e+00    0.000000000e+00    0.000000000e+00
      395750000    9.514583945e-01    9.573905170e-02   -1.404527575e-05    2.151913941e-05    0.000000000e+00    0.000000000e+00    0.000000000e+00    0.000000000e+00
      403000000    9.543874264e-01   -2.204116248e-02   -1.588836312e-06   -2.194847912e-05    0.000000000e+00    0.000000000e+00    0.000000000e+00    0.000000000e+00
      410250000    9.448843002e-01   -1.373017579e-01   -3.220234066e-05    1.611374319e-05    0.000000000e+00    0.000000000e+00    0.000000000e+00    0.000000000e+00
      417500000    9.224066138e-01   -2.492440641e-01    2.144090831e-05    1.799408346e-05    0.000000000e+00    0.000000000e+00    0.000000000e+00    0.000000000e+00
      424750000    8.888469338e-01   -3.581513464e-01    2.766959369e-06    2.506840974e-05    0.000000000e+00    0.000000000e+00    0.000000000e+00    0.000000000e+00
      432000000    8.437595367e-01   -4.612586200e-01   -1.857150346e-05   -5.641020834e-06    0.000000000e+00    0.000000000e+00    0.000000000e+00    0.000000000e+00
      439250000    7.893533707e-01   -5.576356649e-01    4.449207336e-05   -1.589674503e-05    0.000000000e+00    0.000000000e+00    0.000000000e+00    0.000000000e+00
      446500000    7.251659632e-01   -6.472138166e-01    1.452304423e-05   -2.484396100e-05    0.000000000e+00    0.000000000e+00    0.000000000e+00    0.000000000e+00
      453750000    6.510791183e-01   -7.305185199e-01   -1.476239413e-05    3.799889237e-05    0.000000000e+00    0.000000000e+00    0.000000000e+00    0.000000000e+00
      461000000    5.708364248e-01   -8.040956259e-01   -4.986580461e-05    1.498684287e-05    0.000000000e+00    0.000000000e+00    0.000000000e+00    0.000000000e+00
      468250000    4.830923080e-01   -8.696841598e-01   -3.796815872e-05   -9.146519005e-06    0.000000000e+00    0.000000000e+00    0.000000000e+00    0.000000000e+00
      475500000    3.882127404e-01   -9.252880812e-01   -3.886409104e-06    1.102872193e-05    0.000000000e+00    0.000000000e+00    0.000000000e+00    0.000000000e+00
      482750000    2.889569700e-01   -9.704804420e-01    1.684110612e-05   -1.871120185e-05    0.000000000e+00    0.000000000e+00    0.000000000e+00    0.000000000e+00
      490000000    1.855277717e-01   -1.006102085e+00    1.134909689e-05    1.255888492e-05    0.000000000e+00    0.000000000e+00    0.000000000e+00    0.000000000e+00
      497250000    7.737442851e-02   -1.030041456e+00    6.132759154e-06    2.719461918e-07    0.000000000e+00    0.000000000e+00    0.000000000e+00    0.000000000e+00
      504500000   -3.198049217e-02   -1.042768121e+00    1.456867903e-05   -4.950072616e-05    0.000000000e+00    0.000000000e+00    0.000000000e+00    0.000000000e+00
      511750000   -1.430365294e-01   -1.044512749e+00   -1.464970410e-05   -8.488073945e-06    0.000000000e+00    0.000000000e+00    0.000000000e+00    0.000000000e+00
      519000000   -2.552873492e-01   -1.033038259e+00   -6.472691894e-06    2.001971006e-05    0.000000000e+00    0.000000000e+00    0.000000000e+00    0.000000000e+00
      526250000   -3.658335805e-01   -1.008819222e+00   -2.193544060e-05   -1.461338252e-05    0.000000000e+00    0.000000000e+00    0.000000000e+00    0.000000000e+00
      533500000   -4.733366072e-01   -9.728351235e-01   -1.678708941e-05    2.013053745e-05    0.000000000e+00    0.000000000e+00    0.000000000e+00    0.000000000e+00
      540750000   -5.775473714e-01   -9.250053763e-01    2.890452743e-05   -3.046169877e-05    0.000000000e+00    0.000000000e+00    0.000000000e+00    0.000000000e+00
      548000000   -6.771281958e-01   -8.652802706e-01   -3.036111593e-06    2.347212285e-05    0.000000000e+00    0.000000000e+00    0.000000000e+00    0.000000000e+00
      555250000   -7.677887678e-01   -7.928673625e-01   -1.170579344e-05   -4.184525460e-05    0.000000000e+00    0.000000000e+00    0.000000000e+00    0.000000000e+00
      562500000   -8.510817885e-01   -7.103251219e-01   -2.674106508e-05   -4.050880671e-05    0.000000000e+00    0.000000000e+00    0.000000000e+00    0.000000000e+00
      569750000   -9.241144657e-01   -6.193430424e-01    9.680166841e-06   -1.274328679e-05    0.000000000e+00    0.000000000e+00    0.000000000e+00    0.000000000e+00
      577000000   -9.864749312e-01   -5.167688727e-01   -7.110647857e-06    2.079084516e-05    0.000000000e+00    0.000000000e+00    0.000000000e+00    0.000000000e+00
      584250000   -1.036461592e+00   -4.086202681e-01   -6.503425539e-06   -4.319474101e-06    0.000000000e+00    0.000000000e+00    0.000000000e+00    0.000000000e+00
      591500000   -1.072955728e+00   -2.947604954e-01    1.910142601e-06   -2.898182720e-05    0.000000000e+00    0.000000000e+00    0.000000000e+00    0.000000000e+00
      598750000   -1.095639706e+00   -1.757351458e-01    3.368873149e-05   -1.980271190e-05    0.000000000e+00    0.000000000e+00    0.000000000e+00    0.000000000e+00
      606000000   -1.103791833e+00   -5.671942607e-02   -1.289881766e-05    1.646392047e-05    0.000000000e+00    0.000000000e+00    0.000000000e+00    0.000000000e+00
      613250000   -1.097184181e+00    6.186284125e-02    4.312023520e-07   -4.035420716e-06    0.000000000e+00    0.000000000e+00    0.000000000e+00    0.000000000e+00
      620500000   -1.076269984e+00    1.806322783e-01    1.191254705e-05    2.693943679e-05    0.000000000e+00    0.000000000e+00    0.000000000e+00    0.000000000e+00
      627750000   -1.040712118e+00    2.949744761e-01    3.153458238e-05    6.287358701e-06    0.000000000e+00    0.000000000e+00    0.000000000e+00    0.000000000e+00
      635000000   -9.930455089e-01    4.016737044e-01   -4.814006388e-05    1.183524728e-05    0.000000000e+00    0.000000000e+00    0.000000000e+00    0.000000000e+00
      642250000   -9.314527512e-01    5.024312735e-01   -2.486631274e-06   -1.721642911e-05    0.000000000e+00    0.000000000e+00    0.000000000e+00    0.000000000e+00
      649500000   -8.594865203e-01    5.945507288e-01   -2.308562398e-05   -1.547485590e-05    0.000000000e+00    0.000000000e+00    0.000000000e+00    0.000000000e+00
      656750000   -7.789429426e-01    6.763137579e-01    1.802761108e-05   -3.979541361e-06    0.000000000e+00    0.000000000e+00    0.000000000e+00    0.000000000e+00
      664000000   -6.896174550e-01    7.476480007e-01    9.042210877e-06   -6.831251085e-06    0.000000000e+00    0.000000000e+00    0.000000000e+00    0.000000000e+00
      671250000   -5.939096212e-01    8.065899611e-01    2.805143595e-05    4.035420716e-06    0.000000000e+00    0.000000000e+00    0.000000000e+00    0.000000000e+00
      678500000   -4.928582907e-01    8.545491695e-01    2.921838313e-05   -2.291053534e-07    0.000000000e+00    0.000000000e+00    0.000000000e+00    0.000000000e+00
      685750000   -3.883278370e-01    8.908010125e-01    4.077702761e-05   -1.389812678e-05    0.000000000e+00    0.000000000e+00    0.000000000e+00    0.000000000e+00
      693000000   -2.820946276e-01    9.141006470e-01    8.611008525e-06    4.974473268e-05    0.000000000e+00    0.000000000e+00    0.000000000e+00    0.000000000e+00
      700250000   -1.742035151e-01    9.254475236e-01    3.594905138e-07   -5.672685802e-06    0.000000000e+00    0.000000000e+00    0.000000000e+00    0.000000000e+00
      707500000   -6.811325997e-02    9.260020852e-01   -6.084330380e-06    1.347158104e-05    0.000000000e+00    0.000000000e+00    0.000000000e+00    0.000000000e+00
      714750000    3.721365705e-02    9.152925014e-01    2.851802856e-05    1.411791891e-05    0.000000000e+00    0.000000000e+00    0.000000000e+00    0.000000000e+00
      722000000    1.379243881e-01    8.933199048e-01   -2.113077790e-05   -4.303641617e-06    0.000000000e+00    0.000000000e+00    0.000000000e+00    0.000000000e+00
      729250000    2.370944023e-01    8.620621562e-01    9.885057807e-06   -1.812167466e-05    0.000000000e+00    0.000000000e+00    0.000000000e+00    0.000000000e+00
      736500000    3.296932280e-01    8.212509751e-01    4.230067134e-06    2.505257726e-06    0.000000000e+00    0.000000000e+00    0.000000000e+00    0.000000000e+00
      743750000    4.185983241e-01    7.715628147e-01   -7.051043212e-06   -3.798305988e-05    0.000000000e+00    0.000000000e+00    0.000000000e+00    0.000000000e+00
      751000000    5.014200211e-01    7.127125263e-01   -3.099627793e-05    5.384162068e-05    0.000000000e+00    0.000000000e+00    0.000000000e+00    0.000000000e+00
      758250000    5.770250559e-01    6.470278502e-01   -4.873611033e-05    1.279637218e-05    0.000000000e+00    0.000000000e+00    0.000000000e+00    0.000000000e+00
      765500000    6.459782124e-01    5.759084821e-01   -5.318131298e-05    1.145619899e-05    0.000000000e+00    0.000000000e+00    0.000000000e+00    0.000000000e+00
      772750000    7.083759308e-01    4.949592650e-01   -8.172355592e-06   -1.788232476e-05    0.000000000e+00    0.000000000e+00    0.000000000e+00    0.000000000e+00
      780000000    7.605352402e-01    4.120285809e-01    1.897104084e-06    3.397557884e-05    0.000000000e+00    0.000000000e+00    0.000000000e+00    0.000000000e+00
      787250000    8.068808913e-01    3.197544515e-01   -3.275554627e-05    5.559995770e-07    0.000000000e+00    0.000000000e+00    0.000000000e+00    0.000000000e+00
      794500000    8.430988789e-01    2.262984067e-01    2.372078598e-05    5.755573511e-07    0.000000000e+00    0.000000000e+00    0.000000000e+00    0.000000000e+00
      801750000    8.700410724e-01    1.270734966e-01   -2.598389983e-06   -1.552607864e-05    0.000000000e+00    0.000000000e+00    0.000000000e+00    0.000000000e+00
      809000000    8.868921995e-01    2.625081316e-02    1.452863216e-06    1.804530621e-05    0.000000000e+00    0.000000000e+00    0.000000000e+00    0.000000000e+00
      816250000    8.934010267e-01   -7.711219788e-02    1.054257154e-06    1.211557537e-05    0.000000000e+00    0.000000000e+00    0.000000000e+00    0.000000000e+00
      823500000    8.883900046e-01   -1.837985516e-01    1.363176852e-05    2.323556691e-05    0.000000000e+00    0.000000000e+00    0.000000000e+00    0.000000000e+00
      830750000    8.720338941e-01   -2.891978323e-01    6.644986570e-06    8.130446076e-06    0.000000000e+00    0.000000000e+00    0.000000000e+00    0.000000000e+00
      838000000    8.446466327e-01   -3.922567666e-01    1.994427294e-05   -3.248173743e-05    0.000000000e+00    0.000000000e+00    0.000000000e+00    0.000000000e+00
      845250000    8.054766655e-01   -4.947963953e-01    1.152511686e-05    1.993309706e-05    0.000000000e+00    0.000000000e+00    0.000000000e+00    0.000000000e+00
      852500000    7.543228865e-01   -5.931620002e-01    4.158727825e-05   -1.284852624e-05    0.000000000e+00    0.000000000e+00    0.000000000e+00    0.000000000e+00
      859750000    6.920921803e-01   -6.862880588e-01    3.037229180e-05   -1.776684076e-05    0.000000000e+00    0.000000000e+00    0.000000000e+00    0.000000000e+00
      867000000    6.145531535e-01   -7.747540474e-01   -1.938454807e-05    8.538365364e-06    0.000000000e+00    0.000000000e+00    0.000000000e+00    0.000000000e+00
      874250000    5.288182497e-01   -8.514246941e-01    4.676450044e-05    4.647299647e-07    0.000000000e+00    0.000000000e+00    0.000000000e+00    0.000000000e+00
      881500000    4.300637245e-01   -9.205771685e-01   -5.467049778e-05    2.778787166e-05    0.000000000e+00    0.000000000e+00    0.000000000e+00    0.000000000e+00
      888750000    3.241494298e-01   -9.758728147e-01   -3.388989717e-05   -4.963949323e-07    0.000000000e+00    0.000000000e+00    0.000000000e+00    0.000000000e+00
      896000000    2.105856240e-01   -1.018308997e+00   -2.292264253e-05    5.197525024e-05    0.000000000e+00    0.000000000e+00    0.000000000e+00    0.000000000e+00
      903250000    9.009943157e-02   -1.045111895e+00    4.134140909e-06    1.699849963e-05    0.000000000e+00    0.000000000e+00    0.000000000e+00    0.000000000e+00
      910500000   -3.589054197e-02   -1.055058360e+00    4.339963198e-06   -2.895947546e-05    0.000000000e+00    0.000000000e+00    0.000000000e+00    0.000000000e+00
      917750000   -1.593612581e-01   -1.049379587e+00    5.426723510e-05   -2.904515713e-05    0.000000000e+00    0.000000000e+00    0.000000000e+00    0.000000000e+00
      925000000   -2.819261551e-01   -1.026868701e+00   -7.877126336e-06    3.034155816e-05    0.000000000e+00    0.000000000e+00    0.000000000e+00    0.000000000e+00
      932250000   -4.016402960e-01   -9.865736365e-01   -5.747191608e-06    1.771654934e-05    0.000000000e+00    0.000000000e+00    0.000000000e+00    0.000000000e+00
      939500000   -5.116652250e-01   -9.314128757e-01   -1.961644739e-05   -2.849847078e-07    0.000000000e+00    0.000000000e+00    0.000000000e+00    0.000000000e+00
      946750000   -6.143283248e-01   -8.612452745e-01    4.114583135e-06   -6.861984730e-06    0.000000000e+00    0.000000000e+00    0.000000000e+00    0.000000000e+00
      954000000   -7.048403621e-01   -7.794398069e-01    2.518389374e-05   -9.228475392e-06    0.000000000e+00    0.000000000e+00    0.000000000e+00    0.000000000e+00
      961250000   -7.819439769e-01   -6.879106760e-01   -2.291332930e-05   -1.084897667e-05    0.000000000e+00    0.000000000e+00    0.000000000e+00    0.000000000e+00
      968500000   -8.462566137e-01   -5.862506032e-01    4.580430686e-05   -2.661999315e-05    0.000000000e+00    0.000000000e+00    0.000000000e+00    0.000000000e+00
      975750000   -8.948190212e-01   -4.816077352e-01    7.374212146e-06    3.076065332e-05    0.000000000e+00    0.000000000e+00    0.000000000e+00    0.000000000e+00
      983000000   -9.290335774e-01   -3.742943108e-01    2.847146243e-05   -1.827254891e-06    0.000000000e+00    0.000000000e+00    0.000000000e+00    0.000000000e+00
      990250000   -9.487576485e-01   -2.646968067e-01    2.178642899e-05   -3.732740879e-06    0.000000000e+00    0.000000000e+00    0.000000000e+00    0.000000000e+00
      997500000   -9.544950724e-01   -1.554226875e-01    3.240164369e-05   -2.454034984e-05    0.000000000e+00    0.000000000e+00    0.000000000e+00    0.000000000e+00
     1004750000   -9.477668405e-01   -5.012785271e-02   -2.429168671e-05   -6.881542504e-06    0.000000000e+00    0.000000000e+00    0.000000000e+00    0.000000000e+00
     1012000000   -9.293732643e-01    5.156467855e-02   -1.041032374e-05   -4.705227911e-05    0.000000000e+00    0.000000000e+00    0.000000000e+00    0.000000000e+00
     1019250000   -9.002586007e-01    1.469330341e-01    3.214552999e-05   -9.297393262e-06    0.000000000e+00    0.000000000e+00    0.000000000e+00    0.000000000e+00
     1026500000   -8.627275825e-01    2.347669452e-01   -1.687090844e-05    4.247762263e-05    0.000000000e+00    0.000000000e+00    0.000000000e+00    0.000000000e+00
     1033750000   -8.164272904e-01    3.177692592e-01   -1.842807978e-05    1.781620085e-06    0.000000000e+00    0.000000000e+00    0.000000000e+00    0.000000000e+00
     1041000000   -7.646967769e-01    3.933242559e-01    2.617854625e-05    3.129243851e-06    0.000000000e+00    0.000000000e+00    0.000000000e+00    0.000000000e+00
