! NanoVNA-App
! Date: 2024-06-25 16:11:29
! Start: 200MHz Stop: 6GHz Points: 801
! S-Parameter data: F S11 S21 S12 S22
# Hz S RI R 50
!     Frequency           S11_Real           S11_Imag           S21_Real           S21_Imag           S12_Real           S12_Imag           S22_Real           S22_Imag
      200000000   -9.982591271e-01   -1.183788404e-01    2.961605787e-07    6.139278412e-06    0.000000000e+00    0.000000000e+00    0.000000000e+00    0.000000000e+00
      207250000   -1.010101438e+00   -1.954548992e-02    6.356090307e-05   -2.904888242e-05    0.000000000e+00    0.000000000e+00    0.000000000e+00    0.000000000e+00
      214500000   -1.011955619e+00    8.188430965e-02   -7.664784789e-06    9.520910680e-06    0.000000000e+00    0.000000000e+00    0.000000000e+00    0.000000000e+00
      221750000   -1.002936244e+00    1.845849007e-01   -8.541159332e-06    2.961885184e-05    0.000000000e+00    0.000000000e+00    0.000000000e+00    0.000000000e+00
      229000000   -9.828622341e-01    2.874616683e-01   -3.293063492e-05   -9.599141777e-06    0.000000000e+00    0.000000000e+00    0.000000000e+00    0.000000000e+00
      236250000   -9.520613551e-01    3.901045918e-01    3.170967102e-05    1.125968993e-06    0.000000000e+00    0.000000000e+00    0.000000000e+00    0.000000000e+00
      243500000   -9.074600339e-01    4.901845455e-01   -6.305053830e-07   -2.526957542e-05    0.000000000e+00    0.000000000e+00    0.000000000e+00    0.000000000e+00
      250750000   -8.519206047e-01    5.868512988e-01   -1.526810229e-05   -1.018494368e-05    0.000000000e+00    0.000000000e+00    0.000000000e+00    0.000000000e+00
      258000000   -7.840386629e-01    6.782436967e-01   -2.021715045e-05   -2.299621701e-05    0.000000000e+00    0.000000000e+00    0.000000000e+00    0.000000000e+00
      265250000   -7.044523954e-01    7.622219324e-01    6.562098861e-06    4.028901458e-06    0.000000000e+00    0.000000000e+00    0.000000000e+00    0.000000000e+00
      272500000   -6.131187677e-01    8.371776342e-01    2.708751708e-05    1.562200487e-05    0.000000000e+00    0.000000000e+00    0.000000000e+00    0.000000000e+00
      279750000   -5.126221180e-01    9.014320970e-01    1.418869942e-05    5.615875125e-06    0.000000000e+00    0.000000000e+00    0.000000000e+00    0.000000000e+00
      287000000   -4.026787579e-01    9.541823864e-01   -2.285465598e-06   -1.174211502e-05    0.000000000e+00    0.000000000e+00    0.000000000e+00    0.000000000e+00
      294250000   -2.859956026e-01    9.924380183e-01    1.171417534e-05   -3.653764725e-05    0.000000000e+00    0.000000000e+00    0.000000000e+00    0.000000000e+00
      301500000   -1.634702682e-01    1.015430927e+00    2.562813461e-05    2.349168062e-05    0.000000000e+00    0.000000000e+00    0.000000000e+00    0.000000000e+00
      308750000   -3.793200105e-02    1.024036765e+00   -5.244277418e-06   -1.061428338e-05    0.000000000e+00    0.000000000e+00    0.000000000e+00    0.000000000e+00
      316000000    8.855773509e-02    1.014905334e+00    8.473172784e-06    4.136376083e-05    0.000000000e+00    0.000000000e+00    0.000000000e+00    0.000000000e+00
      323250000    2.127539814e-01    9.901479483e-01   -4.069879651e-07   -3.043562174e-06    0.000000000e+00    0.000000000e+00    0.000000000e+00    0.000000000e+00
      330500000    3.332211375e-01    9.495273829e-01   -1.349952072e-05    1.563504338e-05    0.000000000e+00    0.000000000e+00    0.000000000e+00    0.000000000e+00
      337750000    4.467988014e-01    8.948393464e-01   -4.511140287e-05    2.090074122e-05    0.000000000e+00    0.000000000e+00    0.000000000e+00    0.000000000e+00
      345000000    5.523252487e-01    8.242776990e-01    1.119449735e-06    2.348050475e-05    0.000000000e+00    0.000000000e+00    0.000000000e+00    0.000000000e+00
      352250000    6.473779082e-01    7.422629595e-01    1.739338040e-05    9.631738067e-06    0.000000000e+00    0.000000000e+00    0.000000000e+00    0.000000000e+00
      359500000    7.317035198e-01    6.499530673e-01    2.183020115e-06   -1.104734838e-05    0.000000000e+00    0.000000000e+00    0.000000000e+00    0.000000000e+00
      366750000    8.026278019e-01    5.493422747e-01    1.456309110e-05   -2.079829574e-05    0.000000000e+00    0.000000000e+00    0.000000000e+00    0.000000000e+00
      374000000    8.605639935e-01    4.418171048e-01   -1.212023199e-05    1.970212907e-05    0.000000000e+00    0.000000000e+00    0.000000000e+00    0.000000000e+00
      381250000    9.046718478e-01    3.279802799e-01   -3.413297236e-06    2.085231245e-06    0.000000000e+00    0.000000000e+00    0.000000000e+00    0.000000000e+00
      388500000    9.341333508e-01    2.127580941e-01   -3.243610263e-05   -4.164874554e-06    0.000000000e+00    0.000000000e+00    0.000000000e+00    0.000000000e+00
      395750000    9.514060020e-01    9.554667026e-02   -1.699943095e-05   -3.721285611e-05    0.000000000e+00    0.000000000e+00    0.000000000e+00    0.000000000e+00
      403000000    9.544007182e-01   -2.167892270e-02   -1.094676554e-05   -5.762092769e-06    0.000000000e+00    0.000000000e+00    0.000000000e+00    0.000000000e+00
      410250000    9.446532726e-01   -1.374707669e-01   -1.178774983e-05    1.845508814e-05    0.000000000e+00    0.000000000e+00    0.000000000e+00    0.000000000e+00
      417500000    9.232969284e-01   -2.488413751e-01   -8.651986718e-06    1.170113683e-05    0.000000000e+00    0.000000000e+00    0.000000000e+00    0.000000000e+00
      424750000    8.881967068e-01   -3.582454622e-01   -9.985640645e-06   -1.794565469e-05    0.000000000e+00    0.000000000e+00    0.000000000e+00    0.000000000e+00
      432000000    8.439322114e-01   -4.606116116e-01   -9.533949196e-06    2.383254468e-05    0.000000000e+00    0.000000000e+00    0.000000000e+00    0.000000000e+00
      439250000    7.891641259e-01   -5.582147837e-01    2.224650234e-05   -7.188878953e-06    0.000000000e+00    0.000000000e+00    0.000000000e+00    0.000000000e+00
      446500000    7.248092294e-01   -6.473551393e-01   -6.102956831e-06    2.844352275e-05    0.000000000e+00    0.000000000e+00    0.000000000e+00    0.000000000e+00
      453750000    6.512289047e-01   -7.305490971e-01    1.469813287e-05   -8.261762559e-06    0.000000000e+00    0.000000000e+00    0.000000000e+00    0.000000000e+00
      461000000    5.709016323e-01   -8.041618466e-01    3.292225301e-06   -6.558373570e-06    0.000000000e+00    0.000000000e+00    0.000000000e+00    0.000000000e+00
      468250000    4.828973413e-01   -8.693670034e-01    1.658033580e-05    1.870095730e-06    0.000000000e+00    0.000000000e+00    0.000000000e+00    0.000000000e+00
      475500000    3.884741366e-01   -9.249880314e-01    3.094226122e-05    2.192333341e-05    0.000000000e+00    0.000000000e+00    0.000000000e+00    0.000000000e+00
      482750000    2.885924280e-01   -9.707904458e-01    6.200745702e-06   -2.829357982e-06    0.000000000e+00    0.000000000e+00    0.000000000e+00    0.000000000e+00
      490000000    1.854530424e-01   -1.006182671e+00    1.185480505e-05   -2.345163375e-05    0.000000000e+00    0.000000000e+00    0.000000000e+00    0.000000000e+00
      497250000    7.792175561e-02   -1.030650139e+00    1.786649227e-05    5.878973752e-05    0.000000000e+00    0.000000000e+00    0.000000000e+00    0.000000000e+00
      504500000   -3.177007660e-02   -1.043016911e+00   -6.138347089e-06   -4.841014743e-06    0.000000000e+00    0.000000000e+00    0.000000000e+00    0.000000000e+00
      511750000   -1.430910230e-01   -1.044427276e+00    2.462603152e-05   -4.799105227e-06    0.000000000e+00    0.000000000e+00    0.000000000e+00    0.000000000e+00
      519000000   -2.547736764e-01   -1.033117056e+00    2.297013998e-05   -2.090819180e-06    0.000000000e+00    0.000000000e+00    0.000000000e+00    0.000000000e+00
      526250000   -3.648400009e-01   -1.009679317e+00    2.999603748e-05    1.194886863e-05    0.000000000e+00    0.000000000e+00    0.000000000e+00    0.000000000e+00
      533500000   -4.738819003e-01   -9.734120369e-01    1.824367791e-05    1.159124076e-05    0.000000000e+00    0.000000000e+00    0.000000000e+00    0.000000000e+00
      540750000   -5.778610110e-01   -9.251900315e-01   -9.510666132e-06    1.875124872e-05    0.000000000e+00    0.000000000e+00    0.000000000e+00    0.000000000e+00
      548000000   -6.768702269e-01   -8.649541736e-01   -2.234335989e-05    1.212488860e-05    0.000000000e+00    0.000000000e+00    0.000000000e+00    0.000000000e+00
      555250000   -7.676897049e-01   -7.937213182e-01   -2.539251000e-05   -1.195166260e-05    0.000000000e+00    0.000000000e+00    0.000000000e+00    0.000000000e+00
      562500000   -8.510025144e-01   -7.100335956e-01   -1.662038267e-05   -1.259334385e-05    0.000000000e+00    0.000000000e+00    0.000000000e+00    0.000000000e+00
      569750000   -9.242529869e-01   -6.186462045e-01   -3.666616976e-06    2.472382039e-05    0.000000000e+00    0.000000000e+00    0.000000000e+00    0.000000000e+00
      577000000   -9.869689941e-01   -5.169809461e-01   -5.193054676e-06   -1.522433013e-05    0.000000000e+00    0.000000000e+00    0.000000000e+00    0.000000000e+00
      584250000   -1.036260724e+00   -4.092330337e-01    8.714385331e-06   -1.650582999e-05    0.000000000e+00    0.000000000e+00    0.000000000e+00    0.000000000e+00
      591500000   -1.072873950e+00   -2.945936322e-01    3.006774932e-05    4.589557648e-06    0.000000000e+00    0.000000000e+00    0.000000000e+00    0.000000000e+00
      598750000   -1.096106887e+00   -1.762683988e-01    2.479180694e-05   -2.137385309e-06    0.000000000e+00    0.000000000e+00    0.000000000e+00    0.000000000e+00
      606000000   -1.103524208e+00   -5.678826943e-02    4.400499165e-06    2.631545067e-05    0.000000000e+00    0.000000000e+00    0.000000000e+00    0.000000000e+00
      613250000   -1.096914887e+00    6.333588809e-02    3.322679549e-05   -9.587965906e-06    0.000000000e+00    0.000000000e+00    0.000000000e+00    0.000000000e+00
      620500000   -1.075750470e+00    1.798270196e-01   -2.266559750e-05   -1.169089228e-05    0.000000000e+00    0.000000000e+00    0.000000000e+00    0.000000000e+00
      627750000   -1.039931536e+00    2.952555418e-01    4.907976836e-05   -2.277083695e-06    0.000000000e+00    0.000000000e+00    0.000000000e+00    0.000000000e+00
      635000000   -9.923264384e-01    4.026528597e-01   -3.852602094e-05   -2.971850336e-05    0.000000000e+00    0.000000000e+00    0.000000000e+00    0.000000000e+00
      642250000   -9.312587380e-01    5.031318069e-01   -1.376122236e-05    4.647765309e-05    0.000000000e+00    0.000000000e+00    0.000000000e+00    0.000000000e+00
      649500000   -8.604376912e-01    5.943182707e-01   -1.321546733e-05    9.071081877e-06    0.000000000e+00    0.000000000e+00    0.000000000e+00    0.000000000e+00
      656750000   -7.793824077e-01    6.763736606e-01   -5.269423127e-05   -2.666376531e-05    0.000000000e+00    0.000000000e+00    0.000000000e+00    0.000000000e+00
      664000000   -6.895251274e-01    7.477810979e-01   -3.434158862e-05    7.074326277e-06    0.000000000e+00    0.000000000e+00    0.000000000e+00    0.000000000e+00
      671250000   -5.933946371e-01    8.070371151e-01    3.659259528e-05   -8.706934750e-06    0.000000000e+00    0.000000000e+00    0.000000000e+00    0.000000000e+00
      678500000   -4.928605556e-01    8.546702862e-01   -8.223578334e-07   -1.764390618e-05    0.000000000e+00    0.000000000e+00    0.000000000e+00    0.000000000e+00
      685750000   -3.886898160e-01    8.909574747e-01   -2.445932478e-05   -1.256540418e-05    0.000000000e+00    0.000000000e+00    0.000000000e+00    0.000000000e+00
      693000000   -2.825103402e-01    9.146715403e-01    5.453266203e-05   -3.159977496e-06    0.000000000e+00    0.000000000e+00    0.000000000e+00    0.000000000e+00
      700250000   -1.749427468e-01    9.258607626e-01    8.326023817e-07    3.657396883e-05    0.000000000e+00    0.000000000e+00    0.000000000e+00    0.000000000e+00
      707500000   -6.945455819e-02    9.261369109e-01   -1.266133040e-05    3.423169255e-05    0.000000000e+00    0.000000000e+00    0.000000000e+00    0.000000000e+00
      714750000    3.750334308e-02    9.142565727e-01   -3.183260560e-06    2.980232239e-08    0.000000000e+00    0.000000000e+00    0.000000000e+00    0.000000000e+00
      722000000    1.369007528e-01    8.935749531e-01   -3.305170685e-05   -1.933705062e-05    0.000000000e+00    0.000000000e+00    0.000000000e+00    0.000000000e+00
      729250000    2.378664464e-01    8.619132638e-01   -9.696930647e-06    1.324992627e-05    0.000000000e+00    0.000000000e+00    0.000000000e+00    0.000000000e+00
      736500000    3.303547502e-01    8.210062385e-01   -1.125782728e-05   -1.254118979e-05    0.000000000e+00    0.000000000e+00    0.000000000e+00    0.000000000e+00
      743750000    4.188051522e-01    7.714627981e-01   -7.511116564e-06   -2.468004823e-06    0.000000000e+00    0.000000000e+00    0.000000000e+00    0.000000000e+00
      751000000    5.018081069e-01    7.135431767e-01    4.927348346e-05    1.452025026e-05    0.000000000e+00    0.000000000e+00    0.000000000e+00    0.000000000e+00
      758250000    5.773353577e-01    6.472337842e-01   -2.303160727e-05   -3.697909415e-05    0.000000000e+00    0.000000000e+00    0.000000000e+00    0.000000000e+00
      765500000    6.456878781e-01    5.751981139e-01   -3.082584590e-05   -2.223998308e-05    0.000000000e+00    0.000000000e+00    0.000000000e+00    0.000000000e+00
      772750000    7.084728479e-01    4.948101640e-01    1.224130392e-05    2.503022552e-05    0.000000000e+00    0.000000000e+00    0.000000000e+00    0.000000000e+00
      780000000    7.608629465e-01    4.115487933e-01    2.198945731e-05    1.995824277e-05    0.000000000e+00    0.000000000e+00    0.000000000e+00    0.000000000e+00
      787250000    8.073562384e-01    3.214815557e-01    2.172868699e-05   -1.662876457e-05    0.000000000e+00    0.000000000e+00    0.000000000e+00    0.000000000e+00
      794500000    8.434461355e-01    2.261732966e-01    1.038517803e-05   -3.610644490e-05    0.000000000e+00    0.000000000e+00    0.000000000e+00    0.000000000e+00
      801750000    8.699224591e-01    1.278277487e-01   -1.579057425e-05    2.671871334e-05    0.000000000e+00    0.000000000e+00    0.000000000e+00    0.000000000e+00
      809000000    8.866774440e-01    2.599994093e-02   -1.709349453e-05   -1.215189695e-05    0.000000000e+00    0.000000000e+00    0.000000000e+00    0.000000000e+00
      816250000    8.932750821e-01   -7.714881748e-02    2.970919013e-06    7.431954145e-07    0.000000000e+00    0.000000000e+00    0.000000000e+00    0.000000000e+00
      823500000    8.887983561e-01   -1.833198071e-01   -2.779811621e-05   -1.828838140e-05    0.000000000e+00    0.000000000e+00    0.000000000e+00    0.000000000e+00
      830750000    8.730250001e-01   -2.875574827e-01    8.883886039e-06    1.080613583e-05    0.000000000e+00    0.000000000e+00    0.000000000e+00    0.000000000e+00
      838000000    8.449878097e-01   -3.931159973e-01    1.703575253e-05    3.288500011e-05    0.000000000e+00    0.000000000e+00    0.000000000e+00    0.000000000e+00
      845250000    8.059778214e-01   -4.949964881e-01   -2.060271800e-05    2.277269959e-05    0.000000000e+00    0.000000000e+00    0.000000000e+00    0.000000000e+00
      852500000    7.542552352e-01   -5.930388570e-01   -1.257378608e-05    2.253800631e-06    0.000000000e+00    0.000000000e+00    0.000000000e+00    0.000000000e+00
      859750000    6.913721561e-01   -6.862608194e-01   -2.762116492e-05    2.001225948e-05    0.000000000e+00    0.000000000e+00    0.000000000e+00    0.000000000e+00
      867000000    6.152718067e-01   -7.742546797e-01   -1.047458500e-05   -1.759082079e-05    0.000000000e+00    0.000000000e+00    0.000000000e+00    0.000000000e+00
      874250000    5.295467973e-01   -8.510806561e-01   -7.678754628e-06    2.049840987e-06    0.000000000e+00    0.000000000e+00    0.000000000e+00    0.000000000e+00
      881500000    4.299793541e-01   -9.207692146e-01   -1.801922917e-05    1.690071076e-05    0.000000000e+00    0.000000000e+00    0.000000000e+00    0.000000000e+00
      888750000    3.253507316e-01   -9.758493900e-01   -8.367002010e-06    3.739632666e-05    0.000000000e+00    0.000000000e+00    0.000000000e+00    0.000000000e+00
      896000000    2.087906003e-01   -1.017951369e+00   -2.363510430e-05   -4.714168608e-05    0.000000000e+00    0.000000000e+00    0.000000000e+00    0.000000000e+00
      903250000    9.023079276e-02   -1.044607401e+00   -6.552506238e-05   -1.039635390e-05    0.000000000e+00    0.000000000e+00    0.000000000e+00    0.000000000e+00
      910500000   -3.339016065e-02   -1.056442976e+00   -9.091570973e-06    5.592592061e-06    0.000000000e+00    0.000000000e+00    0.000000000e+00    0.000000000e+00
      917750000   -1.591041237e-01   -1.049266934e+00    3.533717245e-05    1.920200884e-05    0.000000000e+00    0.000000000e+00    0.000000000e+00    0.000000000e+00
      925000000   -2.814324796e-01   -1.026494265e+00    2.011936158e-05   -2.567935735e-05    0.000000000e+00    0.000000000e+00    0.000000000e+00    0.000000000e+00
      932250000   -4.001914263e-01   -9.872977734e-01   -3.854278475e-05    2.472754568e-05    0.000000000e+00    0.000000000e+00    0.000000000e+00    0.000000000e+00
      939500000   -5.118099451e-01   -9.318473339e-01   -2.292916179e-05    1.468416303e-05    0.000000000e+00    0.000000000e+00    0.000000000e+00    0.000000000e+00
      946750000   -6.149672866e-01   -8.608237505e-01   -2.005044371e-05    4.075467587e-06    0.000000000e+00    0.000000000e+00    0.000000000e+00    0.000000000e+00
      954000000   -7.051070929e-01   -7.790173292e-01   -4.241429269e-05    2.814363688e-05    0.000000000e+00    0.000000000e+00    0.000000000e+00    0.000000000e+00
      961250000   -7.818565369e-01   -6.883885264e-01    1.326203346e-05    6.010103971e-05    0.000000000e+00    0.000000000e+00    0.000000000e+00    0.000000000e+00
      968500000   -8.460344076e-01   -5.875884891e-01    1.173466444e-05   -1.287832856e-05    0.000000000e+00    0.000000000e+00    0.000000000e+00    0.000000000e+00
      975750000   -8.939963579e-01   -4.837965667e-01   -3.156624734e-05   -9.781681001e-06    0.000000000e+00    0.000000000e+00    0.000000000e+00    0.000000000e+00
      983000000   -9.293560386e-01   -3.726181686e-01    4.653446376e-05    3.465916961e-05    0.000000000e+00    0.000000000e+00    0.000000000e+00    0.000000000e+00
      990250000   -9.482119679e-01   -2.637479305e-01    2.947915345e-05    6.976537406e-06    0.000000000e+00    0.000000000e+00    0.000000000e+00    0.000000000e+00
      997500000   -9.543187022e-01   -1.551845819e-01    1.717358828e-06   -1.964252442e-05    0.000000000e+00    0.000000000e+00    0.000000000e+00    0.000000000e+00
     1004750000   -9.479779005e-01   -5.007682368e-02    1.011416316e-06    6.018113345e-05    0.000000000e+00    0.000000000e+00    0.000000000e+00    0.000000000e+00
     1012000000   -9.298130274e-01    5.059798807e-02    8.636154234e-06   -1.741573215e-06    0.000000000e+00    0.000000000e+00    0.000000000e+00    0.000000000e+00
     1019250000   -9.006133080e-01    1.456845254e-01   -9.421259165e-06    1.462269574e-05    0.000000000e+00    0.000000000e+00    0.000000000e+00    0.000000000e+00
     1026500000   -8.625361323e-01    2.350100726e-01    4.221592098e-05    3.986246884e-05    0.000000000e+00    0.000000000e+00    0.000000000e+00    0.000000000e+00
     1033750000   -8.162389994e-01    3.190773129e-01   -1.817289740e-05   -2.160202712e-05    0.000000000e+00    0.000000000e+00    0.000000000e+00    0.000000000e+00
     1041000000   -7.635877132e-01    3.944215178e-01   -2.765841782e-05   -4.034396261e-05    0.000000000e+00    0.000000000e+00    0.000000000e+00    0.000000000e+00
