! NanoVNA-App
! Date: 2024-06-25 16:11:37
! Start: 200MHz Stop: 6GHz Points: 801
! S-Parameter data: F S11 S21 S12 S22
# Hz S RI R 50
!     Frequency           S11_Real           S11_Imag           S21_Real           S21_Imag           S12_Real           S12_Imag           S22_Real           S22_Imag
      200000000   -9.980856180e-01   -1.183640659e-01    5.049631000e-06   -4.468485713e-06    0.000000000e+00    0.000000000e+00    0.000000000e+00    0.000000000e+00
      207250000   -1.010347009e+00   -1.939737424e-02    1.847930253e-05   -1.303572208e-05    0.000000000e+00    0.000000000e+00    0.000000000e+00    0.000000000e+00
      214500000   -1.011557460e+00    8.196130395e-02    3.143865615e-05    9.220093489e-08    0.000000000e+00    0.000000000e+00    0.000000000e+00    0.000000000e+00
      221750000   -1.003009200e+00    1.844814122e-01   -9.872019291e-06   -3.131665289e-05    0.000000000e+00    0.000000000e+00    0.000000000e+00    0.000000000e+00
      229000000   -9.829291105e-01    2.878607810e-01    2.568587661e-06    1.063570380e-06    0.000000000e+00    0.000000000e+00    0.000000000e+00    0.000000000e+00
      236250000   -9.513487816e-01    3.901479542e-01    4.661828279e-05    5.302391946e-05    0.000000000e+00    0.000000000e+00    0.000000000e+00    0.000000000e+00
      243500000   -9.073221684e-01    4.899635315e-01    5.372799933e-06    3.067031503e-05    0.000000000e+00    0.000000000e+00    0.000000000e+00    0.000000000e+00
      250750000   -8.520468473e-01    5.867263675e-01   -3.693345934e-05   -1.441873610e-05    0.000000000e+00    0.000000000e+00    0.000000000e+00    0.000000000e+00
      258000000   -7.840013504e-01    6.782866120e-01   -6.113201380e-06   -1.039542258e-05    0.000000000e+00    0.000000000e+00    0.000000000e+00    0.000000000e+00
      265250000   -7.049027085e-01    7.621829510e-01    3.765430301e-05    1.989118755e-05    0.000000000e+00    0.000000000e+00    0.000000000e+00    0.000000000e+00
      272500000   -6.132533550e-01    8.373114467e-01   -1.779478043e-05    2.354942262e-05    0.000000000e+00    0.000000000e+00    0.000000000e+00    0.000000000e+00
      279750000   -5.135576129e-01    9.019134641e-01   -1.829117537e-06    9.033828974e-08    0.000000000e+00    0.000000000e+00    0.000000000e+00    0.000000000e+00
      287000000   -4.024643898e-01    9.544258714e-01   -1.771841198e-05    2.927519381e-05    0.000000000e+00    0.000000000e+00    0.000000000e+00    0.000000000e+00
      294250000   -2.856193781e-01    9.923822880e-01   -1.049600542e-06   -8.551403880e-06    0.000000000e+00    0.000000000e+00    0.000000000e+00    0.000000000e+00
      301500000   -1.632311195e-01    1.015716195e+00   -1.172348857e-05    1.390464604e-05    0.000000000e+00    0.000000000e+00    0.000000000e+00    0.000000000e+00
      308750000   -3.833717853e-02    1.024146080e+00    6.635673344e-06   -3.111641854e-05    0.000000000e+00    0.000000000e+00    0.000000000e+00    0.000000000e+00
      316000000    8.805150539e-02    1.015815854e+00   -1.145154238e-05   -7.906928658e-07    0.000000000e+00    0.000000000e+00    0.000000000e+00    0.000000000e+00
      323250000    2.125131488e-01    9.900701642e-01   -2.897344530e-06   -6.219092757e-05    0.000000000e+00    0.000000000e+00    0.000000000e+00    0.000000000e+00
      330500000    3.329351842e-01    9.500195384e-01   -2.031121403e-05    7.971189916e-06    0.000000000e+00    0.000000000e+00    0.000000000e+00    0.000000000e+00
      337750000    4.466158152e-01    8.939291835e-01    6.472691894e-06    1.563131809e-05    0.000000000e+00    0.000000000e+00    0.000000000e+00    0.000000000e+00
      345000000    5.520009995e-01    8.239091635e-01   -4.366040230e-06   -1.919083297e-05    0.000000000e+00    0.000000000e+00    0.000000000e+00    0.000000000e+00
      352250000    6.475232840e-01    7.424448729e-01    5.429610610e-07   -3.085937351e-05    0.000000000e+00    0.000000000e+00    0.000000000e+00    0.000000000e+00
      359500000    7.313969135e-01    6.505929232e-01    1.151114702e-05   -1.490581781e-05    0.000000000e+00    0.000000000e+00    0.000000000e+00    0.000000000e+00
      366750000    8.024252057e-01    5.490231514e-01   -2.561509609e-05   -1.718942076e-05    0.000000000e+00    0.000000000e+00    0.000000000e+00    0.000000000e+00
      374000000    8.600831032e-01    4.408727586e-01   -1.469627023e-06    4.412047565e-05    0.000000000e+00    0.000000000e+00    0.000000000e+00    0.000000000e+00
      381250000    9.041909575e-01    3.277783692e-01   -1.325551420e-05    3.893859684e-06    0.000000000e+00    0.000000000e+00    0.000000000e+00    0.000000000e+00
      388500000    9.353243709e-01    2.123208344e-01   -5.024485290e-06   -7.036514580e-05    0.000000000e+00    0.000000000e+00    0.000000000e+00    0.000000000e+00
      395750000    9.514530897e-01    9.555563331e-02    2.616457641e-05    2.148095518e-05    0.000000000e+00    0.000000000e+00    0.000000000e+00    0.000000000e+00
      403000000    9.547221065e-01   -2.159878053e-02   -2.299714833e-05   -2.468563616e-05    0.000000000e+00    0.000000000e+00    0.000000000e+00    0.000000000e+00
      410250000    9.447723627e-01   -1.372055858e-01   -1.991167665e-05   -6.471760571e-06    0.000000000e+00    0.000000000e+00    0.000000000e+00    0.000000000e+00
      417500000    9.226429462e-01   -2.491938770e-01    2.415943891e-05   -1.513585448e-05    0.000000000e+00    0.000000000e+00    0.000000000e+00    0.000000000e+00
      424750000    8.890950084e-01   -3.579159379e-01   -2.233870327e-05    9.210780263e-06    0.000000000e+00    0.000000000e+00    0.000000000e+00    0.000000000e+00
      432000000    8.436649442e-01   -4.610422552e-01    1.698732376e-05    3.520213068e-05    0.000000000e+00    0.000000000e+00    0.000000000e+00    0.000000000e+00
      439250000    7.896481156e-01   -5.576239824e-01    4.401337355e-05   -6.726011634e-06    0.000000000e+00    0.000000000e+00    0.000000000e+00    0.000000000e+00
      446500000    7.246873975e-01   -6.474796534e-01   -2.018548548e-05    9.358860552e-06    0.000000000e+00    0.000000000e+00    0.000000000e+00    0.000000000e+00
      453750000    6.513093710e-01   -7.305707932e-01    2.578180283e-05    1.974776387e-05    0.000000000e+00    0.000000000e+00    0.000000000e+00    0.000000000e+00
      461000000    5.714210868e-01   -8.042339683e-01   -2.281740308e-07    1.091044396e-05    0.000000000e+00    0.000000000e+00    0.000000000e+00    0.000000000e+00
      468250000    4.829903841e-01   -8.691748977e-01    9.872950613e-06    1.531187445e-05    0.000000000e+00    0.000000000e+00    0.000000000e+00    0.000000000e+00
      475500000    3.880752325e-01   -9.253063798e-01   -3.867037594e-05   -1.673307270e-05    0.000000000e+00    0.000000000e+00    0.000000000e+00    0.000000000e+00
      482750000    2.890334129e-01   -9.706376195e-01    1.536961645e-05    3.705918789e-05    0.000000000e+00    0.000000000e+00    0.000000000e+00    0.000000000e+00
      490000000    1.853686571e-01   -1.005718589e+00    1.373328269e-05   -4.146248102e-06    0.000000000e+00    0.000000000e+00    0.000000000e+00    0.000000000e+00
      497250000    7.801780105e-02   -1.030268908e+00   -1.469161361e-05    8.576549590e-06    0.000000000e+00    0.000000000e+00    0.000000000e+00    0.000000000e+00
      504500000   -3.198662773e-02   -1.043464541e+00   -1.143105328e-05   -1.912936568e-05    0.000000000e+00    0.000000000e+00    0.000000000e+00    0.000000000e+00
      511750000   -1.441530138e-01   -1.043702126e+00   -1.036562026e-05    1.222919673e-05    0.000000000e+00    0.000000000e+00    0.000000000e+00    0.000000000e+00
      519000000   -2.552554011e-01   -1.033155322e+00   -1.436565071e-05   -1.619011164e-05    0.000000000e+00    0.000000000e+00    0.000000000e+00    0.000000000e+00
      526250000   -3.654098511e-01   -1.008921742e+00    2.888496965e-05   -1.473166049e-05    0.000000000e+00    0.000000000e+00    0.000000000e+00    0.000000000e+00
      533500000   -4.741415083e-01   -9.730951786e-01    2.839695662e-05   -1.285690814e-05    0.000000000e+00    0.000000000e+00    0.000000000e+00    0.000000000e+00
      540750000   -5.778110027e-01   -9.251123667e-01    1.290719956e-05   -2.723652869e-05    0.000000000e+00    0.000000000e+00    0.000000000e+00    0.000000000e+00
      548000000   -6.763216853e-01   -8.642959595e-01    3.534089774e-05   -8.520670235e-06    0.000000000e+00    0.000000000e+00    0.000000000e+00    0.000000000e+00
      555250000   -7.682965994e-01   -7.929373980e-01    1.896079630e-05   -1.894589514e-05    0.000000000e+00    0.000000000e+00    0.000000000e+00    0.000000000e+00
      562500000   -8.516648412e-01   -7.109733820e-01    3.137625754e-06    1.182965934e-05    0.000000000e+00    0.000000000e+00    0.000000000e+00    0.000000000e+00
      569750000   -9.242917895e-01   -6.187130213e-01    1.769512892e-08   -2.329703420e-05    0.000000000e+00    0.000000000e+00    0.000000000e+00    0.000000000e+00
      577000000   -9.872581959e-01   -5.171939731e-01   -9.919516742e-06    7.320195436e-07    0.000000000e+00    0.000000000e+00    0.000000000e+00    0.000000000e+00
      584250000   -1.036602139e+00   -4.084874094e-01   -9.250827134e-06    1.385062933e-05    0.000000000e+00    0.000000000e+00    0.000000000e+00    0.000000000e+00
      591500000   -1.073337436e+00   -2.952752113e-01    2.618506551e-05   -3.234576434e-05    0.000000000e+00    0.000000000e+00    0.000000000e+00    0.000000000e+00
      598750000   -1.095782638e+00   -1.761528850e-01    7.979571819e-06    2.523511648e-05    0.000000000e+00    0.000000000e+00    0.000000000e+00    0.000000000e+00
      606000000   -1.103407741e+00   -5.738603324e-02   -2.050958574e-05    1.835543662e-05    0.000000000e+00    0.000000000e+00    0.000000000e+00    0.000000000e+00
      613250000   -1.097258449e+00    6.235788018e-02   -1.752190292e-05   -1.473631710e-05    0.000000000e+00    0.000000000e+00    0.000000000e+00    0.000000000e+00
      620500000   -1.075559020e+00    1.808766723e-01    1.483596861e-06   -1.713633537e-07    0.000000000e+00    0.000000000e+00    0.000000000e+00    0.000000000e+00
      627750000   -1.040753126e+00    2.954966426e-01   -5.241483450e-06    2.053473145e-05    0.000000000e+00    0.000000000e+00    0.000000000e+00    0.000000000e+00
      635000000   -9.927350879e-01    4.022575617e-01   -1.681875437e-05    5.680136383e-06    0.000000000e+00    0.000000000e+00    0.000000000e+00    0.000000000e+00
      642250000   -9.318427444e-01    5.032463074e-01    3.806035966e-05   -2.348981798e-05    0.000000000e+00    0.000000000e+00    0.000000000e+00    0.000000000e+00
      649500000   -8.602032065e-01    5.943382978e-01    5.514360964e-06    1.492630690e-05    0.000000000e+00    0.000000000e+00    0.000000000e+00    0.000000000e+00
      656750000   -7.788602114e-01    6.764042974e-01    1.818500459e-05   -4.657078534e-05    0.000000000e+00    0.000000000e+00    0.000000000e+00    0.000000000e+00
      664000000   -6.896180511e-01    7.475091815e-01    4.551559687e-05   -1.386553049e-05    0.000000000e+00    0.000000000e+00    0.000000000e+00    0.000000000e+00
      671250000   -5.938526392e-01    8.071744442e-01    1.654680818e-05   -8.655712008e-06    0.000000000e+00    0.000000000e+00    0.000000000e+00    0.000000000e+00
      678500000   -4.927658439e-01    8.552939296e-01    1.860782504e-06   -1.963134855e-05    0.000000000e+00    0.000000000e+00    0.000000000e+00    0.000000000e+00
      685750000   -3.887907565e-01    8.906169534e-01   -3.833323717e-06    4.434026778e-06    0.000000000e+00    0.000000000e+00    0.000000000e+00    0.000000000e+00
      693000000   -2.818145156e-01    9.143371582e-01    9.965151548e-07    3.924965858e-05    0.000000000e+00    0.000000000e+00    0.000000000e+00    0.000000000e+00
      700250000   -1.746140420e-01    9.261570573e-01    1.487229019e-05    9.882263839e-06    0.000000000e+00    0.000000000e+00    0.000000000e+00    0.000000000e+00
      707500000   -6.861640513e-02    9.258874655e-01   -3.479421139e-05   -1.244898885e-05    0.000000000e+00    0.000000000e+00    0.000000000e+00    0.000000000e+00
      714750000    3.704840690e-02    9.147422314e-01    1.714099199e-05   -4.106760025e-05    0.000000000e+00    0.000000000e+00    0.000000000e+00    0.000000000e+00
      722000000    1.371455491e-01    8.938800097e-01   -6.368383765e-06    7.858499885e-06    0.000000000e+00    0.000000000e+00    0.000000000e+00    0.000000000e+00
      729250000    2.375240624e-01    8.614742160e-01   -4.233978689e-05   -8.981674910e-06    0.000000000e+00    0.000000000e+00    0.000000000e+00    0.000000000e+00
      736500000    3.304646909e-01    8.209614754e-01   -2.149585634e-05   -2.082623541e-05    0.000000000e+00    0.000000000e+00    0.000000000e+00    0.000000000e+00
      743750000    4.185646772e-01    7.714415789e-01    1.906324178e-05   -2.564582974e-05    0.000000000e+00    0.000000000e+00    0.000000000e+00    0.000000000e+00
      751000000    5.016727448e-01    7.136842012e-01   -4.487112164e-06   -1.634843647e-05    0.000000000e+00    0.000000000e+00    0.000000000e+00    0.000000000e+00
      758250000    5.767117739e-01    6.484347582e-01   -1.713633537e-06    1.115817577e-05    0.000000000e+00    0.000000000e+00    0.000000000e+00    0.000000000e+00
      765500000    6.467666626e-01    5.751569867e-01    3.300420940e-05    1.736637205e-05    0.000000000e+00    0.000000000e+00    0.000000000e+00    0.000000000e+00
      772750000    7.084813714e-01    4.949367046e-01    2.952292562e-05   -6.176531315e-06    0.000000000e+00    0.000000000e+00    0.000000000e+00    0.000000000e+00
      780000000    7.602788806e-01    4.118797779e-01    4.977826029e-05   -1.675356179e-05    0.000000000e+00    0.000000000e+00    0.000000000e+00    0.000000000e+00
      787250000    8.068964481e-01    3.201951087e-01   -1.157447696e-05    1.606438309e-05    0.000000000e+00    0.000000000e+00    0.000000000e+00    0.000000000e+00
      794500000    8.434717655e-01    2.265313566e-01    2.674665302e-05    5.938764662e-05    0.000000000e+00    0.000000000e+00    0.000000000e+00    0.000000000e+00
      801750000    8.701400757e-01    1.277074516e-01    4.995800555e-05   -1.119263470e-05    0.000000000e+00    0.000000000e+00    0.000000000e+00    0.000000000e+00
      809000000    8.869026303e-01    2.645350434e-02   -5.343928933e-06    1.627486199e-05    0.000000000e+00    0.000000000e+00    0.000000000e+00    0.000000000e+00
      816250000    8.933552504e-01   -7.667653263e-02   -1.504085958e-06    1.029297709e-05    0.000000000e+00    0.000000000e+00    0.000000000e+00    0.000000000e+00
      823500000    8.885517120e-01   -1.832972616e-01   -7.854774594e-06    2.341344953e-06    0.000000000e+00    0.000000000e+00    0.000000000e+00    0.000000000e+00
      830750000    8.734597564e-01   -2.870540023e-01   -1.328438520e-05   -1.659803092e-05    0.000000000e+00    0.000000000e+00    0.000000000e+00    0.000000000e+00
      838000000    8.443756104e-01   -3.932151198e-01   -3.873836249e-05   -6.385147572e-06    0.000000000e+00    0.000000000e+00    0.000000000e+00    0.000000000e+00
      845250000    8.056611419e-01   -4.948301911e-01    1.035351306e-05    2.830009907e-05    0.000000000e+00    0.000000000e+00    0.000000000e+00    0.000000000e+00
      852500000    7.541666627e-01   -5.933465958e-01   -3.413669765e-05    2.461485565e-05    0.000000000e+00    0.000000000e+00    0.000000000e+00    0.000000000e+00
      859750000    6.913060546e-01   -6.860662103e-01   -3.349501640e-05    3.327149898e-05    0.000000000e+00    0.000000000e+00    0.000000000e+00    0.000000000e+00
      867000000    6.147935987e-01   -7.742549777e-01   -2.592336386e-05   -1.251045614e-05    0.000000000e+00    0.000000000e+00    0.000000000e+00    0.000000000e+00
      874250000    5.292746425e-01   -8.516682386e-01    2.389121801e-05   -4.399847239e-05    0.000000000e+00    0.000000000e+00    0.000000000e+00    0.000000000e+00
      881500000    4.301440120e-01   -9.209901690e-01   -8.139759302e-07   -3.958120942e-06    0.000000000e+00    0.000000000e+00    0.000000000e+00    0.000000000e+00
      888750000    3.247459531e-01   -9.757697582e-01   -4.426203668e-05   -2.028606832e-05    0.000000000e+00    0.000000000e+00    0.000000000e+00    0.000000000e+00
      896000000    2.104984820e-01   -1.018221617e+00   -2.806633711e-05    4.768930376e-05    0.000000000e+00    0.000000000e+00    0.000000000e+00    0.000000000e+00
      903250000    9.119918197e-02   -1.045137882e+00   -3.601796925e-05   -2.456270158e-05    0.000000000e+00    0.000000000e+00    0.000000000e+00    0.000000000e+00
      910500000   -3.410348296e-02   -1.055513859e+00   -4.258751869e-05    3.683567047e-05    0.000000000e+00    0.000000000e+00    0.000000000e+00    0.000000000e+00
      917750000   -1.584353745e-01   -1.049398184e+00    1.221708953e-05    8.291564882e-06    0.000000000e+00    0.000000000e+00    0.000000000e+00    0.000000000e+00
      925000000   -2.814680338e-01   -1.027245522e+00    2.941396087e-05    1.701060683e-05    0.000000000e+00    0.000000000e+00    0.000000000e+00    0.000000000e+00
      932250000   -4.016349018e-01   -9.860171676e-01   -6.703659892e-06    6.390735507e-06    0.000000000e+00    0.000000000e+00    0.000000000e+00    0.000000000e+00
      939500000   -5.128745437e-01   -9.303774238e-01    4.483107477e-05    1.023896039e-05    0.000000000e+00    0.000000000e+00    0.000000000e+00    0.000000000e+00
      946750000   -6.144946218e-01   -8.611686826e-01    6.875954568e-06   -2.364628017e-06    0.000000000e+00    0.000000000e+00    0.000000000e+00    0.000000000e+00
      954000000   -7.035832405e-01   -7.806817293e-01   -6.586313248e-06    2.860091627e-05    0.000000000e+00    0.000000000e+00    0.000000000e+00    0.000000000e+00
      961250000   -7.813827991e-01   -6.880130172e-01    1.613702625e-05    1.164432615e-05    0.000000000e+00    0.000000000e+00    0.000000000e+00    0.000000000e+00
      968500000   -8.462367058e-01   -5.868587494e-01    2.765003592e-05    1.046340913e-05    0.000000000e+00    0.000000000e+00    0.000000000e+00    0.000000000e+00
      975750000   -8.945794702e-01   -4.826950729e-01   -1.084338874e-05   -2.668891102e-05    0.000000000e+00    0.000000000e+00    0.000000000e+00    0.000000000e+00
      983000000   -9.283517599e-01   -3.738882542e-01    2.381578088e-05    1.039169729e-05    0.000000000e+00    0.000000000e+00    0.000000000e+00    0.000000000e+00
      990250000   -9.488033652e-01   -2.634886205e-01   -8.610077202e-06   -2.906657755e-05    0.000000000e+00    0.000000000e+00    0.000000000e+00    0.000000000e+00
      997500000   -9.545163512e-01   -1.548280567e-01    2.067629248e-05    2.146512270e-05    0.000000000e+00    0.000000000e+00    0.000000000e+00    0.000000000e+00
     1004750000   -9.477851987e-01   -5.081798136e-02    1.033116132e-05   -2.596527338e-06    0.000000000e+00    0.000000000e+00    0.000000000e+00    0.000000000e+00
     1012000000   -9.294947386e-01    5.036921427e-02   -9.419396520e-06    1.504458487e-05    0.000000000e+00    0.000000000e+00    0.000000000e+00    0.000000000e+00
     1019250000   -9.004172683e-01    1.462697238e-01    1.955032349e-05   -2.993270755e-06    0.000000000e+00    0.000000000e+00    0.000000000e+00    0.000000000e+00
     1026500000   -8.624817729e-01    2.351205945e-01    2.976972610e-05   -1.625157893e-06    0.000000000e+00    0.000000000e+00    0.000000000e+00    0.000000000e+00
     1033750000   -8.157200217e-01    3.197597265e-01    8.536502719e-06   -7.550232112e-06    0.000000000e+00    0.000000000e+00    0.000000000e+00    0.000000000e+00
     1041000000   -7.639728785e-01    3.936907053e-01   -1.170206815e-05   -3.276765347e-05    0.000000000e+00    0.000000000e+00    0.000000000e+00    0.000000000e+00
