! NanoVNA-App
! Date: 2024-06-25 16:11:40
! Start: 200MHz Stop: 6GHz Points: 801
! S-Parameter data: F S11 S21 S12 S22
# Hz S RI R 50
!     Frequency           S11_Real           S11_Imag           S21_Real           S21_Imag           S12_Real           S12_Imag           S22_Real           S22_Imag
      200000000   -9.984215498e-01   -1.185180619e-01    1.823529601e-06    4.848465323e-06    0.000000000e+00    0.000000000e+00    0.000000000e+00    0.000000000e+00
      207250000   -1.010020375e+00   -1.956555061e-02   -4.858709872e-06    3.523193300e-06    0.000000000e+00    0.000000000e+00    0.000000000e+00    0.000000000e+00
      214500000   -1.011894345e+00    8.187344670e-02   -2.244859934e-05   -1.453980803e-05    0.000000000e+00    0.000000000e+00    0.000000000e+00    0.000000000e+00
      221750000   -1.002258658e+00    1.845055819e-01    1.190602779e-05   -1.666229218e-05    0.000000000e+00    0.000000000e+00    0.000000000e+00    0.000000000e+00
      229000000   -9.829286337e-01    2.873391807e-01    1.489091665e-05    2.267770469e-06    0.000000000e+00    0.000000000e+00    0.000000000e+00    0.000000000e+00
      236250000   -9.514971972e-01    3.905633390e-01    2.365931869e-05   -4.452653229e-06    0.000000000e+00    0.000000000e+00    0.000000000e+00    0.000000000e+00
      243500000   -9.080950618e-01    4.900756478e-01    2.021435648e-05   -6.584450603e-06    0.000000000e+00    0.000000000e+00    0.000000000e+00    0.000000000e+00
      250750000   -8.518708348e-01    5.868956447e-01   -1.543201506e-06    5.578622222e-06    0.000000000e+00    0.000000000e+00    0.000000000e+00    0.000000000e+00
      258000000   -7.836944461e-01    6.777073741e-01   -2.863816917e-06   -3.733299673e-05    0.000000000e+00    0.000000000e+00    0.000000000e+00    0.000000000e+00
      265250000   -7.047351599e-01    7.619471550e-01    2.425536513e-05    1.160986722e-05    0.000000000e+00    0.000000000e+00    0.000000000e+00    0.000000000e+00
      272500000   -6.139973402e-01    8.377379775e-01    9.901821613e-06   -2.840626985e-05    0.000000000e+00    0.000000000e+00    0.000000000e+00    0.000000000e+00
      279750000   -5.127935410e-01    9.015816450e-01   -6.541609764e-06    6.239861250e-08    0.000000000e+00    0.000000000e+00    0.000000000e+00    0.000000000e+00
      287000000   -4.026842415e-01    9.540790915e-01    3.309920430e-06   -1.897290349e-05    0.000000000e+00    0.000000000e+00    0.000000000e+00    0.000000000e+00
      294250000   -2.860943675e-01    9.925074577e-01   -2.912245691e-05    1.939665526e-05    0.000000000e+00    0.000000000e+00    0.000000000e+00    0.000000000e+00
      301500000   -1.640404910e-01    1.016107917e+00   -3.484264016e-05   -2.443790436e-05    0.000000000e+00    0.000000000e+00    0.000000000e+00    0.000000000e+00
      308750000   -3.805619106e-02    1.023998380e+00    6.062909961e-07   -5.183834583e-05    0.000000000e+00    0.000000000e+00    0.000000000e+00    0.000000000e+00
      316000000    8.821164817e-02    1.015391588e+00    9.858049452e-06   -2.066418529e-05    0.000000000e+00    0.000000000e+00    0.000000000e+00    0.000000000e+00
      323250000    2.126218677e-01    9.906412959e-01    5.126651376e-05   -3.724358976e-06    0.000000000e+00    0.000000000e+00    0.000000000e+00    0.000000000e+00
      330500000    3.330304027e-01    9.495919347e-01   -4.762783647e-06   -8.909963071e-06    0.000000000e+00    0.000000000e+00    0.000000000e+00    0.000000000e+00
      337750000    4.467245638e-01    8.941309452e-01    1.802947372e-05   -1.585111022e-06    0.000000000e+00    0.000000000e+00    0.000000000e+00    0.000000000e+00
      345000000    5.522348285e-01    8.244695067e-01   -7.514841855e-06   -2.843327820e-06    0.000000000e+00    0.000000000e+00    0.000000000e+00    0.000000000e+00
      352250000    6.477161646e-01    7.430347204e-01   -1.612119377e-06   -8.448958397e-06    0.000000000e+00    0.000000000e+00    0.000000000e+00    0.000000000e+00
      359500000    7.313229442e-01    6.504284143e-01    1.483783126e-05   -1.498404890e-05    0.000000000e+00    0.000000000e+00    0.000000000e+00    0.000000000e+00
      366750000    8.023594618e-01    5.496700406e-01   -1.760199666e-07    5.032867193e-06    0.000000000e+00    0.000000000e+00    0.000000000e+00    0.000000000e+00
      374000000    8.607332706e-01    4.413124919e-01    1.105386764e-05   -3.259908408e-05    0.000000000e+00    0.000000000e+00    0.000000000e+00    0.000000000e+00
      381250000    9.046201706e-01    3.283454478e-01    5.277805030e-06   -3.167614341e-05    0.000000000e+00    0.000000000e+00    0.000000000e+00    0.000000000e+00
      388500000    9.344774485e-01    2.128233761e-01   -2.107396722e-05    1.257471740e-05    0.000000000e+00    0.000000000e+00    0.000000000e+00    0.000000000e+00
      395750000    9.513047338e-01    9.516531974e-02   -2.708658576e-05   -1.378357410e-07    0.000000000e+00    0.000000000e+00    0.000000000e+00    0.000000000e+00
      403000000    9.546334743e-01   -2.168250456e-02    5.958229303e-05    3.549270332e-06    0.000000000e+00    0.000000000e+00    0.000000000e+00    0.000000000e+00
      410250000    9.450566173e-01   -1.369867623e-01    7.347203791e-06   -3.375858068e-05    0.000000000e+00    0.000000000e+00    0.000000000e+00    0.000000000e+00
      417500000    9.233158231e-01   -2.488290071e-01   -2.172775567e-05    2.064742148e-06    0.000000000e+00    0.000000000e+00    0.000000000e+00    0.000000000e+00
      424750000    8.889873624e-01   -3.581245244e-01    5.462206900e-06    3.727152944e-05    0.000000000e+00    0.000000000e+00    0.000000000e+00    0.000000000e+00
      432000000    8.439242840e-01   -4.606676400e-01   -2.458691597e-07   -1.057237387e-05    0.000000000e+00    0.000000000e+00    0.000000000e+00    0.000000000e+00
      439250000    7.893503308e-01   -5.580168962e-01   -1.555308700e-07   -5.100201815e-05    0.000000000e+00    0.000000000e+00    0.000000000e+00    0.000000000e+00
      446500000    7.247554064e-01   -6.473570466e-01    5.796551704e-06    2.426933497e-05    0.000000000e+00    0.000000000e+00    0.000000000e+00    0.000000000e+00
      453750000    6.510681510e-01   -7.305656672e-01   -1.520290971e-05   -4.836916924e-05    0.000000000e+00    0.000000000e+00    0.000000000e+00    0.000000000e+00
      461000000    5.707724690e-01   -8.044922948e-01    1.157727093e-05    1.669675112e-05    0.000000000e+00    0.000000000e+00    0.000000000e+00    0.000000000e+00
      468250000    4.830617905e-01   -8.696463704e-01   -5.447305739e-06   -8.835457265e-06    0.000000000e+00    0.000000000e+00    0.000000000e+00    0.000000000e+00
      475500000    3.882277906e-01   -9.255269766e-01    1.795031130e-05    1.506321132e-05    0.000000000e+00    0.000000000e+00    0.000000000e+00    0.000000000e+00
      482750000    2.893887162e-01   -9.707276225e-01    1.577194780e-05    3.413297236e-06    0.000000000e+00    0.000000000e+00    0.000000000e+00    0.000000000e+00
      490000000    1.859386861e-01   -1.005894661e+00   -3.179069608e-05   -1.196749508e-06    0.000000000e+00    0.000000000e+00    0.000000000e+00    0.000000000e+00
      497250000    7.821656018e-02   -1.030153036e+00    4.019588232e-06    3.359559923e-05    0.000000000e+00    0.000000000e+00    0.000000000e+00    0.000000000e+00
      504500000   -3.162974119e-02   -1.042757273e+00   -1.930072904e-05   -1.011323184e-05    0.000000000e+00    0.000000000e+00    0.000000000e+00    0.000000000e+00
      511750000   -1.432958692e-01   -1.044546604e+00    3.121513873e-05    9.020790458e-06    0.000000000e+00    0.000000000e+00    0.000000000e+00    0.000000000e+00
      519000000   -2.549330890e-01   -1.032349110e+00   -1.873821020e-05    8.255243301e-06    0.000000000e+00    0.000000000e+00    0.000000000e+00    0.000000000e+00
      526250000   -3.652503192e-01   -1.009241343e+00   -1.884065568e-05   -2.837181091e-05    0.000000000e+00    0.000000000e+00    0.000000000e+00    0.000000000e+00
      533500000   -4.734607041e-01   -9.728202820e-01    5.591660738e-06   -4.078727216e-05    0.000000000e+00    0.000000000e+00    0.000000000e+00    0.000000000e+00
      540750000   -5.775913000e-01   -9.248656631e-01    4.455447197e-06    2.455338836e-05    0.000000000e+00    0.000000000e+00    0.000000000e+00    0.000000000e+00
      548000000   -6.765835285e-01   -8.637890220e-01    1.803133637e-05   -2.282857895e-05    0.000000000e+00    0.000000000e+00    0.000000000e+00    0.000000000e+00
      555250000   -7.677270174e-01   -7.932609916e-01   -4.243105650e-06   -3.393553197e-05    0.000000000e+00    0.000000000e+00    0.000000000e+00    0.000000000e+00
      562500000   -8.515607119e-01   -7.095174789e-01   -1.995358616e-05   -2.078805119e-05    0.000000000e+00    0.000000000e+00    0.000000000e+00    0.000000000e+00
      569750000   -9.246643186e-01   -6.184510589e-01    3.291014582e-05   -6.369315088e-06    0.000000000e+00    0.000000000e+00    0.000000000e+00    0.000000000e+00
      577000000   -9.870314598e-01   -5.173611641e-01    9.475275874e-06   -5.663372576e-06    0.000000000e+00    0.000000000e+00    0.000000000e+00    0.000000000e+00
      584250000   -1.037003398e+00   -4.083315730e-01   -6.964430213e-06    3.455206752e-07    0.000000000e+00    0.000000000e+00    0.000000000e+00    0.000000000e+00
      591500000   -1.073462725e+00   -2.949700654e-01    2.255197614e-05   -3.103166819e-06    0.000000000e+00    0.000000000e+00    0.000000000e+00    0.000000000e+00
      598750000   -1.095987678e+00   -1.758564115e-01    2.409517765e-05    1.062639058e-05    0.000000000e+00    0.000000000e+00    0.000000000e+00    0.000000000e+00
      606000000   -1.103655934e+00   -5.674444139e-02   -9.797513485e-06   -5.925074220e-06    0.000000000e+00    0.000000000e+00    0.000000000e+00    0.000000000e+00
      613250000   -1.097083926e+00    6.300753355e-02    2.834387124e-05    4.789792001e-06    0.000000000e+00    0.000000000e+00    0.000000000e+00    0.000000000e+00
      620500000   -1.076591849e+00    1.808674186e-01   -2.466049045e-05   -2.511404455e-05    0.000000000e+00    0.000000000e+00    0.000000000e+00    0.000000000e+00
      627750000   -1.040863156e+00    2.937628329e-01    2.072937787e-05    2.827495337e-06    0.000000000e+00    0.000000000e+00    0.000000000e+00    0.000000000e+00
      635000000   -9.924073219e-01    4.017954767e-01    1.039449126e-05    1.554097980e-05    0.000000000e+00    0.000000000e+00    0.000000000e+00    0.000000000e+00
      642250000   -9.316321611e-01    5.032221675e-01    1.550093293e-05    5.585607141e-05    0.000000000e+00    0.000000000e+00    0.000000000e+00    0.000000000e+00
      649500000   -8.599149585e-01    5.940247774e-01   -6.365589797e-06    1.227669418e-05    0.000000000e+00    0.000000000e+00    0.000000000e+00    0.000000000e+00
      656750000   -7.785763144e-01    6.769546866e-01   -3.858841956e-05    1.394376159e-05    0.000000000e+00    0.000000000e+00    0.000000000e+00    0.000000000e+00
      664000000   -6.893098950e-01    7.479531765e-01   -1.338962466e-05   -1.394096762e-05    0.000000000e+00    0.000000000e+00    0.000000000e+00    0.000000000e+00
      671250000   -5.938365459e-01    8.076447845e-01   -3.891717643e-05   -6.004422903e-05    0.000000000e+00    0.000000000e+00    0.000000000e+00    0.000000000e+00
      678500000   -4.930256605e-01    8.555186391e-01    2.382416278e-05    5.512591451e-05    0.000000000e+00    0.000000000e+00    0.000000000e+00    0.000000000e+00
      685750000   -3.878329396e-01    8.908438683e-01    1.699198037e-05   -5.151052028e-05    0.000000000e+00    0.000000000e+00    0.000000000e+00    0.000000000e+00
      693000000   -2.814579904e-01    9.139481783e-01    1.545622945e-05    1.965276897e-05    0.000000000e+00    0.000000000e+00    0.000000000e+00    0.000000000e+00
      700250000   -1.752197891e-01    9.260395169e-01    1.018308103e-05    4.112347960e-05    0.000000000e+00    0.000000000e+00    0.000000000e+00    0.000000000e+00
      707500000   -6.801997125e-02    9.260519147e-01    2.861581743e-05   -1.091044396e-05    0.000000000e+00    0.000000000e+00    0.000000000e+00    0.000000000e+00
      714750000    3.622971475e-02    9.151490331e-01    2.765469253e-05   -2.450309694e-06    0.000000000e+00    0.000000000e+00    0.000000000e+00    0.000000000e+00
      722000000    1.386358440e-01    8.932728767e-01    2.293847501e-06    1.287646592e-05    0.000000000e+00    0.000000000e+00    0.000000000e+00    0.000000000e+00
      729250000    2.362654805e-01    8.618310094e-01   -1.112651080e-05   -1.158006489e-05    0.000000000e+00    0.000000000e+00    0.000000000e+00    0.000000000e+00
      736500000    3.302429020e-01    8.209303021e-01   -7.091090083e-06   -1.937244087e-05    0.000000000e+00    0.000000000e+00    0.000000000e+00    0.000000000e+00
      743750000    4.187780023e-01    7.712459564e-01   -1.148320735e-06   -1.185480505e-05    0.000000000e+00    0.000000000e+00    0.000000000e+00    0.000000000e+00
      751000000    5.013775229e-01    7.130126953e-01    6.561167538e-06   -2.732034773e-05    0.000000000e+00    0.000000000e+00    0.000000000e+00    0.000000000e+00
      758250000    5.768462420e-01    6.474034786e-01   -4.045944661e-05    8.931383491e-07    0.000000000e+00    0.000000000e+00    0.000000000e+00    0.000000000e+00
      765500000    6.463243365e-01    5.752225518e-01   -1.490116119e-08    1.826882362e-05    0.000000000e+00    0.000000000e+00    0.000000000e+00    0.000000000e+00
      772750000    7.080935836e-01    4.955945611e-01   -1.802109182e-06    1.329742372e-05    0.000000000e+00    0.000000000e+00    0.000000000e+00    0.000000000e+00
      780000000    7.606132627e-01    4.119879305e-01   -2.000853419e-05   -1.477729529e-05    0.000000000e+00    0.000000000e+00    0.000000000e+00    0.000000000e+00
      787250000    8.069792986e-01    3.199687004e-01    5.705282092e-06    1.921504736e-05    0.000000000e+00    0.000000000e+00    0.000000000e+00    0.000000000e+00
      794500000    8.429775238e-01    2.268138081e-01   -2.185720950e-05    4.272162914e-05    0.000000000e+00    0.000000000e+00    0.000000000e+00    0.000000000e+00
      801750000    8.700553179e-01    1.276133209e-01    1.401826739e-05   -5.405396223e-06    0.000000000e+00    0.000000000e+00    0.000000000e+00    0.000000000e+00
      809000000    8.868054152e-01    2.605912089e-02   -1.774635166e-05    8.381903172e-09    0.000000000e+00    0.000000000e+00    0.000000000e+00    0.000000000e+00
      816250000    8.932175040e-01   -7.687798142e-02   -5.924142897e-06    4.466529936e-05    0.000000000e+00    0.000000000e+00    0.000000000e+00    0.000000000e+00
      823500000    8.886034489e-01   -1.832201928e-01    1.145806164e-05    1.808535308e-05    0.000000000e+00    0.000000000e+00    0.000000000e+00    0.000000000e+00
      830750000    8.733900189e-01   -2.877177894e-01   -6.789341569e-07   -6.637535989e-06    0.000000000e+00    0.000000000e+00    0.000000000e+00    0.000000000e+00
      838000000    8.453091979e-01   -3.920673132e-01    1.872144639e-05   -9.717419744e-06    0.000000000e+00    0.000000000e+00    0.000000000e+00    0.000000000e+00
      845250000    8.068241477e-01   -4.940000772e-01   -2.461951226e-05    8.195638657e-06    0.000000000e+00    0.000000000e+00    0.000000000e+00    0.000000000e+00
      852500000    7.529482245e-01   -5.947203040e-01    1.601409167e-05   -1.495145261e-05    0.000000000e+00    0.000000000e+00    0.000000000e+00    0.000000000e+00
      859750000    6.912347078e-01   -6.863677502e-01   -3.302097321e-05    1.690443605e-05    0.000000000e+00    0.000000000e+00    0.000000000e+00    0.000000000e+00
      867000000    6.142553687e-01   -7.744916677e-01   -6.770715117e-07    4.540942609e-05    0.000000000e+00    0.000000000e+00    0.000000000e+00    0.000000000e+00
      874250000    5.301681757e-01   -8.521324396e-01    3.854185343e-05   -5.953945220e-06    0.000000000e+00    0.000000000e+00    0.000000000e+00    0.000000000e+00
      881500000    4.307181835e-01   -9.204265475e-01   -1.344550401e-05   -7.869675756e-06    0.000000000e+00    0.000000000e+00    0.000000000e+00    0.000000000e+00
      888750000    3.249103427e-01   -9.760058522e-01   -9.387731552e-06    2.933200449e-05    0.000000000e+00    0.000000000e+00    0.000000000e+00    0.000000000e+00
      896000000    2.097991854e-01   -1.018130422e+00    1.740269363e-05   -9.568408132e-06    0.000000000e+00    0.000000000e+00    0.000000000e+00    0.000000000e+00
      903250000    8.989959210e-02   -1.044784665e+00    7.702969015e-06   -1.973845065e-05    0.000000000e+00    0.000000000e+00    0.000000000e+00    0.000000000e+00
      910500000   -3.445480764e-02   -1.055773258e+00   -4.964508116e-05    7.573515177e-06    0.000000000e+00    0.000000000e+00    0.000000000e+00    0.000000000e+00
      917750000   -1.583614200e-01   -1.049200058e+00   -4.630535841e-06    9.465962648e-06    0.000000000e+00    0.000000000e+00    0.000000000e+00    0.000000000e+00
      925000000   -2.809087634e-01   -1.027038097e+00   -1.644436270e-05   -1.265481114e-05    0.000000000e+00    0.000000000e+00    0.000000000e+00    0.000000000e+00
      932250000   -4.021972716e-01   -9.864639640e-01   -5.114823580e-06   -2.765562385e-05    0.000000000e+00    0.000000000e+00    0.000000000e+00    0.000000000e+00
      939500000   -5.118855238e-01   -9.315400124e-01    1.452304423e-05    1.677777618e-05    0.000000000e+00    0.000000000e+00    0.000000000e+00    0.000000000e+00
      946750000   -6.135267019e-01   -8.622741699e-01   -1.029204577e-05   -3.481283784e-06    0.000000000e+00    0.000000000e+00    0.000000000e+00    0.000000000e+00
      954000000   -7.049955130e-01   -7.787008882e-01   -1.028925180e-05   -1.968629658e-05    0.000000000e+00    0.000000000e+00    0.000000000e+00    0.000000000e+00
      961250000   -7.815940380e-01   -6.884127259e-01   -2.255477011e-05   -5.953013897e-06    0.000000000e+00    0.000000000e+00    0.000000000e+00    0.000000000e+00
      968500000   -8.464409113e-01   -5.868492126e-01    6.572157145e-05    5.014240742e-06    0.000000000e+00    0.000000000e+00    0.000000000e+00    0.000000000e+00
      975750000   -8.935378194e-01   -4.834045768e-01   -5.144160241e-05    2.516806126e-05    0.000000000e+00    0.000000000e+00    0.000000000e+00    0.000000000e+00
      983000000   -9.289879203e-01   -3.723184168e-01    1.594424248e-05    1.273117959e-05    0.000000000e+00    0.000000000e+00    0.000000000e+00    0.000000000e+00
      990250000   -9.489071369e-01   -2.640298307e-01    2.131797373e-05    5.942769349e-06    0.000000000e+00    0.000000000e+00    0.000000000e+00    0.000000000e+00
      997500000   -9.543445706e-01   -1.559404731e-01   -6.776303053e-06   -5.543231964e-06    0.000000000e+00    0.000000000e+00    0.000000000e+00    0.000000000e+00
     1004750000   -9.479531646e-01   -5.069106445e-02    3.446359187e-05   -3.077089787e-05    0.000000000e+00    0.000000000e+00    0.000000000e+00    0.000000000e+00
     1012000000   -9.292314649e-01    5.058456212e-02    1.370627433e-05    3.475695848e-06    0.000000000e+00    0.000000000e+00    0.000000000e+00    0.000000000e+00
     1019250000   -9.000985622e-01    1.466608942e-01   -1.907348633e-05    9.542331100e-06    0.000000000e+00    0.000000000e+00    0.000000000e+00    0.000000000e+00
     1026500000   -8.623070121e-01    2.363564819e-01    2.074521035e-05   -1.947022974e-05    0.000000000e+00    0.000000000e+00    0.000000000e+00    0.000000000e+00
     1033750000   -8.166646361e-01    3.193051517e-01    1.879036427e-05    1.741386950e-05    0.000000000e+00    0.000000000e+00    0.000000000e+00    0.000000000e+00
     1041000000   -7.641321421e-01    3.940395117e-01    1.836940646e-05    4.803575575e-05    0.000000000e+00    0.000000000e+00    0.000000000e+00    0.000000000e+00
