! NanoVNA-App
! Date: 2024-06-25 16:10:42
! Start: 200MHz Stop: 6GHz Points: 801
! S-Parameter data: F S11 S21 S12 S22
# Hz S RI R 50
!     Frequency           S11_Real           S11_Imag           S21_Real           S21_Imag           S12_Real           S12_Imag           S22_Real           S22_Imag
      200000000   -9.987941384e-01   -1.184538454e-01    7.916241884e-06   -1.985486597e-05    0.000000000e+00    0.000000000e+00    0.000000000e+00    0.000000000e+00
      207250000   -1.009988308e+00   -1.960381307e-02   -3.647990525e-06    1.449976116e-05    0.000000000e+00    0.000000000e+00    0.000000000e+00    0.000000000e+00
      214500000   -1.011402130e+00    8.191692829e-02    1.552514732e-06   -4.259310663e-05    0.000000000e+00    0.000000000e+00    0.000000000e+00    0.000000000e+00
      221750000   -1.002209425e+00    1.846298575e-01    2.830754966e-05    1.664645970e-05    0.000000000e+00    0.000000000e+00    0.000000000e+00    0.000000000e+00
      229000000   -9.820899963e-01    2.876364589e-01   -3.736000508e-05    3.036297858e-05    0.000000000e+00    0.000000000e+00    0.000000000e+00    0.000000000e+00
      236250000   -9.514339566e-01    3.901884556e-01    1.812446862e-05    3.813393414e-05    0.000000000e+00    0.000000000e+00    0.000000000e+00    0.000000000e+00
      243500000   -9.074521661e-01    4.900622666e-01   -1.442525536e-05    3.582332283e-05    0.000000000e+00    0.000000000e+00    0.000000000e+00    0.000000000e+00
      250750000   -8.518893123e-01    5.866339207e-01   -2.067536116e-05   -9.610317647e-06    0.000000000e+00    0.000000000e+00    0.000000000e+00    0.000000000e+00
      258000000   -7.842029929e-01    6.785247922e-01   -3.571342677e-05   -1.124292612e-05    0.000000000e+00    0.000000000e+00    0.000000000e+00    0.000000000e+00
      265250000   -7.040321827e-01    7.619218230e-01    8.203089237e-06   -2.008490264e-05    0.000000000e+00    0.000000000e+00    0.000000000e+00    0.000000000e+00
      272500000   -6.140403748e-01    8.377075195e-01    2.151075751e-05    1.061242074e-05    0.000000000e+00    0.000000000e+00    0.000000000e+00    0.000000000e+00
      279750000   -5.127745271e-01    9.022691250e-01    4.902947694e-05   -1.935381442e-05    0.000000000e+00    0.000000000e+00    0.000000000e+00    0.000000000e+00
      287000000   -4.029771388e-01    9.540789723e-01    4.141312093e-05   -3.263726830e-05    0.000000000e+00    0.000000000e+00    0.000000000e+00    0.000000000e+00
      294250000   -2.856281996e-01    9.924070835e-01    1.274887472e-05    3.584008664e-05    0.000000000e+00    0.000000000e+00    0.000000000e+00    0.000000000e+00
      301500000   -1.632032394e-01    1.015565276e+00   -3.507267684e-05   -2.178922296e-05    0.000000000e+00    0.000000000e+00    0.000000000e+00    0.000000000e+00
      308750000   -3.798553348e-02    1.023118615e+00   -3.461819142e-05   -1.065805554e-05    0.000000000e+00    0.000000000e+00    0.000000000e+00    0.000000000e+00
      316000000    8.843613416e-02    1.014844418e+00    2.568494529e-05   -1.105852425e-05    0.000000000e+00    0.000000000e+00    0.000000000e+00    0.000000000e+00
      323250000    2.124629617e-01    9.899957776e-01    1.429673284e-05    1.612678170e-05    0.000000000e+00    0.000000000e+00    0.000000000e+00    0.000000000e+00
      330500000    3.327737153e-01    9.497757554e-01   -1.548510045e-05   -4.259962589e-05    0.000000000e+00    0.000000000e+00    0.000000000e+00    0.000000000e+00
      337750000    4.469842315e-01    8.939098716e-01    4.630442709e-05   -2.518668771e-05    0.000000000e+00    0.000000000e+00    0.000000000e+00    0.000000000e+00
      345000000    5.524156690e-01    8.237161040e-01    2.255663276e-06    1.716054976e-05    0.000000000e+00    0.000000000e+00    0.000000000e+00    0.000000000e+00
      352250000    6.476673484e-01    7.428714037e-01    2.180226147e-06   -2.463068813e-05    0.000000000e+00    0.000000000e+00    0.000000000e+00    0.000000000e+00
      359500000    7.314601541e-01    6.507871747e-01   -7.759779692e-06    3.202073276e-05    0.000000000e+00    0.000000000e+00    0.000000000e+00    0.000000000e+00
      366750000    8.028147221e-01    5.489659905e-01   -2.810545266e-05    2.021342516e-05    0.000000000e+00    0.000000000e+00    0.000000000e+00    0.000000000e+00
      374000000    8.606012464e-01    4.422370493e-01    1.646392047e-05    1.769885421e-05    0.000000000e+00    0.000000000e+00    0.000000000e+00    0.000000000e+00
      381250000    9.047147036e-01    3.280517161e-01    3.246963024e-05    4.928838462e-05    0.000000000e+00    0.000000000e+00    0.000000000e+00    0.000000000e+00
      388500000    9.350956678e-01    2.129940242e-01   -4.072953016e-05    1.524202526e-05    0.000000000e+00    0.000000000e+00    0.000000000e+00    0.000000000e+00
      395750000    9.514654875e-01    9.564173967e-02    1.406669617e-05   -1.065153629e-05    0.000000000e+00    0.000000000e+00    0.000000000e+00    0.000000000e+00
      403000000    9.544918537e-01   -2.146152966e-02   -2.221390605e-05   -3.167893738e-05    0.000000000e+00    0.000000000e+00    0.000000000e+00    0.000000000e+00
      410250000    9.446853399e-01   -1.375684142e-01    6.377696991e-06   -3.227032721e-06    0.000000000e+00    0.000000000e+00    0.000000000e+00    0.000000000e+00
      417500000    9.234240651e-01   -2.489598989e-01    2.076197416e-05   -8.041039109e-06    0.000000000e+00    0.000000000e+00    0.000000000e+00    0.000000000e+00
      424750000    8.893222213e-01   -3.581665456e-01   -1.666229218e-05   -1.231580973e-05    0.000000000e+00    0.000000000e+00    0.000000000e+00    0.000000000e+00
      432000000    8.434110880e-01   -4.618239403e-01   -8.829869330e-06   -7.739290595e-06    0.000000000e+00    0.000000000e+00    0.000000000e+00    0.000000000e+00
      439250000    7.892314792e-01   -5.580568314e-01   -5.327165127e-06    1.050159335e-05    0.000000000e+00    0.000000000e+00    0.000000000e+00    0.000000000e+00
      446500000    7.251195312e-01   -6.469994783e-01   -4.063360393e-06   -2.481695265e-05    0.000000000e+00    0.000000000e+00    0.000000000e+00    0.000000000e+00
      453750000    6.518558264e-01   -7.303715944e-01    3.845337778e-05    3.669224679e-05    0.000000000e+00    0.000000000e+00    0.000000000e+00    0.000000000e+00
      461000000    5.705314279e-01   -8.045123816e-01    2.831313759e-05    4.148762673e-05    0.000000000e+00    0.000000000e+00    0.000000000e+00    0.000000000e+00
      468250000    4.840560257e-01   -8.695707917e-01   -1.296307892e-05    2.136453986e-05    0.000000000e+00    0.000000000e+00    0.000000000e+00    0.000000000e+00
      475500000    3.883117735e-01   -9.251165390e-01   -1.883320510e-05   -2.690497786e-05    0.000000000e+00    0.000000000e+00    0.000000000e+00    0.000000000e+00
      482750000    2.891120911e-01   -9.705842733e-01    1.364387572e-06    8.361414075e-06    0.000000000e+00    0.000000000e+00    0.000000000e+00    0.000000000e+00
      490000000    1.848765165e-01   -1.006075144e+00   -5.111098289e-06    2.171471715e-05    0.000000000e+00    0.000000000e+00    0.000000000e+00    0.000000000e+00
      497250000    7.712834328e-02   -1.030153990e+00   -1.697521657e-05    9.412877262e-06    0.000000000e+00    0.000000000e+00    0.000000000e+00    0.000000000e+00
      504500000   -3.253532574e-02   -1.043109417e+00    2.236384898e-05   -1.229252666e-05    0.000000000e+00    0.000000000e+00    0.000000000e+00    0.000000000e+00
      511750000   -1.434558183e-01   -1.044355631e+00    1.889746636e-05    9.163282812e-06    0.000000000e+00    0.000000000e+00    0.000000000e+00    0.000000000e+00
      519000000   -2.546541691e-01   -1.032925248e+00   -9.024515748e-07    1.117866486e-05    0.000000000e+00    0.000000000e+00    0.000000000e+00    0.000000000e+00
      526250000   -3.657090366e-01   -1.009234309e+00   -2.591777593e-05   -4.467554390e-06    0.000000000e+00    0.000000000e+00    0.000000000e+00    0.000000000e+00
      533500000   -4.738158882e-01   -9.735205770e-01    3.470014781e-05    5.650334060e-06    0.000000000e+00    0.000000000e+00    0.000000000e+00    0.000000000e+00
      540750000   -5.778844953e-01   -9.252034426e-01    6.951391697e-06   -1.974590123e-05    0.000000000e+00    0.000000000e+00    0.000000000e+00    0.000000000e+00
      548000000   -6.764212251e-01   -8.646107316e-01   -4.071742296e-06    3.209058195e-05    0.000000000e+00    0.000000000e+00    0.000000000e+00    0.000000000e+00
      555250000   -7.675241232e-01   -7.927116752e-01    6.916001439e-06    1.645367593e-05    0.000000000e+00    0.000000000e+00    0.000000000e+00    0.000000000e+00
      562500000   -8.511411548e-01   -7.106860876e-01    4.458334297e-05   -1.115072519e-05    0.000000000e+00    0.000000000e+00    0.000000000e+00    0.000000000e+00
      569750000   -9.244261384e-01   -6.182721257e-01    1.526810229e-05   -1.128483564e-05    0.000000000e+00    0.000000000e+00    0.000000000e+00    0.000000000e+00
      577000000   -9.869798422e-01   -5.179861784e-01   -7.965601981e-06   -4.517845809e-06    0.000000000e+00    0.000000000e+00    0.000000000e+00    0.000000000e+00
      584250000   -1.037180543e+00   -4.092051387e-01   -3.826245666e-05   -3.732740879e-06    0.000000000e+00    0.000000000e+00    0.000000000e+00    0.000000000e+00
      591500000   -1.073448896e+00   -2.950373590e-01    1.975987107e-05   -4.836358130e-06    0.000000000e+00    0.000000000e+00    0.000000000e+00    0.000000000e+00
      598750000   -1.095835686e+00   -1.763827801e-01    6.916001439e-06    7.014721632e-06    0.000000000e+00    0.000000000e+00    0.000000000e+00    0.000000000e+00
      606000000   -1.103746057e+00   -5.702860281e-02    1.975242049e-05    3.760773689e-05    0.000000000e+00    0.000000000e+00    0.000000000e+00    0.000000000e+00
      613250000   -1.097294211e+00    6.229756773e-02   -1.449696720e-05    2.095289528e-05    0.000000000e+00    0.000000000e+00    0.000000000e+00    0.000000000e+00
      620500000   -1.076366782e+00    1.808864772e-01   -1.983717084e-05    1.853983849e-05    0.000000000e+00    0.000000000e+00    0.000000000e+00    0.000000000e+00
      627750000   -1.040082693e+00    2.958758771e-01    1.989584416e-05    4.224199802e-05    0.000000000e+00    0.000000000e+00    0.000000000e+00    0.000000000e+00
      635000000   -9.918876886e-01    4.022916853e-01   -3.137625754e-06   -4.124827683e-06    0.000000000e+00    0.000000000e+00    0.000000000e+00    0.000000000e+00
      642250000   -9.307072163e-01    5.037756562e-01    4.173628986e-05   -1.255981624e-05    0.000000000e+00    0.000000000e+00    0.000000000e+00    0.000000000e+00
      649500000   -8.597477674e-01    5.948903561e-01   -3.712903708e-05   -8.449889719e-06    0.000000000e+00    0.000000000e+00    0.000000000e+00    0.000000000e+00
      656750000   -7.780233026e-01    6.765532494e-01    2.323556691e-05   -4.378147423e-06    0.000000000e+00    0.000000000e+00    0.000000000e+00    0.000000000e+00
      664000000   -6.895011663e-01    7.474938035e-01   -1.306273043e-05    2.619251609e-05    0.000000000e+00    0.000000000e+00    0.000000000e+00    0.000000000e+00
      671250000   -5.934081674e-01    8.068817258e-01   -2.284068614e-05    1.302175224e-05    0.000000000e+00    0.000000000e+00    0.000000000e+00    0.000000000e+00
      678500000   -4.925143421e-01    8.555775285e-01   -2.194102854e-05    1.475866884e-05    0.000000000e+00    0.000000000e+00    0.000000000e+00    0.000000000e+00
      685750000   -3.879342675e-01    8.908221126e-01    7.838010788e-06   -2.665445209e-05    0.000000000e+00    0.000000000e+00    0.000000000e+00    0.000000000e+00
      693000000   -2.812389433e-01    9.142416120e-01    6.675720215e-06    5.058012903e-05    0.000000000e+00    0.000000000e+00    0.000000000e+00    0.000000000e+00
      700250000   -1.749744713e-01    9.258610010e-01   -1.436565071e-05   -3.781449050e-05    0.000000000e+00    0.000000000e+00    0.000000000e+00    0.000000000e+00
      707500000   -6.748946011e-02    9.255113602e-01    1.755543053e-06    2.377666533e-06    0.000000000e+00    0.000000000e+00    0.000000000e+00    0.000000000e+00
      714750000    3.723775968e-02    9.146108031e-01   -3.116298467e-05    1.111347228e-05    0.000000000e+00    0.000000000e+00    0.000000000e+00    0.000000000e+00
      722000000    1.374595612e-01    8.933463097e-01   -2.676621079e-06   -1.372955739e-05    0.000000000e+00    0.000000000e+00    0.000000000e+00    0.000000000e+00
      729250000    2.370659113e-01    8.619009256e-01   -3.792624921e-05   -1.640059054e-06    0.000000000e+00    0.000000000e+00    0.000000000e+00    0.000000000e+00
      736500000    3.304705918e-01    8.209984899e-01    2.263486385e-05   -2.458132803e-05    0.000000000e+00    0.000000000e+00    0.000000000e+00    0.000000000e+00
      743750000    4.184367955e-01    7.716743350e-01    8.027069271e-06    2.264510840e-05    0.000000000e+00    0.000000000e+00    0.000000000e+00    0.000000000e+00
      751000000    5.013462305e-01    7.132380605e-01   -1.150555909e-05   -1.281872392e-05    0.000000000e+00    0.000000000e+00    0.000000000e+00    0.000000000e+00
      758250000    5.773110986e-01    6.472452283e-01   -3.557000309e-05   -5.899928510e-06    0.000000000e+00    0.000000000e+00    0.000000000e+00    0.000000000e+00
      765500000    6.462309957e-01    5.756598115e-01    6.150454283e-06    2.470053732e-05    0.000000000e+00    0.000000000e+00    0.000000000e+00    0.000000000e+00
      772750000    7.084128261e-01    4.950267076e-01    1.888722181e-05   -1.750886440e-06    0.000000000e+00    0.000000000e+00    0.000000000e+00    0.000000000e+00
      780000000    7.611811757e-01    4.110369086e-01   -1.179985702e-06    1.645274460e-05    0.000000000e+00    0.000000000e+00    0.000000000e+00    0.000000000e+00
      787250000    8.067032695e-01    3.203916848e-01   -1.371465623e-05   -4.516262561e-05    0.000000000e+00    0.000000000e+00    0.000000000e+00    0.000000000e+00
      794500000    8.435001373e-01    2.263161242e-01    5.209818482e-06   -8.010305464e-06    0.000000000e+00    0.000000000e+00    0.000000000e+00    0.000000000e+00
      801750000    8.701996803e-01    1.276163012e-01   -6.695277989e-06   -2.654362470e-05    0.000000000e+00    0.000000000e+00    0.000000000e+00    0.000000000e+00
      809000000    8.867925406e-01    2.564428560e-02   -5.670823157e-06    3.661401570e-05    0.000000000e+00    0.000000000e+00    0.000000000e+00    0.000000000e+00
      816250000    8.931940198e-01   -7.780984044e-02   -1.145061105e-05   -2.050772309e-06    0.000000000e+00    0.000000000e+00    0.000000000e+00    0.000000000e+00
      823500000    8.882587552e-01   -1.837087721e-01   -1.038797200e-05    5.684234202e-05    0.000000000e+00    0.000000000e+00    0.000000000e+00    0.000000000e+00
      830750000    8.727869391e-01   -2.875786424e-01    2.162531018e-05   -2.941954881e-05    0.000000000e+00    0.000000000e+00    0.000000000e+00    0.000000000e+00
      838000000    8.448508978e-01   -3.935010731e-01    2.029910684e-05   -6.118789315e-06    0.000000000e+00    0.000000000e+00    0.000000000e+00    0.000000000e+00
      845250000    8.056424856e-01   -4.942963719e-01   -3.035645932e-05    5.057081580e-06    0.000000000e+00    0.000000000e+00    0.000000000e+00    0.000000000e+00
      852500000    7.536825538e-01   -5.938983560e-01   -6.713625044e-05   -5.209445953e-05    0.000000000e+00    0.000000000e+00    0.000000000e+00    0.000000000e+00
      859750000    6.916711926e-01   -6.859028935e-01   -3.554299474e-05    1.214724034e-05    0.000000000e+00    0.000000000e+00    0.000000000e+00    0.000000000e+00
      867000000    6.146323085e-01   -7.742069960e-01    2.887472510e-05   -2.425163984e-06    0.000000000e+00    0.000000000e+00    0.000000000e+00    0.000000000e+00
      874250000    5.291555524e-01   -8.512646556e-01   -9.662471712e-06    8.228234947e-06    0.000000000e+00    0.000000000e+00    0.000000000e+00    0.000000000e+00
      881500000    4.292707741e-01   -9.212536216e-01   -1.839920878e-05    5.573872477e-05    0.000000000e+00    0.000000000e+00    0.000000000e+00    0.000000000e+00
      888750000    3.256400824e-01   -9.755633473e-01   -1.300312579e-05   -1.762248576e-05    0.000000000e+00    0.000000000e+00    0.000000000e+00    0.000000000e+00
      896000000    2.106186450e-01   -1.018173218e+00   -1.743715256e-05    3.563240170e-06    0.000000000e+00    0.000000000e+00    0.000000000e+00    0.000000000e+00
      903250000    9.009055793e-02   -1.044672132e+00   -1.445040107e-05    3.007706255e-05    0.000000000e+00    0.000000000e+00    0.000000000e+00    0.000000000e+00
      910500000   -3.481867909e-02   -1.055381894e+00   -1.540593803e-05    5.053728819e-05    0.000000000e+00    0.000000000e+00    0.000000000e+00    0.000000000e+00
      917750000   -1.591566354e-01   -1.049839854e+00    4.830583930e-05    3.770738840e-05    0.000000000e+00    0.000000000e+00    0.000000000e+00    0.000000000e+00
      925000000   -2.810759544e-01   -1.026807904e+00   -1.606624573e-05   -4.075095057e-05    0.000000000e+00    0.000000000e+00    0.000000000e+00    0.000000000e+00
      932250000   -4.014937580e-01   -9.864328504e-01   -3.624148667e-05    1.413188875e-05    0.000000000e+00    0.000000000e+00    0.000000000e+00    0.000000000e+00
      939500000   -5.129710436e-01   -9.312745333e-01   -1.228600740e-05   -4.245433956e-05    0.000000000e+00    0.000000000e+00    0.000000000e+00    0.000000000e+00
      946750000   -6.148574352e-01   -8.602703214e-01    2.514384687e-05   -6.389804184e-06    0.000000000e+00    0.000000000e+00    0.000000000e+00    0.000000000e+00
      954000000   -7.047457695e-01   -7.778073549e-01    4.604924470e-05   -1.252815127e-05    0.000000000e+00    0.000000000e+00    0.000000000e+00    0.000000000e+00
      961250000   -7.806814313e-01   -6.887699366e-01    2.531800419e-05   -2.363789827e-05    0.000000000e+00    0.000000000e+00    0.000000000e+00    0.000000000e+00
      968500000   -8.462864757e-01   -5.864589810e-01    2.143997699e-05    1.536589116e-05    0.000000000e+00    0.000000000e+00    0.000000000e+00    0.000000000e+00
      975750000   -8.942970634e-01   -4.823888838e-01    1.626648009e-05    3.287475556e-05    0.000000000e+00    0.000000000e+00    0.000000000e+00    0.000000000e+00
      983000000   -9.284737110e-01   -3.744327724e-01    1.359730959e-06    2.332031727e-06    0.000000000e+00    0.000000000e+00    0.000000000e+00    0.000000000e+00
      990250000   -9.485294223e-01   -2.644515634e-01   -2.126675099e-05   -3.565289080e-05    0.000000000e+00    0.000000000e+00    0.000000000e+00    0.000000000e+00
      997500000   -9.541234970e-01   -1.554194689e-01   -5.652196705e-06    2.653524280e-05    0.000000000e+00    0.000000000e+00    0.000000000e+00    0.000000000e+00
     1004750000   -9.479834437e-01   -5.097101256e-02    9.849667549e-06    5.344487727e-05    0.000000000e+00    0.000000000e+00    0.000000000e+00    0.000000000e+00
     1012000000   -9.291470051e-01    5.045048892e-02   -1.343432814e-05   -2.804864198e-05    0.000000000e+00    0.000000000e+00    0.000000000e+00    0.000000000e+00
     1019250000   -9.003470540e-01    1.465160251e-01   -3.485847265e-05    2.004299313e-05    0.000000000e+00    0.000000000e+00    0.000000000e+00    0.000000000e+00
     1026500000   -8.625684977e-01    2.367153913e-01   -2.373568714e-05   -5.759578198e-05    0.000000000e+00    0.000000000e+00    0.000000000e+00    0.000000000e+00
     1033750000   -8.165352345e-01    3.188689649e-01    4.043430090e-05   -1.675076783e-05    0.000000000e+00    0.000000000e+00    0.000000000e+00    0.000000000e+00
     1041000000   -7.633895278e-01    3.938395083e-01    9.344890714e-06    1.208856702e-05    0.000000000e+00    0.000000000e+00    0.000000000e+00    0.000000000e+00
