! NanoVNA-App
! Date: 2024-06-25 16:10:45
! Start: 200MHz Stop: 6GHz Points: 801
! S-Parameter data: F S11 S21 S12 S22
# Hz S RI R 50
!     Frequency           S11_Real           S11_Imag           S21_Real           S21_Imag           S12_Real           S12_Imag           S22_Real           S22_Imag
      200000000   -9.983392954e-01   -1.181520075e-01   -3.901030868e-05    2.885237336e-06    0.000000000e+00    0.000000000e+00    0.000000000e+00    0.000000000e+00
      207250000   -1.010179996e+00   -1.941736974e-02    2.367142588e-05    1.285132021e-05    0.000000000e+00    0.000000000e+00    0.000000000e+00    0.000000000e+00
      214500000   -1.011893272e+00    8.158056438e-02   -2.793967724e-09    2.218410373e-06    0.000000000e+00    0.000000000e+00    0.000000000e+00    0.000000000e+00
      221750000   -1.002848744e+00    1.848235428e-01    8.773989975e-06    1.184269786e-05    0.000000000e+00    0.000000000e+00    0.000000000e+00    0.000000000e+00
      229000000   -9.829333425e-01    2.875335813e-01    5.359388888e-05   -3.564544022e-05    0.000000000e+00    0.000000000e+00    0.000000000e+00    0.000000000e+00
      236250000   -9.514369965e-01    3.903523684e-01   -1.627113670e-05   -1.643411815e-05    0.000000000e+00    0.000000000e+00    0.000000000e+00    0.000000000e+00
      243500000   -9.081113935e-01    4.900639355e-01   -2.107396722e-05   -5.664303899e-06    0.000000000e+00    0.000000000e+00    0.000000000e+00    0.000000000e+00
      250750000   -8.516885638e-01    5.868273377e-01    3.105215728e-05    1.805182546e-05    0.000000000e+00    0.000000000e+00    0.000000000e+00    0.000000000e+00
      258000000   -7.835391164e-01    6.777439713e-01   -5.082413554e-05    1.841224730e-06    0.000000000e+00    0.000000000e+00    0.000000000e+00    0.000000000e+00
      265250000   -7.044382691e-01    7.617592812e-01   -1.673959196e-05    1.373793930e-05    0.000000000e+00    0.000000000e+00    0.000000000e+00    0.000000000e+00
      272500000   -6.132964492e-01    8.374700546e-01    1.653190702e-05    1.122709364e-05    0.000000000e+00    0.000000000e+00    0.000000000e+00    0.000000000e+00
      279750000   -5.124368072e-01    9.016531706e-01   -1.711212099e-05   -3.055203706e-05    0.000000000e+00    0.000000000e+00    0.000000000e+00    0.000000000e+00
      287000000   -4.026947021e-01    9.536918998e-01    3.722775728e-05    1.633446664e-05    0.000000000e+00    0.000000000e+00    0.000000000e+00    0.000000000e+00
      294250000   -2.858034670e-01    9.923153520e-01   -3.500003368e-05   -1.367554069e-05    0.000000000e+00    0.000000000e+00    0.000000000e+00    0.000000000e+00
      301500000   -1.636102796e-01    1.015581965e+00   -1.242663711e-05    1.253187656e-05    0.000000000e+00    0.000000000e+00    0.000000000e+00    0.000000000e+00
      308750000   -3.833776712e-02    1.023844123e+00   -4.597101361e-05   -1.705717295e-05    0.000000000e+00    0.000000000e+00    0.000000000e+00    0.000000000e+00
      316000000    8.854088187e-02    1.015237927e+00   -1.807045192e-05   -1.099333167e-05    0.000000000e+00    0.000000000e+00    0.000000000e+00    0.000000000e+00
      323250000    2.130220979e-01    9.903162122e-01   -2.248026431e-05   -2.241134644e-05    0.000000000e+00    0.000000000e+00    0.000000000e+00    0.000000000e+00
      330500000    3.326416910e-01    9.500433803e-01    2.434290946e-05    1.996755600e-06    0.000000000e+00    0.000000000e+00    0.000000000e+00    0.000000000e+00
      337750000    4.464702904e-01    8.940760493e-01   -1.510605216e-06    1.541804522e-05    0.000000000e+00    0.000000000e+00    0.000000000e+00    0.000000000e+00
      345000000    5.524330735e-01    8.250926137e-01   -1.854822040e-05    2.805702388e-05    0.000000000e+00    0.000000000e+00    0.000000000e+00    0.000000000e+00
      352250000    6.474750042e-01    7.424086332e-01   -3.622844815e-06   -2.521183342e-05    0.000000000e+00    0.000000000e+00    0.000000000e+00    0.000000000e+00
      359500000    7.315844297e-01    6.504383087e-01    8.495524526e-06    3.324821591e-07    0.000000000e+00    0.000000000e+00    0.000000000e+00    0.000000000e+00
      366750000    8.027976751e-01    5.495639443e-01   -3.222096711e-05    1.168809831e-05    0.000000000e+00    0.000000000e+00    0.000000000e+00    0.000000000e+00
      374000000    8.600960970e-01    4.410573244e-01    8.373521268e-06    3.543775529e-05    0.000000000e+00    0.000000000e+00    0.000000000e+00    0.000000000e+00
      381250000    9.051613808e-01    3.282450438e-01   -4.510395229e-06   -8.558854461e-06    0.000000000e+00    0.000000000e+00    0.000000000e+00    0.000000000e+00
      388500000    9.352022409e-01    2.127548456e-01    8.361414075e-06   -5.083344877e-05    0.000000000e+00    0.000000000e+00    0.000000000e+00    0.000000000e+00
      395750000    9.514589310e-01    9.553156793e-02   -2.690218389e-05    3.246963024e-05    0.000000000e+00    0.000000000e+00    0.000000000e+00    0.000000000e+00
      403000000    9.546439052e-01   -2.202739753e-02   -3.656372428e-06    3.514904529e-05    0.000000000e+00    0.000000000e+00    0.000000000e+00    0.000000000e+00
      410250000    9.447523355e-01   -1.373510659e-01   -1.092907041e-05    1.932401210e-05    0.000000000e+00    0.000000000e+00    0.000000000e+00    0.000000000e+00
      417500000    9.232525229e-01   -2.489880025e-01    1.168530434e-05    1.407228410e-05    0.000000000e+00    0.000000000e+00    0.000000000e+00    0.000000000e+00
      424750000    8.894494772e-01   -3.576785922e-01    4.583783448e-05   -5.836319178e-05    0.000000000e+00    0.000000000e+00    0.000000000e+00    0.000000000e+00
      432000000    8.439076543e-01   -4.605979025e-01   -2.250447869e-05   -3.116205335e-06    0.000000000e+00    0.000000000e+00    0.000000000e+00    0.000000000e+00
      439250000    7.890507579e-01   -5.577285290e-01    4.718080163e-06   -1.689046621e-05    0.000000000e+00    0.000000000e+00    0.000000000e+00    0.000000000e+00
      446500000    7.250053883e-01   -6.475692391e-01    8.736737072e-06    9.431503713e-06    0.000000000e+00    0.000000000e+00    0.000000000e+00    0.000000000e+00
      453750000    6.509242058e-01   -7.304140329e-01   -2.367887646e-05    9.067356586e-06    0.000000000e+00    0.000000000e+00    0.000000000e+00    0.000000000e+00
      461000000    5.711197853e-01   -8.044679761e-01    1.401640475e-05   -6.053596735e-08    0.000000000e+00    0.000000000e+00    0.000000000e+00    0.000000000e+00
      468250000    4.831132591e-01   -8.689336777e-01   -3.582797945e-05    1.933705062e-05    0.000000000e+00    0.000000000e+00    0.000000000e+00    0.000000000e+00
      475500000    3.885630071e-01   -9.252852798e-01    3.541074693e-05    7.331371307e-06    0.000000000e+00    0.000000000e+00    0.000000000e+00    0.000000000e+00
      482750000    2.886759341e-01   -9.707135558e-01    3.364123404e-05    5.313195288e-06    0.000000000e+00    0.000000000e+00    0.000000000e+00    0.000000000e+00
      490000000    1.849960089e-01   -1.005698085e+00    1.383293420e-05    6.898306310e-06    0.000000000e+00    0.000000000e+00    0.000000000e+00    0.000000000e+00
      497250000    7.806730270e-02   -1.030333996e+00    9.438954294e-06    5.134381354e-06    0.000000000e+00    0.000000000e+00    0.000000000e+00    0.000000000e+00
      504500000   -3.190758452e-02   -1.043491840e+00    1.522060484e-05   -2.130400389e-05    0.000000000e+00    0.000000000e+00    0.000000000e+00    0.000000000e+00
      511750000   -1.436650306e-01   -1.043570518e+00   -7.064081728e-06    9.804964066e-06    0.000000000e+00    0.000000000e+00    0.000000000e+00    0.000000000e+00
      519000000   -2.547424734e-01   -1.032873988e+00    5.253590643e-05   -2.187211066e-05    0.000000000e+00    0.000000000e+00    0.000000000e+00    0.000000000e+00
      526250000   -3.649736345e-01   -1.009330034e+00   -1.937802881e-05   -1.405924559e-05    0.000000000e+00    0.000000000e+00    0.000000000e+00    0.000000000e+00
      533500000   -4.735394120e-01   -9.736837149e-01   -3.194157034e-05   -1.646019518e-05    0.000000000e+00    0.000000000e+00    0.000000000e+00    0.000000000e+00
      540750000   -5.775492787e-01   -9.249507785e-01   -1.298636198e-05   -2.454034984e-05    0.000000000e+00    0.000000000e+00    0.000000000e+00    0.000000000e+00
      548000000   -6.760328412e-01   -8.644626141e-01   -1.093372703e-05   -7.264316082e-08    0.000000000e+00    0.000000000e+00    0.000000000e+00    0.000000000e+00
      555250000   -7.684338689e-01   -7.932877541e-01    5.490891635e-05    1.341756433e-05    0.000000000e+00    0.000000000e+00    0.000000000e+00    0.000000000e+00
      562500000   -8.509708047e-01   -7.103384733e-01    5.130656064e-06   -1.935102046e-05    0.000000000e+00    0.000000000e+00    0.000000000e+00    0.000000000e+00
      569750000   -9.243925810e-01   -6.183965206e-01   -1.519452780e-05   -5.855225027e-06    0.000000000e+00    0.000000000e+00    0.000000000e+00    0.000000000e+00
      577000000   -9.869950414e-01   -5.172372460e-01   -1.902692020e-05    4.282779992e-05    0.000000000e+00    0.000000000e+00    0.000000000e+00    0.000000000e+00
      584250000   -1.036954641e+00   -4.092601836e-01   -1.407694072e-05   -1.273304224e-05    0.000000000e+00    0.000000000e+00    0.000000000e+00    0.000000000e+00
      591500000   -1.073507547e+00   -2.943687439e-01    1.069344580e-05   -2.786889672e-05    0.000000000e+00    0.000000000e+00    0.000000000e+00    0.000000000e+00
      598750000   -1.095542908e+00   -1.757957190e-01    4.639942199e-05   -2.434663475e-05    0.000000000e+00    0.000000000e+00    0.000000000e+00    0.000000000e+00
      606000000   -1.103744388e+00   -5.756954104e-02    8.296221495e-06   -7.582828403e-06    0.000000000e+00    0.000000000e+00    0.000000000e+00    0.000000000e+00
      613250000   -1.096996307e+00    6.376442313e-02   -4.732981324e-05   -4.309322685e-05    0.000000000e+00    0.000000000e+00    0.000000000e+00    0.000000000e+00
      620500000   -1.076275826e+00    1.802029908e-01   -2.374779433e-05   -2.193544060e-05    0.000000000e+00    0.000000000e+00    0.000000000e+00    0.000000000e+00
      627750000   -1.040672302e+00    2.950412631e-01   -7.934868336e-06    1.449976116e-05    0.000000000e+00    0.000000000e+00    0.000000000e+00    0.000000000e+00
      635000000   -9.932305217e-01    4.013911784e-01    2.242159098e-05   -2.027209848e-05    0.000000000e+00    0.000000000e+00    0.000000000e+00    0.000000000e+00
      642250000   -9.311674237e-01    5.031918883e-01    1.939944923e-06   -1.884344965e-05    0.000000000e+00    0.000000000e+00    0.000000000e+00    0.000000000e+00
      649500000   -8.593539000e-01    5.949507952e-01   -1.186504960e-05   -1.496449113e-05    0.000000000e+00    0.000000000e+00    0.000000000e+00    0.000000000e+00
      656750000   -7.790886760e-01    6.767663360e-01    1.209974289e-05    4.627741873e-06    0.000000000e+00    0.000000000e+00    0.000000000e+00    0.000000000e+00
      664000000   -6.896188259e-01    7.475744486e-01    2.607516944e-05    2.001598477e-05    0.000000000e+00    0.000000000e+00    0.000000000e+00    0.000000000e+00
      671250000   -5.932020545e-01    8.074047565e-01    3.254506737e-05   -4.122965038e-06    0.000000000e+00    0.000000000e+00    0.000000000e+00    0.000000000e+00
      678500000   -4.923498929e-01    8.554043174e-01    4.421547055e-05    1.331511885e-05    0.000000000e+00    0.000000000e+00    0.000000000e+00    0.000000000e+00
      685750000   -3.880846500e-01    8.908198476e-01   -2.642720938e-05    1.612212509e-05    0.000000000e+00    0.000000000e+00    0.000000000e+00    0.000000000e+00
      693000000   -2.812792361e-01    9.141333103e-01    4.576519132e-06    1.122150570e-05    0.000000000e+00    0.000000000e+00    0.000000000e+00    0.000000000e+00
      700250000   -1.757585257e-01    9.259350896e-01    1.469627023e-06   -1.082103699e-05    0.000000000e+00    0.000000000e+00    0.000000000e+00    0.000000000e+00
      707500000   -6.787437946e-02    9.260351062e-01   -2.870801836e-05    2.926308662e-05    0.000000000e+00    0.000000000e+00    0.000000000e+00    0.000000000e+00
      714750000    3.728161007e-02    9.150885344e-01    2.375338227e-05    6.870366633e-06    0.000000000e+00    0.000000000e+00    0.000000000e+00    0.000000000e+00
      722000000    1.377326548e-01    8.936159015e-01   -6.314367056e-06   -3.948342055e-05    0.000000000e+00    0.000000000e+00    0.000000000e+00    0.000000000e+00
      729250000    2.369144112e-01    8.618171215e-01    2.218689770e-05    2.494640648e-05    0.000000000e+00    0.000000000e+00    0.000000000e+00    0.000000000e+00
      736500000    3.296078742e-01    8.210386634e-01    1.662503928e-05   -2.905726433e-06    0.000000000e+00    0.000000000e+00    0.000000000e+00    0.000000000e+00
      743750000    4.183100164e-01    7.710771561e-01    1.945905387e-05   -1.801550388e-05    0.000000000e+00    0.000000000e+00    0.000000000e+00    0.000000000e+00
      751000000    5.008071065e-01    7.131130099e-01   -2.779066563e-05    2.826657146e-05    0.000000000e+00    0.000000000e+00    0.000000000e+00    0.000000000e+00
      758250000    5.772215128e-01    6.468707323e-01   -1.676753163e-05    1.280847937e-05    0.000000000e+00    0.000000000e+00    0.000000000e+00    0.000000000e+00
      765500000    6.462987065e-01    5.753812790e-01    1.059472561e-05    1.825951040e-05    0.000000000e+00    0.000000000e+00    0.000000000e+00    0.000000000e+00
      772750000    7.083535790e-01    4.954621494e-01   -1.199543476e-06    2.554245293e-05    0.000000000e+00    0.000000000e+00    0.000000000e+00    0.000000000e+00
      780000000    7.602784038e-01    4.119677842e-01    2.360064536e-05   -1.945625991e-05    0.000000000e+00    0.000000000e+00    0.000000000e+00    0.000000000e+00
      787250000    8.078228831e-01    3.206296861e-01    6.748363376e-06   -2.740416676e-05    0.000000000e+00    0.000000000e+00    0.000000000e+00    0.000000000e+00
      794500000    8.433555365e-01    2.265362591e-01   -2.605654299e-05   -4.824250937e-06    0.000000000e+00    0.000000000e+00    0.000000000e+00    0.000000000e+00
      801750000    8.701009750e-01    1.273803562e-01   -1.352559775e-05   -7.171183825e-06    0.000000000e+00    0.000000000e+00    0.000000000e+00    0.000000000e+00
      809000000    8.866335154e-01    2.632732317e-02    2.675596625e-05   -1.230929047e-05    0.000000000e+00    0.000000000e+00    0.000000000e+00    0.000000000e+00
      816250000    8.932565451e-01   -7.660824060e-02   -1.439545304e-05    3.656744957e-05    0.000000000e+00    0.000000000e+00    0.000000000e+00    0.000000000e+00
      823500000    8.885392547e-01   -1.829247326e-01   -9.803101420e-06    3.974884748e-06    0.000000000e+00    0.000000000e+00    0.000000000e+00    0.000000000e+00
      830750000    8.725664616e-01   -2.888008058e-01   -4.039239138e-05    6.194226444e-06    0.000000000e+00    0.000000000e+00    0.000000000e+00    0.000000000e+00
      838000000    8.445488214e-01   -3.929091394e-01   -3.382842988e-05    2.527330071e-05    0.000000000e+00    0.000000000e+00    0.000000000e+00    0.000000000e+00
      845250000    8.058327436e-01   -4.950614870e-01    7.834285498e-06   -4.171393812e-06    0.000000000e+00    0.000000000e+00    0.000000000e+00    0.000000000e+00
      852500000    7.537250519e-01   -5.938423872e-01   -4.135351628e-05   -1.256167889e-05    0.000000000e+00    0.000000000e+00    0.000000000e+00    0.000000000e+00
      859750000    6.903034449e-01   -6.869239211e-01    7.625669241e-06    8.993782103e-06    0.000000000e+00    0.000000000e+00    0.000000000e+00    0.000000000e+00
      867000000    6.147626042e-01   -7.743794322e-01   -2.095475793e-06   -6.472691894e-06    0.000000000e+00    0.000000000e+00    0.000000000e+00    0.000000000e+00
      874250000    5.288339257e-01   -8.519297242e-01   -2.044066787e-05    3.813765943e-05    0.000000000e+00    0.000000000e+00    0.000000000e+00    0.000000000e+00
      881500000    4.300105274e-01   -9.205546975e-01   -2.449844033e-05   -2.544373274e-05    0.000000000e+00    0.000000000e+00    0.000000000e+00    0.000000000e+00
      888750000    3.251299262e-01   -9.754312038e-01   -1.570582390e-05   -3.883615136e-07    0.000000000e+00    0.000000000e+00    0.000000000e+00    0.000000000e+00
      896000000    2.097527534e-01   -1.017836332e+00   -2.678111196e-05    2.149492502e-06    0.000000000e+00    0.000000000e+00    0.000000000e+00    0.000000000e+00
      903250000    9.062860906e-02   -1.045207381e+00   -6.320420653e-05   -1.707952470e-05    0.000000000e+00    0.000000000e+00    0.000000000e+00    0.000000000e+00
      910500000   -3.542380035e-02   -1.055285096e+00    3.459863365e-06   -3.589875996e-05    0.000000000e+00    0.000000000e+00    0.000000000e+00    0.000000000e+00
      917750000   -1.587199271e-01   -1.049917817e+00   -5.151331425e-05   -2.403464168e-05    0.000000000e+00    0.000000000e+00    0.000000000e+00    0.000000000e+00
      925000000   -2.815582752e-01   -1.026726365e+00   -1.345481724e-05   -7.723458111e-06    0.000000000e+00    0.000000000e+00    0.000000000e+00    0.000000000e+00
      932250000   -4.011966884e-01   -9.866724014e-01    1.193024218e-05   -2.648308873e-05    0.000000000e+00    0.000000000e+00    0.000000000e+00    0.000000000e+00
      939500000   -5.131610632e-01   -9.311121106e-01    2.277456224e-05    1.490116119e-07    0.000000000e+00    0.000000000e+00    0.000000000e+00    0.000000000e+00
      946750000   -6.140209436e-01   -8.611236811e-01   -1.562293619e-05    2.897717059e-05    0.000000000e+00    0.000000000e+00    0.000000000e+00    0.000000000e+00
      954000000   -7.044886351e-01   -7.803165913e-01    4.035141319e-05   -7.818453014e-06    0.000000000e+00    0.000000000e+00    0.000000000e+00    0.000000000e+00
      961250000   -7.824535370e-01   -6.877730489e-01    2.339389175e-05    1.325830817e-05    0.000000000e+00    0.000000000e+00    0.000000000e+00    0.000000000e+00
      968500000   -8.465402722e-01   -5.866468549e-01    4.454888403e-05   -4.052277654e-05    0.000000000e+00    0.000000000e+00    0.000000000e+00    0.000000000e+00
      975750000   -8.945458531e-01   -4.818638861e-01    1.012533903e-05   -1.099891961e-05    0.000000000e+00    0.000000000e+00    0.000000000e+00    0.000000000e+00
      983000000   -9.288002253e-01   -3.735734224e-01    1.353677362e-05    5.065184087e-05    0.000000000e+00    0.000000000e+00    0.000000000e+00    0.000000000e+00
      990250000   -9.487035871e-01   -2.636252046e-01   -7.850117981e-06   -2.452079207e-05    0.000000000e+00    0.000000000e+00    0.000000000e+00    0.000000000e+00
      997500000   -9.549823403e-01   -1.557858735e-01    2.498645335e-05   -5.863606930e-06    0.000000000e+00    0.000000000e+00    0.000000000e+00    0.000000000e+00
     1004750000   -9.482210279e-01   -5.071534961e-02   -2.853572369e-06   -1.611653715e-05    0.000000000e+00    0.000000000e+00    0.000000000e+00    0.000000000e+00
     1012000000   -9.291025996e-01    5.081605911e-02    6.402842700e-06    3.478582948e-05    0.000000000e+00    0.000000000e+00    0.000000000e+00    0.000000000e+00
     1019250000   -9.007087946e-01    1.458933055e-01   -1.369044185e-06   -7.603317499e-06    0.000000000e+00    0.000000000e+00    0.000000000e+00    0.000000000e+00
     1026500000   -8.625155687e-01    2.358306646e-01    1.122802496e-05    4.902482033e-06    0.000000000e+00    0.000000000e+00    0.000000000e+00    0.000000000e+00
     1033750000   -8.166611791e-01    3.189573586e-01   -6.951205432e-05    1.452118158e-05    0.000000000e+00    0.000000000e+00    0.000000000e+00    0.000000000e+00
     1041000000   -7.638227344e-01    3.940301239e-01   -5.472451448e-06    3.838911653e-05    0.000000000e+00    0.000000000e+00    0.000000000e+00    0.000000000e+00
