! NanoVNA-App by OneOfEleven et al v1.1.209 (+OD15) 
! Date: 2024-07-30 15:11:56
! Start: 200MHz Stop: 6GHz Points: 801
! S-Parameter data: F S11 S21 S12 S22
# Hz S RI R 50
!     Frequency           S11_Real           S11_Imag           S21_Real           S21_Imag           S12_Real           S12_Imag           S22_Real           S22_Imag
      200000000   -9.995944500e-01    3.830474103e-03    4.255528256e-05   -4.137655196e-05    0.000000000e+00    0.000000000e+00    0.000000000e+00    0.000000000e+00
      207250000   -9.996255040e-01    3.951003775e-03    3.080393071e-05   -1.522388402e-06    0.000000000e+00    0.000000000e+00    0.000000000e+00    0.000000000e+00
      214500000   -9.995787144e-01    4.110060167e-03   -8.855803571e-06   -3.707120777e-05    0.000000000e+00    0.000000000e+00    0.000000000e+00    0.000000000e+00
      221750000   -9.995631576e-01    4.280872177e-03    1.034475008e-05    9.780605978e-06    0.000000000e+00    0.000000000e+00    0.000000000e+00    0.000000000e+00
      229000000   -9.995135069e-01    4.409615882e-03   -1.678691433e-06    1.365117805e-05    0.000000000e+00    0.000000000e+00    0.000000000e+00    0.000000000e+00
      236250000   -9.994843006e-01    4.538339097e-03    1.668773052e-06    3.247493851e-06    0.000000000e+00    0.000000000e+00    0.000000000e+00    0.000000000e+00
      243500000   -9.995700121e-01    4.665812943e-03   -3.197060141e-05    1.338993843e-05    0.000000000e+00    0.000000000e+00    0.000000000e+00    0.000000000e+00
      250750000   -9.994027615e-01    4.806844518e-03   -9.672001397e-06    8.458743650e-06    0.000000000e+00    0.000000000e+00    0.000000000e+00    0.000000000e+00
      258000000   -9.993561506e-01    4.938345402e-03    1.505682667e-05    2.539732486e-05    0.000000000e+00    0.000000000e+00    0.000000000e+00    0.000000000e+00
      265250000   -9.993467331e-01    5.135584157e-03    2.078013677e-05   -4.220564369e-05    0.000000000e+00    0.000000000e+00    0.000000000e+00    0.000000000e+00
      272500000   -9.992925525e-01    5.219592713e-03    1.104968851e-05    5.738885193e-06    0.000000000e+00    0.000000000e+00    0.000000000e+00    0.000000000e+00
      279750000   -9.992061257e-01    5.263449624e-03   -6.497493814e-06   -9.756824511e-06    0.000000000e+00    0.000000000e+00    0.000000000e+00    0.000000000e+00
      287000000   -9.992446899e-01    5.518249702e-03   -4.100713340e-05   -4.769133011e-05    0.000000000e+00    0.000000000e+00    0.000000000e+00    0.000000000e+00
      294250000   -9.991533756e-01    5.587365944e-03   -1.987699761e-05   -1.139008054e-05    0.000000000e+00    0.000000000e+00    0.000000000e+00    0.000000000e+00
      301500000   -9.991955757e-01    5.799801089e-03   -9.512208408e-07   -2.495266926e-05    0.000000000e+00    0.000000000e+00    0.000000000e+00    0.000000000e+00
      308750000   -9.990898371e-01    5.900174379e-03   -1.573117152e-05    1.900554344e-05    0.000000000e+00    0.000000000e+00    0.000000000e+00    0.000000000e+00
      316000000   -9.990113378e-01    6.008959375e-03   -2.349284478e-05    7.752527381e-06    0.000000000e+00    0.000000000e+00    0.000000000e+00    0.000000000e+00
      323250000   -9.990278482e-01    6.260290276e-03   -1.030955900e-06   -2.576782026e-05    0.000000000e+00    0.000000000e+00    0.000000000e+00    0.000000000e+00
      330500000   -9.989472032e-01    6.323698908e-03   -8.338582120e-06    9.757816315e-07    0.000000000e+00    0.000000000e+00    0.000000000e+00    0.000000000e+00
      337750000   -9.989742041e-01    6.442555226e-03    9.218065316e-06    1.286534825e-05    0.000000000e+00    0.000000000e+00    0.000000000e+00    0.000000000e+00
      345000000   -9.989352226e-01    6.540962029e-03    1.427100960e-05   -2.924927321e-05    0.000000000e+00    0.000000000e+00    0.000000000e+00    0.000000000e+00
      352250000   -9.988535047e-01    6.762143690e-03   -1.991945965e-06    1.084732412e-05    0.000000000e+00    0.000000000e+00    0.000000000e+00    0.000000000e+00
      359500000   -9.987478256e-01    6.761752535e-03   -4.718872333e-06   -4.672422165e-06    0.000000000e+00    0.000000000e+00    0.000000000e+00    0.000000000e+00
      366750000   -9.987737536e-01    7.029749453e-03   -1.958364373e-05   -4.407660890e-05    0.000000000e+00    0.000000000e+00    0.000000000e+00    0.000000000e+00
      374000000   -9.987731576e-01    7.133678533e-03   -3.892407403e-05    2.532974213e-05    0.000000000e+00    0.000000000e+00    0.000000000e+00    0.000000000e+00
      381250000   -9.985485077e-01    7.200655062e-03    3.764684516e-05   -2.308263356e-05    0.000000000e+00    0.000000000e+00    0.000000000e+00    0.000000000e+00
      388500000   -9.986245632e-01    7.385772653e-03    5.189061540e-06   -3.640844443e-05    0.000000000e+00    0.000000000e+00    0.000000000e+00    0.000000000e+00
      395750000   -9.984242320e-01    7.478142623e-03    2.764157398e-05    5.394812251e-05    0.000000000e+00    0.000000000e+00    0.000000000e+00    0.000000000e+00
      403000000   -9.985397458e-01    7.652012631e-03   -1.900153734e-06   -9.310312635e-06    0.000000000e+00    0.000000000e+00    0.000000000e+00    0.000000000e+00
      410250000   -9.983989000e-01    7.769285701e-03   -8.093980796e-06    9.776762454e-06    0.000000000e+00    0.000000000e+00    0.000000000e+00    0.000000000e+00
      417500000   -9.984167218e-01    7.787662558e-03   -6.680322258e-06    2.597389539e-05    0.000000000e+00    0.000000000e+00    0.000000000e+00    0.000000000e+00
      424750000   -9.982670546e-01    7.878350094e-03   -5.665618119e-06   -9.334240531e-06    0.000000000e+00    0.000000000e+00    0.000000000e+00    0.000000000e+00
      432000000   -9.983145595e-01    8.062861860e-03   -4.198738679e-05   -1.105558658e-05    0.000000000e+00    0.000000000e+00    0.000000000e+00    0.000000000e+00
      439250000   -9.982162714e-01    8.161273785e-03    2.065579429e-05   -1.071708357e-05    0.000000000e+00    0.000000000e+00    0.000000000e+00    0.000000000e+00
      446500000   -9.981553555e-01    8.356032893e-03    3.938724331e-05   -5.503937064e-05    0.000000000e+00    0.000000000e+00    0.000000000e+00    0.000000000e+00
      453750000   -9.980905056e-01    8.310778998e-03   -4.044556135e-06   -5.934455658e-06    0.000000000e+00    0.000000000e+00    0.000000000e+00    0.000000000e+00
      461000000   -9.979912043e-01    8.493219502e-03    1.252340189e-05    1.610452091e-05    0.000000000e+00    0.000000000e+00    0.000000000e+00    0.000000000e+00
      468250000   -9.979437590e-01    8.769245818e-03    1.713250276e-05   -6.454171853e-06    0.000000000e+00    0.000000000e+00    0.000000000e+00    0.000000000e+00
      475500000   -9.979475737e-01    8.775915951e-03   -2.546620090e-05    5.972911367e-06    0.000000000e+00    0.000000000e+00    0.000000000e+00    0.000000000e+00
      482750000   -9.978078604e-01    8.914039470e-03   -3.152921636e-06   -1.881279059e-05    0.000000000e+00    0.000000000e+00    0.000000000e+00    0.000000000e+00
      490000000   -9.977640510e-01    9.050915949e-03   -3.327056106e-07   -1.823262937e-05    0.000000000e+00    0.000000000e+00    0.000000000e+00    0.000000000e+00
      497250000   -9.977109432e-01    9.211444296e-03    2.050605508e-05   -2.681864680e-05    0.000000000e+00    0.000000000e+00    0.000000000e+00    0.000000000e+00
      504500000   -9.976593852e-01    9.204198606e-03    5.873228588e-07   -8.983571206e-06    0.000000000e+00    0.000000000e+00    0.000000000e+00    0.000000000e+00
      511750000   -9.976140857e-01    9.351754561e-03    9.162838978e-06   -2.349053648e-05    0.000000000e+00    0.000000000e+00    0.000000000e+00    0.000000000e+00
      519000000   -9.975586534e-01    9.494796395e-03    1.248053559e-05    1.677589898e-05    0.000000000e+00    0.000000000e+00    0.000000000e+00    0.000000000e+00
      526250000   -9.975587726e-01    9.609811008e-03    1.316816724e-05    1.108337074e-05    0.000000000e+00    0.000000000e+00    0.000000000e+00    0.000000000e+00
      533500000   -9.974357486e-01    9.729875252e-03   -1.960797090e-05   -2.063845022e-05    0.000000000e+00    0.000000000e+00    0.000000000e+00    0.000000000e+00
      540750000   -9.972567558e-01    9.717695415e-03   -1.734217403e-05   -2.372735798e-05    0.000000000e+00    0.000000000e+00    0.000000000e+00    0.000000000e+00
      548000000   -9.972448349e-01    9.891547263e-03   -6.968966773e-06   -1.110778157e-05    0.000000000e+00    0.000000000e+00    0.000000000e+00    0.000000000e+00
      555250000   -9.972093105e-01    1.001491863e-02    2.102377221e-05   -2.698587014e-05    0.000000000e+00    0.000000000e+00    0.000000000e+00    0.000000000e+00
      562500000   -9.970815778e-01    1.026308257e-02   -1.552552931e-05    1.724343019e-05    0.000000000e+00    0.000000000e+00    0.000000000e+00    0.000000000e+00
      569750000   -9.971893430e-01    1.034982689e-02   -1.633773172e-05   -1.366912693e-05    0.000000000e+00    0.000000000e+00    0.000000000e+00    0.000000000e+00
      577000000   -9.967895746e-01    1.038234308e-02   -5.303088528e-06   -3.445663651e-06    0.000000000e+00    0.000000000e+00    0.000000000e+00    0.000000000e+00
      584250000   -9.969472885e-01    1.059228741e-02   -8.998619705e-06    9.117437003e-06    0.000000000e+00    0.000000000e+00    0.000000000e+00    0.000000000e+00
      591500000   -9.966502190e-01    1.068860758e-02   -1.292701836e-05    2.116271571e-05    0.000000000e+00    0.000000000e+00    0.000000000e+00    0.000000000e+00
      598750000   -9.967517257e-01    1.077286527e-02   -3.893872054e-05   -2.124212369e-05    0.000000000e+00    0.000000000e+00    0.000000000e+00    0.000000000e+00
      606000000   -9.966174960e-01    1.089640334e-02    1.991298632e-05   -2.081067214e-05    0.000000000e+00    0.000000000e+00    0.000000000e+00    0.000000000e+00
      613250000   -9.964725375e-01    1.104461122e-02    5.411560323e-06    9.638903293e-07    0.000000000e+00    0.000000000e+00    0.000000000e+00    0.000000000e+00
      620500000   -9.965026975e-01    1.118991245e-02   -5.538631012e-05    1.673426414e-05    0.000000000e+00    0.000000000e+00    0.000000000e+00    0.000000000e+00
      627750000   -9.962735772e-01    1.118766610e-02   -2.727196261e-05    3.876494884e-05    0.000000000e+00    0.000000000e+00    0.000000000e+00    0.000000000e+00
      635000000   -9.962787032e-01    1.121302973e-02   -1.498576421e-05    3.207146074e-05    0.000000000e+00    0.000000000e+00    0.000000000e+00    0.000000000e+00
      642250000   -9.962034822e-01    1.141501963e-02   -2.461828262e-05    1.804964199e-06    0.000000000e+00    0.000000000e+00    0.000000000e+00    0.000000000e+00
      649500000   -9.961707592e-01    1.161176339e-02   -1.100599547e-06    3.015517541e-05    0.000000000e+00    0.000000000e+00    0.000000000e+00    0.000000000e+00
      656750000   -9.961891770e-01    1.165093388e-02   -2.756236427e-05   -1.561970566e-05    0.000000000e+00    0.000000000e+00    0.000000000e+00    0.000000000e+00
      664000000   -9.958753586e-01    1.195298787e-02    3.094479780e-06    9.539564417e-06    0.000000000e+00    0.000000000e+00    0.000000000e+00    0.000000000e+00
      671250000   -9.960068464e-01    1.187234558e-02   -3.439145439e-05   -1.661231545e-05    0.000000000e+00    0.000000000e+00    0.000000000e+00    0.000000000e+00
      678500000   -9.955759645e-01    1.205676608e-02   -1.335283923e-05   -2.535578460e-05    0.000000000e+00    0.000000000e+00    0.000000000e+00    0.000000000e+00
      685750000   -9.956509471e-01    1.211638656e-02   -1.579103991e-05   -3.216643336e-06    0.000000000e+00    0.000000000e+00    0.000000000e+00    0.000000000e+00
      693000000   -9.957286119e-01    1.232428290e-02    7.175008705e-06   -2.377434976e-05    0.000000000e+00    0.000000000e+00    0.000000000e+00    0.000000000e+00
      700250000   -9.959380031e-01    1.241993159e-02   -3.487680442e-05    6.384390872e-06    0.000000000e+00    0.000000000e+00    0.000000000e+00    0.000000000e+00
      707500000   -9.951588511e-01    1.258342806e-02   -3.131067569e-05   -6.754595233e-06    0.000000000e+00    0.000000000e+00    0.000000000e+00    0.000000000e+00
      714750000   -9.953575134e-01    1.236336306e-02    2.369577123e-05    4.851569247e-05    0.000000000e+00    0.000000000e+00    0.000000000e+00    0.000000000e+00
      722000000   -9.956011176e-01    1.267363876e-02    3.156697130e-05   -3.052899046e-05    0.000000000e+00    0.000000000e+00    0.000000000e+00    0.000000000e+00
      729250000   -9.953534603e-01    1.264881715e-02    2.893688418e-07   -1.307206367e-05    0.000000000e+00    0.000000000e+00    0.000000000e+00    0.000000000e+00
      736500000   -9.952499866e-01    1.285218820e-02   -6.672859854e-06   -1.963927571e-05    0.000000000e+00    0.000000000e+00    0.000000000e+00    0.000000000e+00
      743750000   -9.946740270e-01    1.284959167e-02   -2.993589260e-05    3.294891576e-05    0.000000000e+00    0.000000000e+00    0.000000000e+00    0.000000000e+00
      751000000   -9.949063659e-01    1.306111459e-02    2.768878403e-05    1.576425893e-05    0.000000000e+00    0.000000000e+00    0.000000000e+00    0.000000000e+00
      758250000   -9.950878620e-01    1.324876398e-02    1.574828275e-05   -3.591335917e-05    0.000000000e+00    0.000000000e+00    0.000000000e+00    0.000000000e+00
      765500000   -9.945443869e-01    1.320772897e-02   -1.071631777e-05    3.763381756e-06    0.000000000e+00    0.000000000e+00    0.000000000e+00    0.000000000e+00
      772750000   -9.947212934e-01    1.327134669e-02   -1.560105557e-05   -2.160557187e-06    0.000000000e+00    0.000000000e+00    0.000000000e+00    0.000000000e+00
      780000000   -9.942958951e-01    1.369362976e-02    1.071955921e-05   -3.645246761e-05    0.000000000e+00    0.000000000e+00    0.000000000e+00    0.000000000e+00
      787250000   -9.946771860e-01    1.312195696e-02   -1.588781925e-05    2.194617809e-05    0.000000000e+00    0.000000000e+00    0.000000000e+00    0.000000000e+00
      794500000   -9.941185713e-01    1.355676726e-02    9.203011359e-06    2.515177766e-05    0.000000000e+00    0.000000000e+00    0.000000000e+00    0.000000000e+00
      801750000   -9.946011305e-01    1.366119366e-02    5.996236359e-05    1.435605009e-05    0.000000000e+00    0.000000000e+00    0.000000000e+00    0.000000000e+00
      809000000   -9.943716526e-01    1.396834012e-02    6.155148640e-06    4.370317765e-05    0.000000000e+00    0.000000000e+00    0.000000000e+00    0.000000000e+00
      816250000   -9.940741062e-01    1.378484536e-02    3.928704609e-05   -1.077013439e-05    0.000000000e+00    0.000000000e+00    0.000000000e+00    0.000000000e+00
      823500000   -9.938732982e-01    1.388935931e-02   -4.285306204e-05   -1.205241460e-05    0.000000000e+00    0.000000000e+00    0.000000000e+00    0.000000000e+00
      830750000   -9.939140081e-01    1.403452456e-02    3.407628128e-06    2.822570241e-05    0.000000000e+00    0.000000000e+00    0.000000000e+00    0.000000000e+00
      838000000   -9.938806295e-01    1.398743037e-02    2.908987699e-05   -7.613713478e-06    0.000000000e+00    0.000000000e+00    0.000000000e+00    0.000000000e+00
      845250000   -9.939095378e-01    1.427251380e-02   -1.478244303e-05   -2.187173322e-07    0.000000000e+00    0.000000000e+00    0.000000000e+00    0.000000000e+00
      852500000   -9.936518669e-01    1.421161834e-02   -2.838784530e-05   -1.349870854e-05    0.000000000e+00    0.000000000e+00    0.000000000e+00    0.000000000e+00
      859750000   -9.935848117e-01    1.435597055e-02    3.617134280e-05    3.988221943e-05    0.000000000e+00    0.000000000e+00    0.000000000e+00    0.000000000e+00
      867000000   -9.935069084e-01    1.451316196e-02   -2.995408295e-06   -1.066018740e-05    0.000000000e+00    0.000000000e+00    0.000000000e+00    0.000000000e+00
      874250000   -9.934603572e-01    1.466746721e-02    9.189331649e-06   -2.214599044e-05    0.000000000e+00    0.000000000e+00    0.000000000e+00    0.000000000e+00
      881500000   -9.929508567e-01    1.451613102e-02    3.055286652e-05    3.680021473e-05    0.000000000e+00    0.000000000e+00    0.000000000e+00    0.000000000e+00
      888750000   -9.931929708e-01    1.464746054e-02    2.095733544e-05   -2.464907266e-05    0.000000000e+00    0.000000000e+00    0.000000000e+00    0.000000000e+00
      896000000   -9.930861592e-01    1.475584414e-02   -1.745169538e-05    9.381487871e-06    0.000000000e+00    0.000000000e+00    0.000000000e+00    0.000000000e+00
      903250000   -9.929439425e-01    1.478030719e-02   -3.971736805e-05   -1.267944390e-05    0.000000000e+00    0.000000000e+00    0.000000000e+00    0.000000000e+00
      910500000   -9.930533767e-01    1.518699992e-02   -1.376800265e-05    1.683487608e-05    0.000000000e+00    0.000000000e+00    0.000000000e+00    0.000000000e+00
      917750000   -9.929779768e-01    1.525656320e-02   -3.079838280e-05   -4.484833880e-06    0.000000000e+00    0.000000000e+00    0.000000000e+00    0.000000000e+00
      925000000   -9.927257895e-01    1.531474385e-02    4.129362878e-06    2.712890819e-05    0.000000000e+00    0.000000000e+00    0.000000000e+00    0.000000000e+00
      932250000   -9.924691319e-01    1.529061981e-02   -4.759673175e-06    9.414582564e-06    0.000000000e+00    0.000000000e+00    0.000000000e+00    0.000000000e+00
      939500000   -9.922871590e-01    1.535680331e-02    1.814994721e-05   -6.542300639e-07    0.000000000e+00    0.000000000e+00    0.000000000e+00    0.000000000e+00
      946750000   -9.924229383e-01    1.523790602e-02   -6.777265753e-06   -1.499784474e-07    0.000000000e+00    0.000000000e+00    0.000000000e+00    0.000000000e+00
      954000000   -9.927549362e-01    1.568727195e-02   -3.886684135e-05    2.016423059e-05    0.000000000e+00    0.000000000e+00    0.000000000e+00    0.000000000e+00
      961250000   -9.921497703e-01    1.567177661e-02   -3.312253102e-05    1.997348562e-07    0.000000000e+00    0.000000000e+00    0.000000000e+00    0.000000000e+00
      968500000   -9.921320081e-01    1.583713293e-02   -4.388957313e-05    7.056549657e-05    0.000000000e+00    0.000000000e+00    0.000000000e+00    0.000000000e+00
      975750000   -9.921309948e-01    1.573887654e-02    3.748777772e-06   -2.649441376e-05    0.000000000e+00    0.000000000e+00    0.000000000e+00    0.000000000e+00
      983000000   -9.918369055e-01    1.574236155e-02   -6.178304466e-05    1.285209873e-05    0.000000000e+00    0.000000000e+00    0.000000000e+00    0.000000000e+00
      990250000   -9.916645885e-01    1.570608653e-02   -2.574762766e-05    2.913226672e-05    0.000000000e+00    0.000000000e+00    0.000000000e+00    0.000000000e+00
      997500000   -9.921303391e-01    1.619222760e-02   -7.274686141e-06   -3.886440390e-05    0.000000000e+00    0.000000000e+00    0.000000000e+00    0.000000000e+00
     1004750000   -9.914337993e-01    1.560294628e-02    3.999085493e-06    2.803916004e-06    0.000000000e+00    0.000000000e+00    0.000000000e+00    0.000000000e+00
     1012000000   -9.909796119e-01    1.628699154e-02   -3.326152728e-05   -8.235989299e-06    0.000000000e+00    0.000000000e+00    0.000000000e+00    0.000000000e+00
     1019250000   -9.913064837e-01    1.634302363e-02   -2.818111534e-05   -2.715067967e-05    0.000000000e+00    0.000000000e+00    0.000000000e+00    0.000000000e+00
     1026500000   -9.912433624e-01    1.709360629e-02   -2.913698154e-05    3.590145934e-05    0.000000000e+00    0.000000000e+00    0.000000000e+00    0.000000000e+00
     1033750000   -9.908623695e-01    1.615344360e-02   -3.954307431e-06   -4.076562982e-05    0.000000000e+00    0.000000000e+00    0.000000000e+00    0.000000000e+00
     1041000000   -9.901334047e-01    1.629348285e-02   -5.239476764e-07    9.317618606e-06    0.000000000e+00    0.000000000e+00    0.000000000e+00    0.000000000e+00
