! NanoVNA-App
! Date: 2024-06-25 16:49:40
! Start: 200MHz Stop: 1.5GHz Points: 801
! S-Parameter data: F S11 S21 S12 S22
# Hz S RI R 50
!     Frequency           S11_Real           S11_Imag           S21_Real           S21_Imag           S12_Real           S12_Imag           S22_Real           S22_Imag
      200000000   -8.505843282e-01    1.428001821e-01    1.754023106e-04    6.216663314e-05    0.000000000e+00    0.000000000e+00    0.000000000e+00    0.000000000e+00
      201625000   -8.447632194e-01    1.694692671e-01    2.017567022e-04    6.860870781e-05    0.000000000e+00    0.000000000e+00    0.000000000e+00    0.000000000e+00
      203250000   -8.379111886e-01    1.959823519e-01    1.944919495e-04    3.793309588e-05    0.000000000e+00    0.000000000e+00    0.000000000e+00    0.000000000e+00
      204875000   -8.303992748e-01    2.218455225e-01    2.186792553e-04    6.188845873e-05    0.000000000e+00    0.000000000e+00    0.000000000e+00    0.000000000e+00
      206500000   -8.219750524e-01    2.474582791e-01    2.403188992e-04    7.262083818e-05    0.000000000e+00    0.000000000e+00    0.000000000e+00    0.000000000e+00
      208125000   -8.124764562e-01    2.727963030e-01    2.341786749e-04    7.058890333e-05    0.000000000e+00    0.000000000e+00    0.000000000e+00    0.000000000e+00
      209750000   -8.022608161e-01    2.976983190e-01    2.705425140e-04    7.732563245e-05    0.000000000e+00    0.000000000e+00    0.000000000e+00    0.000000000e+00
      211375000   -7.908424735e-01    3.220284879e-01    2.486679587e-04    9.730773309e-05    0.000000000e+00    0.000000000e+00    0.000000000e+00    0.000000000e+00
      213000000   -7.790472507e-01    3.457472622e-01    2.871081815e-04    1.079303256e-04    0.000000000e+00    0.000000000e+00    0.000000000e+00    0.000000000e+00
      214625000   -7.662853003e-01    3.690187037e-01    2.791551815e-04    1.103808609e-04    0.000000000e+00    0.000000000e+00    0.000000000e+00    0.000000000e+00
      216250000   -7.526511550e-01    3.918787241e-01    2.843251568e-04    1.252747606e-04    0.000000000e+00    0.000000000e+00    0.000000000e+00    0.000000000e+00
      217875000   -7.384514213e-01    4.139219522e-01    2.917697711e-04    1.022756333e-04    0.000000000e+00    0.000000000e+00    0.000000000e+00    0.000000000e+00
      219500000   -7.235344052e-01    4.356434941e-01    3.021359153e-04    1.220862032e-04    0.000000000e+00    0.000000000e+00    0.000000000e+00    0.000000000e+00
      221125000   -7.076776624e-01    4.564482868e-01    3.031079541e-04    1.364483469e-04    0.000000000e+00    0.000000000e+00    0.000000000e+00    0.000000000e+00
      222750000   -6.913940907e-01    4.767339528e-01    2.971624490e-04    1.184449575e-04    0.000000000e+00    0.000000000e+00    0.000000000e+00    0.000000000e+00
      224375000   -6.745041013e-01    4.964255393e-01    3.207071277e-04    1.214201184e-04    0.000000000e+00    0.000000000e+00    0.000000000e+00    0.000000000e+00
      226000000   -6.569234729e-01    5.152209401e-01    3.168589610e-04    1.188850147e-04    0.000000000e+00    0.000000000e+00    0.000000000e+00    0.000000000e+00
      227625000   -6.387458444e-01    5.335264206e-01    3.206892288e-04    1.440637425e-04    0.000000000e+00    0.000000000e+00    0.000000000e+00    0.000000000e+00
      229250000   -6.201794744e-01    5.510147810e-01    3.048553481e-04    1.355829299e-04    0.000000000e+00    0.000000000e+00    0.000000000e+00    0.000000000e+00
      230875000   -6.009212732e-01    5.677384734e-01    3.189097915e-04    1.395485451e-04    0.000000000e+00    0.000000000e+00    0.000000000e+00    0.000000000e+00
      232500000   -5.815342665e-01    5.840833783e-01    3.252519236e-04    1.562024263e-04    0.000000000e+00    0.000000000e+00    0.000000000e+00    0.000000000e+00
      234125000   -5.614533424e-01    5.991657376e-01    3.251594026e-04    1.258891134e-04    0.000000000e+00    0.000000000e+00    0.000000000e+00    0.000000000e+00
      235750000   -5.411744714e-01    6.139897108e-01    3.316740622e-04    1.314834662e-04    0.000000000e+00    0.000000000e+00    0.000000000e+00    0.000000000e+00
      237375000   -5.201805830e-01    6.276412606e-01    3.353346256e-04    1.469154522e-04    0.000000000e+00    0.000000000e+00    0.000000000e+00    0.000000000e+00
      239000000   -4.990800321e-01    6.405526996e-01    3.430930374e-04    1.245065941e-04    0.000000000e+00    0.000000000e+00    0.000000000e+00    0.000000000e+00
      240625000   -4.776559472e-01    6.528117061e-01    3.455143014e-04    1.317420829e-04    0.000000000e+00    0.000000000e+00    0.000000000e+00    0.000000000e+00
      242250000   -4.558543563e-01    6.645481586e-01    3.580621560e-04    1.280752913e-04    0.000000000e+00    0.000000000e+00    0.000000000e+00    0.000000000e+00
      243875000   -4.336246848e-01    6.754562855e-01    3.476931597e-04    1.403767674e-04    0.000000000e+00    0.000000000e+00    0.000000000e+00    0.000000000e+00
      245500000   -4.112798870e-01    6.855423450e-01    3.351575870e-04    1.427212410e-04    0.000000000e+00    0.000000000e+00    0.000000000e+00    0.000000000e+00
      247125000   -3.884659708e-01    6.950494647e-01    3.341161646e-04    1.411847479e-04    0.000000000e+00    0.000000000e+00    0.000000000e+00    0.000000000e+00
      248750000   -3.656177819e-01    7.037333250e-01    3.537836019e-04    1.435313752e-04    0.000000000e+00    0.000000000e+00    0.000000000e+00    0.000000000e+00
      250375000   -3.428015113e-01    7.115679979e-01    3.642277734e-04    1.466241374e-04    0.000000000e+00    0.000000000e+00    0.000000000e+00    0.000000000e+00
      252000000   -3.197260201e-01    7.186049223e-01    3.607417457e-04    1.489597198e-04    0.000000000e+00    0.000000000e+00    0.000000000e+00    0.000000000e+00
      253625000   -2.968998551e-01    7.249395847e-01    3.385946911e-04    1.457403996e-04    0.000000000e+00    0.000000000e+00    0.000000000e+00    0.000000000e+00
      255250000   -2.739033997e-01    7.305306792e-01    3.575552255e-04    1.250420319e-04    0.000000000e+00    0.000000000e+00    0.000000000e+00    0.000000000e+00
      256875000   -2.510585189e-01    7.352562547e-01    3.438390850e-04    1.251355716e-04    0.000000000e+00    0.000000000e+00    0.000000000e+00    0.000000000e+00
      258500000   -2.280153632e-01    7.392705679e-01    3.624368110e-04    1.544719416e-04    0.000000000e+00    0.000000000e+00    0.000000000e+00    0.000000000e+00
      260125000   -2.050561011e-01    7.424823642e-01    3.655183536e-04    1.362906041e-04    0.000000000e+00    0.000000000e+00    0.000000000e+00    0.000000000e+00
      261750000   -1.821385175e-01    7.454049587e-01    3.656237095e-04    1.432916179e-04    0.000000000e+00    0.000000000e+00    0.000000000e+00    0.000000000e+00
      263375000   -1.593451649e-01    7.471463084e-01    3.895105619e-04    1.421051857e-04    0.000000000e+00    0.000000000e+00    0.000000000e+00    0.000000000e+00
      265000000   -1.366323382e-01    7.481546402e-01    3.610599379e-04    1.067309131e-04    0.000000000e+00    0.000000000e+00    0.000000000e+00    0.000000000e+00
      266625000   -1.141971201e-01    7.486369014e-01    3.607986146e-04    1.327081409e-04    0.000000000e+00    0.000000000e+00    0.000000000e+00    0.000000000e+00
      268250000   -9.150238335e-02    7.485220432e-01    3.747013106e-04    1.490093855e-04    0.000000000e+00    0.000000000e+00    0.000000000e+00    0.000000000e+00
      269875000   -6.916131824e-02    7.475010753e-01    3.562472411e-04    1.586270664e-04    0.000000000e+00    0.000000000e+00    0.000000000e+00    0.000000000e+00
      271500000   -4.694382474e-02    7.461244464e-01    3.587163519e-04    1.329546358e-04    0.000000000e+00    0.000000000e+00    0.000000000e+00    0.000000000e+00
      273125000   -2.498061024e-02    7.439718246e-01    3.677609784e-04    1.313624525e-04    0.000000000e+00    0.000000000e+00    0.000000000e+00    0.000000000e+00
      274750000   -3.029171843e-03    7.414381504e-01    3.619854106e-04    1.383579802e-04    0.000000000e+00    0.000000000e+00    0.000000000e+00    0.000000000e+00
      276375000    1.883430593e-02    7.380771637e-01    3.440275032e-04    1.274655660e-04    0.000000000e+00    0.000000000e+00    0.000000000e+00    0.000000000e+00
      278000000    4.007096216e-02    7.340396047e-01    3.753747442e-04    1.339950395e-04    0.000000000e+00    0.000000000e+00    0.000000000e+00    0.000000000e+00
      279625000    6.131482124e-02    7.295476794e-01    3.279389639e-04    1.313172834e-04    0.000000000e+00    0.000000000e+00    0.000000000e+00    0.000000000e+00
      281250000    8.241308481e-02    7.243466377e-01    3.320056130e-04    1.268015621e-04    0.000000000e+00    0.000000000e+00    0.000000000e+00    0.000000000e+00
      282875000    1.030097306e-01    7.187253237e-01    3.528487287e-04    1.506886911e-04    0.000000000e+00    0.000000000e+00    0.000000000e+00    0.000000000e+00
      284500000    1.234833002e-01    7.125673890e-01    3.217394697e-04    1.291468943e-04    0.000000000e+00    0.000000000e+00    0.000000000e+00    0.000000000e+00
      286125000    1.438457072e-01    7.060208917e-01    3.335234651e-04    1.129711163e-04    0.000000000e+00    0.000000000e+00    0.000000000e+00    0.000000000e+00
      287750000    1.636646539e-01    6.990292072e-01    3.039176809e-04    1.181402331e-04    0.000000000e+00    0.000000000e+00    0.000000000e+00    0.000000000e+00
      289375000    1.832659692e-01    6.910412312e-01    3.012127418e-04    9.851316281e-05    0.000000000e+00    0.000000000e+00    0.000000000e+00    0.000000000e+00
      291000000    9.768702090e-02    6.502922177e-01   -2.356594196e-04   -2.833346116e-05    0.000000000e+00    0.000000000e+00    0.000000000e+00    0.000000000e+00
      292625000    1.162899435e-01    6.442933083e-01   -5.149169738e-05   -3.606267637e-05    0.000000000e+00    0.000000000e+00    0.000000000e+00    0.000000000e+00
      294250000    1.355216205e-01    6.379305124e-01    6.828462210e-05    1.687986332e-05    0.000000000e+00    0.000000000e+00    0.000000000e+00    0.000000000e+00
      295875000    1.531627327e-01    6.308539510e-01   -6.352801574e-05   -2.104032501e-05    0.000000000e+00    0.000000000e+00    0.000000000e+00    0.000000000e+00
      297500000    1.703009009e-01    6.232532859e-01   -1.349752420e-04    1.205110020e-04    0.000000000e+00    0.000000000e+00    0.000000000e+00    0.000000000e+00
      299125000    1.880058348e-01    6.157670021e-01   -6.850984937e-05    3.484768968e-06    0.000000000e+00    0.000000000e+00    0.000000000e+00    0.000000000e+00
      300750000    2.048554420e-01    6.073613167e-01    1.101792368e-04   -2.175408372e-05    0.000000000e+00    0.000000000e+00    0.000000000e+00    0.000000000e+00
      302375000    2.212951034e-01    5.980970860e-01   -5.928249448e-05   -3.820627535e-05    0.000000000e+00    0.000000000e+00    0.000000000e+00    0.000000000e+00
      304000000    2.376286685e-01    5.889583826e-01   -1.501203224e-04    2.083428626e-05    0.000000000e+00    0.000000000e+00    0.000000000e+00    0.000000000e+00
      305625000    2.532806396e-01    5.794710517e-01    9.455395229e-06   -8.429816080e-05    0.000000000e+00    0.000000000e+00    0.000000000e+00    0.000000000e+00
      307250000    2.660476863e-01    5.688936710e-01   -1.635580338e-05    7.341098535e-05    0.000000000e+00    0.000000000e+00    0.000000000e+00    0.000000000e+00
      308875000    2.839515507e-01    5.594831705e-01   -1.073537715e-04    8.283079660e-05    0.000000000e+00    0.000000000e+00    0.000000000e+00    0.000000000e+00
      310500000    2.992428839e-01    5.485234857e-01   -1.610487816e-04    1.111684614e-04    0.000000000e+00    0.000000000e+00    0.000000000e+00    0.000000000e+00
      312125000    3.134435415e-01    5.373764634e-01    5.261041952e-05   -7.995542546e-05    0.000000000e+00    0.000000000e+00    0.000000000e+00    0.000000000e+00
      313750000    3.274362981e-01    5.262989998e-01   -8.424001135e-05    1.215950306e-05    0.000000000e+00    0.000000000e+00    0.000000000e+00    0.000000000e+00
      315375000    3.411557674e-01    5.146092772e-01    2.936842793e-05    5.456230792e-05    0.000000000e+00    0.000000000e+00    0.000000000e+00    0.000000000e+00
      317000000    3.545806408e-01    5.032269359e-01   -6.977560406e-05    1.030595668e-04    0.000000000e+00    0.000000000e+00    0.000000000e+00    0.000000000e+00
      318625000    3.671527505e-01    4.911634922e-01   -2.068967115e-05    5.659738235e-05    0.000000000e+00    0.000000000e+00    0.000000000e+00    0.000000000e+00
      320250000    3.802587688e-01    4.788855612e-01   -9.929835505e-05   -6.374946679e-05    0.000000000e+00    0.000000000e+00    0.000000000e+00    0.000000000e+00
      321875000    3.916453719e-01    4.658966064e-01   -1.174296631e-05   -6.102936823e-05    0.000000000e+00    0.000000000e+00    0.000000000e+00    0.000000000e+00
      323500000    4.033624232e-01    4.533237815e-01   -1.274199894e-04   -2.068826871e-05    0.000000000e+00    0.000000000e+00    0.000000000e+00    0.000000000e+00
      325125000    4.148711860e-01    4.403343201e-01   -5.036947186e-05   -1.923259988e-04    0.000000000e+00    0.000000000e+00    0.000000000e+00    0.000000000e+00
      326750000    4.257788062e-01    4.273864627e-01   -2.822733659e-04    3.967388693e-05    0.000000000e+00    0.000000000e+00    0.000000000e+00    0.000000000e+00
      328375000    4.362994730e-01    4.138238430e-01    2.841862806e-05   -2.787244739e-05    0.000000000e+00    0.000000000e+00    0.000000000e+00    0.000000000e+00
      330000000    4.462042153e-01    4.002738595e-01   -8.172325033e-05    5.621873788e-05    0.000000000e+00    0.000000000e+00    0.000000000e+00    0.000000000e+00
      331625000    4.562562406e-01    3.863176107e-01    6.481030141e-05   -2.435359420e-06    0.000000000e+00    0.000000000e+00    0.000000000e+00    0.000000000e+00
      333250000    4.651042521e-01    3.725641072e-01   -5.353742745e-05   -2.386187225e-05    0.000000000e+00    0.000000000e+00    0.000000000e+00    0.000000000e+00
      334875000    4.745038748e-01    3.584301770e-01   -6.888889038e-05    8.237568181e-06    0.000000000e+00    0.000000000e+00    0.000000000e+00    0.000000000e+00
      336500000    4.830036461e-01    3.444920480e-01   -9.440441499e-05   -1.435240756e-05    0.000000000e+00    0.000000000e+00    0.000000000e+00    0.000000000e+00
      338125000    4.911637306e-01    3.301228583e-01   -3.717181244e-05   -8.623309986e-05    0.000000000e+00    0.000000000e+00    0.000000000e+00    0.000000000e+00
      339750000    4.988881052e-01    3.158578277e-01   -1.820774196e-04   -5.874889757e-05    0.000000000e+00    0.000000000e+00    0.000000000e+00    0.000000000e+00
      341375000    5.064241290e-01    3.015454710e-01   -1.175727375e-04   -1.486352267e-04    0.000000000e+00    0.000000000e+00    0.000000000e+00    0.000000000e+00
      343000000    5.133855343e-01    2.868212163e-01   -1.290359069e-04    3.968722740e-05    0.000000000e+00    0.000000000e+00    0.000000000e+00    0.000000000e+00
      344625000    5.201498866e-01    2.723492682e-01    9.755240899e-05    5.336745380e-05    0.000000000e+00    0.000000000e+00    0.000000000e+00    0.000000000e+00
      346250000    5.261111856e-01    2.575640380e-01   -1.365340868e-04    4.676779281e-05    0.000000000e+00    0.000000000e+00    0.000000000e+00    0.000000000e+00
      347875000    5.322208405e-01    2.430953830e-01   -9.628913540e-05   -1.198032842e-04    0.000000000e+00    0.000000000e+00    0.000000000e+00    0.000000000e+00
      349500000    5.377808213e-01    2.282795757e-01   -1.449596020e-04   -2.394350531e-07    0.000000000e+00    0.000000000e+00    0.000000000e+00    0.000000000e+00
      351125000    5.431119800e-01    2.133862972e-01    2.481554111e-05   -2.666633191e-05    0.000000000e+00    0.000000000e+00    0.000000000e+00    0.000000000e+00
      352750000    5.479093194e-01    1.985537708e-01   -2.350657996e-05   -9.176085587e-05    0.000000000e+00    0.000000000e+00    0.000000000e+00    0.000000000e+00
      354375000    5.521790385e-01    1.834040135e-01   -3.444854519e-05   -4.181485565e-05    0.000000000e+00    0.000000000e+00    0.000000000e+00    0.000000000e+00
      356000000    5.566135049e-01    1.684603244e-01   -1.014309091e-04    5.503847206e-05    0.000000000e+00    0.000000000e+00    0.000000000e+00    0.000000000e+00
      357625000    5.604261160e-01    1.535640210e-01    8.492542111e-05   -7.832200936e-06    0.000000000e+00    0.000000000e+00    0.000000000e+00    0.000000000e+00
      359250000    5.636994839e-01    1.385082603e-01   -1.705889445e-04    8.459944365e-05    0.000000000e+00    0.000000000e+00    0.000000000e+00    0.000000000e+00
      360875000    5.669901371e-01    1.238597333e-01   -3.351429405e-05   -2.697989112e-05    0.000000000e+00    0.000000000e+00    0.000000000e+00    0.000000000e+00
      362500000    5.698006153e-01    1.086698920e-01   -3.546812877e-05    4.306100527e-05    0.000000000e+00    0.000000000e+00    0.000000000e+00    0.000000000e+00
      364125000    5.722374320e-01    9.368449450e-02   -2.618201142e-05   -2.465208308e-05    0.000000000e+00    0.000000000e+00    0.000000000e+00    0.000000000e+00
      365750000    5.745404363e-01    7.895486802e-02    9.974490968e-05    2.531433347e-05    0.000000000e+00    0.000000000e+00    0.000000000e+00    0.000000000e+00
      367375000    5.763040185e-01    6.386325508e-02   -3.622260920e-05    1.306525228e-04    0.000000000e+00    0.000000000e+00    0.000000000e+00    0.000000000e+00
      369000000    5.777682662e-01    4.894693568e-02   -4.876525054e-05   -7.213513891e-05    0.000000000e+00    0.000000000e+00    0.000000000e+00    0.000000000e+00
      370625000    5.788480043e-01    3.426185623e-02   -7.200738764e-05    4.169888416e-05    0.000000000e+00    0.000000000e+00    0.000000000e+00    0.000000000e+00
      372250000    5.799961686e-01    1.967052557e-02   -4.648359754e-05   -1.978691671e-06    0.000000000e+00    0.000000000e+00    0.000000000e+00    0.000000000e+00
      373875000    5.802341104e-01    4.643437453e-03   -2.104509331e-04   -3.509240560e-05    0.000000000e+00    0.000000000e+00    0.000000000e+00    0.000000000e+00
      375500000    5.806294680e-01   -1.012559142e-02   -4.893734877e-05    4.588423690e-05    0.000000000e+00    0.000000000e+00    0.000000000e+00    0.000000000e+00
      377125000    5.803208947e-01   -2.477203868e-02   -1.087508936e-04    5.275589501e-06    0.000000000e+00    0.000000000e+00    0.000000000e+00    0.000000000e+00
      378750000    5.798236728e-01   -3.959534317e-02   -1.171559707e-04    4.819322567e-05    0.000000000e+00    0.000000000e+00    0.000000000e+00    0.000000000e+00
      380375000    5.792132020e-01   -5.403334275e-02   -2.076448618e-05   -1.867242281e-05    0.000000000e+00    0.000000000e+00    0.000000000e+00    0.000000000e+00
      382000000    5.781934857e-01   -6.878130138e-02   -9.309958114e-05   -2.651363502e-05    0.000000000e+00    0.000000000e+00    0.000000000e+00    0.000000000e+00
      383625000    5.766701102e-01   -8.324577659e-02   -3.508994996e-05   -3.257263188e-06    0.000000000e+00    0.000000000e+00    0.000000000e+00    0.000000000e+00
      385250000    5.753304958e-01   -9.751001745e-02   -6.034675971e-05   -6.564418072e-06    0.000000000e+00    0.000000000e+00    0.000000000e+00    0.000000000e+00
      386875000    5.734221339e-01   -1.121623889e-01   -2.339012281e-04    1.785879140e-04    0.000000000e+00    0.000000000e+00    0.000000000e+00    0.000000000e+00
      388500000    5.708645582e-01   -1.263562590e-01   -1.254164963e-04    2.496530215e-05    0.000000000e+00    0.000000000e+00    0.000000000e+00    0.000000000e+00
