! NanoVNA-App
! Date: 2024-06-25 16:50:08
! Start: 200MHz Stop: 1.5GHz Points: 801
! S-Parameter data: F S11 S21 S12 S22
# Hz S RI R 50
!     Frequency           S11_Real           S11_Imag           S21_Real           S21_Imag           S12_Real           S12_Imag           S22_Real           S22_Imag
      200000000   -8.505526781e-01    1.427760124e-01    1.848903048e-04    5.851973401e-05    0.000000000e+00    0.000000000e+00    0.000000000e+00    0.000000000e+00
      201625000   -8.446953893e-01    1.694448739e-01    2.001938556e-04    6.852301885e-05    0.000000000e+00    0.000000000e+00    0.000000000e+00    0.000000000e+00
      203250000   -8.380150199e-01    1.958953589e-01    2.042648412e-04    6.810853665e-05    0.000000000e+00    0.000000000e+00    0.000000000e+00    0.000000000e+00
      204875000   -8.303372860e-01    2.219225317e-01    2.353760210e-04    4.388787784e-05    0.000000000e+00    0.000000000e+00    0.000000000e+00    0.000000000e+00
      206500000   -8.219696879e-01    2.474800646e-01    2.439976815e-04    7.524244575e-05    0.000000000e+00    0.000000000e+00    0.000000000e+00    0.000000000e+00
      208125000   -8.125105500e-01    2.727923393e-01    2.575226827e-04    7.403053314e-05    0.000000000e+00    0.000000000e+00    0.000000000e+00    0.000000000e+00
      209750000   -8.023995161e-01    2.976695299e-01    2.536511456e-04    8.083041030e-05    0.000000000e+00    0.000000000e+00    0.000000000e+00    0.000000000e+00
      211375000   -7.910315394e-01    3.220295310e-01    2.616259153e-04    7.922064833e-05    0.000000000e+00    0.000000000e+00    0.000000000e+00    0.000000000e+00
      213000000   -7.791784406e-01    3.457018435e-01    2.626292116e-04    9.392654465e-05    0.000000000e+00    0.000000000e+00    0.000000000e+00    0.000000000e+00
      214625000   -7.661603689e-01    3.689379692e-01    2.726869425e-04    1.232038194e-04    0.000000000e+00    0.000000000e+00    0.000000000e+00    0.000000000e+00
      216250000   -7.526794672e-01    3.917932510e-01    2.925384615e-04    1.144028065e-04    0.000000000e+00    0.000000000e+00    0.000000000e+00    0.000000000e+00
      217875000   -7.382527590e-01    4.139676690e-01    2.845059789e-04    1.008847466e-04    0.000000000e+00    0.000000000e+00    0.000000000e+00    0.000000000e+00
      219500000   -7.234482169e-01    4.356469512e-01    2.899038373e-04    7.805813948e-05    0.000000000e+00    0.000000000e+00    0.000000000e+00    0.000000000e+00
      221125000   -7.076843381e-01    4.563336074e-01    3.119925968e-04    1.347670914e-04    0.000000000e+00    0.000000000e+00    0.000000000e+00    0.000000000e+00
      222750000   -6.913952231e-01    4.767519832e-01    3.146600211e-04    1.382779301e-04    0.000000000e+00    0.000000000e+00    0.000000000e+00    0.000000000e+00
      224375000   -6.744454503e-01    4.964202344e-01    2.983080922e-04    1.503777603e-04    0.000000000e+00    0.000000000e+00    0.000000000e+00    0.000000000e+00
      226000000   -6.570145488e-01    5.153557062e-01    3.190404968e-04    1.294793183e-04    0.000000000e+00    0.000000000e+00    0.000000000e+00    0.000000000e+00
      227625000   -6.387434006e-01    5.334276557e-01    3.305200953e-04    1.236801909e-04    0.000000000e+00    0.000000000e+00    0.000000000e+00    0.000000000e+00
      229250000   -6.201984286e-01    5.511815548e-01    2.957739052e-04    1.514819305e-04    0.000000000e+00    0.000000000e+00    0.000000000e+00    0.000000000e+00
      230875000   -6.008328795e-01    5.679411888e-01    3.422353766e-04    1.474687015e-04    0.000000000e+00    0.000000000e+00    0.000000000e+00    0.000000000e+00
      232500000   -5.816040039e-01    5.840297341e-01    3.542464401e-04    1.481005893e-04    0.000000000e+00    0.000000000e+00    0.000000000e+00    0.000000000e+00
      234125000   -5.615740418e-01    5.990964174e-01    3.182804212e-04    1.400538749e-04    0.000000000e+00    0.000000000e+00    0.000000000e+00    0.000000000e+00
      235750000   -5.412871242e-01    6.139456630e-01    3.266934073e-04    1.237978577e-04    0.000000000e+00    0.000000000e+00    0.000000000e+00    0.000000000e+00
      237375000   -5.201426148e-01    6.273893714e-01    3.324659774e-04    1.365729986e-04    0.000000000e+00    0.000000000e+00    0.000000000e+00    0.000000000e+00
      239000000   -4.988909066e-01    6.404608488e-01    3.613941080e-04    1.439188054e-04    0.000000000e+00    0.000000000e+00    0.000000000e+00    0.000000000e+00
      240625000   -4.775693417e-01    6.528257728e-01    3.318811359e-04    1.447769755e-04    0.000000000e+00    0.000000000e+00    0.000000000e+00    0.000000000e+00
      242250000   -4.557469785e-01    6.645458937e-01    3.204986278e-04    1.225643064e-04    0.000000000e+00    0.000000000e+00    0.000000000e+00    0.000000000e+00
      243875000   -4.335633814e-01    6.753869057e-01    3.379338887e-04    1.344451011e-04    0.000000000e+00    0.000000000e+00    0.000000000e+00    0.000000000e+00
      245500000   -4.111730754e-01    6.853953600e-01    3.462983586e-04    1.367963268e-04    0.000000000e+00    0.000000000e+00    0.000000000e+00    0.000000000e+00
      247125000   -3.884657025e-01    6.950052977e-01    3.476215934e-04    1.368941157e-04    0.000000000e+00    0.000000000e+00    0.000000000e+00    0.000000000e+00
      248750000   -3.654819727e-01    7.036918998e-01    3.721869143e-04    1.396900770e-04    0.000000000e+00    0.000000000e+00    0.000000000e+00    0.000000000e+00
      250375000   -3.426484764e-01    7.116054296e-01    3.489715164e-04    1.305683109e-04    0.000000000e+00    0.000000000e+00    0.000000000e+00    0.000000000e+00
      252000000   -3.198875487e-01    7.185557485e-01    3.591923451e-04    1.490190043e-04    0.000000000e+00    0.000000000e+00    0.000000000e+00    0.000000000e+00
      253625000   -2.968323827e-01    7.247870564e-01    3.709072771e-04    1.372314873e-04    0.000000000e+00    0.000000000e+00    0.000000000e+00    0.000000000e+00
      255250000   -2.737894356e-01    7.304479480e-01    3.695806372e-04    1.585045684e-04    0.000000000e+00    0.000000000e+00    0.000000000e+00    0.000000000e+00
      256875000   -2.511325181e-01    7.351154089e-01    3.494233824e-04    1.372302213e-04    0.000000000e+00    0.000000000e+00    0.000000000e+00    0.000000000e+00
      258500000   -2.280396521e-01    7.393087149e-01    3.571012057e-04    1.464459929e-04    0.000000000e+00    0.000000000e+00    0.000000000e+00    0.000000000e+00
      260125000   -2.051452249e-01    7.427301407e-01    3.524638596e-04    1.500967919e-04    0.000000000e+00    0.000000000e+00    0.000000000e+00    0.000000000e+00
      261750000   -1.822053194e-01    7.453221679e-01    3.581948404e-04    1.374460844e-04    0.000000000e+00    0.000000000e+00    0.000000000e+00    0.000000000e+00
      263375000   -1.593347490e-01    7.470104694e-01    3.766728332e-04    1.265347091e-04    0.000000000e+00    0.000000000e+00    0.000000000e+00    0.000000000e+00
      265000000   -1.366647482e-01    7.482435703e-01    3.703845723e-04    1.243041042e-04    0.000000000e+00    0.000000000e+00    0.000000000e+00    0.000000000e+00
      266625000   -1.142020747e-01    7.485026121e-01    3.533450072e-04    1.235008240e-04    0.000000000e+00    0.000000000e+00    0.000000000e+00    0.000000000e+00
      268250000   -9.146615118e-02    7.482925653e-01    3.742172557e-04    1.256345713e-04    0.000000000e+00    0.000000000e+00    0.000000000e+00    0.000000000e+00
      269875000   -6.895837933e-02    7.475187182e-01    3.521376348e-04    1.520946098e-04    0.000000000e+00    0.000000000e+00    0.000000000e+00    0.000000000e+00
      271500000   -4.672414437e-02    7.459442019e-01    3.708731674e-04    1.484167587e-04    0.000000000e+00    0.000000000e+00    0.000000000e+00    0.000000000e+00
      273125000   -2.491365373e-02    7.441059947e-01    3.433336096e-04    1.417577005e-04    0.000000000e+00    0.000000000e+00    0.000000000e+00    0.000000000e+00
      274750000   -2.882841276e-03    7.411701083e-01    3.483000037e-04    1.277552510e-04    0.000000000e+00    0.000000000e+00    0.000000000e+00    0.000000000e+00
      276375000    1.861990988e-02    7.378762960e-01    3.644062963e-04    1.217744430e-04    0.000000000e+00    0.000000000e+00    0.000000000e+00    0.000000000e+00
      278000000    4.007561132e-02    7.339652777e-01    3.654285101e-04    1.372351835e-04    0.000000000e+00    0.000000000e+00    0.000000000e+00    0.000000000e+00
      279625000    6.129314750e-02    7.293380499e-01    3.429802309e-04    1.267870975e-04    0.000000000e+00    0.000000000e+00    0.000000000e+00    0.000000000e+00
      281250000    8.250516653e-02    7.244058251e-01    3.498755104e-04    1.327638020e-04    0.000000000e+00    0.000000000e+00    0.000000000e+00    0.000000000e+00
      282875000    1.030566171e-01    7.187919021e-01    3.438430431e-04    1.369624224e-04    0.000000000e+00    0.000000000e+00    0.000000000e+00    0.000000000e+00
      284500000    1.236181334e-01    7.126027942e-01    3.419776331e-04    1.213993091e-04    0.000000000e+00    0.000000000e+00    0.000000000e+00    0.000000000e+00
      286125000    1.438453943e-01    7.059982419e-01    3.378207621e-04    1.225525339e-04    0.000000000e+00    0.000000000e+00    0.000000000e+00    0.000000000e+00
      287750000    1.637160182e-01    6.989665627e-01    3.102013725e-04    9.149817197e-05    0.000000000e+00    0.000000000e+00    0.000000000e+00    0.000000000e+00
      289375000    1.831546426e-01    6.909435391e-01    2.876979997e-04    8.910599718e-05    0.000000000e+00    0.000000000e+00    0.000000000e+00    0.000000000e+00
      291000000    9.848970175e-02    6.506544352e-01    2.455305657e-04   -6.745641713e-06    0.000000000e+00    0.000000000e+00    0.000000000e+00    0.000000000e+00
      292625000    1.174720228e-01    6.445087194e-01   -2.040781546e-04    1.486576912e-05    0.000000000e+00    0.000000000e+00    0.000000000e+00    0.000000000e+00
      294250000    1.351171285e-01    6.381424665e-01    3.986014053e-05   -2.507638419e-05    0.000000000e+00    0.000000000e+00    0.000000000e+00    0.000000000e+00
      295875000    1.529545188e-01    6.308495998e-01    3.179431587e-05    7.014544826e-05    0.000000000e+00    0.000000000e+00    0.000000000e+00    0.000000000e+00
      297500000    1.705939770e-01    6.232010126e-01   -6.228998245e-05   -8.916683873e-05    0.000000000e+00    0.000000000e+00    0.000000000e+00    0.000000000e+00
      299125000    1.880032122e-01    6.152620912e-01    4.497710052e-06    1.279795697e-06    0.000000000e+00    0.000000000e+00    0.000000000e+00    0.000000000e+00
      300750000    2.044929564e-01    6.070057154e-01   -2.025023423e-04   -9.012572264e-05    0.000000000e+00    0.000000000e+00    0.000000000e+00    0.000000000e+00
      302375000    2.212234735e-01    5.980143547e-01   -9.724709525e-05    1.260244426e-05    0.000000000e+00    0.000000000e+00    0.000000000e+00    0.000000000e+00
      304000000    2.372193635e-01    5.892815590e-01    3.526427463e-05    1.035346213e-04    0.000000000e+00    0.000000000e+00    0.000000000e+00    0.000000000e+00
      305625000    2.536529005e-01    5.792219639e-01   -5.619084550e-05    8.032359619e-05    0.000000000e+00    0.000000000e+00    0.000000000e+00    0.000000000e+00
      307250000    2.672811747e-01    5.675179362e-01   -4.647479000e-05    1.041705837e-04    0.000000000e+00    0.000000000e+00    0.000000000e+00    0.000000000e+00
      308875000    2.844373882e-01    5.596252084e-01   -5.191713717e-05    1.424643851e-04    0.000000000e+00    0.000000000e+00    0.000000000e+00    0.000000000e+00
      310500000    2.986036539e-01    5.488957167e-01   -5.871887697e-05   -1.874434929e-05    0.000000000e+00    0.000000000e+00    0.000000000e+00    0.000000000e+00
      312125000    3.135215044e-01    5.372270346e-01   -4.276472100e-05    1.950328588e-04    0.000000000e+00    0.000000000e+00    0.000000000e+00    0.000000000e+00
      313750000    3.271275163e-01    5.263406634e-01   -4.029926276e-05    2.993246562e-05    0.000000000e+00    0.000000000e+00    0.000000000e+00    0.000000000e+00
      315375000    3.410855234e-01    5.151749849e-01   -9.484567272e-05    1.555309282e-04    0.000000000e+00    0.000000000e+00    0.000000000e+00    0.000000000e+00
      317000000    3.541000187e-01    5.032186508e-01    3.529037349e-05   -4.782305405e-05    0.000000000e+00    0.000000000e+00    0.000000000e+00    0.000000000e+00
      318625000    3.674087524e-01    4.904762208e-01   -7.151031605e-05   -8.015561616e-05    0.000000000e+00    0.000000000e+00    0.000000000e+00    0.000000000e+00
      320250000    3.798973858e-01    4.787071347e-01   -2.683069761e-05    1.644477015e-05    0.000000000e+00    0.000000000e+00    0.000000000e+00    0.000000000e+00
      321875000    3.915703595e-01    4.656875730e-01   -9.147707169e-05   -1.418365719e-04    0.000000000e+00    0.000000000e+00    0.000000000e+00    0.000000000e+00
      323500000    4.033690095e-01    4.529870152e-01   -7.466828538e-05    1.282553740e-06    0.000000000e+00    0.000000000e+00    0.000000000e+00    0.000000000e+00
      325125000    4.152106941e-01    4.400667846e-01   -1.869011176e-04    3.224615648e-05    0.000000000e+00    0.000000000e+00    0.000000000e+00    0.000000000e+00
      326750000    4.254278839e-01    4.269737005e-01    7.240730611e-06    6.729433517e-05    0.000000000e+00    0.000000000e+00    0.000000000e+00    0.000000000e+00
      328375000    4.361925423e-01    4.137296379e-01   -1.266893669e-04   -4.047372568e-05    0.000000000e+00    0.000000000e+00    0.000000000e+00    0.000000000e+00
      330000000    4.459375441e-01    3.999570012e-01    8.730101399e-05   -1.041536161e-04    0.000000000e+00    0.000000000e+00    0.000000000e+00    0.000000000e+00
      331625000    4.559242129e-01    3.862318695e-01   -2.229482197e-05   -1.360823808e-05    0.000000000e+00    0.000000000e+00    0.000000000e+00    0.000000000e+00
      333250000    4.657094777e-01    3.724971712e-01   -7.332480891e-05   -5.001618410e-05    0.000000000e+00    0.000000000e+00    0.000000000e+00    0.000000000e+00
      334875000    4.743364751e-01    3.588646948e-01   -2.293993930e-05   -8.566874021e-05    0.000000000e+00    0.000000000e+00    0.000000000e+00    0.000000000e+00
      336500000    4.827004671e-01    3.442860544e-01    5.421374590e-05   -5.301411511e-05    0.000000000e+00    0.000000000e+00    0.000000000e+00    0.000000000e+00
      338125000    4.910867214e-01    3.300336897e-01    2.442670302e-05    4.259787238e-05    0.000000000e+00    0.000000000e+00    0.000000000e+00    0.000000000e+00
      339750000    4.986307621e-01    3.159000576e-01    1.134427748e-05   -2.348692215e-05    0.000000000e+00    0.000000000e+00    0.000000000e+00    0.000000000e+00
      341375000    5.061408281e-01    3.013884425e-01    7.495947648e-05    4.175517915e-06    0.000000000e+00    0.000000000e+00    0.000000000e+00    0.000000000e+00
      343000000    5.134279728e-01    2.869532108e-01   -1.037515540e-04   -7.747157360e-05    0.000000000e+00    0.000000000e+00    0.000000000e+00    0.000000000e+00
      344625000    5.198860765e-01    2.721622586e-01   -4.395053111e-05   -5.079329185e-06    0.000000000e+00    0.000000000e+00    0.000000000e+00    0.000000000e+00
      346250000    5.262857676e-01    2.575493157e-01   -9.224266978e-05    4.036914834e-05    0.000000000e+00    0.000000000e+00    0.000000000e+00    0.000000000e+00
      347875000    5.323290229e-01    2.429069430e-01   -7.361255120e-05   -4.881413042e-05    0.000000000e+00    0.000000000e+00    0.000000000e+00    0.000000000e+00
      349500000    5.377826691e-01    2.281454355e-01   -2.661411600e-05   -3.038351133e-05    0.000000000e+00    0.000000000e+00    0.000000000e+00    0.000000000e+00
      351125000    5.429259539e-01    2.133374661e-01    5.192490426e-05   -4.944023203e-06    0.000000000e+00    0.000000000e+00    0.000000000e+00    0.000000000e+00
      352750000    5.479219556e-01    1.983054131e-01   -3.047114660e-05   -1.393061120e-05    0.000000000e+00    0.000000000e+00    0.000000000e+00    0.000000000e+00
      354375000    5.521328449e-01    1.835174561e-01    4.910431744e-05    6.271476013e-05    0.000000000e+00    0.000000000e+00    0.000000000e+00    0.000000000e+00
      356000000    5.563834906e-01    1.682977378e-01   -2.241965376e-06    5.800965664e-05    0.000000000e+00    0.000000000e+00    0.000000000e+00    0.000000000e+00
      357625000    5.601843596e-01    1.535167098e-01    7.950828876e-05    1.675930980e-05    0.000000000e+00    0.000000000e+00    0.000000000e+00    0.000000000e+00
      359250000    5.637044311e-01    1.386024058e-01    1.321621239e-04    7.341382116e-06    0.000000000e+00    0.000000000e+00    0.000000000e+00    0.000000000e+00
      360875000    5.668440461e-01    1.236857325e-01    2.242826667e-05    1.229139307e-04    0.000000000e+00    0.000000000e+00    0.000000000e+00    0.000000000e+00
      362500000    5.696603656e-01    1.086211950e-01   -8.546285972e-05    6.572369603e-05    0.000000000e+00    0.000000000e+00    0.000000000e+00    0.000000000e+00
      364125000    5.722582340e-01    9.364669770e-02   -5.659060844e-05    7.640496187e-05    0.000000000e+00    0.000000000e+00    0.000000000e+00    0.000000000e+00
      365750000    5.743783116e-01    7.882549614e-02   -2.224421223e-05   -1.084521209e-04    0.000000000e+00    0.000000000e+00    0.000000000e+00    0.000000000e+00
      367375000    5.761697888e-01    6.373778731e-02    1.304607758e-05   -6.164180377e-05    0.000000000e+00    0.000000000e+00    0.000000000e+00    0.000000000e+00
      369000000    5.775958300e-01    4.899789765e-02   -9.328076703e-05    8.318167966e-05    0.000000000e+00    0.000000000e+00    0.000000000e+00    0.000000000e+00
      370625000    5.788517594e-01    3.416027501e-02   -3.984403884e-05    5.175104161e-05    0.000000000e+00    0.000000000e+00    0.000000000e+00    0.000000000e+00
      372250000    5.799253583e-01    1.935929619e-02    1.216324654e-05    8.731211710e-05    0.000000000e+00    0.000000000e+00    0.000000000e+00    0.000000000e+00
      373875000    5.801302791e-01    4.550032783e-03   -3.806380846e-05    4.340549276e-05    0.000000000e+00    0.000000000e+00    0.000000000e+00    0.000000000e+00
      375500000    5.803351998e-01   -1.018292364e-02   -9.733556362e-05   -8.288569370e-05    0.000000000e+00    0.000000000e+00    0.000000000e+00    0.000000000e+00
      377125000    5.802459717e-01   -2.495489269e-02    9.997732559e-05    1.046414254e-04    0.000000000e+00    0.000000000e+00    0.000000000e+00    0.000000000e+00
      378750000    5.799269676e-01   -3.975046799e-02   -1.109286677e-04    1.028269035e-04    0.000000000e+00    0.000000000e+00    0.000000000e+00    0.000000000e+00
      380375000    5.789194107e-01   -5.418284982e-02   -1.177057566e-04    8.086240268e-05    0.000000000e+00    0.000000000e+00    0.000000000e+00    0.000000000e+00
      382000000    5.780209899e-01   -6.887751818e-02   -1.483672895e-05   -2.793096246e-05    0.000000000e+00    0.000000000e+00    0.000000000e+00    0.000000000e+00
      383625000    5.767132640e-01   -8.320030570e-02   -6.228395068e-05    1.614116263e-05    0.000000000e+00    0.000000000e+00    0.000000000e+00    0.000000000e+00
      385250000    5.751641393e-01   -9.775643796e-02   -9.876640252e-05   -3.543237108e-05    0.000000000e+00    0.000000000e+00    0.000000000e+00    0.000000000e+00
      386875000    5.732044578e-01   -1.120772660e-01   -9.324665007e-05   -5.493250865e-05    0.000000000e+00    0.000000000e+00    0.000000000e+00    0.000000000e+00
      388500000    5.707333088e-01   -1.264328510e-01   -9.090301319e-05    3.092419138e-05    0.000000000e+00    0.000000000e+00    0.000000000e+00    0.000000000e+00
