! NanoVNA-App
! Date: 2024-06-25 16:50:14
! Start: 200MHz Stop: 1.5GHz Points: 801
! S-Parameter data: F S11 S21 S12 S22
# Hz S RI R 50
!     Frequency           S11_Real           S11_Imag           S21_Real           S21_Imag           S12_Real           S12_Imag           S22_Real           S22_Imag
      200000000   -8.505707383e-01    1.428100765e-01    1.629832404e-04    7.230751362e-05    0.000000000e+00    0.000000000e+00    0.000000000e+00    0.000000000e+00
      201625000   -8.447833061e-01    1.696025282e-01    1.732968376e-04    6.637084880e-05    0.000000000e+00    0.000000000e+00    0.000000000e+00    0.000000000e+00
      203250000   -8.380200863e-01    1.958554536e-01    2.058889368e-04    6.689490692e-05    0.000000000e+00    0.000000000e+00    0.000000000e+00    0.000000000e+00
      204875000   -8.303675056e-01    2.218867838e-01    2.397303324e-04    5.426963617e-05    0.000000000e+00    0.000000000e+00    0.000000000e+00    0.000000000e+00
      206500000   -8.219306469e-01    2.475678623e-01    2.474262437e-04    6.636029138e-05    0.000000000e+00    0.000000000e+00    0.000000000e+00    0.000000000e+00
      208125000   -8.125154972e-01    2.727735937e-01    2.388700232e-04    9.500209126e-05    0.000000000e+00    0.000000000e+00    0.000000000e+00    0.000000000e+00
      209750000   -8.022654057e-01    2.976429760e-01    2.520602138e-04    1.049663042e-04    0.000000000e+00    0.000000000e+00    0.000000000e+00    0.000000000e+00
      211375000   -7.910519242e-01    3.220041692e-01    2.641534375e-04    8.306078962e-05    0.000000000e+00    0.000000000e+00    0.000000000e+00    0.000000000e+00
      213000000   -7.788795233e-01    3.457348347e-01    2.709232213e-04    9.128598322e-05    0.000000000e+00    0.000000000e+00    0.000000000e+00    0.000000000e+00
      214625000   -7.662124634e-01    3.690200746e-01    2.825486008e-04    1.099774236e-04    0.000000000e+00    0.000000000e+00    0.000000000e+00    0.000000000e+00
      216250000   -7.527136207e-01    3.917571008e-01    2.868768934e-04    1.033934532e-04    0.000000000e+00    0.000000000e+00    0.000000000e+00    0.000000000e+00
      217875000   -7.384840250e-01    4.140813351e-01    2.978373086e-04    1.057697591e-04    0.000000000e+00    0.000000000e+00    0.000000000e+00    0.000000000e+00
      219500000   -7.232466936e-01    4.355048537e-01    2.974477538e-04    1.226704626e-04    0.000000000e+00    0.000000000e+00    0.000000000e+00    0.000000000e+00
      221125000   -7.077845931e-01    4.564101696e-01    2.735547314e-04    1.245156745e-04    0.000000000e+00    0.000000000e+00    0.000000000e+00    0.000000000e+00
      222750000   -6.913263202e-01    4.768552184e-01    2.880211396e-04    1.100219160e-04    0.000000000e+00    0.000000000e+00    0.000000000e+00    0.000000000e+00
      224375000   -6.744440198e-01    4.962183535e-01    3.042674507e-04    1.362029725e-04    0.000000000e+00    0.000000000e+00    0.000000000e+00    0.000000000e+00
      226000000   -6.568701863e-01    5.153069496e-01    3.185022215e-04    1.298820425e-04    0.000000000e+00    0.000000000e+00    0.000000000e+00    0.000000000e+00
      227625000   -6.386229396e-01    5.333974361e-01    3.291740140e-04    1.427070820e-04    0.000000000e+00    0.000000000e+00    0.000000000e+00    0.000000000e+00
      229250000   -6.202387810e-01    5.511048436e-01    3.084241180e-04    1.357936562e-04    0.000000000e+00    0.000000000e+00    0.000000000e+00    0.000000000e+00
      230875000   -6.009755731e-01    5.677532554e-01    3.196955950e-04    1.559682278e-04    0.000000000e+00    0.000000000e+00    0.000000000e+00    0.000000000e+00
      232500000   -5.815125704e-01    5.841476321e-01    3.310042957e-04    1.637636597e-04    0.000000000e+00    0.000000000e+00    0.000000000e+00    0.000000000e+00
      234125000   -5.615833998e-01    5.991797447e-01    3.447933996e-04    1.205046428e-04    0.000000000e+00    0.000000000e+00    0.000000000e+00    0.000000000e+00
      235750000   -5.411071181e-01    6.138871908e-01    3.289289598e-04    1.343290496e-04    0.000000000e+00    0.000000000e+00    0.000000000e+00    0.000000000e+00
      237375000   -5.202688575e-01    6.276816726e-01    3.332686611e-04    1.468715054e-04    0.000000000e+00    0.000000000e+00    0.000000000e+00    0.000000000e+00
      239000000   -4.991237223e-01    6.406240463e-01    3.282581456e-04    1.388811797e-04    0.000000000e+00    0.000000000e+00    0.000000000e+00    0.000000000e+00
      240625000   -4.776213467e-01    6.527639031e-01    3.511476098e-04    1.283192687e-04    0.000000000e+00    0.000000000e+00    0.000000000e+00    0.000000000e+00
      242250000   -4.556761682e-01    6.643605232e-01    3.340287658e-04    1.356994326e-04    0.000000000e+00    0.000000000e+00    0.000000000e+00    0.000000000e+00
      243875000   -4.335977137e-01    6.752002835e-01    3.514511045e-04    1.304574689e-04    0.000000000e+00    0.000000000e+00    0.000000000e+00    0.000000000e+00
      245500000   -4.110831618e-01    6.853413582e-01    3.529561509e-04    1.546271669e-04    0.000000000e+00    0.000000000e+00    0.000000000e+00    0.000000000e+00
      247125000   -3.883545697e-01    6.949495077e-01    3.316326765e-04    1.279754215e-04    0.000000000e+00    0.000000000e+00    0.000000000e+00    0.000000000e+00
      248750000   -3.655088544e-01    7.036628127e-01    3.540354955e-04    1.095213884e-04    0.000000000e+00    0.000000000e+00    0.000000000e+00    0.000000000e+00
      250375000   -3.426660895e-01    7.114046216e-01    3.336267546e-04    1.312753011e-04    0.000000000e+00    0.000000000e+00    0.000000000e+00    0.000000000e+00
      252000000   -3.196946979e-01    7.185286880e-01    3.639857168e-04    1.567909057e-04    0.000000000e+00    0.000000000e+00    0.000000000e+00    0.000000000e+00
      253625000   -2.967597246e-01    7.247962952e-01    3.634335590e-04    1.121258247e-04    0.000000000e+00    0.000000000e+00    0.000000000e+00    0.000000000e+00
      255250000   -2.739607096e-01    7.303400636e-01    3.540843609e-04    1.543227700e-04    0.000000000e+00    0.000000000e+00    0.000000000e+00    0.000000000e+00
      256875000   -2.509458065e-01    7.352060676e-01    3.817359102e-04    1.361152390e-04    0.000000000e+00    0.000000000e+00    0.000000000e+00    0.000000000e+00
      258500000   -2.280920446e-01    7.391894460e-01    3.712043108e-04    1.476317411e-04    0.000000000e+00    0.000000000e+00    0.000000000e+00    0.000000000e+00
      260125000   -2.051568627e-01    7.426450849e-01    3.634879249e-04    1.368002559e-04    0.000000000e+00    0.000000000e+00    0.000000000e+00    0.000000000e+00
      261750000   -1.822538525e-01    7.452089190e-01    3.607198596e-04    1.650478516e-04    0.000000000e+00    0.000000000e+00    0.000000000e+00    0.000000000e+00
      263375000   -1.594516039e-01    7.470553517e-01    3.730917524e-04    1.334490516e-04    0.000000000e+00    0.000000000e+00    0.000000000e+00    0.000000000e+00
      265000000   -1.367148757e-01    7.480912805e-01    3.632175794e-04    1.397470041e-04    0.000000000e+00    0.000000000e+00    0.000000000e+00    0.000000000e+00
      266625000   -1.140113547e-01    7.487064004e-01    3.524956992e-04    1.307120110e-04    0.000000000e+00    0.000000000e+00    0.000000000e+00    0.000000000e+00
      268250000   -9.145077318e-02    7.484217286e-01    3.672651364e-04    1.233436487e-04    0.000000000e+00    0.000000000e+00    0.000000000e+00    0.000000000e+00
      269875000   -6.904397160e-02    7.475313544e-01    3.484969202e-04    1.196436206e-04    0.000000000e+00    0.000000000e+00    0.000000000e+00    0.000000000e+00
      271500000   -4.681830853e-02    7.460849285e-01    3.509829694e-04    1.547271095e-04    0.000000000e+00    0.000000000e+00    0.000000000e+00    0.000000000e+00
      273125000   -2.482627518e-02    7.439288497e-01    3.914096160e-04    1.267282641e-04    0.000000000e+00    0.000000000e+00    0.000000000e+00    0.000000000e+00
      274750000   -3.041236429e-03    7.411515117e-01    3.633603337e-04    1.405173243e-04    0.000000000e+00    0.000000000e+00    0.000000000e+00    0.000000000e+00
      276375000    1.855225861e-02    7.379887700e-01    3.463755420e-04    1.525889820e-04    0.000000000e+00    0.000000000e+00    0.000000000e+00    0.000000000e+00
      278000000    4.008790478e-02    7.339146733e-01    3.523846681e-04    1.466852118e-04    0.000000000e+00    0.000000000e+00    0.000000000e+00    0.000000000e+00
      279625000    6.131746620e-02    7.294924259e-01    3.369946498e-04    1.383663621e-04    0.000000000e+00    0.000000000e+00    0.000000000e+00    0.000000000e+00
      281250000    8.231674880e-02    7.244290709e-01    3.773741482e-04    1.362806797e-04    0.000000000e+00    0.000000000e+00    0.000000000e+00    0.000000000e+00
      282875000    1.031717733e-01    7.188435197e-01    3.457686398e-04    1.439454936e-04    0.000000000e+00    0.000000000e+00    0.000000000e+00    0.000000000e+00
      284500000    1.236327961e-01    7.125900984e-01    3.306271392e-04    1.344503253e-04    0.000000000e+00    0.000000000e+00    0.000000000e+00    0.000000000e+00
      286125000    1.437189281e-01    7.059167027e-01    3.266431158e-04    1.257920376e-04    0.000000000e+00    0.000000000e+00    0.000000000e+00    0.000000000e+00
      287750000    1.636923403e-01    6.990190744e-01    3.268304863e-04    1.232505310e-04    0.000000000e+00    0.000000000e+00    0.000000000e+00    0.000000000e+00
      289375000    1.832002401e-01    6.909298301e-01    3.303999838e-04    1.115668638e-04    0.000000000e+00    0.000000000e+00    0.000000000e+00    0.000000000e+00
      291000000    9.881619364e-02    6.512398124e-01    2.327770198e-04    1.155549762e-05    0.000000000e+00    0.000000000e+00    0.000000000e+00    0.000000000e+00
      292625000    1.173297539e-01    6.439512968e-01   -2.603401663e-04   -6.662423402e-05    0.000000000e+00    0.000000000e+00    0.000000000e+00    0.000000000e+00
      294250000    1.350544542e-01    6.378048062e-01   -1.238216355e-04   -1.684694689e-05    0.000000000e+00    0.000000000e+00    0.000000000e+00    0.000000000e+00
      295875000    1.525309235e-01    6.304610968e-01   -1.230585040e-04   -1.037557304e-04    0.000000000e+00    0.000000000e+00    0.000000000e+00    0.000000000e+00
      297500000    1.704386622e-01    6.230582595e-01   -6.568845129e-05   -4.192856068e-05    0.000000000e+00    0.000000000e+00    0.000000000e+00    0.000000000e+00
      299125000    1.881392002e-01    6.153762341e-01    8.138266821e-06   -4.191910250e-07    0.000000000e+00    0.000000000e+00    0.000000000e+00    0.000000000e+00
      300750000    2.049187869e-01    6.070038676e-01   -5.130263617e-06    5.702618000e-05    0.000000000e+00    0.000000000e+00    0.000000000e+00    0.000000000e+00
      302375000    2.212048918e-01    5.980847478e-01    1.363807532e-04   -9.767688607e-05    0.000000000e+00    0.000000000e+00    0.000000000e+00    0.000000000e+00
      304000000    2.376945019e-01    5.885682106e-01   -1.449717274e-05    2.387176028e-05    0.000000000e+00    0.000000000e+00    0.000000000e+00    0.000000000e+00
      305625000    2.537446916e-01    5.796610713e-01   -3.110991383e-05    7.692317013e-06    0.000000000e+00    0.000000000e+00    0.000000000e+00    0.000000000e+00
      307250000    2.710293531e-01    5.712656379e-01   -3.707311862e-06   -9.649978892e-05    0.000000000e+00    0.000000000e+00    0.000000000e+00    0.000000000e+00
      308875000    2.844246626e-01    5.595270395e-01   -3.875895709e-05    7.145671407e-05    0.000000000e+00    0.000000000e+00    0.000000000e+00    0.000000000e+00
      310500000    2.994839847e-01    5.485575795e-01   -8.020974201e-05    9.902537568e-05    0.000000000e+00    0.000000000e+00    0.000000000e+00    0.000000000e+00
      312125000    3.136236668e-01    5.373842716e-01   -5.851497554e-05    8.169395005e-05    0.000000000e+00    0.000000000e+00    0.000000000e+00    0.000000000e+00
      313750000    3.274572194e-01    5.266149044e-01   -2.839057197e-05   -1.302028795e-05    0.000000000e+00    0.000000000e+00    0.000000000e+00    0.000000000e+00
      315375000    3.414600194e-01    5.149446726e-01   -4.411824193e-05    2.638174556e-05    0.000000000e+00    0.000000000e+00    0.000000000e+00    0.000000000e+00
      317000000    3.541394174e-01    5.029314160e-01   -9.923440302e-06   -2.758205301e-05    0.000000000e+00    0.000000000e+00    0.000000000e+00    0.000000000e+00
      318625000    3.670015931e-01    4.908935726e-01   -8.064282883e-05   -7.304757310e-05    0.000000000e+00    0.000000000e+00    0.000000000e+00    0.000000000e+00
      320250000    3.797147870e-01    4.782224596e-01   -1.305575424e-04    1.076790504e-04    0.000000000e+00    0.000000000e+00    0.000000000e+00    0.000000000e+00
      321875000    3.921008408e-01    4.660145640e-01   -5.083517317e-05   -6.359220424e-05    0.000000000e+00    0.000000000e+00    0.000000000e+00    0.000000000e+00
      323500000    4.037345946e-01    4.530289173e-01   -5.681712355e-05    1.305624755e-05    0.000000000e+00    0.000000000e+00    0.000000000e+00    0.000000000e+00
      325125000    4.145509005e-01    4.402596354e-01    6.884010509e-05    2.120777390e-05    0.000000000e+00    0.000000000e+00    0.000000000e+00    0.000000000e+00
      326750000    4.256933033e-01    4.268254340e-01    2.519093323e-05    6.344526628e-05    0.000000000e+00    0.000000000e+00    0.000000000e+00    0.000000000e+00
      328375000    4.362374246e-01    4.135890007e-01   -1.432123827e-04   -1.809812820e-04    0.000000000e+00    0.000000000e+00    0.000000000e+00    0.000000000e+00
      330000000    4.467335641e-01    4.004085958e-01   -5.539693302e-05   -8.434553456e-05    0.000000000e+00    0.000000000e+00    0.000000000e+00    0.000000000e+00
      331625000    4.561548531e-01    3.863817155e-01   -2.432011024e-05   -5.475345824e-05    0.000000000e+00    0.000000000e+00    0.000000000e+00    0.000000000e+00
      333250000    4.653535187e-01    3.724134862e-01   -8.590408106e-05   -6.129560643e-05    0.000000000e+00    0.000000000e+00    0.000000000e+00    0.000000000e+00
      334875000    4.743722975e-01    3.583930731e-01   -1.861146156e-04   -1.037721522e-04    0.000000000e+00    0.000000000e+00    0.000000000e+00    0.000000000e+00
      336500000    4.828774929e-01    3.445028961e-01   -1.461130159e-04    2.031141776e-05    0.000000000e+00    0.000000000e+00    0.000000000e+00    0.000000000e+00
      338125000    4.908612669e-01    3.303412199e-01   -1.191947831e-05   -1.041226205e-04    0.000000000e+00    0.000000000e+00    0.000000000e+00    0.000000000e+00
      339750000    4.989487231e-01    3.157213628e-01   -1.263886224e-04   -9.152145503e-05    0.000000000e+00    0.000000000e+00    0.000000000e+00    0.000000000e+00
      341375000    5.065293312e-01    3.012849092e-01   -5.854854680e-05   -8.079303370e-05    0.000000000e+00    0.000000000e+00    0.000000000e+00    0.000000000e+00
      343000000    5.133734345e-01    2.870179713e-01   -4.712673763e-05   -3.437408668e-05    0.000000000e+00    0.000000000e+00    0.000000000e+00    0.000000000e+00
      344625000    5.199526548e-01    2.724958956e-01   -2.563964699e-05    1.050301216e-05    0.000000000e+00    0.000000000e+00    0.000000000e+00    0.000000000e+00
      346250000    5.261350870e-01    2.577506304e-01   -2.011629404e-04    9.423497249e-05    0.000000000e+00    0.000000000e+00    0.000000000e+00    0.000000000e+00
      347875000    5.321107507e-01    2.428970933e-01   -2.132734662e-04   -1.254827075e-04    0.000000000e+00    0.000000000e+00    0.000000000e+00    0.000000000e+00
      349500000    5.378085375e-01    2.281073034e-01   -2.405493251e-05    1.555997587e-04    0.000000000e+00    0.000000000e+00    0.000000000e+00    0.000000000e+00
      351125000    5.428410769e-01    2.131866217e-01   -1.532312017e-04   -1.261810667e-05    0.000000000e+00    0.000000000e+00    0.000000000e+00    0.000000000e+00
      352750000    5.476625562e-01    1.983593106e-01    2.973714072e-05    2.138881973e-05    0.000000000e+00    0.000000000e+00    0.000000000e+00    0.000000000e+00
      354375000    5.522921085e-01    1.833767593e-01   -1.980895322e-04   -5.977163528e-05    0.000000000e+00    0.000000000e+00    0.000000000e+00    0.000000000e+00
      356000000    5.567165613e-01    1.686179191e-01   -1.281312143e-04   -3.317090523e-05    0.000000000e+00    0.000000000e+00    0.000000000e+00    0.000000000e+00
      357625000    5.604048371e-01    1.536262333e-01   -6.572889106e-05   -1.139997112e-04    0.000000000e+00    0.000000000e+00    0.000000000e+00    0.000000000e+00
      359250000    5.637463927e-01    1.385990083e-01   -3.089710299e-05    1.357260189e-04    0.000000000e+00    0.000000000e+00    0.000000000e+00    0.000000000e+00
      360875000    5.668443441e-01    1.236157417e-01   -8.615585830e-05    1.041960568e-04    0.000000000e+00    0.000000000e+00    0.000000000e+00    0.000000000e+00
      362500000    5.697901845e-01    1.086155921e-01   -1.718879139e-05   -4.683341467e-05    0.000000000e+00    0.000000000e+00    0.000000000e+00    0.000000000e+00
      364125000    5.722361207e-01    9.374458343e-02   -1.542561513e-04   -6.369873154e-05    0.000000000e+00    0.000000000e+00    0.000000000e+00    0.000000000e+00
      365750000    5.740804672e-01    7.862241566e-02   -2.496464585e-04    8.695883480e-06    0.000000000e+00    0.000000000e+00    0.000000000e+00    0.000000000e+00
      367375000    5.760784149e-01    6.377914548e-02   -1.429488475e-04    8.161967708e-05    0.000000000e+00    0.000000000e+00    0.000000000e+00    0.000000000e+00
      369000000    5.777437091e-01    4.904613271e-02   -1.776292047e-04   -3.206528709e-05    0.000000000e+00    0.000000000e+00    0.000000000e+00    0.000000000e+00
      370625000    5.788384080e-01    3.405285254e-02    8.142672414e-06    2.257499182e-05    0.000000000e+00    0.000000000e+00    0.000000000e+00    0.000000000e+00
      372250000    5.801392198e-01    1.903193817e-02   -3.331268090e-05    1.606640290e-04    0.000000000e+00    0.000000000e+00    0.000000000e+00    0.000000000e+00
      373875000    5.801938176e-01    4.616374616e-03   -8.929724572e-05    1.129028533e-04    0.000000000e+00    0.000000000e+00    0.000000000e+00    0.000000000e+00
      375500000    5.805329084e-01   -1.015590597e-02    1.515858548e-05    2.693573515e-05    0.000000000e+00    0.000000000e+00    0.000000000e+00    0.000000000e+00
      377125000    5.801895857e-01   -2.489809319e-02   -3.402088623e-05    4.969707516e-05    0.000000000e+00    0.000000000e+00    0.000000000e+00    0.000000000e+00
      378750000    5.799132586e-01   -3.964926302e-02   -3.806654422e-05   -3.814729280e-05    0.000000000e+00    0.000000000e+00    0.000000000e+00    0.000000000e+00
      380375000    5.791924000e-01   -5.429771543e-02   -4.966803681e-05    2.793115709e-05    0.000000000e+00    0.000000000e+00    0.000000000e+00    0.000000000e+00
      382000000    5.780527592e-01   -6.901903450e-02   -1.437105966e-04    1.600246324e-04    0.000000000e+00    0.000000000e+00    0.000000000e+00    0.000000000e+00
      383625000    5.767140985e-01   -8.329552412e-02   -2.433761401e-04    1.396020525e-04    0.000000000e+00    0.000000000e+00    0.000000000e+00    0.000000000e+00
      385250000    5.751410127e-01   -9.773503989e-02   -4.644224828e-05    1.430073899e-04    0.000000000e+00    0.000000000e+00    0.000000000e+00    0.000000000e+00
      386875000    5.731964111e-01   -1.121452525e-01   -8.489070751e-05    5.734808656e-05    0.000000000e+00    0.000000000e+00    0.000000000e+00    0.000000000e+00
      388500000    5.709229708e-01   -1.263499558e-01   -4.384424028e-05    2.381134254e-05    0.000000000e+00    0.000000000e+00    0.000000000e+00    0.000000000e+00
