! NanoVNA-App
! Date: 2024-06-25 16:50:18
! Start: 200MHz Stop: 1.5GHz Points: 801
! S-Parameter data: F S11 S21 S12 S22
# Hz S RI R 50
!     Frequency           S11_Real           S11_Imag           S21_Real           S21_Imag           S12_Real           S12_Imag           S22_Real           S22_Imag
      200000000   -8.505655527e-01    1.428280473e-01    1.669596968e-04    3.769353134e-05    0.000000000e+00    0.000000000e+00    0.000000000e+00    0.000000000e+00
      201625000   -8.446158767e-01    1.694982797e-01    1.929036953e-04    4.720540528e-05    0.000000000e+00    0.000000000e+00    0.000000000e+00    0.000000000e+00
      203250000   -8.380487561e-01    1.960181296e-01    2.173165703e-04    5.280620826e-05    0.000000000e+00    0.000000000e+00    0.000000000e+00    0.000000000e+00
      204875000   -8.303461671e-01    2.218463868e-01    2.192667744e-04    5.060809417e-05    0.000000000e+00    0.000000000e+00    0.000000000e+00    0.000000000e+00
      206500000   -8.219985962e-01    2.476297170e-01    2.549085184e-04    5.989724741e-05    0.000000000e+00    0.000000000e+00    0.000000000e+00    0.000000000e+00
      208125000   -8.123798370e-01    2.727517784e-01    2.494122018e-04    6.101138206e-05    0.000000000e+00    0.000000000e+00    0.000000000e+00    0.000000000e+00
      209750000   -8.023787737e-01    2.977739573e-01    2.700217010e-04    9.689943545e-05    0.000000000e+00    0.000000000e+00    0.000000000e+00    0.000000000e+00
      211375000   -7.910205126e-01    3.220340312e-01    2.695931471e-04    1.104328621e-04    0.000000000e+00    0.000000000e+00    0.000000000e+00    0.000000000e+00
      213000000   -7.791272402e-01    3.457573354e-01    2.775583998e-04    1.059666538e-04    0.000000000e+00    0.000000000e+00    0.000000000e+00    0.000000000e+00
      214625000   -7.663108110e-01    3.690387607e-01    2.796401677e-04    1.030211643e-04    0.000000000e+00    0.000000000e+00    0.000000000e+00    0.000000000e+00
      216250000   -7.527494431e-01    3.917236924e-01    2.869017480e-04    9.863731975e-05    0.000000000e+00    0.000000000e+00    0.000000000e+00    0.000000000e+00
      217875000   -7.384542823e-01    4.139248431e-01    2.942130668e-04    1.203086867e-04    0.000000000e+00    0.000000000e+00    0.000000000e+00    0.000000000e+00
      219500000   -7.233945727e-01    4.356329739e-01    2.735390153e-04    1.238393161e-04    0.000000000e+00    0.000000000e+00    0.000000000e+00    0.000000000e+00
      221125000   -7.076038718e-01    4.562955797e-01    3.055905981e-04    1.358935842e-04    0.000000000e+00    0.000000000e+00    0.000000000e+00    0.000000000e+00
      222750000   -6.913411617e-01    4.768083394e-01    3.303743142e-04    1.202477797e-04    0.000000000e+00    0.000000000e+00    0.000000000e+00    0.000000000e+00
      224375000   -6.743592620e-01    4.963912368e-01    3.056066344e-04    1.474228484e-04    0.000000000e+00    0.000000000e+00    0.000000000e+00    0.000000000e+00
      226000000   -6.570485234e-01    5.154051781e-01    3.134821600e-04    1.201575724e-04    0.000000000e+00    0.000000000e+00    0.000000000e+00    0.000000000e+00
      227625000   -6.388170719e-01    5.332844853e-01    3.111277765e-04    1.511432201e-04    0.000000000e+00    0.000000000e+00    0.000000000e+00    0.000000000e+00
      229250000   -6.201151609e-01    5.510079861e-01    3.235567128e-04    1.168779272e-04    0.000000000e+00    0.000000000e+00    0.000000000e+00    0.000000000e+00
      230875000   -6.008929610e-01    5.678279400e-01    3.299695090e-04    1.440882479e-04    0.000000000e+00    0.000000000e+00    0.000000000e+00    0.000000000e+00
      232500000   -5.815823674e-01    5.840880275e-01    3.302340047e-04    1.561578247e-04    0.000000000e+00    0.000000000e+00    0.000000000e+00    0.000000000e+00
      234125000   -5.614180565e-01    5.991855860e-01    3.495477140e-04    1.329607039e-04    0.000000000e+00    0.000000000e+00    0.000000000e+00    0.000000000e+00
      235750000   -5.410780907e-01    6.140174866e-01    3.295246279e-04    1.582130208e-04    0.000000000e+00    0.000000000e+00    0.000000000e+00    0.000000000e+00
      237375000   -5.201920867e-01    6.276859641e-01    3.472100943e-04    1.362994080e-04    0.000000000e+00    0.000000000e+00    0.000000000e+00    0.000000000e+00
      239000000   -4.990116358e-01    6.406890750e-01    3.440352157e-04    1.471195719e-04    0.000000000e+00    0.000000000e+00    0.000000000e+00    0.000000000e+00
      240625000   -4.777019918e-01    6.527867913e-01    3.414506209e-04    1.196530138e-04    0.000000000e+00    0.000000000e+00    0.000000000e+00    0.000000000e+00
      242250000   -4.557508826e-01    6.644995213e-01    3.369523329e-04    1.375421853e-04    0.000000000e+00    0.000000000e+00    0.000000000e+00    0.000000000e+00
      243875000   -4.336096942e-01    6.753910780e-01    3.513357078e-04    1.548703440e-04    0.000000000e+00    0.000000000e+00    0.000000000e+00    0.000000000e+00
      245500000   -4.111118019e-01    6.853691936e-01    3.419033019e-04    1.478277991e-04    0.000000000e+00    0.000000000e+00    0.000000000e+00    0.000000000e+00
      247125000   -3.884986937e-01    6.948735118e-01    3.374076041e-04    1.426785893e-04    0.000000000e+00    0.000000000e+00    0.000000000e+00    0.000000000e+00
      248750000   -3.656751513e-01    7.036123276e-01    3.415659012e-04    1.451644202e-04    0.000000000e+00    0.000000000e+00    0.000000000e+00    0.000000000e+00
      250375000   -3.425419033e-01    7.114158869e-01    3.618865157e-04    1.448847615e-04    0.000000000e+00    0.000000000e+00    0.000000000e+00    0.000000000e+00
      252000000   -3.198554516e-01    7.185566425e-01    3.522721236e-04    1.456286991e-04    0.000000000e+00    0.000000000e+00    0.000000000e+00    0.000000000e+00
      253625000   -2.968383431e-01    7.247241735e-01    3.498630249e-04    1.668071782e-04    0.000000000e+00    0.000000000e+00    0.000000000e+00    0.000000000e+00
      255250000   -2.738991976e-01    7.304973602e-01    3.482817847e-04    1.583705016e-04    0.000000000e+00    0.000000000e+00    0.000000000e+00    0.000000000e+00
      256875000   -2.509855628e-01    7.351313829e-01    3.761772241e-04    1.393651182e-04    0.000000000e+00    0.000000000e+00    0.000000000e+00    0.000000000e+00
      258500000   -2.279011756e-01    7.391912341e-01    3.678811190e-04    1.436119783e-04    0.000000000e+00    0.000000000e+00    0.000000000e+00    0.000000000e+00
      260125000   -2.051512450e-01    7.426196337e-01    3.532092087e-04    1.558368967e-04    0.000000000e+00    0.000000000e+00    0.000000000e+00    0.000000000e+00
      261750000   -1.821741164e-01    7.455589175e-01    3.651866573e-04    1.377483713e-04    0.000000000e+00    0.000000000e+00    0.000000000e+00    0.000000000e+00
      263375000   -1.592168063e-01    7.469984293e-01    3.656556073e-04    1.298625866e-04    0.000000000e+00    0.000000000e+00    0.000000000e+00    0.000000000e+00
      265000000   -1.364880204e-01    7.482124567e-01    3.817509860e-04    1.246663305e-04    0.000000000e+00    0.000000000e+00    0.000000000e+00    0.000000000e+00
      266625000   -1.141331866e-01    7.484564781e-01    4.001920170e-04    1.242440921e-04    0.000000000e+00    0.000000000e+00    0.000000000e+00    0.000000000e+00
      268250000   -9.144566953e-02    7.484247684e-01    3.332819906e-04    1.407753298e-04    0.000000000e+00    0.000000000e+00    0.000000000e+00    0.000000000e+00
      269875000   -6.887366623e-02    7.475689650e-01    3.384325537e-04    1.484522509e-04    0.000000000e+00    0.000000000e+00    0.000000000e+00    0.000000000e+00
      271500000   -4.685519263e-02    7.461838126e-01    3.673002939e-04    1.270346838e-04    0.000000000e+00    0.000000000e+00    0.000000000e+00    0.000000000e+00
      273125000   -2.487400547e-02    7.439133525e-01    3.563011414e-04    1.252099173e-04    0.000000000e+00    0.000000000e+00    0.000000000e+00    0.000000000e+00
      274750000   -2.903080778e-03    7.412226796e-01    3.309583699e-04    1.564470003e-04    0.000000000e+00    0.000000000e+00    0.000000000e+00    0.000000000e+00
      276375000    1.860486530e-02    7.379904985e-01    3.403437149e-04    1.228324109e-04    0.000000000e+00    0.000000000e+00    0.000000000e+00    0.000000000e+00
      278000000    4.016831145e-02    7.341287136e-01    3.581110795e-04    1.248269255e-04    0.000000000e+00    0.000000000e+00    0.000000000e+00    0.000000000e+00
      279625000    6.127662212e-02    7.294206619e-01    3.654538887e-04    1.277370320e-04    0.000000000e+00    0.000000000e+00    0.000000000e+00    0.000000000e+00
      281250000    8.230794221e-02    7.243902683e-01    3.315964714e-04    1.382724149e-04    0.000000000e+00    0.000000000e+00    0.000000000e+00    0.000000000e+00
      282875000    1.030302346e-01    7.187550068e-01    3.241543309e-04    1.130312812e-04    0.000000000e+00    0.000000000e+00    0.000000000e+00    0.000000000e+00
      284500000    1.235849485e-01    7.124072909e-01    3.331510234e-04    1.406707161e-04    0.000000000e+00    0.000000000e+00    0.000000000e+00    0.000000000e+00
      286125000    1.437198222e-01    7.059363127e-01    3.391804057e-04    1.129856319e-04    0.000000000e+00    0.000000000e+00    0.000000000e+00    0.000000000e+00
      287750000    1.635743380e-01    6.987836361e-01    3.215634206e-04    1.483591768e-04    0.000000000e+00    0.000000000e+00    0.000000000e+00    0.000000000e+00
      289375000    1.833015978e-01    6.909529567e-01    3.059935989e-04    1.051667059e-04    0.000000000e+00    0.000000000e+00    0.000000000e+00    0.000000000e+00
      291000000    9.829200059e-02    6.501939893e-01   -1.727325871e-04   -8.175076800e-05    0.000000000e+00    0.000000000e+00    0.000000000e+00    0.000000000e+00
      292625000    1.164772213e-01    6.455001235e-01   -2.377442433e-04    5.473919009e-05    0.000000000e+00    0.000000000e+00    0.000000000e+00    0.000000000e+00
      294250000    1.350711882e-01    6.380712390e-01   -4.130102025e-05    9.619603225e-05    0.000000000e+00    0.000000000e+00    0.000000000e+00    0.000000000e+00
      295875000    1.530318558e-01    6.306916475e-01   -9.845098248e-05    1.880508062e-04    0.000000000e+00    0.000000000e+00    0.000000000e+00    0.000000000e+00
      297500000    1.707659364e-01    6.232018471e-01   -9.334082279e-05   -5.720501576e-05    0.000000000e+00    0.000000000e+00    0.000000000e+00    0.000000000e+00
      299125000    1.883791834e-01    6.156523824e-01    9.908256288e-06    6.094097262e-05    0.000000000e+00    0.000000000e+00    0.000000000e+00    0.000000000e+00
      300750000    2.053085268e-01    6.069502234e-01    5.226941357e-05    4.772376997e-06    0.000000000e+00    0.000000000e+00    0.000000000e+00    0.000000000e+00
      302375000    2.213408053e-01    5.978932977e-01   -2.628480433e-05   -1.071124734e-05    0.000000000e+00    0.000000000e+00    0.000000000e+00    0.000000000e+00
      304000000    2.371450514e-01    5.888602138e-01   -9.130220860e-05    1.309742511e-04    0.000000000e+00    0.000000000e+00    0.000000000e+00    0.000000000e+00
      305625000    2.530711889e-01    5.794333816e-01    2.002943074e-05   -6.788295082e-07    0.000000000e+00    0.000000000e+00    0.000000000e+00    0.000000000e+00
      307250000    2.668163776e-01    5.668593645e-01   -5.515394150e-05   -7.625370199e-05    0.000000000e+00    0.000000000e+00    0.000000000e+00    0.000000000e+00
      308875000    2.847503722e-01    5.591579080e-01   -1.725569382e-05   -2.766273610e-06    0.000000000e+00    0.000000000e+00    0.000000000e+00    0.000000000e+00
      310500000    2.992786467e-01    5.485886931e-01   -5.559602141e-05    5.183004396e-05    0.000000000e+00    0.000000000e+00    0.000000000e+00    0.000000000e+00
      312125000    3.135023117e-01    5.375588536e-01   -3.695105261e-05    4.904846719e-05    0.000000000e+00    0.000000000e+00    0.000000000e+00    0.000000000e+00
      313750000    3.272618651e-01    5.265157819e-01   -8.196872659e-05    6.329332246e-05    0.000000000e+00    0.000000000e+00    0.000000000e+00    0.000000000e+00
      315375000    3.414042592e-01    5.147508383e-01   -1.694266539e-04    4.414762589e-05    0.000000000e+00    0.000000000e+00    0.000000000e+00    0.000000000e+00
      317000000    3.541637361e-01    5.029705167e-01   -1.849570799e-05    5.984925883e-05    0.000000000e+00    0.000000000e+00    0.000000000e+00    0.000000000e+00
      318625000    3.670298755e-01    4.905346036e-01    6.845553435e-05   -2.142484846e-05    0.000000000e+00    0.000000000e+00    0.000000000e+00    0.000000000e+00
      320250000    3.796345890e-01    4.782288671e-01   -9.484888869e-05    3.037277338e-06    0.000000000e+00    0.000000000e+00    0.000000000e+00    0.000000000e+00
      321875000    3.920051754e-01    4.661204219e-01   -1.089447687e-04    8.389770665e-05    0.000000000e+00    0.000000000e+00    0.000000000e+00    0.000000000e+00
      323500000    4.036549628e-01    4.532150328e-01   -5.698411042e-05    1.897678885e-04    0.000000000e+00    0.000000000e+00    0.000000000e+00    0.000000000e+00
      325125000    4.147244394e-01    4.403969347e-01    6.720562669e-05    1.765587626e-06    0.000000000e+00    0.000000000e+00    0.000000000e+00    0.000000000e+00
      326750000    4.256433547e-01    4.272954464e-01   -2.249060926e-04   -3.452058081e-05    0.000000000e+00    0.000000000e+00    0.000000000e+00    0.000000000e+00
      328375000    4.362631142e-01    4.139336944e-01   -2.775203029e-04    1.280874858e-04    0.000000000e+00    0.000000000e+00    0.000000000e+00    0.000000000e+00
      330000000    4.460375011e-01    3.999520242e-01   -1.455180318e-04    4.227245154e-05    0.000000000e+00    0.000000000e+00    0.000000000e+00    0.000000000e+00
      331625000    4.561518133e-01    3.867090642e-01    7.577986253e-05   -5.732100908e-05    0.000000000e+00    0.000000000e+00    0.000000000e+00    0.000000000e+00
      333250000    4.656979740e-01    3.723918796e-01   -1.327090649e-05    2.024773130e-05    0.000000000e+00    0.000000000e+00    0.000000000e+00    0.000000000e+00
      334875000    4.740461409e-01    3.583979905e-01   -7.715477113e-05   -1.259126002e-04    0.000000000e+00    0.000000000e+00    0.000000000e+00    0.000000000e+00
      336500000    4.826455414e-01    3.443268836e-01   -1.192833515e-04   -1.860917837e-04    0.000000000e+00    0.000000000e+00    0.000000000e+00    0.000000000e+00
      338125000    4.910880029e-01    3.299584985e-01   -1.311974484e-04   -1.131169483e-04    0.000000000e+00    0.000000000e+00    0.000000000e+00    0.000000000e+00
      339750000    4.987332821e-01    3.157277405e-01   -3.719330925e-05   -1.286035695e-04    0.000000000e+00    0.000000000e+00    0.000000000e+00    0.000000000e+00
      341375000    5.062590241e-01    3.014756441e-01   -1.222685823e-04   -8.969864575e-05    0.000000000e+00    0.000000000e+00    0.000000000e+00    0.000000000e+00
      343000000    5.134100318e-01    2.870135605e-01   -1.056448455e-04    1.095445332e-04    0.000000000e+00    0.000000000e+00    0.000000000e+00    0.000000000e+00
      344625000    5.199559331e-01    2.721721232e-01    3.061097595e-05    6.829012273e-05    0.000000000e+00    0.000000000e+00    0.000000000e+00    0.000000000e+00
      346250000    5.262607932e-01    2.578133345e-01   -3.103613926e-05   -1.427934876e-06    0.000000000e+00    0.000000000e+00    0.000000000e+00    0.000000000e+00
      347875000    5.320880413e-01    2.427925915e-01    8.492803317e-06    1.808154339e-04    0.000000000e+00    0.000000000e+00    0.000000000e+00    0.000000000e+00
      349500000    5.379135013e-01    2.281551361e-01   -7.728906348e-05   -2.786264122e-05    0.000000000e+00    0.000000000e+00    0.000000000e+00    0.000000000e+00
      351125000    5.431560874e-01    2.133456916e-01   -1.104664989e-04    2.077440331e-05    0.000000000e+00    0.000000000e+00    0.000000000e+00    0.000000000e+00
      352750000    5.476790071e-01    1.984629780e-01    8.366458496e-05   -5.890672401e-05    0.000000000e+00    0.000000000e+00    0.000000000e+00    0.000000000e+00
      354375000    5.522405505e-01    1.834996194e-01    2.686681182e-05   -7.870330592e-05    0.000000000e+00    0.000000000e+00    0.000000000e+00    0.000000000e+00
      356000000    5.564597249e-01    1.684853435e-01    1.912902917e-05    3.067642319e-05    0.000000000e+00    0.000000000e+00    0.000000000e+00    0.000000000e+00
      357625000    5.603623390e-01    1.535464972e-01   -8.781546057e-05    3.495541750e-05    0.000000000e+00    0.000000000e+00    0.000000000e+00    0.000000000e+00
      359250000    5.637535453e-01    1.386573613e-01   -8.017407526e-05   -1.842989004e-04    0.000000000e+00    0.000000000e+00    0.000000000e+00    0.000000000e+00
      360875000    5.670731664e-01    1.235783994e-01   -1.227881439e-04    5.063915523e-05    0.000000000e+00    0.000000000e+00    0.000000000e+00    0.000000000e+00
      362500000    5.697499514e-01    1.085744128e-01   -1.196596859e-04    4.266078031e-05    0.000000000e+00    0.000000000e+00    0.000000000e+00    0.000000000e+00
      364125000    5.721134543e-01    9.366849810e-02    8.543694275e-05   -4.006391464e-05    0.000000000e+00    0.000000000e+00    0.000000000e+00    0.000000000e+00
      365750000    5.743075013e-01    7.873484492e-02   -8.584574243e-05   -6.804116128e-05    0.000000000e+00    0.000000000e+00    0.000000000e+00    0.000000000e+00
      367375000    5.763241053e-01    6.384146214e-02   -1.444544614e-04    4.754677502e-05    0.000000000e+00    0.000000000e+00    0.000000000e+00    0.000000000e+00
      369000000    5.776862502e-01    4.881991446e-02   -1.228133042e-04   -5.511878044e-05    0.000000000e+00    0.000000000e+00    0.000000000e+00    0.000000000e+00
      370625000    5.788238645e-01    3.417138010e-02   -6.895295519e-05    8.769425767e-05    0.000000000e+00    0.000000000e+00    0.000000000e+00    0.000000000e+00
      372250000    5.796601176e-01    1.886021346e-02   -1.276822877e-04    7.002823259e-05    0.000000000e+00    0.000000000e+00    0.000000000e+00    0.000000000e+00
      373875000    5.802588463e-01    4.505786113e-03   -5.351209256e-05    3.249101792e-05    0.000000000e+00    0.000000000e+00    0.000000000e+00    0.000000000e+00
      375500000    5.805724859e-01   -1.013558358e-02   -9.907596541e-05   -1.821501246e-05    0.000000000e+00    0.000000000e+00    0.000000000e+00    0.000000000e+00
      377125000    5.804464221e-01   -2.485384978e-02   -6.469610526e-05    1.432455028e-04    0.000000000e+00    0.000000000e+00    0.000000000e+00    0.000000000e+00
      378750000    5.799689889e-01   -3.970089182e-02   -1.311100787e-04   -6.693572504e-05    0.000000000e+00    0.000000000e+00    0.000000000e+00    0.000000000e+00
      380375000    5.792602897e-01   -5.424926430e-02   -7.094263856e-05    6.286766438e-05    0.000000000e+00    0.000000000e+00    0.000000000e+00    0.000000000e+00
      382000000    5.782051682e-01   -6.882312894e-02    5.552355651e-05   -4.824363714e-05    0.000000000e+00    0.000000000e+00    0.000000000e+00    0.000000000e+00
      383625000    5.767653584e-01   -8.321110904e-02   -2.207748475e-04    9.811094060e-05    0.000000000e+00    0.000000000e+00    0.000000000e+00    0.000000000e+00
      385250000    5.750300288e-01   -9.766869992e-02   -1.195775330e-04    4.636990707e-05    0.000000000e+00    0.000000000e+00    0.000000000e+00    0.000000000e+00
      386875000    5.732883215e-01   -1.121796593e-01    8.521919881e-06    8.321342466e-05    0.000000000e+00    0.000000000e+00    0.000000000e+00    0.000000000e+00
      388500000    5.708260536e-01   -1.265307665e-01   -3.970018588e-05   -6.799295079e-05    0.000000000e+00    0.000000000e+00    0.000000000e+00    0.000000000e+00
