! NanoVNA-App
! Date: 2024-06-25 16:50:27
! Start: 200MHz Stop: 1.5GHz Points: 801
! S-Parameter data: F S11 S21 S12 S22
# Hz S RI R 50
!     Frequency           S11_Real           S11_Imag           S21_Real           S21_Imag           S12_Real           S12_Imag           S22_Real           S22_Imag
      200000000   -8.505788445e-01    1.428607851e-01    1.816240256e-04    7.223480497e-05    0.000000000e+00    0.000000000e+00    0.000000000e+00    0.000000000e+00
      201625000   -8.446921110e-01    1.695726961e-01    1.972303871e-04    8.014986088e-05    0.000000000e+00    0.000000000e+00    0.000000000e+00    0.000000000e+00
      203250000   -8.380572200e-01    1.958997697e-01    2.084515145e-04    4.830366015e-05    0.000000000e+00    0.000000000e+00    0.000000000e+00    0.000000000e+00
      204875000   -8.303708434e-01    2.219377160e-01    2.273338614e-04    5.210911695e-05    0.000000000e+00    0.000000000e+00    0.000000000e+00    0.000000000e+00
      206500000   -8.219187856e-01    2.475474775e-01    2.436621726e-04    8.347572293e-05    0.000000000e+00    0.000000000e+00    0.000000000e+00    0.000000000e+00
      208125000   -8.124952912e-01    2.728995979e-01    2.608801879e-04    8.935698861e-05    0.000000000e+00    0.000000000e+00    0.000000000e+00    0.000000000e+00
      209750000   -8.021191359e-01    2.977053523e-01    2.426537831e-04    7.072379231e-05    0.000000000e+00    0.000000000e+00    0.000000000e+00    0.000000000e+00
      211375000   -7.908762693e-01    3.219327331e-01    2.707721433e-04    6.849148485e-05    0.000000000e+00    0.000000000e+00    0.000000000e+00    0.000000000e+00
      213000000   -7.789729238e-01    3.457969129e-01    2.833719191e-04    1.255295210e-04    0.000000000e+00    0.000000000e+00    0.000000000e+00    0.000000000e+00
      214625000   -7.662316561e-01    3.690401018e-01    2.690559486e-04    1.114093102e-04    0.000000000e+00    0.000000000e+00    0.000000000e+00    0.000000000e+00
      216250000   -7.528021932e-01    3.918868303e-01    2.852634061e-04    1.126263960e-04    0.000000000e+00    0.000000000e+00    0.000000000e+00    0.000000000e+00
      217875000   -7.383753657e-01    4.141050577e-01    2.783259843e-04    1.191124684e-04    0.000000000e+00    0.000000000e+00    0.000000000e+00    0.000000000e+00
      219500000   -7.233673334e-01    4.355432987e-01    2.969871275e-04    1.241471182e-04    0.000000000e+00    0.000000000e+00    0.000000000e+00    0.000000000e+00
      221125000   -7.076950073e-01    4.563940763e-01    2.827817807e-04    1.370204118e-04    0.000000000e+00    0.000000000e+00    0.000000000e+00    0.000000000e+00
      222750000   -6.911481023e-01    4.767889977e-01    3.111961123e-04    1.216672972e-04    0.000000000e+00    0.000000000e+00    0.000000000e+00    0.000000000e+00
      224375000   -6.743957400e-01    4.962367415e-01    2.979108540e-04    1.118007203e-04    0.000000000e+00    0.000000000e+00    0.000000000e+00    0.000000000e+00
      226000000   -6.567784548e-01    5.153102279e-01    3.115082800e-04    1.358650334e-04    0.000000000e+00    0.000000000e+00    0.000000000e+00    0.000000000e+00
      227625000   -6.388968229e-01    5.333995819e-01    3.308185551e-04    1.415864535e-04    0.000000000e+00    0.000000000e+00    0.000000000e+00    0.000000000e+00
      229250000   -6.202712655e-01    5.512785912e-01    3.218731727e-04    1.210827104e-04    0.000000000e+00    0.000000000e+00    0.000000000e+00    0.000000000e+00
      230875000   -6.010032296e-01    5.678851604e-01    3.162254579e-04    1.290941000e-04    0.000000000e+00    0.000000000e+00    0.000000000e+00    0.000000000e+00
      232500000   -5.815365314e-01    5.840682983e-01    3.189982963e-04    1.591861947e-04    0.000000000e+00    0.000000000e+00    0.000000000e+00    0.000000000e+00
      234125000   -5.615007281e-01    5.992130041e-01    3.110286780e-04    1.259828568e-04    0.000000000e+00    0.000000000e+00    0.000000000e+00    0.000000000e+00
      235750000   -5.410113335e-01    6.138464212e-01    3.454914258e-04    1.489783317e-04    0.000000000e+00    0.000000000e+00    0.000000000e+00    0.000000000e+00
      237375000   -5.201262832e-01    6.275954247e-01    3.279306402e-04    1.504794200e-04    0.000000000e+00    0.000000000e+00    0.000000000e+00    0.000000000e+00
      239000000   -4.991252422e-01    6.404700279e-01    3.436772968e-04    1.304232283e-04    0.000000000e+00    0.000000000e+00    0.000000000e+00    0.000000000e+00
      240625000   -4.775808156e-01    6.527322531e-01    3.449919168e-04    1.358007867e-04    0.000000000e+00    0.000000000e+00    0.000000000e+00    0.000000000e+00
      242250000   -4.559043646e-01    6.646882892e-01    3.389280755e-04    1.060903305e-04    0.000000000e+00    0.000000000e+00    0.000000000e+00    0.000000000e+00
      243875000   -4.335198700e-01    6.756334901e-01    3.486140340e-04    1.464134402e-04    0.000000000e+00    0.000000000e+00    0.000000000e+00    0.000000000e+00
      245500000   -4.111525118e-01    6.855196357e-01    3.505734494e-04    1.269883651e-04    0.000000000e+00    0.000000000e+00    0.000000000e+00    0.000000000e+00
      247125000   -3.884441257e-01    6.949341297e-01    3.682452952e-04    1.445926609e-04    0.000000000e+00    0.000000000e+00    0.000000000e+00    0.000000000e+00
      248750000   -3.656278253e-01    7.037053108e-01    3.467708302e-04    1.472736622e-04    0.000000000e+00    0.000000000e+00    0.000000000e+00    0.000000000e+00
      250375000   -3.427169919e-01    7.115387321e-01    3.520378086e-04    1.537345379e-04    0.000000000e+00    0.000000000e+00    0.000000000e+00    0.000000000e+00
      252000000   -3.198288381e-01    7.187733054e-01    3.653409076e-04    1.567828731e-04    0.000000000e+00    0.000000000e+00    0.000000000e+00    0.000000000e+00
      253625000   -2.967813313e-01    7.248260379e-01    3.614643065e-04    1.382560440e-04    0.000000000e+00    0.000000000e+00    0.000000000e+00    0.000000000e+00
      255250000   -2.737773955e-01    7.305938601e-01    3.533975105e-04    1.370473765e-04    0.000000000e+00    0.000000000e+00    0.000000000e+00    0.000000000e+00
      256875000   -2.509776056e-01    7.351616025e-01    3.759429383e-04    1.368182420e-04    0.000000000e+00    0.000000000e+00    0.000000000e+00    0.000000000e+00
      258500000   -2.280717790e-01    7.392290831e-01    3.636879264e-04    1.418273750e-04    0.000000000e+00    0.000000000e+00    0.000000000e+00    0.000000000e+00
      260125000   -2.051536888e-01    7.424666882e-01    3.517481964e-04    1.422459027e-04    0.000000000e+00    0.000000000e+00    0.000000000e+00    0.000000000e+00
      261750000   -1.820217371e-01    7.454255223e-01    3.777616948e-04    1.397430460e-04    0.000000000e+00    0.000000000e+00    0.000000000e+00    0.000000000e+00
      263375000   -1.592434794e-01    7.469050884e-01    3.636937181e-04    1.360193710e-04    0.000000000e+00    0.000000000e+00    0.000000000e+00    0.000000000e+00
      265000000   -1.367209852e-01    7.481004000e-01    3.690461454e-04    1.377116569e-04    0.000000000e+00    0.000000000e+00    0.000000000e+00    0.000000000e+00
      266625000   -1.140293702e-01    7.485542893e-01    3.582944919e-04    1.506534609e-04    0.000000000e+00    0.000000000e+00    0.000000000e+00    0.000000000e+00
      268250000   -9.157007933e-02    7.482717633e-01    3.645377583e-04    1.453600271e-04    0.000000000e+00    0.000000000e+00    0.000000000e+00    0.000000000e+00
      269875000   -6.908264756e-02    7.477744818e-01    3.542352933e-04    1.305208425e-04    0.000000000e+00    0.000000000e+00    0.000000000e+00    0.000000000e+00
      271500000   -4.688059911e-02    7.461814284e-01    3.697320062e-04    1.530941227e-04    0.000000000e+00    0.000000000e+00    0.000000000e+00    0.000000000e+00
      273125000   -2.493367158e-02    7.441055179e-01    3.523407504e-04    1.466758986e-04    0.000000000e+00    0.000000000e+00    0.000000000e+00    0.000000000e+00
      274750000   -2.941349056e-03    7.412189841e-01    3.669583239e-04    1.465169917e-04    0.000000000e+00    0.000000000e+00    0.000000000e+00    0.000000000e+00
      276375000    1.875367574e-02    7.380239367e-01    3.467555798e-04    1.419377077e-04    0.000000000e+00    0.000000000e+00    0.000000000e+00    0.000000000e+00
      278000000    4.010838270e-02    7.338953018e-01    3.582596255e-04    1.488060370e-04    0.000000000e+00    0.000000000e+00    0.000000000e+00    0.000000000e+00
      279625000    6.139372289e-02    7.295269370e-01    3.668339632e-04    1.333234541e-04    0.000000000e+00    0.000000000e+00    0.000000000e+00    0.000000000e+00
      281250000    8.233267814e-02    7.243478894e-01    3.652295272e-04    1.289471402e-04    0.000000000e+00    0.000000000e+00    0.000000000e+00    0.000000000e+00
      282875000    1.030585691e-01    7.189101577e-01    3.451187804e-04    1.445161761e-04    0.000000000e+00    0.000000000e+00    0.000000000e+00    0.000000000e+00
      284500000    1.234256402e-01    7.125437260e-01    3.357524984e-04    1.259658311e-04    0.000000000e+00    0.000000000e+00    0.000000000e+00    0.000000000e+00
      286125000    1.438660026e-01    7.060214281e-01    3.258376382e-04    1.254567760e-04    0.000000000e+00    0.000000000e+00    0.000000000e+00    0.000000000e+00
      287750000    1.637456566e-01    6.989400983e-01    3.363784053e-04    1.141020475e-04    0.000000000e+00    0.000000000e+00    0.000000000e+00    0.000000000e+00
      289375000    1.833074838e-01    6.911521554e-01    3.255587944e-04    1.188440292e-04    0.000000000e+00    0.000000000e+00    0.000000000e+00    0.000000000e+00
      291000000    9.870856255e-02    6.508736014e-01   -2.153130663e-05   -8.056365004e-06    0.000000000e+00    0.000000000e+00    0.000000000e+00    0.000000000e+00
      292625000    1.170467734e-01    6.444765329e-01    1.718563180e-05   -4.415441708e-06    0.000000000e+00    0.000000000e+00    0.000000000e+00    0.000000000e+00
      294250000    1.354976445e-01    6.384040713e-01   -4.752006589e-06    5.437694927e-05    0.000000000e+00    0.000000000e+00    0.000000000e+00    0.000000000e+00
      295875000    1.527582556e-01    6.301961541e-01   -1.170663381e-04   -1.704017814e-05    0.000000000e+00    0.000000000e+00    0.000000000e+00    0.000000000e+00
      297500000    1.705930233e-01    6.234337091e-01   -7.582645776e-05    9.387680620e-05    0.000000000e+00    0.000000000e+00    0.000000000e+00    0.000000000e+00
      299125000    1.879409403e-01    6.155190468e-01   -1.112233804e-04    8.148138477e-06    0.000000000e+00    0.000000000e+00    0.000000000e+00    0.000000000e+00
      300750000    2.056113183e-01    6.070593596e-01   -1.276266266e-04   -2.773003689e-05    0.000000000e+00    0.000000000e+00    0.000000000e+00    0.000000000e+00
      302375000    2.215248197e-01    5.977360010e-01   -4.815374632e-05   -3.016733172e-05    0.000000000e+00    0.000000000e+00    0.000000000e+00    0.000000000e+00
      304000000    2.375050485e-01    5.886614323e-01   -4.851674385e-05    5.474655700e-05    0.000000000e+00    0.000000000e+00    0.000000000e+00    0.000000000e+00
      305625000    2.533840239e-01    5.790051818e-01    1.390371926e-05   -1.101389062e-04    0.000000000e+00    0.000000000e+00    0.000000000e+00    0.000000000e+00
      307250000    2.709609270e-01    5.675520897e-01    7.494205875e-06    6.015680628e-05    0.000000000e+00    0.000000000e+00    0.000000000e+00    0.000000000e+00
      308875000    2.844117284e-01    5.590277314e-01    1.998227890e-05   -1.591644036e-06    0.000000000e+00    0.000000000e+00    0.000000000e+00    0.000000000e+00
      310500000    2.992824316e-01    5.485439897e-01   -1.833462557e-05    2.186431375e-04    0.000000000e+00    0.000000000e+00    0.000000000e+00    0.000000000e+00
      312125000    3.133228421e-01    5.373350978e-01   -2.078172402e-04    7.396876754e-05    0.000000000e+00    0.000000000e+00    0.000000000e+00    0.000000000e+00
      313750000    3.270941079e-01    5.265693665e-01   -1.046602774e-04   -6.244424003e-05    0.000000000e+00    0.000000000e+00    0.000000000e+00    0.000000000e+00
      315375000    3.410326838e-01    5.144800544e-01    9.615901035e-06    1.144444468e-04    0.000000000e+00    0.000000000e+00    0.000000000e+00    0.000000000e+00
      317000000    3.543575704e-01    5.031540394e-01   -3.058768925e-05   -1.440064807e-04    0.000000000e+00    0.000000000e+00    0.000000000e+00    0.000000000e+00
      318625000    3.673942983e-01    4.909821153e-01   -3.087948789e-05    1.402305679e-05    0.000000000e+00    0.000000000e+00    0.000000000e+00    0.000000000e+00
      320250000    3.796623647e-01    4.781564474e-01   -6.640953507e-05   -5.772384611e-05    0.000000000e+00    0.000000000e+00    0.000000000e+00    0.000000000e+00
      321875000    3.917562068e-01    4.661756158e-01    3.707732321e-05    1.416039868e-05    0.000000000e+00    0.000000000e+00    0.000000000e+00    0.000000000e+00
      323500000    4.036287069e-01    4.532478452e-01   -2.199510345e-04   -8.295613952e-05    0.000000000e+00    0.000000000e+00    0.000000000e+00    0.000000000e+00
      325125000    4.148102403e-01    4.400438070e-01   -3.896455019e-05   -1.163889192e-05    0.000000000e+00    0.000000000e+00    0.000000000e+00    0.000000000e+00
      326750000    4.256169498e-01    4.271718562e-01   -8.101404092e-05    6.842431321e-05    0.000000000e+00    0.000000000e+00    0.000000000e+00    0.000000000e+00
      328375000    4.362243712e-01    4.134100974e-01   -1.239244157e-04    7.007844397e-05    0.000000000e+00    0.000000000e+00    0.000000000e+00    0.000000000e+00
      330000000    4.463341832e-01    4.000065625e-01   -1.090412115e-04    1.293785754e-04    0.000000000e+00    0.000000000e+00    0.000000000e+00    0.000000000e+00
      331625000    4.560444951e-01    3.863156736e-01   -1.513124007e-04    1.046206962e-04    0.000000000e+00    0.000000000e+00    0.000000000e+00    0.000000000e+00
      333250000    4.654970467e-01    3.725608289e-01   -1.951779814e-05    6.995641888e-05    0.000000000e+00    0.000000000e+00    0.000000000e+00    0.000000000e+00
      334875000    4.742443860e-01    3.584814668e-01   -1.188719689e-04   -5.708740355e-05    0.000000000e+00    0.000000000e+00    0.000000000e+00    0.000000000e+00
      336500000    4.827993810e-01    3.443904817e-01   -1.754739787e-04    4.976196124e-06    0.000000000e+00    0.000000000e+00    0.000000000e+00    0.000000000e+00
      338125000    4.911510646e-01    3.299210966e-01   -5.371291627e-05   -3.498152728e-05    0.000000000e+00    0.000000000e+00    0.000000000e+00    0.000000000e+00
      339750000    4.988159835e-01    3.159097135e-01    1.293260812e-05   -1.566180981e-05    0.000000000e+00    0.000000000e+00    0.000000000e+00    0.000000000e+00
      341375000    5.063584447e-01    3.013525605e-01   -3.643472519e-05    7.888954860e-05    0.000000000e+00    0.000000000e+00    0.000000000e+00    0.000000000e+00
      343000000    5.135501623e-01    2.866712213e-01   -6.704082625e-05    6.867354386e-05    0.000000000e+00    0.000000000e+00    0.000000000e+00    0.000000000e+00
      344625000    5.199604630e-01    2.723602355e-01   -2.526025810e-06   -2.485254845e-05    0.000000000e+00    0.000000000e+00    0.000000000e+00    0.000000000e+00
      346250000    5.264235139e-01    2.577656507e-01   -2.226525430e-05   -1.280092692e-04    0.000000000e+00    0.000000000e+00    0.000000000e+00    0.000000000e+00
      347875000    5.322056413e-01    2.431136072e-01   -2.938867146e-05    1.017424947e-04    0.000000000e+00    0.000000000e+00    0.000000000e+00    0.000000000e+00
      349500000    5.378296375e-01    2.281245887e-01   -9.281040548e-05    4.526151315e-05    0.000000000e+00    0.000000000e+00    0.000000000e+00    0.000000000e+00
      351125000    5.430159569e-01    2.132371664e-01   -7.742019079e-05   -1.685762436e-05    0.000000000e+00    0.000000000e+00    0.000000000e+00    0.000000000e+00
      352750000    5.480684042e-01    1.984589994e-01   -8.015325147e-05    6.370724350e-06    0.000000000e+00    0.000000000e+00    0.000000000e+00    0.000000000e+00
      354375000    5.523369908e-01    1.832784861e-01   -2.323096269e-04   -6.685296830e-05    0.000000000e+00    0.000000000e+00    0.000000000e+00    0.000000000e+00
      356000000    5.565989614e-01    1.685078889e-01    4.060994797e-06    8.019586676e-05    0.000000000e+00    0.000000000e+00    0.000000000e+00    0.000000000e+00
      357625000    5.604554415e-01    1.534971595e-01   -3.067458965e-05   -5.899716052e-05    0.000000000e+00    0.000000000e+00    0.000000000e+00    0.000000000e+00
      359250000    5.636504889e-01    1.385037750e-01   -6.610196579e-05    7.191790792e-05    0.000000000e+00    0.000000000e+00    0.000000000e+00    0.000000000e+00
      360875000    5.670654178e-01    1.236974820e-01   -7.403235941e-06    1.143544287e-04    0.000000000e+00    0.000000000e+00    0.000000000e+00    0.000000000e+00
      362500000    5.697264075e-01    1.084993780e-01   -9.978663729e-05   -3.352779095e-05    0.000000000e+00    0.000000000e+00    0.000000000e+00    0.000000000e+00
      364125000    5.721054077e-01    9.350845963e-02   -1.756256534e-04    1.198439804e-05    0.000000000e+00    0.000000000e+00    0.000000000e+00    0.000000000e+00
      365750000    5.742631555e-01    7.858182490e-02   -6.887644849e-05   -4.822479968e-05    0.000000000e+00    0.000000000e+00    0.000000000e+00    0.000000000e+00
      367375000    5.762104988e-01    6.380973011e-02   -3.704724440e-05    1.466912945e-04    0.000000000e+00    0.000000000e+00    0.000000000e+00    0.000000000e+00
      369000000    5.776477456e-01    4.908207059e-02   -2.773284723e-05    1.933362728e-05    0.000000000e+00    0.000000000e+00    0.000000000e+00    0.000000000e+00
      370625000    5.787591934e-01    3.410429880e-02    6.805623707e-05    1.155850041e-04    0.000000000e+00    0.000000000e+00    0.000000000e+00    0.000000000e+00
      372250000    5.797629356e-01    1.888020337e-02   -8.116718163e-06   -3.235667464e-05    0.000000000e+00    0.000000000e+00    0.000000000e+00    0.000000000e+00
      373875000    5.802907944e-01    4.699301906e-03   -5.161993249e-05    6.463166210e-05    0.000000000e+00    0.000000000e+00    0.000000000e+00    0.000000000e+00
      375500000    5.803924799e-01   -1.026776806e-02   -1.378958113e-04    8.955088560e-05    0.000000000e+00    0.000000000e+00    0.000000000e+00    0.000000000e+00
      377125000    5.801208019e-01   -2.499238029e-02    2.254174433e-05    4.418482786e-05    0.000000000e+00    0.000000000e+00    0.000000000e+00    0.000000000e+00
      378750000    5.799047351e-01   -3.962346911e-02   -8.992572839e-05    6.730863242e-05    0.000000000e+00    0.000000000e+00    0.000000000e+00    0.000000000e+00
      380375000    5.790489316e-01   -5.431931466e-02   -6.822698924e-05    9.284528642e-05    0.000000000e+00    0.000000000e+00    0.000000000e+00    0.000000000e+00
      382000000    5.780745149e-01   -6.882555783e-02   -4.064774475e-05    5.179058462e-06    0.000000000e+00    0.000000000e+00    0.000000000e+00    0.000000000e+00
      383625000    5.768837929e-01   -8.344641328e-02   -9.481909365e-05    5.983838491e-05    0.000000000e+00    0.000000000e+00    0.000000000e+00    0.000000000e+00
      385250000    5.751883388e-01   -9.776779264e-02    1.796735523e-05    1.439947664e-04    0.000000000e+00    0.000000000e+00    0.000000000e+00    0.000000000e+00
      386875000    5.732319355e-01   -1.122548729e-01   -1.177480317e-05    1.236254320e-04    0.000000000e+00    0.000000000e+00    0.000000000e+00    0.000000000e+00
      388500000    5.709007978e-01   -1.263584495e-01    5.183577741e-05    1.295837137e-04    0.000000000e+00    0.000000000e+00    0.000000000e+00    0.000000000e+00
