! NanoVNA-App
! Date: 2024-06-25 16:50:30
! Start: 200MHz Stop: 1.5GHz Points: 801
! S-Parameter data: F S11 S21 S12 S22
# Hz S RI R 50
!     Frequency           S11_Real           S11_Imag           S21_Real           S21_Imag           S12_Real           S12_Imag           S22_Real           S22_Imag
      200000000   -8.505766392e-01    1.429666728e-01    1.607892191e-04    5.591734589e-05    0.000000000e+00    0.000000000e+00    0.000000000e+00    0.000000000e+00
      201625000   -8.447860479e-01    1.695084721e-01    2.087053726e-04    6.210928404e-05    0.000000000e+00    0.000000000e+00    0.000000000e+00    0.000000000e+00
      203250000   -8.379571438e-01    1.958989203e-01    2.024016721e-04    7.197819650e-05    0.000000000e+00    0.000000000e+00    0.000000000e+00    0.000000000e+00
      204875000   -8.303478360e-01    2.218988091e-01    2.245328360e-04    7.037691103e-05    0.000000000e+00    0.000000000e+00    0.000000000e+00    0.000000000e+00
      206500000   -8.219069242e-01    2.475964874e-01    2.598440333e-04    6.789759209e-05    0.000000000e+00    0.000000000e+00    0.000000000e+00    0.000000000e+00
      208125000   -8.123627901e-01    2.727933824e-01    2.442665864e-04    6.721257523e-05    0.000000000e+00    0.000000000e+00    0.000000000e+00    0.000000000e+00
      209750000   -8.022308946e-01    2.976914346e-01    2.642269828e-04    7.282360457e-05    0.000000000e+00    0.000000000e+00    0.000000000e+00    0.000000000e+00
      211375000   -7.908667922e-01    3.218907714e-01    2.661327599e-04    9.255154146e-05    0.000000000e+00    0.000000000e+00    0.000000000e+00    0.000000000e+00
      213000000   -7.791118622e-01    3.458480835e-01    2.765408135e-04    1.132574544e-04    0.000000000e+00    0.000000000e+00    0.000000000e+00    0.000000000e+00
      214625000   -7.662705183e-01    3.689953387e-01    2.952287323e-04    1.313761022e-04    0.000000000e+00    0.000000000e+00    0.000000000e+00    0.000000000e+00
      216250000   -7.527839541e-01    3.920015097e-01    2.873858903e-04    1.234695228e-04    0.000000000e+00    0.000000000e+00    0.000000000e+00    0.000000000e+00
      217875000   -7.382321358e-01    4.141041040e-01    3.008528729e-04    1.264556340e-04    0.000000000e+00    0.000000000e+00    0.000000000e+00    0.000000000e+00
      219500000   -7.235282660e-01    4.356001019e-01    3.124382929e-04    1.178092134e-04    0.000000000e+00    0.000000000e+00    0.000000000e+00    0.000000000e+00
      221125000   -7.077449560e-01    4.562851191e-01    2.966964385e-04    1.191398915e-04    0.000000000e+00    0.000000000e+00    0.000000000e+00    0.000000000e+00
      222750000   -6.912923455e-01    4.767281711e-01    3.094866115e-04    1.223258441e-04    0.000000000e+00    0.000000000e+00    0.000000000e+00    0.000000000e+00
      224375000   -6.744031906e-01    4.963811934e-01    3.103000636e-04    1.393933198e-04    0.000000000e+00    0.000000000e+00    0.000000000e+00    0.000000000e+00
      226000000   -6.568847895e-01    5.153010488e-01    3.208593989e-04    1.301561715e-04    0.000000000e+00    0.000000000e+00    0.000000000e+00    0.000000000e+00
      227625000   -6.387398243e-01    5.334644318e-01    3.206545080e-04    1.683536102e-04    0.000000000e+00    0.000000000e+00    0.000000000e+00    0.000000000e+00
      229250000   -6.200125813e-01    5.510861278e-01    3.217257618e-04    1.250243367e-04    0.000000000e+00    0.000000000e+00    0.000000000e+00    0.000000000e+00
      230875000   -6.009106636e-01    5.677469373e-01    3.268701839e-04    1.296441042e-04    0.000000000e+00    0.000000000e+00    0.000000000e+00    0.000000000e+00
      232500000   -5.816958547e-01    5.840727687e-01    3.417797852e-04    1.465164241e-04    0.000000000e+00    0.000000000e+00    0.000000000e+00    0.000000000e+00
      234125000   -5.614383817e-01    5.990966558e-01    3.358437389e-04    1.479388884e-04    0.000000000e+00    0.000000000e+00    0.000000000e+00    0.000000000e+00
      235750000   -5.411005020e-01    6.141465902e-01    3.211643489e-04    1.521610247e-04    0.000000000e+00    0.000000000e+00    0.000000000e+00    0.000000000e+00
      237375000   -5.200565457e-01    6.275763512e-01    3.486089699e-04    1.283494785e-04    0.000000000e+00    0.000000000e+00    0.000000000e+00    0.000000000e+00
      239000000   -4.990510643e-01    6.404551864e-01    3.232377348e-04    1.161415057e-04    0.000000000e+00    0.000000000e+00    0.000000000e+00    0.000000000e+00
      240625000   -4.777965546e-01    6.528646946e-01    3.326642909e-04    1.408519020e-04    0.000000000e+00    0.000000000e+00    0.000000000e+00    0.000000000e+00
      242250000   -4.556958079e-01    6.644817591e-01    3.424797615e-04    1.226745662e-04    0.000000000e+00    0.000000000e+00    0.000000000e+00    0.000000000e+00
      243875000   -4.333849847e-01    6.753254533e-01    3.575969895e-04    1.370883110e-04    0.000000000e+00    0.000000000e+00    0.000000000e+00    0.000000000e+00
      245500000   -4.110917747e-01    6.854992509e-01    3.627586702e-04    1.452619472e-04    0.000000000e+00    0.000000000e+00    0.000000000e+00    0.000000000e+00
      247125000   -3.883327842e-01    6.949541569e-01    3.732086625e-04    1.355425193e-04    0.000000000e+00    0.000000000e+00    0.000000000e+00    0.000000000e+00
      248750000   -3.654999733e-01    7.036724091e-01    3.583247017e-04    1.426321542e-04    0.000000000e+00    0.000000000e+00    0.000000000e+00    0.000000000e+00
      250375000   -3.426789939e-01    7.114835978e-01    3.670697915e-04    1.403585338e-04    0.000000000e+00    0.000000000e+00    0.000000000e+00    0.000000000e+00
      252000000   -3.199126124e-01    7.184697986e-01    3.779267718e-04    1.410946716e-04    0.000000000e+00    0.000000000e+00    0.000000000e+00    0.000000000e+00
      253625000   -2.968854308e-01    7.247750163e-01    3.600823693e-04    1.556991774e-04    0.000000000e+00    0.000000000e+00    0.000000000e+00    0.000000000e+00
      255250000   -2.739640772e-01    7.304868698e-01    3.801683779e-04    1.647950121e-04    0.000000000e+00    0.000000000e+00    0.000000000e+00    0.000000000e+00
      256875000   -2.510384321e-01    7.351732850e-01    3.814468218e-04    1.399059984e-04    0.000000000e+00    0.000000000e+00    0.000000000e+00    0.000000000e+00
      258500000   -2.278927118e-01    7.393018007e-01    3.499301674e-04    1.263935119e-04    0.000000000e+00    0.000000000e+00    0.000000000e+00    0.000000000e+00
      260125000   -2.050781250e-01    7.425631881e-01    3.722768161e-04    1.273824309e-04    0.000000000e+00    0.000000000e+00    0.000000000e+00    0.000000000e+00
      261750000   -1.821629852e-01    7.454175949e-01    3.841526632e-04    1.420853805e-04    0.000000000e+00    0.000000000e+00    0.000000000e+00    0.000000000e+00
      263375000   -1.591956764e-01    7.469744086e-01    3.693549370e-04    1.390238322e-04    0.000000000e+00    0.000000000e+00    0.000000000e+00    0.000000000e+00
      265000000   -1.366558671e-01    7.481369972e-01    3.626078833e-04    1.396055013e-04    0.000000000e+00    0.000000000e+00    0.000000000e+00    0.000000000e+00
      266625000   -1.141224280e-01    7.485529184e-01    3.757402883e-04    1.336216374e-04    0.000000000e+00    0.000000000e+00    0.000000000e+00    0.000000000e+00
      268250000   -9.144847840e-02    7.482169271e-01    3.668714780e-04    1.354053238e-04    0.000000000e+00    0.000000000e+00    0.000000000e+00    0.000000000e+00
      269875000   -6.906604022e-02    7.474592328e-01    3.602894139e-04    1.343201002e-04    0.000000000e+00    0.000000000e+00    0.000000000e+00    0.000000000e+00
      271500000   -4.688977078e-02    7.460973263e-01    3.741429828e-04    1.522801467e-04    0.000000000e+00    0.000000000e+00    0.000000000e+00    0.000000000e+00
      273125000   -2.481814846e-02    7.438365817e-01    3.479580337e-04    1.213803844e-04    0.000000000e+00    0.000000000e+00    0.000000000e+00    0.000000000e+00
      274750000   -2.842422575e-03    7.413153052e-01    3.423303424e-04    1.501751831e-04    0.000000000e+00    0.000000000e+00    0.000000000e+00    0.000000000e+00
      276375000    1.868024655e-02    7.378923893e-01    3.608471889e-04    1.422379719e-04    0.000000000e+00    0.000000000e+00    0.000000000e+00    0.000000000e+00
      278000000    3.998904675e-02    7.338958383e-01    3.719753295e-04    1.537343051e-04    0.000000000e+00    0.000000000e+00    0.000000000e+00    0.000000000e+00
      279625000    6.135855988e-02    7.296058536e-01    3.667464480e-04    1.263751037e-04    0.000000000e+00    0.000000000e+00    0.000000000e+00    0.000000000e+00
      281250000    8.230680227e-02    7.243949175e-01    3.444682516e-04    1.345035271e-04    0.000000000e+00    0.000000000e+00    0.000000000e+00    0.000000000e+00
      282875000    1.030545160e-01    7.187797427e-01    3.427283664e-04    1.242145809e-04    0.000000000e+00    0.000000000e+00    0.000000000e+00    0.000000000e+00
      284500000    1.235556528e-01    7.125768661e-01    3.480464511e-04    1.313051180e-04    0.000000000e+00    0.000000000e+00    0.000000000e+00    0.000000000e+00
      286125000    1.436897665e-01    7.059580684e-01    3.198449267e-04    1.276613621e-04    0.000000000e+00    0.000000000e+00    0.000000000e+00    0.000000000e+00
      287750000    1.636523157e-01    6.988686919e-01    3.209304996e-04    1.406935771e-04    0.000000000e+00    0.000000000e+00    0.000000000e+00    0.000000000e+00
      289375000    1.831514090e-01    6.909723282e-01    3.403337614e-04    9.678319475e-05    0.000000000e+00    0.000000000e+00    0.000000000e+00    0.000000000e+00
      291000000    9.899087250e-02    6.504599452e-01   -2.849837983e-05   -5.452208825e-06    0.000000000e+00    0.000000000e+00    0.000000000e+00    0.000000000e+00
      292625000    1.168143377e-01    6.435369253e-01    1.922037482e-04   -2.335389945e-05    0.000000000e+00    0.000000000e+00    0.000000000e+00    0.000000000e+00
      294250000    1.356558353e-01    6.377377510e-01    1.121214245e-05    5.947956743e-05    0.000000000e+00    0.000000000e+00    0.000000000e+00    0.000000000e+00
      295875000    1.531267762e-01    6.306154132e-01   -7.851315604e-05    5.740307824e-05    0.000000000e+00    0.000000000e+00    0.000000000e+00    0.000000000e+00
      297500000    1.705729514e-01    6.233680248e-01   -1.592189365e-04   -5.509549374e-05    0.000000000e+00    0.000000000e+00    0.000000000e+00    0.000000000e+00
      299125000    1.880142242e-01    6.152151823e-01    1.151984834e-04   -1.618024689e-04    0.000000000e+00    0.000000000e+00    0.000000000e+00    0.000000000e+00
      300750000    2.048112303e-01    6.072643399e-01   -9.241750377e-05   -7.609886234e-05    0.000000000e+00    0.000000000e+00    0.000000000e+00    0.000000000e+00
      302375000    2.214872986e-01    5.984305143e-01   -1.017246177e-04    1.014432928e-04    0.000000000e+00    0.000000000e+00    0.000000000e+00    0.000000000e+00
      304000000    2.375097573e-01    5.888103843e-01   -1.217712634e-04   -1.713429228e-04    0.000000000e+00    0.000000000e+00    0.000000000e+00    0.000000000e+00
      305625000    2.529240847e-01    5.790448189e-01   -8.915489161e-05    1.984323490e-06    0.000000000e+00    0.000000000e+00    0.000000000e+00    0.000000000e+00
      307250000    2.663585842e-01    5.683826804e-01   -9.231866716e-05    3.876351184e-05    0.000000000e+00    0.000000000e+00    0.000000000e+00    0.000000000e+00
      308875000    2.842238247e-01    5.587167144e-01   -1.746957423e-04    3.732374171e-05    0.000000000e+00    0.000000000e+00    0.000000000e+00    0.000000000e+00
      310500000    2.988216877e-01    5.488455296e-01    3.730640685e-07    2.984208186e-05    0.000000000e+00    0.000000000e+00    0.000000000e+00    0.000000000e+00
      312125000    3.136887550e-01    5.376102924e-01   -3.198885315e-05    1.201319828e-04    0.000000000e+00    0.000000000e+00    0.000000000e+00    0.000000000e+00
      313750000    3.278813362e-01    5.266173482e-01    4.432185233e-05   -9.063027392e-05    0.000000000e+00    0.000000000e+00    0.000000000e+00    0.000000000e+00
      315375000    3.410557806e-01    5.145674348e-01   -1.496318291e-04    4.751497545e-05    0.000000000e+00    0.000000000e+00    0.000000000e+00    0.000000000e+00
      317000000    3.544192314e-01    5.029807687e-01   -4.670800263e-05    3.957690296e-06    0.000000000e+00    0.000000000e+00    0.000000000e+00    0.000000000e+00
      318625000    3.671480715e-01    4.905731976e-01   -3.063071927e-05    2.681164915e-05    0.000000000e+00    0.000000000e+00    0.000000000e+00    0.000000000e+00
      320250000    3.796579242e-01    4.783911705e-01   -1.408814423e-04    3.617199764e-05    0.000000000e+00    0.000000000e+00    0.000000000e+00    0.000000000e+00
      321875000    3.920241296e-01    4.658627808e-01   -1.330521918e-04   -3.860115612e-05    0.000000000e+00    0.000000000e+00    0.000000000e+00    0.000000000e+00
      323500000    4.032979906e-01    4.530283213e-01    7.107758574e-05    4.900601562e-05    0.000000000e+00    0.000000000e+00    0.000000000e+00    0.000000000e+00
      325125000    4.146898687e-01    4.400028288e-01   -1.410850964e-04    7.249234477e-05    0.000000000e+00    0.000000000e+00    0.000000000e+00    0.000000000e+00
      326750000    4.257278442e-01    4.271024168e-01   -1.154659185e-05    1.972867176e-05    0.000000000e+00    0.000000000e+00    0.000000000e+00    0.000000000e+00
      328375000    4.365558028e-01    4.139879942e-01   -2.664487147e-05   -1.593528577e-05    0.000000000e+00    0.000000000e+00    0.000000000e+00    0.000000000e+00
      330000000    4.464904666e-01    4.002728760e-01    3.445001857e-05   -2.707102431e-05    0.000000000e+00    0.000000000e+00    0.000000000e+00    0.000000000e+00
      331625000    4.560286999e-01    3.866896331e-01   -4.208019891e-05   -9.306491847e-05    0.000000000e+00    0.000000000e+00    0.000000000e+00    0.000000000e+00
      333250000    4.653753042e-01    3.725357950e-01   -5.525947199e-05    8.436332428e-05    0.000000000e+00    0.000000000e+00    0.000000000e+00    0.000000000e+00
      334875000    4.744410515e-01    3.585835695e-01    6.262696843e-05    5.662897456e-05    0.000000000e+00    0.000000000e+00    0.000000000e+00    0.000000000e+00
      336500000    4.828879833e-01    3.443267345e-01   -7.768549403e-05    1.202692420e-05    0.000000000e+00    0.000000000e+00    0.000000000e+00    0.000000000e+00
      338125000    4.911395013e-01    3.304700255e-01   -1.807544468e-04    1.785784298e-05    0.000000000e+00    0.000000000e+00    0.000000000e+00    0.000000000e+00
      339750000    4.986651242e-01    3.157361448e-01   -1.381246693e-04    1.511782557e-05    0.000000000e+00    0.000000000e+00    0.000000000e+00    0.000000000e+00
      341375000    5.065634847e-01    3.014666140e-01    1.405196090e-04   -1.481925665e-05    0.000000000e+00    0.000000000e+00    0.000000000e+00    0.000000000e+00
      343000000    5.131537914e-01    2.868531942e-01   -8.050235920e-05    1.050032879e-04    0.000000000e+00    0.000000000e+00    0.000000000e+00    0.000000000e+00
      344625000    5.201855302e-01    2.723287344e-01   -7.844543870e-05    7.458827895e-05    0.000000000e+00    0.000000000e+00    0.000000000e+00    0.000000000e+00
      346250000    5.262895226e-01    2.576521933e-01   -1.172752673e-05    1.300779513e-05    0.000000000e+00    0.000000000e+00    0.000000000e+00    0.000000000e+00
      347875000    5.322923660e-01    2.429362684e-01   -8.390151925e-05   -2.796496665e-05    0.000000000e+00    0.000000000e+00    0.000000000e+00    0.000000000e+00
      349500000    5.378289819e-01    2.280274332e-01   -1.195162768e-04   -6.796664093e-05    0.000000000e+00    0.000000000e+00    0.000000000e+00    0.000000000e+00
      351125000    5.432098508e-01    2.133179605e-01   -3.971542901e-05   -9.069285443e-05    0.000000000e+00    0.000000000e+00    0.000000000e+00    0.000000000e+00
      352750000    5.477762818e-01    1.985418350e-01   -3.620153075e-05   -3.076070061e-05    0.000000000e+00    0.000000000e+00    0.000000000e+00    0.000000000e+00
      354375000    5.522832870e-01    1.834336668e-01    1.827525375e-05   -4.837956294e-05    0.000000000e+00    0.000000000e+00    0.000000000e+00    0.000000000e+00
      356000000    5.565720201e-01    1.686518937e-01    2.882993795e-05   -9.654978930e-05    0.000000000e+00    0.000000000e+00    0.000000000e+00    0.000000000e+00
      357625000    5.604027510e-01    1.534730494e-01    1.073459207e-04    1.125667404e-05    0.000000000e+00    0.000000000e+00    0.000000000e+00    0.000000000e+00
      359250000    5.638416409e-01    1.385045648e-01   -3.471380842e-05   -1.166089787e-04    0.000000000e+00    0.000000000e+00    0.000000000e+00    0.000000000e+00
      360875000    5.669523478e-01    1.236419976e-01   -1.446653187e-04   -2.403236977e-06    0.000000000e+00    0.000000000e+00    0.000000000e+00    0.000000000e+00
      362500000    5.697438121e-01    1.086226255e-01   -4.266069300e-05    8.650602103e-05    0.000000000e+00    0.000000000e+00    0.000000000e+00    0.000000000e+00
      364125000    5.722578168e-01    9.361096472e-02   -1.330512605e-04   -3.444194590e-05    0.000000000e+00    0.000000000e+00    0.000000000e+00    0.000000000e+00
      365750000    5.741987228e-01    7.883176208e-02   -3.883203681e-05   -5.052632332e-06    0.000000000e+00    0.000000000e+00    0.000000000e+00    0.000000000e+00
      367375000    5.761163831e-01    6.368511915e-02   -4.137001088e-05   -7.332170208e-05    0.000000000e+00    0.000000000e+00    0.000000000e+00    0.000000000e+00
      369000000    5.776672959e-01    4.896954820e-02   -1.109652476e-05    1.013378132e-04    0.000000000e+00    0.000000000e+00    0.000000000e+00    0.000000000e+00
      370625000    5.790331364e-01    3.416192159e-02   -1.298910502e-04   -1.546547537e-05    0.000000000e+00    0.000000000e+00    0.000000000e+00    0.000000000e+00
      372250000    5.797979236e-01    1.903759874e-02   -8.342214278e-05    4.084390821e-05    0.000000000e+00    0.000000000e+00    0.000000000e+00    0.000000000e+00
      373875000    5.802522302e-01    4.527628422e-03   -5.766907634e-06    1.284378504e-05    0.000000000e+00    0.000000000e+00    0.000000000e+00    0.000000000e+00
      375500000    5.804506540e-01   -1.041072886e-02   -3.661137453e-05    8.239409362e-05    0.000000000e+00    0.000000000e+00    0.000000000e+00    0.000000000e+00
      377125000    5.803493261e-01   -2.500902303e-02   -1.852405985e-04    1.635199733e-04    0.000000000e+00    0.000000000e+00    0.000000000e+00    0.000000000e+00
      378750000    5.799300075e-01   -3.955138847e-02    3.681660701e-06   -5.318863259e-05    0.000000000e+00    0.000000000e+00    0.000000000e+00    0.000000000e+00
      380375000    5.791484118e-01   -5.417649448e-02   -5.663444972e-05    5.164684626e-05    0.000000000e+00    0.000000000e+00    0.000000000e+00    0.000000000e+00
      382000000    5.780114532e-01   -6.901449710e-02   -1.290072250e-04    7.574105985e-05    0.000000000e+00    0.000000000e+00    0.000000000e+00    0.000000000e+00
      383625000    5.766748190e-01   -8.333315700e-02   -1.053420638e-04    9.952092114e-06    0.000000000e+00    0.000000000e+00    0.000000000e+00    0.000000000e+00
      385250000    5.752393007e-01   -9.801265597e-02   -6.896402192e-05    6.781394040e-05    0.000000000e+00    0.000000000e+00    0.000000000e+00    0.000000000e+00
      386875000    5.732166767e-01   -1.120979264e-01   -1.874953887e-04    1.319846779e-04    0.000000000e+00    0.000000000e+00    0.000000000e+00    0.000000000e+00
      388500000    5.706626177e-01   -1.264568567e-01   -1.123393668e-04   -5.300217254e-06    0.000000000e+00    0.000000000e+00    0.000000000e+00    0.000000000e+00
