! NanoVNA-App
! Date: 2024-06-25 16:49:43
! Start: 200MHz Stop: 1.5GHz Points: 801
! S-Parameter data: F S11 S21 S12 S22
# Hz S RI R 50
!     Frequency           S11_Real           S11_Imag           S21_Real           S21_Imag           S12_Real           S12_Imag           S22_Real           S22_Imag
      200000000   -8.505835533e-01    1.428776979e-01    1.901650539e-04    7.545806147e-05    0.000000000e+00    0.000000000e+00    0.000000000e+00    0.000000000e+00
      201625000   -8.448688984e-01    1.694382727e-01    1.987971191e-04    7.236380770e-05    0.000000000e+00    0.000000000e+00    0.000000000e+00    0.000000000e+00
      203250000   -8.380137086e-01    1.958323866e-01    2.059002582e-04    7.102639938e-05    0.000000000e+00    0.000000000e+00    0.000000000e+00    0.000000000e+00
      204875000   -8.304442763e-01    2.219599783e-01    2.100323036e-04    5.879121454e-05    0.000000000e+00    0.000000000e+00    0.000000000e+00    0.000000000e+00
      206500000   -8.219993711e-01    2.475022674e-01    2.502970456e-04    7.685792662e-05    0.000000000e+00    0.000000000e+00    0.000000000e+00    0.000000000e+00
      208125000   -8.124755621e-01    2.728622854e-01    2.359040518e-04    6.100899191e-05    0.000000000e+00    0.000000000e+00    0.000000000e+00    0.000000000e+00
      209750000   -8.022656441e-01    2.975907326e-01    2.596598060e-04    7.695033855e-05    0.000000000e+00    0.000000000e+00    0.000000000e+00    0.000000000e+00
      211375000   -7.910018563e-01    3.218506575e-01    2.570684592e-04    9.797829989e-05    0.000000000e+00    0.000000000e+00    0.000000000e+00    0.000000000e+00
      213000000   -7.790626884e-01    3.456601501e-01    2.738350595e-04    8.539934061e-05    0.000000000e+00    0.000000000e+00    0.000000000e+00    0.000000000e+00
      214625000   -7.661942840e-01    3.690207899e-01    2.727045794e-04    1.041485521e-04    0.000000000e+00    0.000000000e+00    0.000000000e+00    0.000000000e+00
      216250000   -7.526904345e-01    3.918099701e-01    2.875935170e-04    1.080520742e-04    0.000000000e+00    0.000000000e+00    0.000000000e+00    0.000000000e+00
      217875000   -7.382833958e-01    4.139782786e-01    2.825454285e-04    1.205364242e-04    0.000000000e+00    0.000000000e+00    0.000000000e+00    0.000000000e+00
      219500000   -7.233943939e-01    4.356689155e-01    2.933462674e-04    1.182032138e-04    0.000000000e+00    0.000000000e+00    0.000000000e+00    0.000000000e+00
      221125000   -7.077858448e-01    4.565372169e-01    3.110305697e-04    1.290195069e-04    0.000000000e+00    0.000000000e+00    0.000000000e+00    0.000000000e+00
      222750000   -6.911806464e-01    4.766751230e-01    2.945501183e-04    1.386653021e-04    0.000000000e+00    0.000000000e+00    0.000000000e+00    0.000000000e+00
      224375000   -6.744724512e-01    4.963969886e-01    2.931228373e-04    1.463430090e-04    0.000000000e+00    0.000000000e+00    0.000000000e+00    0.000000000e+00
      226000000   -6.569538116e-01    5.153706670e-01    3.293526825e-04    1.330614177e-04    0.000000000e+00    0.000000000e+00    0.000000000e+00    0.000000000e+00
      227625000   -6.388627291e-01    5.334159136e-01    3.093935666e-04    1.506859844e-04    0.000000000e+00    0.000000000e+00    0.000000000e+00    0.000000000e+00
      229250000   -6.201859713e-01    5.511266589e-01    3.100387112e-04    1.342245378e-04    0.000000000e+00    0.000000000e+00    0.000000000e+00    0.000000000e+00
      230875000   -6.010316014e-01    5.677868724e-01    3.205061948e-04    1.365307107e-04    0.000000000e+00    0.000000000e+00    0.000000000e+00    0.000000000e+00
      232500000   -5.815336704e-01    5.838274956e-01    3.235231852e-04    1.226580207e-04    0.000000000e+00    0.000000000e+00    0.000000000e+00    0.000000000e+00
      234125000   -5.614865422e-01    5.991064906e-01    3.328231396e-04    1.391865371e-04    0.000000000e+00    0.000000000e+00    0.000000000e+00    0.000000000e+00
      235750000   -5.409519076e-01    6.138892770e-01    3.355770605e-04    1.459956111e-04    0.000000000e+00    0.000000000e+00    0.000000000e+00    0.000000000e+00
      237375000   -5.201550722e-01    6.275120974e-01    3.367622849e-04    1.387644152e-04    0.000000000e+00    0.000000000e+00    0.000000000e+00    0.000000000e+00
      239000000   -4.990476072e-01    6.404991150e-01    3.486934002e-04    1.419049077e-04    0.000000000e+00    0.000000000e+00    0.000000000e+00    0.000000000e+00
      240625000   -4.775163829e-01    6.528289914e-01    3.235828481e-04    1.507042180e-04    0.000000000e+00    0.000000000e+00    0.000000000e+00    0.000000000e+00
      242250000   -4.556857944e-01    6.643944383e-01    3.306340950e-04    1.466931863e-04    0.000000000e+00    0.000000000e+00    0.000000000e+00    0.000000000e+00
      243875000   -4.336064756e-01    6.753050089e-01    3.370444174e-04    1.512946910e-04    0.000000000e+00    0.000000000e+00    0.000000000e+00    0.000000000e+00
      245500000   -4.111305177e-01    6.853596568e-01    3.494526318e-04    1.325521589e-04    0.000000000e+00    0.000000000e+00    0.000000000e+00    0.000000000e+00
      247125000   -3.883152902e-01    6.950988770e-01    3.741849505e-04    1.454950252e-04    0.000000000e+00    0.000000000e+00    0.000000000e+00    0.000000000e+00
      248750000   -3.656143844e-01    7.038331032e-01    3.543278435e-04    1.518516947e-04    0.000000000e+00    0.000000000e+00    0.000000000e+00    0.000000000e+00
      250375000   -3.426336050e-01    7.115249038e-01    3.633580636e-04    1.321559248e-04    0.000000000e+00    0.000000000e+00    0.000000000e+00    0.000000000e+00
      252000000   -3.198436201e-01    7.184359431e-01    3.650278668e-04    1.315279515e-04    0.000000000e+00    0.000000000e+00    0.000000000e+00    0.000000000e+00
      253625000   -2.968875170e-01    7.247607112e-01    3.664137039e-04    1.420108456e-04    0.000000000e+00    0.000000000e+00    0.000000000e+00    0.000000000e+00
      255250000   -2.738503814e-01    7.305858135e-01    3.442573652e-04    1.412262500e-04    0.000000000e+00    0.000000000e+00    0.000000000e+00    0.000000000e+00
      256875000   -2.509101927e-01    7.350734472e-01    3.360265400e-04    1.224395819e-04    0.000000000e+00    0.000000000e+00    0.000000000e+00    0.000000000e+00
      258500000   -2.280911058e-01    7.393292785e-01    3.642064694e-04    1.529877190e-04    0.000000000e+00    0.000000000e+00    0.000000000e+00    0.000000000e+00
      260125000   -2.052077055e-01    7.425758839e-01    3.764038265e-04    1.233988150e-04    0.000000000e+00    0.000000000e+00    0.000000000e+00    0.000000000e+00
      261750000   -1.822119951e-01    7.455390096e-01    3.690020822e-04    1.167017181e-04    0.000000000e+00    0.000000000e+00    0.000000000e+00    0.000000000e+00
      263375000   -1.594321281e-01    7.470820546e-01    3.599003830e-04    1.409364340e-04    0.000000000e+00    0.000000000e+00    0.000000000e+00    0.000000000e+00
      265000000   -1.367584169e-01    7.482067943e-01    3.747092560e-04    1.314636611e-04    0.000000000e+00    0.000000000e+00    0.000000000e+00    0.000000000e+00
      266625000   -1.140465438e-01    7.486544251e-01    3.581435885e-04    1.102769602e-04    0.000000000e+00    0.000000000e+00    0.000000000e+00    0.000000000e+00
      268250000   -9.138181061e-02    7.484644651e-01    3.613313893e-04    1.468944247e-04    0.000000000e+00    0.000000000e+00    0.000000000e+00    0.000000000e+00
      269875000   -6.910398602e-02    7.475311160e-01    3.593109723e-04    1.490551804e-04    0.000000000e+00    0.000000000e+00    0.000000000e+00    0.000000000e+00
      271500000   -4.694668204e-02    7.460222244e-01    3.498744045e-04    1.346461650e-04    0.000000000e+00    0.000000000e+00    0.000000000e+00    0.000000000e+00
      273125000   -2.478931099e-02    7.441378236e-01    3.662857926e-04    1.247989276e-04    0.000000000e+00    0.000000000e+00    0.000000000e+00    0.000000000e+00
      274750000   -2.973414259e-03    7.410613894e-01    3.636800102e-04    1.271757064e-04    0.000000000e+00    0.000000000e+00    0.000000000e+00    0.000000000e+00
      276375000    1.856023073e-02    7.378197908e-01    3.581400379e-04    1.316231792e-04    0.000000000e+00    0.000000000e+00    0.000000000e+00    0.000000000e+00
      278000000    4.004709423e-02    7.339359522e-01    3.720163659e-04    1.361658360e-04    0.000000000e+00    0.000000000e+00    0.000000000e+00    0.000000000e+00
      279625000    6.135911122e-02    7.294388413e-01    3.555539297e-04    1.215517768e-04    0.000000000e+00    0.000000000e+00    0.000000000e+00    0.000000000e+00
      281250000    8.230398595e-02    7.244281769e-01    3.633244487e-04    1.219006808e-04    0.000000000e+00    0.000000000e+00    0.000000000e+00    0.000000000e+00
      282875000    1.030959561e-01    7.187463641e-01    3.555313160e-04    1.500814396e-04    0.000000000e+00    0.000000000e+00    0.000000000e+00    0.000000000e+00
      284500000    1.235655621e-01    7.125274539e-01    3.476387064e-04    1.214448930e-04    0.000000000e+00    0.000000000e+00    0.000000000e+00    0.000000000e+00
      286125000    1.436857134e-01    7.059139013e-01    3.330395557e-04    1.166270158e-04    0.000000000e+00    0.000000000e+00    0.000000000e+00    0.000000000e+00
      287750000    1.636497080e-01    6.988909245e-01    3.092480183e-04    1.159926687e-04    0.000000000e+00    0.000000000e+00    0.000000000e+00    0.000000000e+00
      289375000    1.831527352e-01    6.909507513e-01    3.230532166e-04    1.077800771e-04    0.000000000e+00    0.000000000e+00    0.000000000e+00    0.000000000e+00
      291000000    9.888187796e-02    6.513367295e-01    1.255302777e-05    5.004374543e-05    0.000000000e+00    0.000000000e+00    0.000000000e+00    0.000000000e+00
      292625000    1.169602871e-01    6.440637112e-01   -1.033302033e-05   -1.224948846e-06    0.000000000e+00    0.000000000e+00    0.000000000e+00    0.000000000e+00
      294250000    1.353937387e-01    6.380841732e-01   -1.278303243e-04   -1.561023382e-04    0.000000000e+00    0.000000000e+00    0.000000000e+00    0.000000000e+00
      295875000    1.533393264e-01    6.305615306e-01   -1.831081609e-04    1.267026237e-04    0.000000000e+00    0.000000000e+00    0.000000000e+00    0.000000000e+00
      297500000    1.706741005e-01    6.233299375e-01    1.101469315e-04   -4.262029961e-06    0.000000000e+00    0.000000000e+00    0.000000000e+00    0.000000000e+00
      299125000    1.882944852e-01    6.149574518e-01   -2.870687968e-05   -8.040385001e-05    0.000000000e+00    0.000000000e+00    0.000000000e+00    0.000000000e+00
      300750000    2.045471966e-01    6.075703502e-01   -4.162011101e-05    3.354800356e-05    0.000000000e+00    0.000000000e+00    0.000000000e+00    0.000000000e+00
      302375000    2.215959728e-01    5.983362198e-01   -1.177956001e-04   -6.808456965e-05    0.000000000e+00    0.000000000e+00    0.000000000e+00    0.000000000e+00
      304000000    2.372200191e-01    5.883584023e-01   -6.261058297e-05    8.567069744e-05    0.000000000e+00    0.000000000e+00    0.000000000e+00    0.000000000e+00
      305625000    2.535568178e-01    5.792849064e-01   -1.006291859e-04    4.598045780e-05    0.000000000e+00    0.000000000e+00    0.000000000e+00    0.000000000e+00
      307250000    2.670174837e-01    5.672982335e-01   -2.650411443e-05    1.621830779e-05    0.000000000e+00    0.000000000e+00    0.000000000e+00    0.000000000e+00
      308875000    2.845866680e-01    5.592256188e-01    3.259938694e-06   -1.191746851e-04    0.000000000e+00    0.000000000e+00    0.000000000e+00    0.000000000e+00
      310500000    2.987985909e-01    5.486816764e-01   -6.557784218e-05   -1.021797725e-04    0.000000000e+00    0.000000000e+00    0.000000000e+00    0.000000000e+00
      312125000    3.132997751e-01    5.373917222e-01    2.614798905e-05   -4.821656330e-05    0.000000000e+00    0.000000000e+00    0.000000000e+00    0.000000000e+00
      313750000    3.271309435e-01    5.264088511e-01   -2.131151996e-05    3.282479884e-05    0.000000000e+00    0.000000000e+00    0.000000000e+00    0.000000000e+00
      315375000    3.408676684e-01    5.149077773e-01    4.274468301e-05    8.032164260e-06    0.000000000e+00    0.000000000e+00    0.000000000e+00    0.000000000e+00
      317000000    3.547543585e-01    5.031545162e-01    3.077481597e-05   -2.149934335e-05    0.000000000e+00    0.000000000e+00    0.000000000e+00    0.000000000e+00
      318625000    3.673695922e-01    4.907825589e-01   -1.311248925e-04    8.325846284e-05    0.000000000e+00    0.000000000e+00    0.000000000e+00    0.000000000e+00
      320250000    3.796902299e-01    4.784666896e-01    5.427105134e-05   -5.459534441e-05    0.000000000e+00    0.000000000e+00    0.000000000e+00    0.000000000e+00
      321875000    3.918246329e-01    4.660327733e-01   -5.112892177e-05    5.911769676e-06    0.000000000e+00    0.000000000e+00    0.000000000e+00    0.000000000e+00
      323500000    4.034487605e-01    4.531081021e-01   -1.205630688e-04   -7.417499000e-05    0.000000000e+00    0.000000000e+00    0.000000000e+00    0.000000000e+00
      325125000    4.148493409e-01    4.404027760e-01   -8.381783846e-05    5.392781168e-05    0.000000000e+00    0.000000000e+00    0.000000000e+00    0.000000000e+00
      326750000    4.256576300e-01    4.275176823e-01   -6.140875485e-05    1.003351717e-04    0.000000000e+00    0.000000000e+00    0.000000000e+00    0.000000000e+00
      328375000    4.363695979e-01    4.137134254e-01   -1.804872009e-04    2.751033753e-05    0.000000000e+00    0.000000000e+00    0.000000000e+00    0.000000000e+00
      330000000    4.466222823e-01    4.004629552e-01    5.510761184e-05   -7.459968856e-06    0.000000000e+00    0.000000000e+00    0.000000000e+00    0.000000000e+00
      331625000    4.563044608e-01    3.866675794e-01    8.752138092e-05    7.579736848e-05    0.000000000e+00    0.000000000e+00    0.000000000e+00    0.000000000e+00
      333250000    4.656645358e-01    3.727568388e-01   -3.210800423e-05    1.092048260e-04    0.000000000e+00    0.000000000e+00    0.000000000e+00    0.000000000e+00
      334875000    4.743561745e-01    3.584020734e-01   -7.365129568e-05    2.795321234e-05    0.000000000e+00    0.000000000e+00    0.000000000e+00    0.000000000e+00
      336500000    4.829551280e-01    3.444937170e-01   -1.552957692e-04   -1.318890863e-04    0.000000000e+00    0.000000000e+00    0.000000000e+00    0.000000000e+00
      338125000    4.912578166e-01    3.304609358e-01    6.535751891e-05   -4.545904449e-05    0.000000000e+00    0.000000000e+00    0.000000000e+00    0.000000000e+00
      339750000    4.990089834e-01    3.159992993e-01   -7.397828449e-05    4.524690212e-06    0.000000000e+00    0.000000000e+00    0.000000000e+00    0.000000000e+00
      341375000    5.064457059e-01    3.012434840e-01   -6.815805682e-05    1.194227953e-04    0.000000000e+00    0.000000000e+00    0.000000000e+00    0.000000000e+00
      343000000    5.133594275e-01    2.869057953e-01   -7.451711281e-05    1.179721730e-04    0.000000000e+00    0.000000000e+00    0.000000000e+00    0.000000000e+00
      344625000    5.200345516e-01    2.724172175e-01   -1.542262908e-04   -4.223266296e-05    0.000000000e+00    0.000000000e+00    0.000000000e+00    0.000000000e+00
      346250000    5.263758302e-01    2.578509152e-01   -1.285088911e-05    4.518422793e-05    0.000000000e+00    0.000000000e+00    0.000000000e+00    0.000000000e+00
      347875000    5.323853493e-01    2.428293675e-01   -9.384503937e-05    7.234242366e-05    0.000000000e+00    0.000000000e+00    0.000000000e+00    0.000000000e+00
      349500000    5.379632115e-01    2.281583250e-01   -1.757145365e-04    1.044067467e-04    0.000000000e+00    0.000000000e+00    0.000000000e+00    0.000000000e+00
      351125000    5.430531502e-01    2.132598609e-01   -3.844978710e-05   -1.047218393e-04    0.000000000e+00    0.000000000e+00    0.000000000e+00    0.000000000e+00
      352750000    5.477839708e-01    1.984447986e-01   -8.326047100e-05   -1.061109469e-05    0.000000000e+00    0.000000000e+00    0.000000000e+00    0.000000000e+00
      354375000    5.521647930e-01    1.836748570e-01   -7.274327800e-05    5.754063022e-05    0.000000000e+00    0.000000000e+00    0.000000000e+00    0.000000000e+00
      356000000    5.568032265e-01    1.685393453e-01   -1.461462525e-04   -7.294972602e-05    0.000000000e+00    0.000000000e+00    0.000000000e+00    0.000000000e+00
      357625000    5.603676438e-01    1.534053981e-01    1.125473545e-07   -1.834503678e-06    0.000000000e+00    0.000000000e+00    0.000000000e+00    0.000000000e+00
      359250000    5.637357235e-01    1.386377364e-01   -4.900636850e-05   -1.179000901e-04    0.000000000e+00    0.000000000e+00    0.000000000e+00    0.000000000e+00
      360875000    5.668393970e-01    1.237138808e-01   -1.218085381e-04   -8.605051698e-05    0.000000000e+00    0.000000000e+00    0.000000000e+00    0.000000000e+00
      362500000    5.697743297e-01    1.087753400e-01   -3.938578811e-05    1.694016100e-05    0.000000000e+00    0.000000000e+00    0.000000000e+00    0.000000000e+00
      364125000    5.722118020e-01    9.379569441e-02   -1.946989323e-05    1.162319895e-04    0.000000000e+00    0.000000000e+00    0.000000000e+00    0.000000000e+00
      365750000    5.743313432e-01    7.882484049e-02   -1.127936775e-04    6.661957741e-05    0.000000000e+00    0.000000000e+00    0.000000000e+00    0.000000000e+00
      367375000    5.761539936e-01    6.384942681e-02   -6.912818935e-05    4.064927271e-05    0.000000000e+00    0.000000000e+00    0.000000000e+00    0.000000000e+00
      369000000    5.777194500e-01    4.895185307e-02    1.380016511e-05    9.164904623e-05    0.000000000e+00    0.000000000e+00    0.000000000e+00    0.000000000e+00
      370625000    5.790139437e-01    3.414855897e-02   -1.865278173e-04   -1.279481876e-05    0.000000000e+00    0.000000000e+00    0.000000000e+00    0.000000000e+00
      372250000    5.794428587e-01    1.937160268e-02   -6.982186460e-05   -4.038914267e-05    0.000000000e+00    0.000000000e+00    0.000000000e+00    0.000000000e+00
      373875000    5.802924037e-01    4.515047185e-03   -7.239965635e-05   -2.038893399e-05    0.000000000e+00    0.000000000e+00    0.000000000e+00    0.000000000e+00
      375500000    5.805481076e-01   -1.023483463e-02   -1.010783890e-04    6.520410534e-05    0.000000000e+00    0.000000000e+00    0.000000000e+00    0.000000000e+00
      377125000    5.805118680e-01   -2.511642687e-02    9.326028521e-05    6.025738003e-06    0.000000000e+00    0.000000000e+00    0.000000000e+00    0.000000000e+00
      378750000    5.798877478e-01   -3.947645426e-02   -1.498588827e-04   -3.929534614e-06    0.000000000e+00    0.000000000e+00    0.000000000e+00    0.000000000e+00
      380375000    5.791435838e-01   -5.435454100e-02   -2.455330687e-04    1.822809718e-04    0.000000000e+00    0.000000000e+00    0.000000000e+00    0.000000000e+00
      382000000    5.781852603e-01   -6.886611879e-02    2.054665310e-05    1.678027766e-04    0.000000000e+00    0.000000000e+00    0.000000000e+00    0.000000000e+00
      383625000    5.767595768e-01   -8.330830187e-02   -5.198225699e-05   -1.777031503e-05    0.000000000e+00    0.000000000e+00    0.000000000e+00    0.000000000e+00
      385250000    5.753096342e-01   -9.777926654e-02    2.456122957e-06    1.013339788e-04    0.000000000e+00    0.000000000e+00    0.000000000e+00    0.000000000e+00
      386875000    5.734435916e-01   -1.122079194e-01   -1.399931061e-04   -5.235162462e-05    0.000000000e+00    0.000000000e+00    0.000000000e+00    0.000000000e+00
      388500000    5.710177422e-01   -1.262811422e-01   -1.362374314e-04    1.063815653e-04    0.000000000e+00    0.000000000e+00    0.000000000e+00    0.000000000e+00
