! NanoVNA-App
! Date: 2024-06-25 16:49:46
! Start: 200MHz Stop: 1.5GHz Points: 801
! S-Parameter data: F S11 S21 S12 S22
# Hz S RI R 50
!     Frequency           S11_Real           S11_Imag           S21_Real           S21_Imag           S12_Real           S12_Imag           S22_Real           S22_Imag
      200000000   -8.505260348e-01    1.429241002e-01    1.632396452e-04    7.050594286e-05    0.000000000e+00    0.000000000e+00    0.000000000e+00    0.000000000e+00
      201625000   -8.447748423e-01    1.694936454e-01    1.973730105e-04    6.650634896e-05    0.000000000e+00    0.000000000e+00    0.000000000e+00    0.000000000e+00
      203250000   -8.379645944e-01    1.958487332e-01    2.054906654e-04    7.627165905e-05    0.000000000e+00    0.000000000e+00    0.000000000e+00    0.000000000e+00
      204875000   -8.303768039e-01    2.219666541e-01    2.311132994e-04    7.639282558e-05    0.000000000e+00    0.000000000e+00    0.000000000e+00    0.000000000e+00
      206500000   -8.219194412e-01    2.475792766e-01    2.462533594e-04    7.548119174e-05    0.000000000e+00    0.000000000e+00    0.000000000e+00    0.000000000e+00
      208125000   -8.124809861e-01    2.727980614e-01    2.479447867e-04    6.938746810e-05    0.000000000e+00    0.000000000e+00    0.000000000e+00    0.000000000e+00
      209750000   -8.022524714e-01    2.976356447e-01    2.759957570e-04    9.752818733e-05    0.000000000e+00    0.000000000e+00    0.000000000e+00    0.000000000e+00
      211375000   -7.909829021e-01    3.220627308e-01    2.732263529e-04    8.057282685e-05    0.000000000e+00    0.000000000e+00    0.000000000e+00    0.000000000e+00
      213000000   -7.790584564e-01    3.457928896e-01    2.848027216e-04    1.288017229e-04    0.000000000e+00    0.000000000e+00    0.000000000e+00    0.000000000e+00
      214625000   -7.663204670e-01    3.689762056e-01    2.800583025e-04    1.146937211e-04    0.000000000e+00    0.000000000e+00    0.000000000e+00    0.000000000e+00
      216250000   -7.527132630e-01    3.918384910e-01    2.756103058e-04    1.171996264e-04    0.000000000e+00    0.000000000e+00    0.000000000e+00    0.000000000e+00
      217875000   -7.384136319e-01    4.139789045e-01    2.799466311e-04    1.132278994e-04    0.000000000e+00    0.000000000e+00    0.000000000e+00    0.000000000e+00
      219500000   -7.233943343e-01    4.355568886e-01    2.750566346e-04    1.138560474e-04    0.000000000e+00    0.000000000e+00    0.000000000e+00    0.000000000e+00
      221125000   -7.076175213e-01    4.564650059e-01    3.129523539e-04    1.228305482e-04    0.000000000e+00    0.000000000e+00    0.000000000e+00    0.000000000e+00
      222750000   -6.914325953e-01    4.768410623e-01    2.961222490e-04    1.297490526e-04    0.000000000e+00    0.000000000e+00    0.000000000e+00    0.000000000e+00
      224375000   -6.743894219e-01    4.963548183e-01    3.310498432e-04    1.385679643e-04    0.000000000e+00    0.000000000e+00    0.000000000e+00    0.000000000e+00
      226000000   -6.568457484e-01    5.152428746e-01    3.042639582e-04    1.576981886e-04    0.000000000e+00    0.000000000e+00    0.000000000e+00    0.000000000e+00
      227625000   -6.388354897e-01    5.335031152e-01    3.302340338e-04    1.305841142e-04    0.000000000e+00    0.000000000e+00    0.000000000e+00    0.000000000e+00
      229250000   -6.200868487e-01    5.509678721e-01    3.157271422e-04    1.488066773e-04    0.000000000e+00    0.000000000e+00    0.000000000e+00    0.000000000e+00
      230875000   -6.010124683e-01    5.678080916e-01    3.246273845e-04    1.249641500e-04    0.000000000e+00    0.000000000e+00    0.000000000e+00    0.000000000e+00
      232500000   -5.815542936e-01    5.839449167e-01    3.179275081e-04    1.453643345e-04    0.000000000e+00    0.000000000e+00    0.000000000e+00    0.000000000e+00
      234125000   -5.615503788e-01    5.991519690e-01    3.368112666e-04    1.410909899e-04    0.000000000e+00    0.000000000e+00    0.000000000e+00    0.000000000e+00
      235750000   -5.411766768e-01    6.138982177e-01    3.216059995e-04    1.465357054e-04    0.000000000e+00    0.000000000e+00    0.000000000e+00    0.000000000e+00
      237375000   -5.203449130e-01    6.275221705e-01    3.275640192e-04    1.569226151e-04    0.000000000e+00    0.000000000e+00    0.000000000e+00    0.000000000e+00
      239000000   -4.991160333e-01    6.404791474e-01    3.469425719e-04    1.419707551e-04    0.000000000e+00    0.000000000e+00    0.000000000e+00    0.000000000e+00
      240625000   -4.775466025e-01    6.526758671e-01    3.479706356e-04    1.471585274e-04    0.000000000e+00    0.000000000e+00    0.000000000e+00    0.000000000e+00
      242250000   -4.557629526e-01    6.643801928e-01    3.348840401e-04    1.301268057e-04    0.000000000e+00    0.000000000e+00    0.000000000e+00    0.000000000e+00
      243875000   -4.335744977e-01    6.753813028e-01    3.307177103e-04    1.280065480e-04    0.000000000e+00    0.000000000e+00    0.000000000e+00    0.000000000e+00
      245500000   -4.109661877e-01    6.855178475e-01    3.463833127e-04    1.458736951e-04    0.000000000e+00    0.000000000e+00    0.000000000e+00    0.000000000e+00
      247125000   -3.883186579e-01    6.949723959e-01    3.545659711e-04    1.436489547e-04    0.000000000e+00    0.000000000e+00    0.000000000e+00    0.000000000e+00
      248750000   -3.656051159e-01    7.036998868e-01    3.747993615e-04    1.381157490e-04    0.000000000e+00    0.000000000e+00    0.000000000e+00    0.000000000e+00
      250375000   -3.427290618e-01    7.114499807e-01    3.607206163e-04    1.451177959e-04    0.000000000e+00    0.000000000e+00    0.000000000e+00    0.000000000e+00
      252000000   -3.196665347e-01    7.185162902e-01    3.687449789e-04    1.565220300e-04    0.000000000e+00    0.000000000e+00    0.000000000e+00    0.000000000e+00
      253625000   -2.968526185e-01    7.247140408e-01    3.649485880e-04    1.400890324e-04    0.000000000e+00    0.000000000e+00    0.000000000e+00    0.000000000e+00
      255250000   -2.737687826e-01    7.304605246e-01    3.580372431e-04    1.379666937e-04    0.000000000e+00    0.000000000e+00    0.000000000e+00    0.000000000e+00
      256875000   -2.509625256e-01    7.350630760e-01    3.397802939e-04    1.679976413e-04    0.000000000e+00    0.000000000e+00    0.000000000e+00    0.000000000e+00
      258500000   -2.279453129e-01    7.391358614e-01    3.487524809e-04    1.386685908e-04    0.000000000e+00    0.000000000e+00    0.000000000e+00    0.000000000e+00
      260125000   -2.050436288e-01    7.426444888e-01    3.557526215e-04    1.561566169e-04    0.000000000e+00    0.000000000e+00    0.000000000e+00    0.000000000e+00
      261750000   -1.820427179e-01    7.453539968e-01    3.792278294e-04    1.502990053e-04    0.000000000e+00    0.000000000e+00    0.000000000e+00    0.000000000e+00
      263375000   -1.593600214e-01    7.470628619e-01    3.764188441e-04    1.499782229e-04    0.000000000e+00    0.000000000e+00    0.000000000e+00    0.000000000e+00
      265000000   -1.367353201e-01    7.480949163e-01    3.740768298e-04    1.342430915e-04    0.000000000e+00    0.000000000e+00    0.000000000e+00    0.000000000e+00
      266625000   -1.140451804e-01    7.487241030e-01    3.678514622e-04    1.410713012e-04    0.000000000e+00    0.000000000e+00    0.000000000e+00    0.000000000e+00
      268250000   -9.153656662e-02    7.484542131e-01    3.447088820e-04    1.366469951e-04    0.000000000e+00    0.000000000e+00    0.000000000e+00    0.000000000e+00
      269875000   -6.890489906e-02    7.476399541e-01    3.640730283e-04    1.397536253e-04    0.000000000e+00    0.000000000e+00    0.000000000e+00    0.000000000e+00
      271500000   -4.682509601e-02    7.461375594e-01    3.738746454e-04    1.432454010e-04    0.000000000e+00    0.000000000e+00    0.000000000e+00    0.000000000e+00
      273125000   -2.491042577e-02    7.439419031e-01    3.668494173e-04    1.434999722e-04    0.000000000e+00    0.000000000e+00    0.000000000e+00    0.000000000e+00
      274750000   -2.983969403e-03    7.412898540e-01    3.534429707e-04    1.500321669e-04    0.000000000e+00    0.000000000e+00    0.000000000e+00    0.000000000e+00
      276375000    1.873664185e-02    7.377728224e-01    3.510181850e-04    1.572209439e-04    0.000000000e+00    0.000000000e+00    0.000000000e+00    0.000000000e+00
      278000000    4.026854038e-02    7.338829637e-01    3.574132861e-04    1.433282014e-04    0.000000000e+00    0.000000000e+00    0.000000000e+00    0.000000000e+00
      279625000    6.139485165e-02    7.295029759e-01    3.451723605e-04    1.140581517e-04    0.000000000e+00    0.000000000e+00    0.000000000e+00    0.000000000e+00
      281250000    8.226422966e-02    7.243376970e-01    3.326160950e-04    1.356766297e-04    0.000000000e+00    0.000000000e+00    0.000000000e+00    0.000000000e+00
      282875000    1.031019837e-01    7.187044024e-01    3.186911053e-04    1.315429399e-04    0.000000000e+00    0.000000000e+00    0.000000000e+00    0.000000000e+00
      284500000    1.234764382e-01    7.125903964e-01    3.262482642e-04    1.253786904e-04    0.000000000e+00    0.000000000e+00    0.000000000e+00    0.000000000e+00
      286125000    1.438087970e-01    7.058293223e-01    3.285576822e-04    1.228708425e-04    0.000000000e+00    0.000000000e+00    0.000000000e+00    0.000000000e+00
      287750000    1.638587713e-01    6.989800334e-01    3.435620747e-04    1.219340047e-04    0.000000000e+00    0.000000000e+00    0.000000000e+00    0.000000000e+00
      289375000    1.831465065e-01    6.911060214e-01    3.055433626e-04    9.821416461e-05    0.000000000e+00    0.000000000e+00    0.000000000e+00    0.000000000e+00
      291000000    9.860163182e-02    6.512554884e-01    6.134690193e-05   -6.990184193e-05    0.000000000e+00    0.000000000e+00    0.000000000e+00    0.000000000e+00
      292625000    1.170888096e-01    6.446454525e-01    9.204963135e-06    3.700088564e-05    0.000000000e+00    0.000000000e+00    0.000000000e+00    0.000000000e+00
      294250000    1.347965747e-01    6.377060413e-01   -2.068107278e-04   -1.572814108e-05    0.000000000e+00    0.000000000e+00    0.000000000e+00    0.000000000e+00
      295875000    1.533636898e-01    6.307690740e-01   -1.392403210e-04    9.968545783e-05    0.000000000e+00    0.000000000e+00    0.000000000e+00    0.000000000e+00
      297500000    1.704097837e-01    6.230229139e-01   -4.494327732e-05    4.433190406e-05    0.000000000e+00    0.000000000e+00    0.000000000e+00    0.000000000e+00
      299125000    1.885814518e-01    6.153128147e-01   -5.206557398e-05   -7.093599561e-05    0.000000000e+00    0.000000000e+00    0.000000000e+00    0.000000000e+00
      300750000    2.047862262e-01    6.069389582e-01   -1.662173745e-04   -3.782793647e-05    0.000000000e+00    0.000000000e+00    0.000000000e+00    0.000000000e+00
      302375000    2.209901810e-01    5.978904963e-01    1.365471398e-04    1.032961300e-04    0.000000000e+00    0.000000000e+00    0.000000000e+00    0.000000000e+00
      304000000    2.381347120e-01    5.890798569e-01    1.026797418e-05   -6.767794548e-05    0.000000000e+00    0.000000000e+00    0.000000000e+00    0.000000000e+00
      305625000    2.540535629e-01    5.799260736e-01   -2.181391210e-05   -1.116464136e-05    0.000000000e+00    0.000000000e+00    0.000000000e+00    0.000000000e+00
      307250000    2.705805004e-01    5.717603564e-01    7.946234837e-05    3.685232150e-05    0.000000000e+00    0.000000000e+00    0.000000000e+00    0.000000000e+00
      308875000    2.837729156e-01    5.591506362e-01   -4.062839798e-05   -7.900474884e-06    0.000000000e+00    0.000000000e+00    0.000000000e+00    0.000000000e+00
      310500000    2.991366684e-01    5.484025478e-01    1.259784331e-04    7.526292848e-06    0.000000000e+00    0.000000000e+00    0.000000000e+00    0.000000000e+00
      312125000    3.134161830e-01    5.375644565e-01   -2.061657869e-04   -3.864199243e-05    0.000000000e+00    0.000000000e+00    0.000000000e+00    0.000000000e+00
      313750000    3.274909556e-01    5.264599919e-01   -4.335570702e-05    2.727127867e-05    0.000000000e+00    0.000000000e+00    0.000000000e+00    0.000000000e+00
      315375000    3.416837752e-01    5.149853826e-01   -2.450339889e-05    1.333640012e-05    0.000000000e+00    0.000000000e+00    0.000000000e+00    0.000000000e+00
      317000000    3.543154597e-01    5.027694106e-01    6.305854185e-06   -1.346506033e-04    0.000000000e+00    0.000000000e+00    0.000000000e+00    0.000000000e+00
      318625000    3.670528829e-01    4.908056557e-01   -1.191839965e-05   -2.384493847e-08    0.000000000e+00    0.000000000e+00    0.000000000e+00    0.000000000e+00
      320250000    3.798285127e-01    4.788226485e-01   -1.653953514e-04    1.515338081e-04    0.000000000e+00    0.000000000e+00    0.000000000e+00    0.000000000e+00
      321875000    3.918921053e-01    4.658651650e-01    7.428114941e-07    6.339680840e-05    0.000000000e+00    0.000000000e+00    0.000000000e+00    0.000000000e+00
      323500000    4.036560357e-01    4.532186389e-01   -1.418585889e-04   -1.481003856e-04    0.000000000e+00    0.000000000e+00    0.000000000e+00    0.000000000e+00
      325125000    4.149200916e-01    4.403530359e-01   -6.852143997e-05    7.871392881e-05    0.000000000e+00    0.000000000e+00    0.000000000e+00    0.000000000e+00
      326750000    4.258174598e-01    4.271092415e-01    5.247676381e-05   -6.376126839e-05    0.000000000e+00    0.000000000e+00    0.000000000e+00    0.000000000e+00
      328375000    4.362125099e-01    4.137688279e-01   -1.494596945e-04    1.992507532e-05    0.000000000e+00    0.000000000e+00    0.000000000e+00    0.000000000e+00
      330000000    4.468131959e-01    4.000816047e-01   -1.001121927e-04    4.313101090e-05    0.000000000e+00    0.000000000e+00    0.000000000e+00    0.000000000e+00
      331625000    4.557770491e-01    3.860498369e-01   -1.874093073e-06    1.676242755e-05    0.000000000e+00    0.000000000e+00    0.000000000e+00    0.000000000e+00
      333250000    4.655699730e-01    3.723926842e-01   -6.188614498e-05   -7.378296868e-05    0.000000000e+00    0.000000000e+00    0.000000000e+00    0.000000000e+00
      334875000    4.743560851e-01    3.586395681e-01    7.063760677e-06   -7.838419697e-05    0.000000000e+00    0.000000000e+00    0.000000000e+00    0.000000000e+00
      336500000    4.827308655e-01    3.442548811e-01   -7.737977285e-05    1.366116794e-05    0.000000000e+00    0.000000000e+00    0.000000000e+00    0.000000000e+00
      338125000    4.911281466e-01    3.301931024e-01   -1.367397090e-05   -2.628830953e-05    0.000000000e+00    0.000000000e+00    0.000000000e+00    0.000000000e+00
      339750000    4.988717139e-01    3.161179125e-01   -4.906536196e-05   -5.083944052e-05    0.000000000e+00    0.000000000e+00    0.000000000e+00    0.000000000e+00
      341375000    5.060539246e-01    3.014116585e-01    6.890266377e-05    7.923909288e-05    0.000000000e+00    0.000000000e+00    0.000000000e+00    0.000000000e+00
      343000000    5.132561922e-01    2.870482504e-01   -9.860811406e-05   -2.440039134e-05    0.000000000e+00    0.000000000e+00    0.000000000e+00    0.000000000e+00
      344625000    5.200350881e-01    2.722521424e-01    7.723183808e-05   -7.181097317e-05    0.000000000e+00    0.000000000e+00    0.000000000e+00    0.000000000e+00
      346250000    5.262527466e-01    2.576735914e-01   -6.213206507e-05   -6.675739132e-05    0.000000000e+00    0.000000000e+00    0.000000000e+00    0.000000000e+00
      347875000    5.325521231e-01    2.428527325e-01   -6.189320266e-05    4.532283128e-05    0.000000000e+00    0.000000000e+00    0.000000000e+00    0.000000000e+00
      349500000    5.377319455e-01    2.280808687e-01    3.316892980e-05   -4.524144515e-06    0.000000000e+00    0.000000000e+00    0.000000000e+00    0.000000000e+00
      351125000    5.429695249e-01    2.134295106e-01   -2.063561624e-05    5.254187272e-05    0.000000000e+00    0.000000000e+00    0.000000000e+00    0.000000000e+00
      352750000    5.479198098e-01    1.983338445e-01   -3.124145951e-05    5.916441660e-05    0.000000000e+00    0.000000000e+00    0.000000000e+00    0.000000000e+00
      354375000    5.524733067e-01    1.837206036e-01    3.651550651e-05   -7.691547216e-05    0.000000000e+00    0.000000000e+00    0.000000000e+00    0.000000000e+00
      356000000    5.562730432e-01    1.684784144e-01    9.091684478e-05    4.480237112e-05    0.000000000e+00    0.000000000e+00    0.000000000e+00    0.000000000e+00
      357625000    5.603728294e-01    1.537194252e-01    4.192162919e-07   -4.570278543e-05    0.000000000e+00    0.000000000e+00    0.000000000e+00    0.000000000e+00
      359250000    5.639174581e-01    1.385974288e-01   -1.799994970e-05    7.188221207e-05    0.000000000e+00    0.000000000e+00    0.000000000e+00    0.000000000e+00
      360875000    5.668553114e-01    1.236327291e-01   -8.378176062e-06    1.266273612e-04    0.000000000e+00    0.000000000e+00    0.000000000e+00    0.000000000e+00
      362500000    5.698797107e-01    1.086379588e-01   -2.238879097e-04    1.063624804e-04    0.000000000e+00    0.000000000e+00    0.000000000e+00    0.000000000e+00
      364125000    5.719395280e-01    9.373361617e-02   -1.010700435e-04    5.821591913e-05    0.000000000e+00    0.000000000e+00    0.000000000e+00    0.000000000e+00
      365750000    5.744853020e-01    7.879687846e-02   -5.819536455e-05    6.094511627e-05    0.000000000e+00    0.000000000e+00    0.000000000e+00    0.000000000e+00
      367375000    5.761968493e-01    6.383900344e-02   -5.021033212e-05   -1.059512215e-04    0.000000000e+00    0.000000000e+00    0.000000000e+00    0.000000000e+00
      369000000    5.776522756e-01    4.892738163e-02   -8.957231330e-05   -1.223123982e-04    0.000000000e+00    0.000000000e+00    0.000000000e+00    0.000000000e+00
      370625000    5.790576935e-01    3.411536664e-02   -4.193990389e-05   -5.536904428e-05    0.000000000e+00    0.000000000e+00    0.000000000e+00    0.000000000e+00
      372250000    5.795266032e-01    1.908059604e-02   -1.328797807e-04    4.870861449e-05    0.000000000e+00    0.000000000e+00    0.000000000e+00    0.000000000e+00
      373875000    5.803825259e-01    4.592025187e-03    4.781208190e-05   -3.934469714e-05    0.000000000e+00    0.000000000e+00    0.000000000e+00    0.000000000e+00
      375500000    5.805594325e-01   -1.021586917e-02   -1.363779738e-04    1.056264955e-04    0.000000000e+00    0.000000000e+00    0.000000000e+00    0.000000000e+00
      377125000    5.803399682e-01   -2.506960370e-02   -2.513863146e-04    3.096721775e-05    0.000000000e+00    0.000000000e+00    0.000000000e+00    0.000000000e+00
      378750000    5.798443556e-01   -3.960833326e-02   -1.241331629e-04   -1.324011555e-05    0.000000000e+00    0.000000000e+00    0.000000000e+00    0.000000000e+00
      380375000    5.790830255e-01   -5.417994782e-02   -1.552692556e-04    1.112085956e-04    0.000000000e+00    0.000000000e+00    0.000000000e+00    0.000000000e+00
      382000000    5.780677199e-01   -6.889747083e-02   -1.589543826e-04    1.464051311e-04    0.000000000e+00    0.000000000e+00    0.000000000e+00    0.000000000e+00
      383625000    5.767329931e-01   -8.324982971e-02   -1.843955979e-04    1.049776911e-04    0.000000000e+00    0.000000000e+00    0.000000000e+00    0.000000000e+00
      385250000    5.751092434e-01   -9.781250358e-02   -7.915180322e-05    1.415242150e-04    0.000000000e+00    0.000000000e+00    0.000000000e+00    0.000000000e+00
      386875000    5.732095838e-01   -1.121801883e-01   -1.367482619e-04    6.791655323e-05    0.000000000e+00    0.000000000e+00    0.000000000e+00    0.000000000e+00
      388500000    5.708498359e-01   -1.264295131e-01   -5.504730871e-05    1.552349131e-04    0.000000000e+00    0.000000000e+00    0.000000000e+00    0.000000000e+00
