! NanoVNA-App
! Date: 2024-06-25 16:49:49
! Start: 200MHz Stop: 1.5GHz Points: 801
! S-Parameter data: F S11 S21 S12 S22
# Hz S RI R 50
!     Frequency           S11_Real           S11_Imag           S21_Real           S21_Imag           S12_Real           S12_Imag           S22_Real           S22_Imag
      200000000   -8.505132794e-01    1.428698599e-01    1.890931017e-04    5.719496039e-05    0.000000000e+00    0.000000000e+00    0.000000000e+00    0.000000000e+00
      201625000   -8.447888494e-01    1.694352329e-01    1.897307957e-04    6.641935033e-05    0.000000000e+00    0.000000000e+00    0.000000000e+00    0.000000000e+00
      203250000   -8.379721642e-01    1.958668381e-01    2.022454428e-04    5.674609201e-05    0.000000000e+00    0.000000000e+00    0.000000000e+00    0.000000000e+00
      204875000   -8.303522468e-01    2.219764888e-01    2.246492222e-04    5.328159750e-05    0.000000000e+00    0.000000000e+00    0.000000000e+00    0.000000000e+00
      206500000   -8.218315244e-01    2.474349439e-01    2.401090896e-04    6.447530905e-05    0.000000000e+00    0.000000000e+00    0.000000000e+00    0.000000000e+00
      208125000   -8.123816848e-01    2.727438807e-01    2.479878895e-04    8.151638758e-05    0.000000000e+00    0.000000000e+00    0.000000000e+00    0.000000000e+00
      209750000   -8.023348451e-01    2.976858616e-01    2.531263744e-04    7.482231013e-05    0.000000000e+00    0.000000000e+00    0.000000000e+00    0.000000000e+00
      211375000   -7.910096049e-01    3.220224082e-01    2.629138762e-04    1.129083321e-04    0.000000000e+00    0.000000000e+00    0.000000000e+00    0.000000000e+00
      213000000   -7.791541219e-01    3.457181454e-01    2.796600747e-04    8.734470612e-05    0.000000000e+00    0.000000000e+00    0.000000000e+00    0.000000000e+00
      214625000   -7.662272453e-01    3.691103756e-01    2.866710420e-04    8.103859000e-05    0.000000000e+00    0.000000000e+00    0.000000000e+00    0.000000000e+00
      216250000   -7.525860071e-01    3.918668628e-01    2.763489902e-04    1.207250389e-04    0.000000000e+00    0.000000000e+00    0.000000000e+00    0.000000000e+00
      217875000   -7.384385467e-01    4.140413404e-01    3.001262085e-04    1.022332654e-04    0.000000000e+00    0.000000000e+00    0.000000000e+00    0.000000000e+00
      219500000   -7.234503031e-01    4.355253875e-01    3.020330623e-04    1.293611567e-04    0.000000000e+00    0.000000000e+00    0.000000000e+00    0.000000000e+00
      221125000   -7.078393102e-01    4.565605223e-01    3.151693672e-04    1.236994722e-04    0.000000000e+00    0.000000000e+00    0.000000000e+00    0.000000000e+00
      222750000   -6.911954880e-01    4.767138064e-01    3.045927151e-04    1.220554041e-04    0.000000000e+00    0.000000000e+00    0.000000000e+00    0.000000000e+00
      224375000   -6.745237708e-01    4.964203835e-01    3.242749663e-04    1.226976165e-04    0.000000000e+00    0.000000000e+00    0.000000000e+00    0.000000000e+00
      226000000   -6.569561958e-01    5.151846409e-01    3.064016346e-04    1.476492471e-04    0.000000000e+00    0.000000000e+00    0.000000000e+00    0.000000000e+00
      227625000   -6.388086677e-01    5.335127711e-01    3.154351434e-04    1.313264947e-04    0.000000000e+00    0.000000000e+00    0.000000000e+00    0.000000000e+00
      229250000   -6.200670600e-01    5.509824157e-01    2.995860414e-04    1.284069149e-04    0.000000000e+00    0.000000000e+00    0.000000000e+00    0.000000000e+00
      230875000   -6.008809805e-01    5.676473975e-01    3.243752290e-04    1.385225187e-04    0.000000000e+00    0.000000000e+00    0.000000000e+00    0.000000000e+00
      232500000   -5.815145969e-01    5.839629769e-01    3.183466324e-04    1.273311354e-04    0.000000000e+00    0.000000000e+00    0.000000000e+00    0.000000000e+00
      234125000   -5.614432693e-01    5.991363525e-01    3.463183239e-04    1.387955272e-04    0.000000000e+00    0.000000000e+00    0.000000000e+00    0.000000000e+00
      235750000   -5.409650803e-01    6.138368249e-01    3.388132609e-04    1.393494604e-04    0.000000000e+00    0.000000000e+00    0.000000000e+00    0.000000000e+00
      237375000   -5.202845335e-01    6.276029944e-01    3.452058590e-04    1.426374947e-04    0.000000000e+00    0.000000000e+00    0.000000000e+00    0.000000000e+00
      239000000   -4.990685582e-01    6.403905749e-01    3.269685840e-04    1.385114883e-04    0.000000000e+00    0.000000000e+00    0.000000000e+00    0.000000000e+00
      240625000   -4.775855541e-01    6.529479623e-01    3.461651795e-04    1.564101112e-04    0.000000000e+00    0.000000000e+00    0.000000000e+00    0.000000000e+00
      242250000   -4.558467269e-01    6.645790339e-01    3.372642677e-04    1.419186592e-04    0.000000000e+00    0.000000000e+00    0.000000000e+00    0.000000000e+00
      243875000   -4.334734380e-01    6.752663851e-01    3.588641412e-04    1.419090549e-04    0.000000000e+00    0.000000000e+00    0.000000000e+00    0.000000000e+00
      245500000   -4.110476971e-01    6.855590940e-01    3.332087363e-04    1.250776550e-04    0.000000000e+00    0.000000000e+00    0.000000000e+00    0.000000000e+00
      247125000   -3.885004520e-01    6.950094700e-01    3.560794576e-04    1.492278971e-04    0.000000000e+00    0.000000000e+00    0.000000000e+00    0.000000000e+00
      248750000   -3.654978275e-01    7.036560774e-01    3.555866133e-04    1.529041474e-04    0.000000000e+00    0.000000000e+00    0.000000000e+00    0.000000000e+00
      250375000   -3.426557183e-01    7.117116451e-01    3.593770089e-04    1.487040281e-04    0.000000000e+00    0.000000000e+00    0.000000000e+00    0.000000000e+00
      252000000   -3.196670711e-01    7.184641957e-01    3.625815443e-04    1.605587458e-04    0.000000000e+00    0.000000000e+00    0.000000000e+00    0.000000000e+00
      253625000   -2.967177331e-01    7.248747945e-01    3.442326561e-04    1.363278716e-04    0.000000000e+00    0.000000000e+00    0.000000000e+00    0.000000000e+00
      255250000   -2.738183141e-01    7.305092812e-01    3.648683196e-04    1.364471973e-04    0.000000000e+00    0.000000000e+00    0.000000000e+00    0.000000000e+00
      256875000   -2.509225309e-01    7.351693511e-01    3.596946481e-04    1.480530918e-04    0.000000000e+00    0.000000000e+00    0.000000000e+00    0.000000000e+00
      258500000   -2.278399915e-01    7.392399311e-01    3.718554508e-04    1.467328548e-04    0.000000000e+00    0.000000000e+00    0.000000000e+00    0.000000000e+00
      260125000   -2.049757540e-01    7.425855398e-01    3.684575786e-04    1.242754806e-04    0.000000000e+00    0.000000000e+00    0.000000000e+00    0.000000000e+00
      261750000   -1.822260469e-01    7.453928590e-01    3.634359455e-04    1.404076756e-04    0.000000000e+00    0.000000000e+00    0.000000000e+00    0.000000000e+00
      263375000   -1.594165117e-01    7.470638752e-01    3.590953129e-04    1.374718995e-04    0.000000000e+00    0.000000000e+00    0.000000000e+00    0.000000000e+00
      265000000   -1.366596669e-01    7.481528521e-01    3.480816085e-04    1.469520066e-04    0.000000000e+00    0.000000000e+00    0.000000000e+00    0.000000000e+00
      266625000   -1.141499206e-01    7.486312389e-01    3.601247736e-04    1.519956422e-04    0.000000000e+00    0.000000000e+00    0.000000000e+00    0.000000000e+00
      268250000   -9.150399268e-02    7.484400868e-01    3.609589476e-04    1.202867934e-04    0.000000000e+00    0.000000000e+00    0.000000000e+00    0.000000000e+00
      269875000   -6.909421086e-02    7.476179600e-01    3.635766916e-04    1.467658003e-04    0.000000000e+00    0.000000000e+00    0.000000000e+00    0.000000000e+00
      271500000   -4.683227465e-02    7.459766865e-01    3.577379393e-04    1.269447093e-04    0.000000000e+00    0.000000000e+00    0.000000000e+00    0.000000000e+00
      273125000   -2.465524524e-02    7.441763282e-01    3.576612507e-04    1.386627409e-04    0.000000000e+00    0.000000000e+00    0.000000000e+00    0.000000000e+00
      274750000   -3.011345398e-03    7.412775755e-01    3.614275192e-04    1.282767626e-04    0.000000000e+00    0.000000000e+00    0.000000000e+00    0.000000000e+00
      276375000    1.867891848e-02    7.380374074e-01    3.486057976e-04    1.483171800e-04    0.000000000e+00    0.000000000e+00    0.000000000e+00    0.000000000e+00
      278000000    4.014742374e-02    7.337549329e-01    3.605361853e-04    1.296359405e-04    0.000000000e+00    0.000000000e+00    0.000000000e+00    0.000000000e+00
      279625000    6.139324978e-02    7.294436693e-01    3.756574297e-04    1.287011692e-04    0.000000000e+00    0.000000000e+00    0.000000000e+00    0.000000000e+00
      281250000    8.239038289e-02    7.244403958e-01    3.589684784e-04    1.456877071e-04    0.000000000e+00    0.000000000e+00    0.000000000e+00    0.000000000e+00
      282875000    1.032186672e-01    7.186405659e-01    3.311634646e-04    1.270132343e-04    0.000000000e+00    0.000000000e+00    0.000000000e+00    0.000000000e+00
      284500000    1.237940788e-01    7.126718163e-01    3.362061980e-04    1.405321964e-04    0.000000000e+00    0.000000000e+00    0.000000000e+00    0.000000000e+00
      286125000    1.438219249e-01    7.058946490e-01    3.333807399e-04    1.179512619e-04    0.000000000e+00    0.000000000e+00    0.000000000e+00    0.000000000e+00
      287750000    1.638368070e-01    6.987834573e-01    3.139377222e-04    1.198588361e-04    0.000000000e+00    0.000000000e+00    0.000000000e+00    0.000000000e+00
      289375000    1.832705736e-01    6.910115480e-01    3.273989423e-04    1.282090670e-04    0.000000000e+00    0.000000000e+00    0.000000000e+00    0.000000000e+00
      291000000    9.883389622e-02    6.512775421e-01    2.000795939e-05    1.556216303e-04    0.000000000e+00    0.000000000e+00    0.000000000e+00    0.000000000e+00
      292625000    1.175745428e-01    6.450857520e-01    2.004810085e-05   -5.635591151e-06    0.000000000e+00    0.000000000e+00    0.000000000e+00    0.000000000e+00
      294250000    1.349691600e-01    6.382001638e-01   -1.670114580e-04   -3.022419514e-05    0.000000000e+00    0.000000000e+00    0.000000000e+00    0.000000000e+00
      295875000    1.531849205e-01    6.308877468e-01   -1.543292819e-05    4.020287452e-05    0.000000000e+00    0.000000000e+00    0.000000000e+00    0.000000000e+00
      297500000    1.699702144e-01    6.230120063e-01   -1.346124100e-05   -8.228341176e-05    0.000000000e+00    0.000000000e+00    0.000000000e+00    0.000000000e+00
      299125000    1.880490035e-01    6.154127121e-01   -2.055882942e-04    3.795552630e-06    0.000000000e+00    0.000000000e+00    0.000000000e+00    0.000000000e+00
      300750000    2.047018111e-01    6.070745587e-01   -8.940847329e-05    3.563408609e-05    0.000000000e+00    0.000000000e+00    0.000000000e+00    0.000000000e+00
      302375000    2.209760398e-01    5.986120701e-01   -1.033332373e-04    9.699749171e-06    0.000000000e+00    0.000000000e+00    0.000000000e+00    0.000000000e+00
      304000000    2.376608700e-01    5.891452432e-01   -1.182601136e-05    4.103376341e-05    0.000000000e+00    0.000000000e+00    0.000000000e+00    0.000000000e+00
      305625000    2.531569600e-01    5.797839761e-01   -2.106755419e-04    2.187958489e-05    0.000000000e+00    0.000000000e+00    0.000000000e+00    0.000000000e+00
      307250000    2.714850903e-01    5.707381368e-01    5.898809104e-05   -1.494432672e-05    0.000000000e+00    0.000000000e+00    0.000000000e+00    0.000000000e+00
      308875000    2.839901149e-01    5.589900613e-01    1.768638176e-04    2.817649147e-05    0.000000000e+00    0.000000000e+00    0.000000000e+00    0.000000000e+00
      310500000    2.993067503e-01    5.489968657e-01   -1.159025123e-04   -3.551806685e-06    0.000000000e+00    0.000000000e+00    0.000000000e+00    0.000000000e+00
      312125000    3.131298125e-01    5.371986032e-01   -3.616273898e-05   -5.464660262e-06    0.000000000e+00    0.000000000e+00    0.000000000e+00    0.000000000e+00
      313750000    3.275758922e-01    5.268884301e-01   -1.628026657e-04    1.055758039e-04    0.000000000e+00    0.000000000e+00    0.000000000e+00    0.000000000e+00
      315375000    3.410831094e-01    5.150229335e-01   -8.284769137e-05    1.271373912e-04    0.000000000e+00    0.000000000e+00    0.000000000e+00    0.000000000e+00
      317000000    3.544498980e-01    5.027713180e-01   -1.136527135e-05    5.147917909e-05    0.000000000e+00    0.000000000e+00    0.000000000e+00    0.000000000e+00
      318625000    3.676100075e-01    4.909967780e-01    8.084071305e-05    5.170197255e-05    0.000000000e+00    0.000000000e+00    0.000000000e+00    0.000000000e+00
      320250000    3.796703815e-01    4.785681665e-01   -9.983335622e-05   -2.402780592e-05    0.000000000e+00    0.000000000e+00    0.000000000e+00    0.000000000e+00
      321875000    3.919204473e-01    4.659549892e-01   -5.747710748e-05   -1.893351873e-05    0.000000000e+00    0.000000000e+00    0.000000000e+00    0.000000000e+00
      323500000    4.039447904e-01    4.533419907e-01   -1.463118388e-04    3.660795483e-05    0.000000000e+00    0.000000000e+00    0.000000000e+00    0.000000000e+00
      325125000    4.146612883e-01    4.403435886e-01   -1.185084984e-04   -1.015946546e-04    0.000000000e+00    0.000000000e+00    0.000000000e+00    0.000000000e+00
      326750000    4.257437885e-01    4.270472527e-01    5.714910458e-06    3.365622251e-05    0.000000000e+00    0.000000000e+00    0.000000000e+00    0.000000000e+00
      328375000    4.361964166e-01    4.137463570e-01   -3.660126094e-05    2.008061301e-06    0.000000000e+00    0.000000000e+00    0.000000000e+00    0.000000000e+00
      330000000    4.463135600e-01    4.000555575e-01   -3.400806600e-05    2.613982360e-05    0.000000000e+00    0.000000000e+00    0.000000000e+00    0.000000000e+00
      331625000    4.558781981e-01    3.863375187e-01   -7.279956480e-05    5.580810102e-05    0.000000000e+00    0.000000000e+00    0.000000000e+00    0.000000000e+00
      333250000    4.653779864e-01    3.728331327e-01   -8.472568879e-05   -1.468478440e-04    0.000000000e+00    0.000000000e+00    0.000000000e+00    0.000000000e+00
      334875000    4.745185077e-01    3.583801091e-01   -1.090768201e-04    8.520627489e-06    0.000000000e+00    0.000000000e+00    0.000000000e+00    0.000000000e+00
      336500000    4.829663634e-01    3.446376026e-01   -1.728179086e-05   -1.774563716e-04    0.000000000e+00    0.000000000e+00    0.000000000e+00    0.000000000e+00
      338125000    4.912891686e-01    3.301453292e-01   -6.122371997e-05    6.035101251e-05    0.000000000e+00    0.000000000e+00    0.000000000e+00    0.000000000e+00
      339750000    4.990307689e-01    3.158808649e-01   -8.363878442e-05   -1.023744335e-04    0.000000000e+00    0.000000000e+00    0.000000000e+00    0.000000000e+00
      341375000    5.062798262e-01    3.012606502e-01   -5.274697469e-05    5.055260044e-05    0.000000000e+00    0.000000000e+00    0.000000000e+00    0.000000000e+00
      343000000    5.135124922e-01    2.869270146e-01   -6.672150630e-05   -1.015681846e-04    0.000000000e+00    0.000000000e+00    0.000000000e+00    0.000000000e+00
      344625000    5.198490024e-01    2.723155320e-01    7.255391665e-06   -1.124508271e-04    0.000000000e+00    0.000000000e+00    0.000000000e+00    0.000000000e+00
      346250000    5.263262391e-01    2.577592134e-01   -1.295463699e-05   -2.249707177e-05    0.000000000e+00    0.000000000e+00    0.000000000e+00    0.000000000e+00
      347875000    5.322028995e-01    2.429625392e-01   -1.169149546e-04    8.364319910e-06    0.000000000e+00    0.000000000e+00    0.000000000e+00    0.000000000e+00
      349500000    5.377379060e-01    2.281392068e-01   -7.736986299e-05   -3.291070971e-05    0.000000000e+00    0.000000000e+00    0.000000000e+00    0.000000000e+00
      351125000    5.429425836e-01    2.133783847e-01   -1.057722184e-04   -3.708681470e-05    0.000000000e+00    0.000000000e+00    0.000000000e+00    0.000000000e+00
      352750000    5.479267240e-01    1.983264685e-01   -1.582586992e-04   -4.582721158e-05    0.000000000e+00    0.000000000e+00    0.000000000e+00    0.000000000e+00
      354375000    5.522657633e-01    1.834840178e-01    2.764241617e-05    2.266568481e-05    0.000000000e+00    0.000000000e+00    0.000000000e+00    0.000000000e+00
      356000000    5.565235615e-01    1.685304642e-01   -1.905989338e-04    1.533516916e-04    0.000000000e+00    0.000000000e+00    0.000000000e+00    0.000000000e+00
      357625000    5.603603721e-01    1.535110176e-01   -6.290895544e-05    1.018210332e-05    0.000000000e+00    0.000000000e+00    0.000000000e+00    0.000000000e+00
      359250000    5.637778044e-01    1.385110766e-01   -1.120699089e-04   -6.594476145e-05    0.000000000e+00    0.000000000e+00    0.000000000e+00    0.000000000e+00
      360875000    5.668398738e-01    1.235179007e-01   -1.258321390e-05   -1.878328840e-05    0.000000000e+00    0.000000000e+00    0.000000000e+00    0.000000000e+00
      362500000    5.696372390e-01    1.086466610e-01   -1.786709036e-04    3.387799325e-06    0.000000000e+00    0.000000000e+00    0.000000000e+00    0.000000000e+00
      364125000    5.721403956e-01    9.371405095e-02   -1.294627291e-04   -3.995287989e-05    0.000000000e+00    0.000000000e+00    0.000000000e+00    0.000000000e+00
      365750000    5.743583441e-01    7.872749120e-02   -9.478503489e-05    9.009332280e-05    0.000000000e+00    0.000000000e+00    0.000000000e+00    0.000000000e+00
      367375000    5.762760639e-01    6.395121664e-02   -5.871208850e-05   -1.103775867e-05    0.000000000e+00    0.000000000e+00    0.000000000e+00    0.000000000e+00
      369000000    5.776498318e-01    4.899045452e-02   -1.273968810e-04    3.256668424e-05    0.000000000e+00    0.000000000e+00    0.000000000e+00    0.000000000e+00
      370625000    5.790556073e-01    3.418057784e-02   -1.976486383e-04    1.057925765e-04    0.000000000e+00    0.000000000e+00    0.000000000e+00    0.000000000e+00
      372250000    5.801046491e-01    1.919887401e-02   -9.228786075e-05   -1.874880036e-05    0.000000000e+00    0.000000000e+00    0.000000000e+00    0.000000000e+00
      373875000    5.803157091e-01    4.503638018e-03   -9.199448687e-05    4.607383016e-05    0.000000000e+00    0.000000000e+00    0.000000000e+00    0.000000000e+00
      375500000    5.805994272e-01   -1.022096630e-02   -8.421869279e-05   -6.829149061e-05    0.000000000e+00    0.000000000e+00    0.000000000e+00    0.000000000e+00
      377125000    5.805117488e-01   -2.503176406e-02   -4.699108104e-05    1.371366234e-04    0.000000000e+00    0.000000000e+00    0.000000000e+00    0.000000000e+00
      378750000    5.799301267e-01   -3.950180486e-02    4.236142104e-06    1.183441782e-05    0.000000000e+00    0.000000000e+00    0.000000000e+00    0.000000000e+00
      380375000    5.791894794e-01   -5.412580073e-02   -5.043747660e-05    9.013607632e-05    0.000000000e+00    0.000000000e+00    0.000000000e+00    0.000000000e+00
      382000000    5.782825947e-01   -6.882570684e-02   -1.795215503e-04    9.698247595e-05    0.000000000e+00    0.000000000e+00    0.000000000e+00    0.000000000e+00
      383625000    5.767024159e-01   -8.331424743e-02    2.962178405e-05    1.435155627e-05    0.000000000e+00    0.000000000e+00    0.000000000e+00    0.000000000e+00
      385250000    5.748500228e-01   -9.759429842e-02   -8.982482541e-06    4.957867350e-05    0.000000000e+00    0.000000000e+00    0.000000000e+00    0.000000000e+00
      386875000    5.731295943e-01   -1.122492626e-01   -4.937848644e-05    1.061431103e-04    0.000000000e+00    0.000000000e+00    0.000000000e+00    0.000000000e+00
      388500000    5.709463954e-01   -1.261685342e-01   -2.111291979e-04    1.670125312e-05    0.000000000e+00    0.000000000e+00    0.000000000e+00    0.000000000e+00
