! NanoVNA-App
! Date: 2024-06-25 16:49:56
! Start: 200MHz Stop: 1.5GHz Points: 801
! S-Parameter data: F S11 S21 S12 S22
# Hz S RI R 50
!     Frequency           S11_Real           S11_Imag           S21_Real           S21_Imag           S12_Real           S12_Imag           S22_Real           S22_Imag
      200000000   -8.505890369e-01    1.428281218e-01    1.898347109e-04    6.246595876e-05    0.000000000e+00    0.000000000e+00    0.000000000e+00    0.000000000e+00
      201625000   -8.447124958e-01    1.694420129e-01    1.792409021e-04    6.028886128e-05    0.000000000e+00    0.000000000e+00    0.000000000e+00    0.000000000e+00
      203250000   -8.379292488e-01    1.958756149e-01    2.048712631e-04    6.467551430e-05    0.000000000e+00    0.000000000e+00    0.000000000e+00    0.000000000e+00
      204875000   -8.304376006e-01    2.218856961e-01    2.079042752e-04    7.067948172e-05    0.000000000e+00    0.000000000e+00    0.000000000e+00    0.000000000e+00
      206500000   -8.220047355e-01    2.474918514e-01    2.572470985e-04    6.534530257e-05    0.000000000e+00    0.000000000e+00    0.000000000e+00    0.000000000e+00
      208125000   -8.123862743e-01    2.726811767e-01    2.493814973e-04    6.083773405e-05    0.000000000e+00    0.000000000e+00    0.000000000e+00    0.000000000e+00
      209750000   -8.023064733e-01    2.977604270e-01    2.608670620e-04    7.801987522e-05    0.000000000e+00    0.000000000e+00    0.000000000e+00    0.000000000e+00
      211375000   -7.909522653e-01    3.220285773e-01    2.701072081e-04    8.647964569e-05    0.000000000e+00    0.000000000e+00    0.000000000e+00    0.000000000e+00
      213000000   -7.790883183e-01    3.457960784e-01    2.692493144e-04    1.065415127e-04    0.000000000e+00    0.000000000e+00    0.000000000e+00    0.000000000e+00
      214625000   -7.661323547e-01    3.689916134e-01    2.791030274e-04    1.053005326e-04    0.000000000e+00    0.000000000e+00    0.000000000e+00    0.000000000e+00
      216250000   -7.527056932e-01    3.918065429e-01    2.964894811e-04    1.174041681e-04    0.000000000e+00    0.000000000e+00    0.000000000e+00    0.000000000e+00
      217875000   -7.383813262e-01    4.138825536e-01    2.922719868e-04    1.153520352e-04    0.000000000e+00    0.000000000e+00    0.000000000e+00    0.000000000e+00
      219500000   -7.234777212e-01    4.356219172e-01    3.204910900e-04    1.189128016e-04    0.000000000e+00    0.000000000e+00    0.000000000e+00    0.000000000e+00
      221125000   -7.079806924e-01    4.565003812e-01    3.148779215e-04    1.276554976e-04    0.000000000e+00    0.000000000e+00    0.000000000e+00    0.000000000e+00
      222750000   -6.913063526e-01    4.767136872e-01    3.007910564e-04    1.205257286e-04    0.000000000e+00    0.000000000e+00    0.000000000e+00    0.000000000e+00
      224375000   -6.744618416e-01    4.964419603e-01    3.185638634e-04    1.207811147e-04    0.000000000e+00    0.000000000e+00    0.000000000e+00    0.000000000e+00
      226000000   -6.567977071e-01    5.152944326e-01    3.431376535e-04    1.665050804e-04    0.000000000e+00    0.000000000e+00    0.000000000e+00    0.000000000e+00
      227625000   -6.386911273e-01    5.334444046e-01    3.165976959e-04    1.371070830e-04    0.000000000e+00    0.000000000e+00    0.000000000e+00    0.000000000e+00
      229250000   -6.201272607e-01    5.508571267e-01    2.842940157e-04    1.517433120e-04    0.000000000e+00    0.000000000e+00    0.000000000e+00    0.000000000e+00
      230875000   -6.010997295e-01    5.678099394e-01    3.373766667e-04    1.381154434e-04    0.000000000e+00    0.000000000e+00    0.000000000e+00    0.000000000e+00
      232500000   -5.813251138e-01    5.839620233e-01    3.271796159e-04    1.428303076e-04    0.000000000e+00    0.000000000e+00    0.000000000e+00    0.000000000e+00
      234125000   -5.614846349e-01    5.992389917e-01    3.309790336e-04    1.474996971e-04    0.000000000e+00    0.000000000e+00    0.000000000e+00    0.000000000e+00
      235750000   -5.410500169e-01    6.141666174e-01    3.383452713e-04    1.359388261e-04    0.000000000e+00    0.000000000e+00    0.000000000e+00    0.000000000e+00
      237375000   -5.203514099e-01    6.275622845e-01    3.268757137e-04    1.287056948e-04    0.000000000e+00    0.000000000e+00    0.000000000e+00    0.000000000e+00
      239000000   -4.990509152e-01    6.403942108e-01    3.242703096e-04    1.541775418e-04    0.000000000e+00    0.000000000e+00    0.000000000e+00    0.000000000e+00
      240625000   -4.775512516e-01    6.527537107e-01    3.309330496e-04    1.392767299e-04    0.000000000e+00    0.000000000e+00    0.000000000e+00    0.000000000e+00
      242250000   -4.555614293e-01    6.642813087e-01    3.293823975e-04    1.614297653e-04    0.000000000e+00    0.000000000e+00    0.000000000e+00    0.000000000e+00
      243875000   -4.336462617e-01    6.752683520e-01    3.581124183e-04    1.301888842e-04    0.000000000e+00    0.000000000e+00    0.000000000e+00    0.000000000e+00
      245500000   -4.110495150e-01    6.854757667e-01    3.374878725e-04    1.416314917e-04    0.000000000e+00    0.000000000e+00    0.000000000e+00    0.000000000e+00
      247125000   -3.884767890e-01    6.949092150e-01    3.380679118e-04    1.424055808e-04    0.000000000e+00    0.000000000e+00    0.000000000e+00    0.000000000e+00
      248750000   -3.655075133e-01    7.035870552e-01    3.436333791e-04    1.505542605e-04    0.000000000e+00    0.000000000e+00    0.000000000e+00    0.000000000e+00
      250375000   -3.426603973e-01    7.116481662e-01    3.475820704e-04    1.468482806e-04    0.000000000e+00    0.000000000e+00    0.000000000e+00    0.000000000e+00
      252000000   -3.198148906e-01    7.186031938e-01    3.593189758e-04    1.621979463e-04    0.000000000e+00    0.000000000e+00    0.000000000e+00    0.000000000e+00
      253625000   -2.968196869e-01    7.247605920e-01    3.616077011e-04    1.628169557e-04    0.000000000e+00    0.000000000e+00    0.000000000e+00    0.000000000e+00
      255250000   -2.738239765e-01    7.303827405e-01    3.765336587e-04    1.630053011e-04    0.000000000e+00    0.000000000e+00    0.000000000e+00    0.000000000e+00
      256875000   -2.509957552e-01    7.350944281e-01    3.609715495e-04    1.411182020e-04    0.000000000e+00    0.000000000e+00    0.000000000e+00    0.000000000e+00
      258500000   -2.280068994e-01    7.392756343e-01    3.641517833e-04    1.372697880e-04    0.000000000e+00    0.000000000e+00    0.000000000e+00    0.000000000e+00
      260125000   -2.051763684e-01    7.425504327e-01    3.707339347e-04    1.230202906e-04    0.000000000e+00    0.000000000e+00    0.000000000e+00    0.000000000e+00
      261750000   -1.821872890e-01    7.453427911e-01    3.688294382e-04    1.540469966e-04    0.000000000e+00    0.000000000e+00    0.000000000e+00    0.000000000e+00
      263375000   -1.594468206e-01    7.469422221e-01    3.689499281e-04    1.325298072e-04    0.000000000e+00    0.000000000e+00    0.000000000e+00    0.000000000e+00
      265000000   -1.368077695e-01    7.480848432e-01    3.813503135e-04    1.433957659e-04    0.000000000e+00    0.000000000e+00    0.000000000e+00    0.000000000e+00
      266625000   -1.139801070e-01    7.484643459e-01    3.828247427e-04    1.418574102e-04    0.000000000e+00    0.000000000e+00    0.000000000e+00    0.000000000e+00
      268250000   -9.145987034e-02    7.484239340e-01    3.646674159e-04    1.376608707e-04    0.000000000e+00    0.000000000e+00    0.000000000e+00    0.000000000e+00
      269875000   -6.919542700e-02    7.476793528e-01    3.637611517e-04    1.316610433e-04    0.000000000e+00    0.000000000e+00    0.000000000e+00    0.000000000e+00
      271500000   -4.699188471e-02    7.458947897e-01    3.523033811e-04    1.351130777e-04    0.000000000e+00    0.000000000e+00    0.000000000e+00    0.000000000e+00
      273125000   -2.479673922e-02    7.439933419e-01    3.525375796e-04    1.282783196e-04    0.000000000e+00    0.000000000e+00    0.000000000e+00    0.000000000e+00
      274750000   -2.840521745e-03    7.412543893e-01    3.576710878e-04    1.296146802e-04    0.000000000e+00    0.000000000e+00    0.000000000e+00    0.000000000e+00
      276375000    1.871168613e-02    7.378482819e-01    3.340690164e-04    1.451056451e-04    0.000000000e+00    0.000000000e+00    0.000000000e+00    0.000000000e+00
      278000000    4.003462568e-02    7.339895964e-01    3.525787324e-04    1.352418185e-04    0.000000000e+00    0.000000000e+00    0.000000000e+00    0.000000000e+00
      279625000    6.111649051e-02    7.293714881e-01    3.620544448e-04    1.286597835e-04    0.000000000e+00    0.000000000e+00    0.000000000e+00    0.000000000e+00
      281250000    8.244883269e-02    7.242950201e-01    3.397501132e-04    1.287231571e-04    0.000000000e+00    0.000000000e+00    0.000000000e+00    0.000000000e+00
      282875000    1.031984463e-01    7.185645700e-01    3.384858428e-04    1.312837121e-04    0.000000000e+00    0.000000000e+00    0.000000000e+00    0.000000000e+00
      284500000    1.235211194e-01    7.126260996e-01    3.262711398e-04    1.411239646e-04    0.000000000e+00    0.000000000e+00    0.000000000e+00    0.000000000e+00
      286125000    1.438020468e-01    7.058724165e-01    3.244183608e-04    1.395462459e-04    0.000000000e+00    0.000000000e+00    0.000000000e+00    0.000000000e+00
      287750000    1.637063920e-01    6.990286112e-01    2.945371671e-04    1.173541532e-04    0.000000000e+00    0.000000000e+00    0.000000000e+00    0.000000000e+00
      289375000    1.831000745e-01    6.908081770e-01    3.291942703e-04    1.162605040e-04    0.000000000e+00    0.000000000e+00    0.000000000e+00    0.000000000e+00
      291000000    9.889329225e-02    6.512259245e-01    1.406731608e-04    6.274364569e-05    0.000000000e+00    0.000000000e+00    0.000000000e+00    0.000000000e+00
      292625000    1.167579889e-01    6.441937089e-01   -1.273403759e-04   -2.555146348e-04    0.000000000e+00    0.000000000e+00    0.000000000e+00    0.000000000e+00
      294250000    1.353051066e-01    6.377131939e-01    1.697596890e-04    7.696689136e-05    0.000000000e+00    0.000000000e+00    0.000000000e+00    0.000000000e+00
      295875000    1.528675258e-01    6.309616566e-01   -9.653940651e-07    2.114813924e-06    0.000000000e+00    0.000000000e+00    0.000000000e+00    0.000000000e+00
      297500000    1.706985682e-01    6.228646636e-01    4.522058589e-05    8.139004058e-05    0.000000000e+00    0.000000000e+00    0.000000000e+00    0.000000000e+00
      299125000    1.882708073e-01    6.153993011e-01   -1.375096781e-05    6.921648310e-05    0.000000000e+00    0.000000000e+00    0.000000000e+00    0.000000000e+00
      300750000    2.045139074e-01    6.065407991e-01   -1.649018668e-04    6.097110236e-05    0.000000000e+00    0.000000000e+00    0.000000000e+00    0.000000000e+00
      302375000    2.212986648e-01    5.977144837e-01   -8.120915300e-05   -6.871122605e-05    0.000000000e+00    0.000000000e+00    0.000000000e+00    0.000000000e+00
      304000000    2.376719415e-01    5.885381699e-01    1.544524093e-05    4.385911598e-05    0.000000000e+00    0.000000000e+00    0.000000000e+00    0.000000000e+00
      305625000    2.541290224e-01    5.797469616e-01   -2.159523865e-05    1.163764027e-04    0.000000000e+00    0.000000000e+00    0.000000000e+00    0.000000000e+00
      307250000    2.680357993e-01    5.669281483e-01   -6.272415339e-05    9.360574768e-05    0.000000000e+00    0.000000000e+00    0.000000000e+00    0.000000000e+00
      308875000    2.838586867e-01    5.592067838e-01   -1.644208824e-04   -5.740674283e-07    0.000000000e+00    0.000000000e+00    0.000000000e+00    0.000000000e+00
      310500000    2.991159856e-01    5.488004684e-01   -1.103850536e-05    7.423447096e-05    0.000000000e+00    0.000000000e+00    0.000000000e+00    0.000000000e+00
      312125000    3.135266006e-01    5.373509526e-01   -1.010671331e-04    8.118616097e-05    0.000000000e+00    0.000000000e+00    0.000000000e+00    0.000000000e+00
      313750000    3.276712596e-01    5.266079903e-01    3.990117420e-06    5.558150224e-05    0.000000000e+00    0.000000000e+00    0.000000000e+00    0.000000000e+00
      315375000    3.412345946e-01    5.144809484e-01    3.683682007e-05    1.500487269e-04    0.000000000e+00    0.000000000e+00    0.000000000e+00    0.000000000e+00
      317000000    3.542410135e-01    5.028765202e-01   -1.412356651e-04    1.919730857e-05    0.000000000e+00    0.000000000e+00    0.000000000e+00    0.000000000e+00
      318625000    3.675067723e-01    4.912069142e-01   -1.407983364e-04    1.808140223e-05    0.000000000e+00    0.000000000e+00    0.000000000e+00    0.000000000e+00
      320250000    3.796382844e-01    4.787490368e-01   -1.544915722e-04   -9.902955208e-05    0.000000000e+00    0.000000000e+00    0.000000000e+00    0.000000000e+00
      321875000    3.919845819e-01    4.659895599e-01   -3.859460048e-05    1.371048711e-05    0.000000000e+00    0.000000000e+00    0.000000000e+00    0.000000000e+00
      323500000    4.035877585e-01    4.532546103e-01   -2.926871821e-05    6.795276022e-06    0.000000000e+00    0.000000000e+00    0.000000000e+00    0.000000000e+00
      325125000    4.148820341e-01    4.401281774e-01    4.607179108e-06    2.378713980e-04    0.000000000e+00    0.000000000e+00    0.000000000e+00    0.000000000e+00
      326750000    4.256587923e-01    4.271041751e-01   -8.141338185e-05    4.029713637e-06    0.000000000e+00    0.000000000e+00    0.000000000e+00    0.000000000e+00
      328375000    4.361719191e-01    4.136036336e-01   -1.575841015e-04   -6.214005407e-05    0.000000000e+00    0.000000000e+00    0.000000000e+00    0.000000000e+00
      330000000    4.466227889e-01    3.998486400e-01    6.873679376e-05   -7.215188089e-05    0.000000000e+00    0.000000000e+00    0.000000000e+00    0.000000000e+00
      331625000    4.559663832e-01    3.863421679e-01   -5.692485865e-05    1.984618211e-05    0.000000000e+00    0.000000000e+00    0.000000000e+00    0.000000000e+00
      333250000    4.653822184e-01    3.725342155e-01   -5.784771565e-05   -1.399719768e-04    0.000000000e+00    0.000000000e+00    0.000000000e+00    0.000000000e+00
      334875000    4.743103087e-01    3.586063683e-01   -8.585004252e-05    3.390508937e-05    0.000000000e+00    0.000000000e+00    0.000000000e+00    0.000000000e+00
      336500000    4.829511046e-01    3.444635570e-01   -7.536546036e-05   -9.259874787e-05    0.000000000e+00    0.000000000e+00    0.000000000e+00    0.000000000e+00
      338125000    4.909658134e-01    3.303801417e-01   -6.062571993e-05   -4.782775795e-05    0.000000000e+00    0.000000000e+00    0.000000000e+00    0.000000000e+00
      339750000    4.987443686e-01    3.159988523e-01   -1.471149735e-04    6.066798232e-05    0.000000000e+00    0.000000000e+00    0.000000000e+00    0.000000000e+00
      341375000    5.063825846e-01    3.014967144e-01   -1.952391467e-04   -1.398721506e-04    0.000000000e+00    0.000000000e+00    0.000000000e+00    0.000000000e+00
      343000000    5.132719278e-01    2.870751023e-01    2.252932973e-05   -6.316154759e-05    0.000000000e+00    0.000000000e+00    0.000000000e+00    0.000000000e+00
      344625000    5.202220082e-01    2.724150121e-01   -1.047029291e-04    3.545212167e-05    0.000000000e+00    0.000000000e+00    0.000000000e+00    0.000000000e+00
      346250000    5.260809660e-01    2.578835487e-01   -1.409415854e-04   -3.143841604e-05    0.000000000e+00    0.000000000e+00    0.000000000e+00    0.000000000e+00
      347875000    5.321794152e-01    2.429285944e-01    2.501587369e-05   -7.602001278e-05    0.000000000e+00    0.000000000e+00    0.000000000e+00    0.000000000e+00
      349500000    5.377709270e-01    2.280808985e-01   -5.301468263e-05    5.438031076e-05    0.000000000e+00    0.000000000e+00    0.000000000e+00    0.000000000e+00
      351125000    5.428281426e-01    2.132446021e-01   -1.475115569e-04   -9.588324610e-05    0.000000000e+00    0.000000000e+00    0.000000000e+00    0.000000000e+00
      352750000    5.479364991e-01    1.984923035e-01    7.815845311e-05   -5.025710561e-05    0.000000000e+00    0.000000000e+00    0.000000000e+00    0.000000000e+00
      354375000    5.523747206e-01    1.834204495e-01   -1.094091640e-04    1.542010978e-05    0.000000000e+00    0.000000000e+00    0.000000000e+00    0.000000000e+00
      356000000    5.565364957e-01    1.684662998e-01   -1.378103188e-04    7.902013022e-05    0.000000000e+00    0.000000000e+00    0.000000000e+00    0.000000000e+00
      357625000    5.605103970e-01    1.535573602e-01   -8.127420733e-05   -8.688028902e-05    0.000000000e+00    0.000000000e+00    0.000000000e+00    0.000000000e+00
      359250000    5.638965368e-01    1.387559474e-01   -1.293937239e-04   -5.378049900e-05    0.000000000e+00    0.000000000e+00    0.000000000e+00    0.000000000e+00
      360875000    5.668579340e-01    1.236906648e-01   -1.540175726e-04   -8.251758845e-05    0.000000000e+00    0.000000000e+00    0.000000000e+00    0.000000000e+00
      362500000    5.696650743e-01    1.087013856e-01   -7.839806494e-05   -7.224200090e-05    0.000000000e+00    0.000000000e+00    0.000000000e+00    0.000000000e+00
      364125000    5.722654462e-01    9.368295968e-02    1.759483894e-05    5.600004806e-05    0.000000000e+00    0.000000000e+00    0.000000000e+00    0.000000000e+00
      365750000    5.743921399e-01    7.879288495e-02   -1.326653583e-04   -6.596250751e-05    0.000000000e+00    0.000000000e+00    0.000000000e+00    0.000000000e+00
      367375000    5.761902928e-01    6.381335855e-02   -1.075397231e-04    3.573199865e-05    0.000000000e+00    0.000000000e+00    0.000000000e+00    0.000000000e+00
      369000000    5.778971314e-01    4.894868284e-02   -1.075059263e-04   -3.263577310e-05    0.000000000e+00    0.000000000e+00    0.000000000e+00    0.000000000e+00
      370625000    5.788416862e-01    3.416468576e-02   -9.820251580e-05   -6.680799288e-06    0.000000000e+00    0.000000000e+00    0.000000000e+00    0.000000000e+00
      372250000    5.797222853e-01    1.947090402e-02   -1.534485273e-05   -3.121904228e-05    0.000000000e+00    0.000000000e+00    0.000000000e+00    0.000000000e+00
      373875000    5.802854300e-01    4.530852195e-03   -2.093324874e-04   -5.392057119e-06    0.000000000e+00    0.000000000e+00    0.000000000e+00    0.000000000e+00
      375500000    5.806403756e-01   -1.023322530e-02   -1.468456612e-04    6.140197365e-05    0.000000000e+00    0.000000000e+00    0.000000000e+00    0.000000000e+00
      377125000    5.803394318e-01   -2.496393584e-02   -1.872311259e-04    2.670925642e-05    0.000000000e+00    0.000000000e+00    0.000000000e+00    0.000000000e+00
      378750000    5.798866153e-01   -3.957304731e-02   -6.016828047e-05    6.327767915e-05    0.000000000e+00    0.000000000e+00    0.000000000e+00    0.000000000e+00
      380375000    5.789517164e-01   -5.415400863e-02   -1.167454175e-04   -1.587468660e-06    0.000000000e+00    0.000000000e+00    0.000000000e+00    0.000000000e+00
      382000000    5.780587792e-01   -6.881946325e-02   -9.022406448e-05    3.821880819e-05    0.000000000e+00    0.000000000e+00    0.000000000e+00    0.000000000e+00
      383625000    5.766453147e-01   -8.330751956e-02   -7.834665303e-05    8.629663353e-05    0.000000000e+00    0.000000000e+00    0.000000000e+00    0.000000000e+00
      385250000    5.750284195e-01   -9.782063216e-02   -1.394688443e-04    6.057551582e-05    0.000000000e+00    0.000000000e+00    0.000000000e+00    0.000000000e+00
      386875000    5.733284950e-01   -1.121172309e-01   -1.876154420e-05    1.201243867e-05    0.000000000e+00    0.000000000e+00    0.000000000e+00    0.000000000e+00
      388500000    5.708816648e-01   -1.264025271e-01   -1.155859063e-04    1.719850407e-04    0.000000000e+00    0.000000000e+00    0.000000000e+00    0.000000000e+00
