! NanoVNA-App
! Date: 2024-06-25 16:50:05
! Start: 200MHz Stop: 1.5GHz Points: 801
! S-Parameter data: F S11 S21 S12 S22
# Hz S RI R 50
!     Frequency           S11_Real           S11_Imag           S21_Real           S21_Imag           S12_Real           S12_Imag           S22_Real           S22_Imag
      200000000   -8.505776525e-01    1.427426040e-01    1.680620917e-04    6.239255890e-05    0.000000000e+00    0.000000000e+00    0.000000000e+00    0.000000000e+00
      201625000   -8.447518945e-01    1.695363671e-01    1.866940729e-04    5.396624692e-05    0.000000000e+00    0.000000000e+00    0.000000000e+00    0.000000000e+00
      203250000   -8.379516006e-01    1.959379017e-01    1.898990013e-04    5.378072092e-05    0.000000000e+00    0.000000000e+00    0.000000000e+00    0.000000000e+00
      204875000   -8.303575516e-01    2.218343168e-01    2.029450261e-04    5.908750245e-05    0.000000000e+00    0.000000000e+00    0.000000000e+00    0.000000000e+00
      206500000   -8.218723536e-01    2.474706024e-01    2.592315723e-04    6.689997099e-05    0.000000000e+00    0.000000000e+00    0.000000000e+00    0.000000000e+00
      208125000   -8.124963641e-01    2.728084624e-01    2.684775100e-04    8.525612793e-05    0.000000000e+00    0.000000000e+00    0.000000000e+00    0.000000000e+00
      209750000   -8.024125099e-01    2.976966202e-01    2.677371085e-04    1.015937742e-04    0.000000000e+00    0.000000000e+00    0.000000000e+00    0.000000000e+00
      211375000   -7.909241915e-01    3.219986856e-01    2.677185694e-04    7.385299978e-05    0.000000000e+00    0.000000000e+00    0.000000000e+00    0.000000000e+00
      213000000   -7.789433002e-01    3.457135558e-01    2.826641721e-04    9.918452270e-05    0.000000000e+00    0.000000000e+00    0.000000000e+00    0.000000000e+00
      214625000   -7.661409974e-01    3.689964116e-01    2.847169526e-04    1.173163328e-04    0.000000000e+00    0.000000000e+00    0.000000000e+00    0.000000000e+00
      216250000   -7.527822256e-01    3.917749822e-01    2.758879855e-04    1.252945513e-04    0.000000000e+00    0.000000000e+00    0.000000000e+00    0.000000000e+00
      217875000   -7.384917140e-01    4.139907062e-01    2.713778522e-04    1.168426024e-04    0.000000000e+00    0.000000000e+00    0.000000000e+00    0.000000000e+00
      219500000   -7.233387828e-01    4.355619848e-01    2.700340701e-04    1.218642428e-04    0.000000000e+00    0.000000000e+00    0.000000000e+00    0.000000000e+00
      221125000   -7.077645659e-01    4.565052092e-01    2.796796034e-04    1.180810577e-04    0.000000000e+00    0.000000000e+00    0.000000000e+00    0.000000000e+00
      222750000   -6.914378405e-01    4.768689275e-01    3.152609861e-04    1.299582364e-04    0.000000000e+00    0.000000000e+00    0.000000000e+00    0.000000000e+00
      224375000   -6.743453145e-01    4.964446425e-01    3.023752070e-04    1.159241219e-04    0.000000000e+00    0.000000000e+00    0.000000000e+00    0.000000000e+00
      226000000   -6.569576859e-01    5.152695179e-01    3.168990952e-04    1.310400548e-04    0.000000000e+00    0.000000000e+00    0.000000000e+00    0.000000000e+00
      227625000   -6.387278438e-01    5.334100723e-01    3.137990425e-04    1.467224065e-04    0.000000000e+00    0.000000000e+00    0.000000000e+00    0.000000000e+00
      229250000   -6.201727390e-01    5.510586500e-01    3.271655296e-04    1.419646869e-04    0.000000000e+00    0.000000000e+00    0.000000000e+00    0.000000000e+00
      230875000   -6.010231972e-01    5.678026080e-01    3.092864645e-04    1.353303087e-04    0.000000000e+00    0.000000000e+00    0.000000000e+00    0.000000000e+00
      232500000   -5.815240741e-01    5.839698315e-01    3.078114241e-04    1.472799777e-04    0.000000000e+00    0.000000000e+00    0.000000000e+00    0.000000000e+00
      234125000   -5.615013242e-01    5.991302133e-01    3.275839263e-04    1.334601548e-04    0.000000000e+00    0.000000000e+00    0.000000000e+00    0.000000000e+00
      235750000   -5.409972668e-01    6.138047576e-01    3.316938528e-04    1.348644146e-04    0.000000000e+00    0.000000000e+00    0.000000000e+00    0.000000000e+00
      237375000   -5.202988386e-01    6.275386214e-01    3.385006858e-04    1.385326323e-04    0.000000000e+00    0.000000000e+00    0.000000000e+00    0.000000000e+00
      239000000   -4.990162551e-01    6.403998137e-01    3.189333947e-04    1.293497044e-04    0.000000000e+00    0.000000000e+00    0.000000000e+00    0.000000000e+00
      240625000   -4.776270092e-01    6.526771188e-01    3.491794632e-04    1.114277329e-04    0.000000000e+00    0.000000000e+00    0.000000000e+00    0.000000000e+00
      242250000   -4.557315409e-01    6.644927859e-01    3.452829260e-04    1.529898291e-04    0.000000000e+00    0.000000000e+00    0.000000000e+00    0.000000000e+00
      243875000   -4.336676598e-01    6.753072143e-01    3.282256075e-04    1.354160340e-04    0.000000000e+00    0.000000000e+00    0.000000000e+00    0.000000000e+00
      245500000   -4.109393358e-01    6.854640841e-01    3.331686894e-04    1.331145759e-04    0.000000000e+00    0.000000000e+00    0.000000000e+00    0.000000000e+00
      247125000   -3.884440660e-01    6.949591637e-01    3.647716367e-04    1.530306326e-04    0.000000000e+00    0.000000000e+00    0.000000000e+00    0.000000000e+00
      248750000   -3.654029667e-01    7.034466267e-01    3.666767443e-04    1.443697984e-04    0.000000000e+00    0.000000000e+00    0.000000000e+00    0.000000000e+00
      250375000   -3.428015113e-01    7.115877867e-01    3.676217748e-04    1.173719720e-04    0.000000000e+00    0.000000000e+00    0.000000000e+00    0.000000000e+00
      252000000   -3.197247088e-01    7.184966207e-01    3.615324968e-04    1.510499860e-04    0.000000000e+00    0.000000000e+00    0.000000000e+00    0.000000000e+00
      253625000   -2.969030142e-01    7.246564031e-01    3.568720713e-04    1.630119659e-04    0.000000000e+00    0.000000000e+00    0.000000000e+00    0.000000000e+00
      255250000   -2.737443149e-01    7.304204702e-01    3.678774228e-04    1.364763011e-04    0.000000000e+00    0.000000000e+00    0.000000000e+00    0.000000000e+00
      256875000   -2.509450912e-01    7.351336479e-01    3.577275493e-04    1.491828152e-04    0.000000000e+00    0.000000000e+00    0.000000000e+00    0.000000000e+00
      258500000   -2.280784845e-01    7.392104864e-01    3.548916429e-04    1.399393077e-04    0.000000000e+00    0.000000000e+00    0.000000000e+00    0.000000000e+00
      260125000   -2.051348686e-01    7.424560785e-01    3.897995921e-04    1.385337673e-04    0.000000000e+00    0.000000000e+00    0.000000000e+00    0.000000000e+00
      261750000   -1.821934134e-01    7.453146577e-01    3.693643375e-04    1.573331974e-04    0.000000000e+00    0.000000000e+00    0.000000000e+00    0.000000000e+00
      263375000   -1.593534946e-01    7.468796372e-01    3.826736356e-04    1.283471647e-04    0.000000000e+00    0.000000000e+00    0.000000000e+00    0.000000000e+00
      265000000   -1.366463751e-01    7.481286526e-01    3.660478978e-04    1.451051940e-04    0.000000000e+00    0.000000000e+00    0.000000000e+00    0.000000000e+00
      266625000   -1.140708178e-01    7.486020327e-01    3.603262885e-04    1.570702298e-04    0.000000000e+00    0.000000000e+00    0.000000000e+00    0.000000000e+00
      268250000   -9.145932645e-02    7.484957576e-01    3.634075983e-04    1.289392676e-04    0.000000000e+00    0.000000000e+00    0.000000000e+00    0.000000000e+00
      269875000   -6.908703595e-02    7.474777699e-01    3.567341482e-04    1.401405607e-04    0.000000000e+00    0.000000000e+00    0.000000000e+00    0.000000000e+00
      271500000   -4.674624652e-02    7.462340593e-01    3.442160087e-04    1.431572746e-04    0.000000000e+00    0.000000000e+00    0.000000000e+00    0.000000000e+00
      273125000   -2.484539151e-02    7.440083623e-01    3.623963566e-04    1.335358975e-04    0.000000000e+00    0.000000000e+00    0.000000000e+00    0.000000000e+00
      274750000   -3.007506952e-03    7.414245605e-01    3.679672664e-04    1.278811687e-04    0.000000000e+00    0.000000000e+00    0.000000000e+00    0.000000000e+00
      276375000    1.867570356e-02    7.379530668e-01    3.548248496e-04    1.331996755e-04    0.000000000e+00    0.000000000e+00    0.000000000e+00    0.000000000e+00
      278000000    4.006675631e-02    7.340639830e-01    3.547393717e-04    1.385341020e-04    0.000000000e+00    0.000000000e+00    0.000000000e+00    0.000000000e+00
      279625000    6.137841195e-02    7.295944691e-01    3.495630517e-04    1.426359377e-04    0.000000000e+00    0.000000000e+00    0.000000000e+00    0.000000000e+00
      281250000    8.240528405e-02    7.242105603e-01    3.322489501e-04    1.259057462e-04    0.000000000e+00    0.000000000e+00    0.000000000e+00    0.000000000e+00
      282875000    1.031178907e-01    7.187187076e-01    3.241419327e-04    1.364920900e-04    0.000000000e+00    0.000000000e+00    0.000000000e+00    0.000000000e+00
      284500000    1.235776097e-01    7.126372457e-01    3.326726146e-04    1.102451060e-04    0.000000000e+00    0.000000000e+00    0.000000000e+00    0.000000000e+00
      286125000    1.436630934e-01    7.058842778e-01    3.346341255e-04    1.177781669e-04    0.000000000e+00    0.000000000e+00    0.000000000e+00    0.000000000e+00
      287750000    1.637352109e-01    6.989986897e-01    3.276811913e-04    1.136900610e-04    0.000000000e+00    0.000000000e+00    0.000000000e+00    0.000000000e+00
      289375000    1.832141876e-01    6.910470128e-01    3.201528161e-04    1.037489274e-04    0.000000000e+00    0.000000000e+00    0.000000000e+00    0.000000000e+00
      291000000    9.832030535e-02    6.513829827e-01   -2.516912718e-05    2.151549561e-04    0.000000000e+00    0.000000000e+00    0.000000000e+00    0.000000000e+00
      292625000    1.170737594e-01    6.443537474e-01   -2.116012547e-05    2.594477883e-05    0.000000000e+00    0.000000000e+00    0.000000000e+00    0.000000000e+00
      294250000    1.352511346e-01    6.376985908e-01   -8.503916615e-05    1.331343083e-04    0.000000000e+00    0.000000000e+00    0.000000000e+00    0.000000000e+00
      295875000    1.531290412e-01    6.307069659e-01    4.349611118e-06    1.023937220e-04    0.000000000e+00    0.000000000e+00    0.000000000e+00    0.000000000e+00
      297500000    1.705079377e-01    6.231355667e-01    2.011405195e-05   -4.553254257e-05    0.000000000e+00    0.000000000e+00    0.000000000e+00    0.000000000e+00
      299125000    1.879206449e-01    6.148490906e-01   -1.202267376e-04   -1.892317960e-05    0.000000000e+00    0.000000000e+00    0.000000000e+00    0.000000000e+00
      300750000    2.047839463e-01    6.066349149e-01   -5.503312786e-05    4.429792898e-05    0.000000000e+00    0.000000000e+00    0.000000000e+00    0.000000000e+00
      302375000    2.211484462e-01    5.980187058e-01   -8.421987877e-05    4.550135418e-05    0.000000000e+00    0.000000000e+00    0.000000000e+00    0.000000000e+00
      304000000    2.370883822e-01    5.885906816e-01   -8.057291416e-05    1.765667184e-05    0.000000000e+00    0.000000000e+00    0.000000000e+00    0.000000000e+00
      305625000    2.531847060e-01    5.796340704e-01   -1.024572921e-04    9.752321785e-05    0.000000000e+00    0.000000000e+00    0.000000000e+00    0.000000000e+00
      307250000    2.673407495e-01    5.713350177e-01   -1.029803316e-04    2.103512452e-05    0.000000000e+00    0.000000000e+00    0.000000000e+00    0.000000000e+00
      308875000    2.843680084e-01    5.593327880e-01    7.762852874e-06    3.359601033e-05    0.000000000e+00    0.000000000e+00    0.000000000e+00    0.000000000e+00
      310500000    2.991033494e-01    5.489816070e-01    1.406544470e-05    6.410548849e-06    0.000000000e+00    0.000000000e+00    0.000000000e+00    0.000000000e+00
      312125000    3.136763275e-01    5.376915336e-01   -9.032466915e-05   -2.633922304e-05    0.000000000e+00    0.000000000e+00    0.000000000e+00    0.000000000e+00
      313750000    3.272019029e-01    5.268906355e-01   -1.474726014e-05   -9.146927187e-05    0.000000000e+00    0.000000000e+00    0.000000000e+00    0.000000000e+00
      315375000    3.412116468e-01    5.147980452e-01   -1.188526585e-04    5.044175123e-05    0.000000000e+00    0.000000000e+00    0.000000000e+00    0.000000000e+00
      317000000    3.543036282e-01    5.028486252e-01   -3.993613791e-05    1.099967776e-04    0.000000000e+00    0.000000000e+00    0.000000000e+00    0.000000000e+00
      318625000    3.671567738e-01    4.906370342e-01   -1.526338383e-05    5.882727783e-05    0.000000000e+00    0.000000000e+00    0.000000000e+00    0.000000000e+00
      320250000    3.797793090e-01    4.788661897e-01   -7.843995263e-05   -3.646361802e-05    0.000000000e+00    0.000000000e+00    0.000000000e+00    0.000000000e+00
      321875000    3.919372261e-01    4.658944607e-01   -1.147860312e-04   -5.776338367e-05    0.000000000e+00    0.000000000e+00    0.000000000e+00    0.000000000e+00
      323500000    4.036372006e-01    4.535679221e-01   -1.148719239e-04    1.941534902e-05    0.000000000e+00    0.000000000e+00    0.000000000e+00    0.000000000e+00
      325125000    4.148863852e-01    4.401318431e-01    1.603057535e-05    1.194300057e-04    0.000000000e+00    0.000000000e+00    0.000000000e+00    0.000000000e+00
      326750000    4.256835878e-01    4.273051918e-01    4.225402154e-05    5.838695506e-05    0.000000000e+00    0.000000000e+00    0.000000000e+00    0.000000000e+00
      328375000    4.364596009e-01    4.136700928e-01   -1.469103881e-04    5.646701175e-05    0.000000000e+00    0.000000000e+00    0.000000000e+00    0.000000000e+00
      330000000    4.467634559e-01    4.001910985e-01   -1.896155591e-04   -2.687925007e-05    0.000000000e+00    0.000000000e+00    0.000000000e+00    0.000000000e+00
      331625000    4.562570751e-01    3.864411116e-01   -1.271902001e-04   -2.351228432e-06    0.000000000e+00    0.000000000e+00    0.000000000e+00    0.000000000e+00
      333250000    4.653802514e-01    3.725285530e-01    4.669338523e-05   -1.118416039e-04    0.000000000e+00    0.000000000e+00    0.000000000e+00    0.000000000e+00
      334875000    4.744013846e-01    3.585625291e-01   -1.001406490e-04    3.522542102e-05    0.000000000e+00    0.000000000e+00    0.000000000e+00    0.000000000e+00
      336500000    4.829297066e-01    3.444999158e-01   -3.322292832e-05   -3.622555596e-05    0.000000000e+00    0.000000000e+00    0.000000000e+00    0.000000000e+00
      338125000    4.908784032e-01    3.300562799e-01   -5.787387636e-05   -7.435645239e-05    0.000000000e+00    0.000000000e+00    0.000000000e+00    0.000000000e+00
      339750000    4.987499118e-01    3.157267272e-01   -4.258506669e-05    1.364018390e-04    0.000000000e+00    0.000000000e+00    0.000000000e+00    0.000000000e+00
      341375000    5.061799288e-01    3.014424145e-01   -9.892150410e-05   -7.911680586e-05    0.000000000e+00    0.000000000e+00    0.000000000e+00    0.000000000e+00
      343000000    5.133641362e-01    2.866777480e-01   -9.396368841e-05   -4.889988486e-05    0.000000000e+00    0.000000000e+00    0.000000000e+00    0.000000000e+00
      344625000    5.199411511e-01    2.724195421e-01   -1.321451709e-04   -3.922199176e-05    0.000000000e+00    0.000000000e+00    0.000000000e+00    0.000000000e+00
      346250000    5.262215734e-01    2.579168975e-01    7.586195716e-05    7.477356849e-05    0.000000000e+00    0.000000000e+00    0.000000000e+00    0.000000000e+00
      347875000    5.324751139e-01    2.431635261e-01    1.300173972e-05   -4.978668585e-05    0.000000000e+00    0.000000000e+00    0.000000000e+00    0.000000000e+00
      349500000    5.376572609e-01    2.281685024e-01    4.592319601e-05   -8.156711556e-05    0.000000000e+00    0.000000000e+00    0.000000000e+00    0.000000000e+00
      351125000    5.429815650e-01    2.133712023e-01   -2.532194412e-05    8.613850514e-05    0.000000000e+00    0.000000000e+00    0.000000000e+00    0.000000000e+00
      352750000    5.479241610e-01    1.985015869e-01   -4.016050298e-05    8.151929796e-05    0.000000000e+00    0.000000000e+00    0.000000000e+00    0.000000000e+00
      354375000    5.524591208e-01    1.834803373e-01   -1.808529632e-04    6.891982048e-05    0.000000000e+00    0.000000000e+00    0.000000000e+00    0.000000000e+00
      356000000    5.563835502e-01    1.686046124e-01   -2.753113222e-05    9.754909115e-05    0.000000000e+00    0.000000000e+00    0.000000000e+00    0.000000000e+00
      357625000    5.602284670e-01    1.536572725e-01    1.206451452e-05   -1.377427634e-05    0.000000000e+00    0.000000000e+00    0.000000000e+00    0.000000000e+00
      359250000    5.638195872e-01    1.387112886e-01   -1.028434999e-04    1.105204574e-04    0.000000000e+00    0.000000000e+00    0.000000000e+00    0.000000000e+00
      360875000    5.667970777e-01    1.235709935e-01    2.201047391e-05   -2.286028803e-06    0.000000000e+00    0.000000000e+00    0.000000000e+00    0.000000000e+00
      362500000    5.698139668e-01    1.087266505e-01   -1.467829316e-05    8.907137817e-05    0.000000000e+00    0.000000000e+00    0.000000000e+00    0.000000000e+00
      364125000    5.722381473e-01    9.375622123e-02   -1.294318354e-04    7.646919403e-05    0.000000000e+00    0.000000000e+00    0.000000000e+00    0.000000000e+00
      365750000    5.744442940e-01    7.886534929e-02    4.675303353e-05    9.651753317e-06    0.000000000e+00    0.000000000e+00    0.000000000e+00    0.000000000e+00
      367375000    5.763493180e-01    6.388130784e-02   -2.204867778e-04    3.045712219e-05    0.000000000e+00    0.000000000e+00    0.000000000e+00    0.000000000e+00
      369000000    5.776185393e-01    4.899065569e-02   -1.044435921e-04    3.689321966e-05    0.000000000e+00    0.000000000e+00    0.000000000e+00    0.000000000e+00
      370625000    5.789602995e-01    3.404793516e-02    1.346493491e-06   -4.269327474e-05    0.000000000e+00    0.000000000e+00    0.000000000e+00    0.000000000e+00
      372250000    5.794792771e-01    1.907987334e-02   -9.278546349e-05   -7.223302964e-05    0.000000000e+00    0.000000000e+00    0.000000000e+00    0.000000000e+00
      373875000    5.803282857e-01    4.420146346e-03   -5.823300671e-05   -3.554320574e-05    0.000000000e+00    0.000000000e+00    0.000000000e+00    0.000000000e+00
      375500000    5.804207921e-01   -1.016120054e-02    5.610038443e-06    9.534361016e-05    0.000000000e+00    0.000000000e+00    0.000000000e+00    0.000000000e+00
      377125000    5.803248286e-01   -2.498591505e-02   -1.712592202e-04    4.349499068e-05    0.000000000e+00    0.000000000e+00    0.000000000e+00    0.000000000e+00
      378750000    5.800475478e-01   -3.945186362e-02   -1.559514203e-05    1.598390736e-05    0.000000000e+00    0.000000000e+00    0.000000000e+00    0.000000000e+00
      380375000    5.792692900e-01   -5.420194194e-02   -6.472232781e-05   -2.564237320e-06    0.000000000e+00    0.000000000e+00    0.000000000e+00    0.000000000e+00
      382000000    5.779632926e-01   -6.885990500e-02   -6.091468458e-05    5.640934614e-05    0.000000000e+00    0.000000000e+00    0.000000000e+00    0.000000000e+00
      383625000    5.767568946e-01   -8.328543603e-02    5.077615697e-06    9.198921907e-05    0.000000000e+00    0.000000000e+00    0.000000000e+00    0.000000000e+00
      385250000    5.750420094e-01   -9.774361551e-02    1.028476618e-04    3.193319935e-05    0.000000000e+00    0.000000000e+00    0.000000000e+00    0.000000000e+00
      386875000    5.732353330e-01   -1.120519042e-01   -1.699278946e-04    4.302462912e-05    0.000000000e+00    0.000000000e+00    0.000000000e+00    0.000000000e+00
      388500000    5.709410310e-01   -1.262462735e-01   -4.565124982e-05    1.625751793e-05    0.000000000e+00    0.000000000e+00    0.000000000e+00    0.000000000e+00
