! NanoVNA-App
! Date: 2024-06-25 16:51:08
! Start: 200MHz Stop: 1.5GHz Points: 801
! S-Parameter data: F S11 S21 S12 S22
# Hz S RI R 50
!     Frequency           S11_Real           S11_Imag           S21_Real           S21_Imag           S12_Real           S12_Imag           S22_Real           S22_Imag
      200000000   -8.493282199e-01    1.462839246e-01    1.699074055e-04    5.173270256e-05    0.000000000e+00    0.000000000e+00    0.000000000e+00    0.000000000e+00
      201625000   -8.433179855e-01    1.729351282e-01    1.923082891e-04    5.585495819e-05    0.000000000e+00    0.000000000e+00    0.000000000e+00    0.000000000e+00
      203250000   -8.364870548e-01    1.992328912e-01    2.192859683e-04    7.903527876e-05    0.000000000e+00    0.000000000e+00    0.000000000e+00    0.000000000e+00
      204875000   -8.287668824e-01    2.253562212e-01    2.247891971e-04    4.584363705e-05    0.000000000e+00    0.000000000e+00    0.000000000e+00    0.000000000e+00
      206500000   -8.200619221e-01    2.509525120e-01    2.396977070e-04    5.534847151e-05    0.000000000e+00    0.000000000e+00    0.000000000e+00    0.000000000e+00
      208125000   -8.105537891e-01    2.761011124e-01    2.713129215e-04    4.709592031e-05    0.000000000e+00    0.000000000e+00    0.000000000e+00    0.000000000e+00
      209750000   -8.002336621e-01    3.008218408e-01    2.697001910e-04    7.692378131e-05    0.000000000e+00    0.000000000e+00    0.000000000e+00    0.000000000e+00
      211375000   -7.888240814e-01    3.251657486e-01    2.655276330e-04    8.267605881e-05    0.000000000e+00    0.000000000e+00    0.000000000e+00    0.000000000e+00
      213000000   -7.767703533e-01    3.489555120e-01    2.606681664e-04    9.905198385e-05    0.000000000e+00    0.000000000e+00    0.000000000e+00    0.000000000e+00
      214625000   -7.637801766e-01    3.720016778e-01    2.735046728e-04    1.187539092e-04    0.000000000e+00    0.000000000e+00    0.000000000e+00    0.000000000e+00
      216250000   -7.503186464e-01    3.948175013e-01    2.984059975e-04    1.047288606e-04    0.000000000e+00    0.000000000e+00    0.000000000e+00    0.000000000e+00
      217875000   -7.356708646e-01    4.166637063e-01    2.807901765e-04    1.317956776e-04    0.000000000e+00    0.000000000e+00    0.000000000e+00    0.000000000e+00
      219500000   -7.206061482e-01    4.383118153e-01    2.937873651e-04    1.175441357e-04    0.000000000e+00    0.000000000e+00    0.000000000e+00    0.000000000e+00
      221125000   -7.047263980e-01    4.591439366e-01    2.741562494e-04    1.502991945e-04    0.000000000e+00    0.000000000e+00    0.000000000e+00    0.000000000e+00
      222750000   -6.884241104e-01    4.794267118e-01    3.112864797e-04    1.271193323e-04    0.000000000e+00    0.000000000e+00    0.000000000e+00    0.000000000e+00
      224375000   -6.712771058e-01    4.988220930e-01    3.097262816e-04    1.296087721e-04    0.000000000e+00    0.000000000e+00    0.000000000e+00    0.000000000e+00
      226000000   -6.537501812e-01    5.176415443e-01    3.153585130e-04    1.361351606e-04    0.000000000e+00    0.000000000e+00    0.000000000e+00    0.000000000e+00
      227625000   -6.354562640e-01    5.356287360e-01    3.023943282e-04    1.644380827e-04    0.000000000e+00    0.000000000e+00    0.000000000e+00    0.000000000e+00
      229250000   -6.168364286e-01    5.532296300e-01    2.958362165e-04    1.195936056e-04    0.000000000e+00    0.000000000e+00    0.000000000e+00    0.000000000e+00
      230875000   -5.975434780e-01    5.699887276e-01    3.345721343e-04    1.125905183e-04    0.000000000e+00    0.000000000e+00    0.000000000e+00    0.000000000e+00
      232500000   -5.779550076e-01    5.858763456e-01    3.440305591e-04    1.427808602e-04    0.000000000e+00    0.000000000e+00    0.000000000e+00    0.000000000e+00
      234125000   -5.578946471e-01    6.009623408e-01    3.630914725e-04    1.271592482e-04    0.000000000e+00    0.000000000e+00    0.000000000e+00    0.000000000e+00
      235750000   -5.374103785e-01    6.157050729e-01    3.254301846e-04    1.566443389e-04    0.000000000e+00    0.000000000e+00    0.000000000e+00    0.000000000e+00
      237375000   -5.164534450e-01    6.289795041e-01    3.242313978e-04    1.349900704e-04    0.000000000e+00    0.000000000e+00    0.000000000e+00    0.000000000e+00
      239000000   -4.954348505e-01    6.421397328e-01    3.252033202e-04    1.388925011e-04    0.000000000e+00    0.000000000e+00    0.000000000e+00    0.000000000e+00
      240625000   -4.738393128e-01    6.540202498e-01    3.384654119e-04    1.307900093e-04    0.000000000e+00    0.000000000e+00    0.000000000e+00    0.000000000e+00
      242250000   -4.518865943e-01    6.655379534e-01    3.374079824e-04    1.217661556e-04    0.000000000e+00    0.000000000e+00    0.000000000e+00    0.000000000e+00
      243875000   -4.297044873e-01    6.763044596e-01    3.550250258e-04    1.401502959e-04    0.000000000e+00    0.000000000e+00    0.000000000e+00    0.000000000e+00
      245500000   -4.072392285e-01    6.863791347e-01    3.471072123e-04    1.515168988e-04    0.000000000e+00    0.000000000e+00    0.000000000e+00    0.000000000e+00
      247125000   -3.844282627e-01    6.957251430e-01    3.313694615e-04    1.187541493e-04    0.000000000e+00    0.000000000e+00    0.000000000e+00    0.000000000e+00
      248750000   -3.615408838e-01    7.043722272e-01    3.277841315e-04    1.486395049e-04    0.000000000e+00    0.000000000e+00    0.000000000e+00    0.000000000e+00
      250375000   -3.386749625e-01    7.120151520e-01    3.555592266e-04    1.318845752e-04    0.000000000e+00    0.000000000e+00    0.000000000e+00    0.000000000e+00
      252000000   -3.156158328e-01    7.188679576e-01    3.516929282e-04    1.402163325e-04    0.000000000e+00    0.000000000e+00    0.000000000e+00    0.000000000e+00
      253625000   -2.928382456e-01    7.250516415e-01    3.751112963e-04    1.465857058e-04    0.000000000e+00    0.000000000e+00    0.000000000e+00    0.000000000e+00
      255250000   -2.697322071e-01    7.304455638e-01    3.649106657e-04    1.418555476e-04    0.000000000e+00    0.000000000e+00    0.000000000e+00    0.000000000e+00
      256875000   -2.468355149e-01    7.350481749e-01    3.638534690e-04    1.256001997e-04    0.000000000e+00    0.000000000e+00    0.000000000e+00    0.000000000e+00
      258500000   -2.239595503e-01    7.390363812e-01    3.747024748e-04    1.367039367e-04    0.000000000e+00    0.000000000e+00    0.000000000e+00    0.000000000e+00
      260125000   -2.009434402e-01    7.422198653e-01    3.487443319e-04    1.392785489e-04    0.000000000e+00    0.000000000e+00    0.000000000e+00    0.000000000e+00
      261750000   -1.779381782e-01    7.451205850e-01    3.556840820e-04    1.215117882e-04    0.000000000e+00    0.000000000e+00    0.000000000e+00    0.000000000e+00
      263375000   -1.551743746e-01    7.466280460e-01    3.783155989e-04    1.358319423e-04    0.000000000e+00    0.000000000e+00    0.000000000e+00    0.000000000e+00
      265000000   -1.326877475e-01    7.475293279e-01    3.897768911e-04    1.625020814e-04    0.000000000e+00    0.000000000e+00    0.000000000e+00    0.000000000e+00
      266625000   -1.100234985e-01    7.479184866e-01    3.732680925e-04    1.544420084e-04    0.000000000e+00    0.000000000e+00    0.000000000e+00    0.000000000e+00
      268250000   -8.751488477e-02    7.476464510e-01    3.695808700e-04    1.441717905e-04    0.000000000e+00    0.000000000e+00    0.000000000e+00    0.000000000e+00
      269875000   -6.520634145e-02    7.466692924e-01    3.625060490e-04    1.272547524e-04    0.000000000e+00    0.000000000e+00    0.000000000e+00    0.000000000e+00
      271500000   -4.297793657e-02    7.448915839e-01    3.546466469e-04    1.453505247e-04    0.000000000e+00    0.000000000e+00    0.000000000e+00    0.000000000e+00
      273125000   -2.096368931e-02    7.427170277e-01    3.501240280e-04    1.284043246e-04    0.000000000e+00    0.000000000e+00    0.000000000e+00    0.000000000e+00
      274750000    9.833601071e-04    7.398401499e-01    3.580684424e-04    1.267586922e-04    0.000000000e+00    0.000000000e+00    0.000000000e+00    0.000000000e+00
      276375000    2.255760506e-02    7.363463640e-01    3.255432239e-04    1.480495848e-04    0.000000000e+00    0.000000000e+00    0.000000000e+00    0.000000000e+00
      278000000    4.386846721e-02    7.322836518e-01    3.552563430e-04    1.489153947e-04    0.000000000e+00    0.000000000e+00    0.000000000e+00    0.000000000e+00
      279625000    6.504685432e-02    7.276840806e-01    3.387569741e-04    1.170819087e-04    0.000000000e+00    0.000000000e+00    0.000000000e+00    0.000000000e+00
      281250000    8.617063612e-02    7.224896550e-01    3.409843484e-04    1.413259452e-04    0.000000000e+00    0.000000000e+00    0.000000000e+00    0.000000000e+00
      282875000    1.066969112e-01    7.166540027e-01    3.060430754e-04    1.314127876e-04    0.000000000e+00    0.000000000e+00    0.000000000e+00    0.000000000e+00
      284500000    1.269946247e-01    7.106241584e-01    3.418663109e-04    1.514963806e-04    0.000000000e+00    0.000000000e+00    0.000000000e+00    0.000000000e+00
      286125000    1.472758949e-01    7.038438320e-01    3.184221277e-04    1.237705583e-04    0.000000000e+00    0.000000000e+00    0.000000000e+00    0.000000000e+00
      287750000    1.672696024e-01    6.968217492e-01    3.417641856e-04    1.189873656e-04    0.000000000e+00    0.000000000e+00    0.000000000e+00    0.000000000e+00
      289375000    1.865882725e-01    6.887161136e-01    3.367987811e-04    1.127821524e-04    0.000000000e+00    0.000000000e+00    0.000000000e+00    0.000000000e+00
      291000000    1.012470946e-01    6.483070254e-01   -9.923129983e-05    2.773353344e-06    0.000000000e+00    0.000000000e+00    0.000000000e+00    0.000000000e+00
      292625000    1.195953712e-01    6.424909830e-01   -3.153399666e-05    1.026007449e-04    0.000000000e+00    0.000000000e+00    0.000000000e+00    0.000000000e+00
      294250000    1.385165155e-01    6.356766224e-01   -9.897456039e-05    1.065176621e-04    0.000000000e+00    0.000000000e+00    0.000000000e+00    0.000000000e+00
      295875000    1.564650387e-01    6.288194060e-01    6.879391003e-05   -4.744632315e-05    0.000000000e+00    0.000000000e+00    0.000000000e+00    0.000000000e+00
      297500000    1.737194210e-01    6.210680008e-01   -5.267400775e-05   -4.941181942e-06    0.000000000e+00    0.000000000e+00    0.000000000e+00    0.000000000e+00
      299125000    1.906735301e-01    6.127642393e-01   -1.769452647e-04   -9.333573871e-06    0.000000000e+00    0.000000000e+00    0.000000000e+00    0.000000000e+00
      300750000    2.075692415e-01    6.044944525e-01   -9.003980813e-05   -4.538029316e-05    0.000000000e+00    0.000000000e+00    0.000000000e+00    0.000000000e+00
      302375000    2.243195474e-01    5.952425003e-01   -3.622357690e-05    1.210373011e-05    0.000000000e+00    0.000000000e+00    0.000000000e+00    0.000000000e+00
      304000000    2.402924448e-01    5.865836740e-01    1.014385816e-05   -8.410558075e-05    0.000000000e+00    0.000000000e+00    0.000000000e+00    0.000000000e+00
      305625000    2.566853762e-01    5.769532323e-01   -7.423604256e-05   -1.186039372e-04    0.000000000e+00    0.000000000e+00    0.000000000e+00    0.000000000e+00
      307250000    2.694965899e-01    5.669515729e-01   -1.580472308e-04   -1.242671624e-05    0.000000000e+00    0.000000000e+00    0.000000000e+00    0.000000000e+00
      308875000    2.870222032e-01    5.563771725e-01   -1.677466789e-04    1.550902816e-04    0.000000000e+00    0.000000000e+00    0.000000000e+00    0.000000000e+00
      310500000    3.014598787e-01    5.457022786e-01    1.104134353e-04    7.125410775e-05    0.000000000e+00    0.000000000e+00    0.000000000e+00    0.000000000e+00
      312125000    3.160522282e-01    5.347345471e-01   -1.094086474e-04   -1.073712119e-04    0.000000000e+00    0.000000000e+00    0.000000000e+00    0.000000000e+00
      313750000    3.295825124e-01    5.236790180e-01   -1.994406775e-04    1.125020790e-04    0.000000000e+00    0.000000000e+00    0.000000000e+00    0.000000000e+00
      315375000    3.431720138e-01    5.119798779e-01   -7.494453894e-05    1.020073687e-04    0.000000000e+00    0.000000000e+00    0.000000000e+00    0.000000000e+00
      317000000    3.564116359e-01    4.998944998e-01    3.593297879e-05   -7.736856060e-05    0.000000000e+00    0.000000000e+00    0.000000000e+00    0.000000000e+00
      318625000    3.693300486e-01    4.877553880e-01   -8.592887025e-05   -2.908791976e-05    0.000000000e+00    0.000000000e+00    0.000000000e+00    0.000000000e+00
      320250000    3.816484809e-01    4.753692746e-01   -5.479048923e-06   -1.038180708e-04    0.000000000e+00    0.000000000e+00    0.000000000e+00    0.000000000e+00
      321875000    3.938836157e-01    4.630039632e-01   -1.629523176e-04   -5.162521484e-05    0.000000000e+00    0.000000000e+00    0.000000000e+00    0.000000000e+00
      323500000    4.056207240e-01    4.498307705e-01   -8.889208402e-05    6.677995407e-05    0.000000000e+00    0.000000000e+00    0.000000000e+00    0.000000000e+00
      325125000    4.166267812e-01    4.370332956e-01   -7.019778423e-05   -3.894969723e-06    0.000000000e+00    0.000000000e+00    0.000000000e+00    0.000000000e+00
      326750000    4.275996387e-01    4.240366817e-01   -6.917872088e-05   -1.160985812e-05    0.000000000e+00    0.000000000e+00    0.000000000e+00    0.000000000e+00
      328375000    4.380247295e-01    4.106169939e-01   -5.046512888e-05    3.861615551e-05    0.000000000e+00    0.000000000e+00    0.000000000e+00    0.000000000e+00
      330000000    4.480967522e-01    3.970332146e-01   -6.143424980e-05    3.958315574e-05    0.000000000e+00    0.000000000e+00    0.000000000e+00    0.000000000e+00
      331625000    4.576458633e-01    3.829787970e-01   -3.307672159e-05   -7.957843991e-06    0.000000000e+00    0.000000000e+00    0.000000000e+00    0.000000000e+00
      333250000    4.668104947e-01    3.691269755e-01   -5.609067375e-05    4.230939794e-06    0.000000000e+00    0.000000000e+00    0.000000000e+00    0.000000000e+00
      334875000    4.757866561e-01    3.550737202e-01   -1.970960511e-05    6.440463949e-06    0.000000000e+00    0.000000000e+00    0.000000000e+00    0.000000000e+00
      336500000    4.843015075e-01    3.410021365e-01    1.681183494e-04   -2.885509093e-05    0.000000000e+00    0.000000000e+00    0.000000000e+00    0.000000000e+00
      338125000    4.924980104e-01    3.270014524e-01   -4.644994260e-05   -9.038613643e-05    0.000000000e+00    0.000000000e+00    0.000000000e+00    0.000000000e+00
      339750000    4.998731315e-01    3.122771084e-01   -4.557287320e-05    4.141603495e-05    0.000000000e+00    0.000000000e+00    0.000000000e+00    0.000000000e+00
      341375000    5.072230697e-01    2.978174090e-01    1.078863534e-05    1.275545219e-05    0.000000000e+00    0.000000000e+00    0.000000000e+00    0.000000000e+00
      343000000    5.140806437e-01    2.833035886e-01   -1.636169909e-04   -2.852359285e-05    0.000000000e+00    0.000000000e+00    0.000000000e+00    0.000000000e+00
      344625000    5.209890604e-01    2.686232328e-01   -1.384394418e-04    1.191204210e-04    0.000000000e+00    0.000000000e+00    0.000000000e+00    0.000000000e+00
      346250000    5.269770026e-01    2.540211976e-01   -2.091423266e-05   -3.001140067e-05    0.000000000e+00    0.000000000e+00    0.000000000e+00    0.000000000e+00
      347875000    5.327933431e-01    2.395022959e-01   -4.821846233e-05   -3.517187724e-05    0.000000000e+00    0.000000000e+00    0.000000000e+00    0.000000000e+00
      349500000    5.380856991e-01    2.247557640e-01    1.417503518e-05   -3.746795119e-05    0.000000000e+00    0.000000000e+00    0.000000000e+00    0.000000000e+00
      351125000    5.433287621e-01    2.097635418e-01   -6.094704077e-05    1.526415435e-04    0.000000000e+00    0.000000000e+00    0.000000000e+00    0.000000000e+00
      352750000    5.481485724e-01    1.948507875e-01    7.462581561e-05   -8.510186308e-05    0.000000000e+00    0.000000000e+00    0.000000000e+00    0.000000000e+00
      354375000    5.526404977e-01    1.798610538e-01   -6.797535025e-05    3.785363879e-05    0.000000000e+00    0.000000000e+00    0.000000000e+00    0.000000000e+00
      356000000    5.568234324e-01    1.649643481e-01   -9.089244122e-05    4.041800639e-05    0.000000000e+00    0.000000000e+00    0.000000000e+00    0.000000000e+00
      357625000    5.602598786e-01    1.499879062e-01   -1.461492211e-04   -1.969210462e-05    0.000000000e+00    0.000000000e+00    0.000000000e+00    0.000000000e+00
      359250000    5.636209846e-01    1.350480467e-01    3.410488489e-06    2.465882062e-05    0.000000000e+00    0.000000000e+00    0.000000000e+00    0.000000000e+00
      360875000    5.667881370e-01    1.199778318e-01   -1.013557558e-04    5.208198854e-05    0.000000000e+00    0.000000000e+00    0.000000000e+00    0.000000000e+00
      362500000    5.696082711e-01    1.049997509e-01   -6.855437096e-05   -6.689121801e-05    0.000000000e+00    0.000000000e+00    0.000000000e+00    0.000000000e+00
      364125000    5.721744895e-01    9.009319544e-02   -1.060221548e-04   -2.327291986e-05    0.000000000e+00    0.000000000e+00    0.000000000e+00    0.000000000e+00
      365750000    5.740837455e-01    7.505787909e-02   -1.297645213e-04   -3.949699385e-05    0.000000000e+00    0.000000000e+00    0.000000000e+00    0.000000000e+00
      367375000    5.757702589e-01    6.025930122e-02    1.380252161e-05    1.372137776e-04    0.000000000e+00    0.000000000e+00    0.000000000e+00    0.000000000e+00
      369000000    5.772746205e-01    4.539796337e-02   -1.778777369e-04   -4.313326644e-05    0.000000000e+00    0.000000000e+00    0.000000000e+00    0.000000000e+00
      370625000    5.783804655e-01    3.066075407e-02    7.115472272e-06    1.762064471e-06    0.000000000e+00    0.000000000e+00    0.000000000e+00    0.000000000e+00
      372250000    5.791922212e-01    1.601172611e-02   -1.391543483e-04    5.259111276e-05    0.000000000e+00    0.000000000e+00    0.000000000e+00    0.000000000e+00
      373875000    5.796749592e-01    8.965544403e-04   -1.238706172e-04    6.968696835e-05    0.000000000e+00    0.000000000e+00    0.000000000e+00    0.000000000e+00
      375500000    5.794882774e-01   -1.393202879e-02   -3.404627205e-05   -9.819009574e-05    0.000000000e+00    0.000000000e+00    0.000000000e+00    0.000000000e+00
      377125000    5.794802904e-01   -2.828089148e-02   -1.882653742e-04    4.314241960e-05    0.000000000e+00    0.000000000e+00    0.000000000e+00    0.000000000e+00
      378750000    5.789144635e-01   -4.303921387e-02   -4.476941103e-05   -3.314824426e-05    0.000000000e+00    0.000000000e+00    0.000000000e+00    0.000000000e+00
      380375000    5.779096484e-01   -5.760129169e-02   -1.275777322e-04   -3.415502943e-05    0.000000000e+00    0.000000000e+00    0.000000000e+00    0.000000000e+00
      382000000    5.770923495e-01   -7.245502621e-02   -2.891035692e-04   -8.251855434e-06    0.000000000e+00    0.000000000e+00    0.000000000e+00    0.000000000e+00
      383625000    5.754707456e-01   -8.679274470e-02   -1.762502507e-05    6.712009053e-05    0.000000000e+00    0.000000000e+00    0.000000000e+00    0.000000000e+00
      385250000    5.738251805e-01   -1.010404080e-01   -2.736218739e-04    1.385794458e-04    0.000000000e+00    0.000000000e+00    0.000000000e+00    0.000000000e+00
      386875000    5.718911886e-01   -1.153584942e-01   -2.172216482e-04    3.088604444e-06    0.000000000e+00    0.000000000e+00    0.000000000e+00    0.000000000e+00
      388500000    5.695301890e-01   -1.297462285e-01    1.088186582e-05    1.306979248e-04    0.000000000e+00    0.000000000e+00    0.000000000e+00    0.000000000e+00
