! NanoVNA-App
! Date: 2024-06-25 16:51:11
! Start: 200MHz Stop: 1.5GHz Points: 801
! S-Parameter data: F S11 S21 S12 S22
# Hz S RI R 50
!     Frequency           S11_Real           S11_Imag           S21_Real           S21_Imag           S12_Real           S12_Imag           S22_Real           S22_Imag
      200000000   -8.493474126e-01    1.463514417e-01    2.171429078e-04    5.506306115e-05    0.000000000e+00    0.000000000e+00    0.000000000e+00    0.000000000e+00
      201625000   -8.433565497e-01    1.728352010e-01    2.200308081e-04    6.845738972e-05    0.000000000e+00    0.000000000e+00    0.000000000e+00    0.000000000e+00
      203250000   -8.364849687e-01    1.992712766e-01    2.092854993e-04    6.359851250e-05    0.000000000e+00    0.000000000e+00    0.000000000e+00    0.000000000e+00
      204875000   -8.286361098e-01    2.252862602e-01    2.103121369e-04    7.040678611e-05    0.000000000e+00    0.000000000e+00    0.000000000e+00    0.000000000e+00
      206500000   -8.201080561e-01    2.508774102e-01    2.278415486e-04    6.845749886e-05    0.000000000e+00    0.000000000e+00    0.000000000e+00    0.000000000e+00
      208125000   -8.106168509e-01    2.760860622e-01    2.436991781e-04    6.265603588e-05    0.000000000e+00    0.000000000e+00    0.000000000e+00    0.000000000e+00
      209750000   -8.004291058e-01    3.008745015e-01    2.565340546e-04    9.926229541e-05    0.000000000e+00    0.000000000e+00    0.000000000e+00    0.000000000e+00
      211375000   -7.888877988e-01    3.251804709e-01    2.741457720e-04    9.781625704e-05    0.000000000e+00    0.000000000e+00    0.000000000e+00    0.000000000e+00
      213000000   -7.768762708e-01    3.488968611e-01    2.748614643e-04    9.326159488e-05    0.000000000e+00    0.000000000e+00    0.000000000e+00    0.000000000e+00
      214625000   -7.638843060e-01    3.719289303e-01    2.555513638e-04    9.944091289e-05    0.000000000e+00    0.000000000e+00    0.000000000e+00    0.000000000e+00
      216250000   -7.501364946e-01    3.948394954e-01    2.772052831e-04    1.107466014e-04    0.000000000e+00    0.000000000e+00    0.000000000e+00    0.000000000e+00
      217875000   -7.357733250e-01    4.168633819e-01    2.612112730e-04    9.170622070e-05    0.000000000e+00    0.000000000e+00    0.000000000e+00    0.000000000e+00
      219500000   -7.206850052e-01    4.382823408e-01    3.045299673e-04    1.256157993e-04    0.000000000e+00    0.000000000e+00    0.000000000e+00    0.000000000e+00
      221125000   -7.048959136e-01    4.591907859e-01    2.820102964e-04    1.302205055e-04    0.000000000e+00    0.000000000e+00    0.000000000e+00    0.000000000e+00
      222750000   -6.883994341e-01    4.792669117e-01    2.914077486e-04    1.293695532e-04    0.000000000e+00    0.000000000e+00    0.000000000e+00    0.000000000e+00
      224375000   -6.714178324e-01    4.988727570e-01    3.021875455e-04    1.284600585e-04    0.000000000e+00    0.000000000e+00    0.000000000e+00    0.000000000e+00
      226000000   -6.537929177e-01    5.178165436e-01    3.275386407e-04    1.327554783e-04    0.000000000e+00    0.000000000e+00    0.000000000e+00    0.000000000e+00
      227625000   -6.353623271e-01    5.355812311e-01    3.124589566e-04    1.516149641e-04    0.000000000e+00    0.000000000e+00    0.000000000e+00    0.000000000e+00
      229250000   -6.167724133e-01    5.533273220e-01    3.278200456e-04    1.392603590e-04    0.000000000e+00    0.000000000e+00    0.000000000e+00    0.000000000e+00
      230875000   -5.975121260e-01    5.698583126e-01    3.103179042e-04    1.419255859e-04    0.000000000e+00    0.000000000e+00    0.000000000e+00    0.000000000e+00
      232500000   -5.780752897e-01    5.860567689e-01    3.225706459e-04    1.461613283e-04    0.000000000e+00    0.000000000e+00    0.000000000e+00    0.000000000e+00
      234125000   -5.578370094e-01    6.009085774e-01    3.401784052e-04    1.427567913e-04    0.000000000e+00    0.000000000e+00    0.000000000e+00    0.000000000e+00
      235750000   -5.374523401e-01    6.155198216e-01    3.203866072e-04    1.293534879e-04    0.000000000e+00    0.000000000e+00    0.000000000e+00    0.000000000e+00
      237375000   -5.165629387e-01    6.291971207e-01    3.423814778e-04    1.345974888e-04    0.000000000e+00    0.000000000e+00    0.000000000e+00    0.000000000e+00
      239000000   -4.954614937e-01    6.419688463e-01    3.368784965e-04    1.355652057e-04    0.000000000e+00    0.000000000e+00    0.000000000e+00    0.000000000e+00
      240625000   -4.740431309e-01    6.540521383e-01    3.344478610e-04    1.347205543e-04    0.000000000e+00    0.000000000e+00    0.000000000e+00    0.000000000e+00
      242250000   -4.519206583e-01    6.658185720e-01    3.552507842e-04    1.381999173e-04    0.000000000e+00    0.000000000e+00    0.000000000e+00    0.000000000e+00
      243875000   -4.296519458e-01    6.763813496e-01    3.197622718e-04    1.506680273e-04    0.000000000e+00    0.000000000e+00    0.000000000e+00    0.000000000e+00
      245500000   -4.072124362e-01    6.863373518e-01    3.215460456e-04    1.361266332e-04    0.000000000e+00    0.000000000e+00    0.000000000e+00    0.000000000e+00
      247125000   -3.844152987e-01    6.956723928e-01    3.478461585e-04    1.399664761e-04    0.000000000e+00    0.000000000e+00    0.000000000e+00    0.000000000e+00
      248750000   -3.615213633e-01    7.042853236e-01    3.669467114e-04    1.554721675e-04    0.000000000e+00    0.000000000e+00    0.000000000e+00    0.000000000e+00
      250375000   -3.385338187e-01    7.120188475e-01    3.614212328e-04    1.348336518e-04    0.000000000e+00    0.000000000e+00    0.000000000e+00    0.000000000e+00
      252000000   -3.155905008e-01    7.190259695e-01    3.648843849e-04    1.497488265e-04    0.000000000e+00    0.000000000e+00    0.000000000e+00    0.000000000e+00
      253625000   -2.929139435e-01    7.250176668e-01    3.675613552e-04    1.450579584e-04    0.000000000e+00    0.000000000e+00    0.000000000e+00    0.000000000e+00
      255250000   -2.698448002e-01    7.304386497e-01    3.621102951e-04    1.600534160e-04    0.000000000e+00    0.000000000e+00    0.000000000e+00    0.000000000e+00
      256875000   -2.469087690e-01    7.352198362e-01    3.561055637e-04    1.573216432e-04    0.000000000e+00    0.000000000e+00    0.000000000e+00    0.000000000e+00
      258500000   -2.239177674e-01    7.390723825e-01    3.591288405e-04    1.135144048e-04    0.000000000e+00    0.000000000e+00    0.000000000e+00    0.000000000e+00
      260125000   -2.010189742e-01    7.422779799e-01    3.812925424e-04    1.263382001e-04    0.000000000e+00    0.000000000e+00    0.000000000e+00    0.000000000e+00
      261750000   -1.781154275e-01    7.451524734e-01    3.491628158e-04    1.396083680e-04    0.000000000e+00    0.000000000e+00    0.000000000e+00    0.000000000e+00
      263375000   -1.552271247e-01    7.467314601e-01    3.608693660e-04    1.365914359e-04    0.000000000e+00    0.000000000e+00    0.000000000e+00    0.000000000e+00
      265000000   -1.327246130e-01    7.475832701e-01    3.566745727e-04    1.425582304e-04    0.000000000e+00    0.000000000e+00    0.000000000e+00    0.000000000e+00
      266625000   -1.100848392e-01    7.478020191e-01    3.793692740e-04    1.146704381e-04    0.000000000e+00    0.000000000e+00    0.000000000e+00    0.000000000e+00
      268250000   -8.755706996e-02    7.475520372e-01    3.548894601e-04    1.461049687e-04    0.000000000e+00    0.000000000e+00    0.000000000e+00    0.000000000e+00
      269875000   -6.510351598e-02    7.465933561e-01    3.486915375e-04    1.228833862e-04    0.000000000e+00    0.000000000e+00    0.000000000e+00    0.000000000e+00
      271500000   -4.306095839e-02    7.450892329e-01    3.739070962e-04    1.301535958e-04    0.000000000e+00    0.000000000e+00    0.000000000e+00    0.000000000e+00
      273125000   -2.108514868e-02    7.427542806e-01    3.601392964e-04    1.332682295e-04    0.000000000e+00    0.000000000e+00    0.000000000e+00    0.000000000e+00
      274750000    8.296087617e-04    7.400537729e-01    3.455764672e-04    1.365002827e-04    0.000000000e+00    0.000000000e+00    0.000000000e+00    0.000000000e+00
      276375000    2.249391750e-02    7.363275290e-01    3.518133599e-04    1.204023938e-04    0.000000000e+00    0.000000000e+00    0.000000000e+00    0.000000000e+00
      278000000    4.391453788e-02    7.323168516e-01    3.448385687e-04    1.187164526e-04    0.000000000e+00    0.000000000e+00    0.000000000e+00    0.000000000e+00
      279625000    6.497876346e-02    7.277904749e-01    3.460720473e-04    1.559660013e-04    0.000000000e+00    0.000000000e+00    0.000000000e+00    0.000000000e+00
      281250000    8.608897030e-02    7.226361632e-01    3.455795522e-04    1.249552733e-04    0.000000000e+00    0.000000000e+00    0.000000000e+00    0.000000000e+00
      282875000    1.066469327e-01    7.168604732e-01    3.305770515e-04    1.185110668e-04    0.000000000e+00    0.000000000e+00    0.000000000e+00    0.000000000e+00
      284500000    1.270541847e-01    7.105579972e-01    3.360859700e-04    1.247128821e-04    0.000000000e+00    0.000000000e+00    0.000000000e+00    0.000000000e+00
      286125000    1.471595317e-01    7.038928270e-01    3.175189195e-04    1.217758909e-04    0.000000000e+00    0.000000000e+00    0.000000000e+00    0.000000000e+00
      287750000    1.671277285e-01    6.967833638e-01    3.211464500e-04    1.199318140e-04    0.000000000e+00    0.000000000e+00    0.000000000e+00    0.000000000e+00
      289375000    1.865067482e-01    6.885739565e-01    3.231834853e-04    1.032647706e-04    0.000000000e+00    0.000000000e+00    0.000000000e+00    0.000000000e+00
      291000000    1.016501561e-01    6.486336589e-01    1.601334588e-05   -8.048488962e-05    0.000000000e+00    0.000000000e+00    0.000000000e+00    0.000000000e+00
      292625000    1.209759936e-01    6.428854465e-01    4.261989943e-06   -1.595686626e-04    0.000000000e+00    0.000000000e+00    0.000000000e+00    0.000000000e+00
      294250000    1.379325092e-01    6.358279586e-01    1.340653034e-05   -1.120111338e-04    0.000000000e+00    0.000000000e+00    0.000000000e+00    0.000000000e+00
      295875000    1.560857743e-01    6.289623380e-01   -4.255419844e-05   -1.606403093e-04    0.000000000e+00    0.000000000e+00    0.000000000e+00    0.000000000e+00
      297500000    1.734350026e-01    6.212317348e-01   -1.355440618e-04   -1.035118294e-05    0.000000000e+00    0.000000000e+00    0.000000000e+00    0.000000000e+00
      299125000    1.907915026e-01    6.128402352e-01   -7.374427514e-05   -9.441383008e-05    0.000000000e+00    0.000000000e+00    0.000000000e+00    0.000000000e+00
      300750000    2.081101984e-01    6.048474908e-01   -4.628777970e-05    7.722574810e-05    0.000000000e+00    0.000000000e+00    0.000000000e+00    0.000000000e+00
      302375000    2.242987454e-01    5.954855084e-01   -3.522746192e-05    1.567921026e-05    0.000000000e+00    0.000000000e+00    0.000000000e+00    0.000000000e+00
      304000000    2.400962710e-01    5.864894390e-01   -1.353689731e-04    1.035842579e-04    0.000000000e+00    0.000000000e+00    0.000000000e+00    0.000000000e+00
      305625000    2.561651170e-01    5.766149163e-01   -1.571853063e-04   -3.706242933e-05    0.000000000e+00    0.000000000e+00    0.000000000e+00    0.000000000e+00
      307250000    2.742451131e-01    5.678504705e-01    6.122851119e-06   -2.499548646e-05    0.000000000e+00    0.000000000e+00    0.000000000e+00    0.000000000e+00
      308875000    2.868551910e-01    5.561767220e-01   -2.089219743e-05   -7.436474698e-05    0.000000000e+00    0.000000000e+00    0.000000000e+00    0.000000000e+00
      310500000    3.012813926e-01    5.460133553e-01    8.138079284e-05   -4.563178663e-05    0.000000000e+00    0.000000000e+00    0.000000000e+00    0.000000000e+00
      312125000    3.158661127e-01    5.347681046e-01   -1.748466020e-04   -1.794051423e-05    0.000000000e+00    0.000000000e+00    0.000000000e+00    0.000000000e+00
      313750000    3.297380507e-01    5.235571265e-01   -2.675988071e-04   -3.975477011e-05    0.000000000e+00    0.000000000e+00    0.000000000e+00    0.000000000e+00
      315375000    3.431846499e-01    5.116476417e-01   -3.171425988e-06   -1.028936026e-06    0.000000000e+00    0.000000000e+00    0.000000000e+00    0.000000000e+00
      317000000    3.563267589e-01    4.998179078e-01   -4.839823305e-05   -1.277712145e-04    0.000000000e+00    0.000000000e+00    0.000000000e+00    0.000000000e+00
      318625000    3.693886399e-01    4.876278639e-01   -4.125642590e-06    9.031341324e-05    0.000000000e+00    0.000000000e+00    0.000000000e+00    0.000000000e+00
      320250000    3.819845617e-01    4.754603803e-01   -9.788354510e-05    1.353709195e-06    0.000000000e+00    0.000000000e+00    0.000000000e+00    0.000000000e+00
      321875000    3.938038945e-01    4.629132450e-01    1.559167322e-05   -2.574302744e-05    0.000000000e+00    0.000000000e+00    0.000000000e+00    0.000000000e+00
      323500000    4.057986736e-01    4.500076473e-01   -1.582857367e-04   -1.543813414e-04    0.000000000e+00    0.000000000e+00    0.000000000e+00    0.000000000e+00
      325125000    4.169178307e-01    4.368970096e-01   -9.495278209e-05   -1.479580969e-04    0.000000000e+00    0.000000000e+00    0.000000000e+00    0.000000000e+00
      326750000    4.273866713e-01    4.237684608e-01   -1.040020434e-04   -3.237529017e-05    0.000000000e+00    0.000000000e+00    0.000000000e+00    0.000000000e+00
      328375000    4.380202293e-01    4.102468491e-01   -1.968189463e-04   -1.137775962e-05    0.000000000e+00    0.000000000e+00    0.000000000e+00    0.000000000e+00
      330000000    4.480645359e-01    3.970742226e-01   -8.933700883e-05   -3.699092304e-06    0.000000000e+00    0.000000000e+00    0.000000000e+00    0.000000000e+00
      331625000    4.575599432e-01    3.829097748e-01   -1.227631583e-04   -4.622264896e-05    0.000000000e+00    0.000000000e+00    0.000000000e+00    0.000000000e+00
      333250000    4.669273794e-01    3.691753447e-01   -5.510749179e-05   -8.973576769e-05    0.000000000e+00    0.000000000e+00    0.000000000e+00    0.000000000e+00
      334875000    4.757288396e-01    3.552912176e-01   -7.470209675e-05   -5.449025048e-05    0.000000000e+00    0.000000000e+00    0.000000000e+00    0.000000000e+00
      336500000    4.843704700e-01    3.412771821e-01   -3.664679025e-05    3.601916978e-05    0.000000000e+00    0.000000000e+00    0.000000000e+00    0.000000000e+00
      338125000    4.920994043e-01    3.266885877e-01    7.625128637e-05   -3.103649215e-05    0.000000000e+00    0.000000000e+00    0.000000000e+00    0.000000000e+00
      339750000    4.999382794e-01    3.122044802e-01   -1.368229277e-04   -5.388908903e-05    0.000000000e+00    0.000000000e+00    0.000000000e+00    0.000000000e+00
      341375000    5.070198774e-01    2.978771627e-01   -2.501508789e-05    2.080035301e-05    0.000000000e+00    0.000000000e+00    0.000000000e+00    0.000000000e+00
      343000000    5.142239332e-01    2.835534513e-01    5.170633449e-05    2.702310667e-05    0.000000000e+00    0.000000000e+00    0.000000000e+00    0.000000000e+00
      344625000    5.207741857e-01    2.686296105e-01   -5.129741476e-05    4.250122856e-06    0.000000000e+00    0.000000000e+00    0.000000000e+00    0.000000000e+00
      346250000    5.269579291e-01    2.540058792e-01    2.335743011e-05   -4.887835166e-05    0.000000000e+00    0.000000000e+00    0.000000000e+00    0.000000000e+00
      347875000    5.328456163e-01    2.393907160e-01   -1.191757183e-04   -9.380678966e-05    0.000000000e+00    0.000000000e+00    0.000000000e+00    0.000000000e+00
      349500000    5.382609367e-01    2.247095853e-01   -1.617220551e-04    4.117717981e-05    0.000000000e+00    0.000000000e+00    0.000000000e+00    0.000000000e+00
      351125000    5.433862805e-01    2.096653134e-01   -8.350047574e-05    9.200214117e-05    0.000000000e+00    0.000000000e+00    0.000000000e+00    0.000000000e+00
      352750000    5.483412743e-01    1.948326379e-01   -8.288192475e-05    1.006929324e-05    0.000000000e+00    0.000000000e+00    0.000000000e+00    0.000000000e+00
      354375000    5.525745749e-01    1.801043153e-01   -8.488907770e-05    5.944858640e-05    0.000000000e+00    0.000000000e+00    0.000000000e+00    0.000000000e+00
      356000000    5.566498637e-01    1.649153680e-01   -4.762144090e-05   -3.857350384e-05    0.000000000e+00    0.000000000e+00    0.000000000e+00    0.000000000e+00
      357625000    5.605871677e-01    1.500422359e-01   -3.271964670e-05    9.978823073e-05    0.000000000e+00    0.000000000e+00    0.000000000e+00    0.000000000e+00
      359250000    5.638247728e-01    1.349005252e-01   -7.991579332e-05   -1.157811130e-04    0.000000000e+00    0.000000000e+00    0.000000000e+00    0.000000000e+00
      360875000    5.667205453e-01    1.200086102e-01   -8.952893404e-05   -8.163124585e-05    0.000000000e+00    0.000000000e+00    0.000000000e+00    0.000000000e+00
      362500000    5.695692301e-01    1.049706414e-01   -9.597840835e-05   -1.929641876e-04    0.000000000e+00    0.000000000e+00    0.000000000e+00    0.000000000e+00
      364125000    5.718180537e-01    9.010574967e-02    1.428280939e-05   -4.161605466e-05    0.000000000e+00    0.000000000e+00    0.000000000e+00    0.000000000e+00
      365750000    5.742262006e-01    7.524180412e-02   -7.667696991e-06    2.848415716e-05    0.000000000e+00    0.000000000e+00    0.000000000e+00    0.000000000e+00
      367375000    5.758397579e-01    6.026473269e-02    1.014863847e-05   -6.065657089e-06    0.000000000e+00    0.000000000e+00    0.000000000e+00    0.000000000e+00
      369000000    5.772674680e-01    4.548005387e-02   -1.448980474e-04   -3.168828334e-05    0.000000000e+00    0.000000000e+00    0.000000000e+00    0.000000000e+00
      370625000    5.785589218e-01    3.052686341e-02   -1.161471009e-04   -5.168334610e-05    0.000000000e+00    0.000000000e+00    0.000000000e+00    0.000000000e+00
      372250000    5.789917707e-01    1.553826965e-02   -1.366644137e-04    6.002738155e-05    0.000000000e+00    0.000000000e+00    0.000000000e+00    0.000000000e+00
      373875000    5.795683861e-01    9.066434577e-04    7.029414064e-06   -4.405908112e-05    0.000000000e+00    0.000000000e+00    0.000000000e+00    0.000000000e+00
      375500000    5.796409249e-01   -1.382544637e-02   -1.201083942e-04   -9.266749839e-05    0.000000000e+00    0.000000000e+00    0.000000000e+00    0.000000000e+00
      377125000    5.794349313e-01   -2.855546586e-02   -6.574286817e-05    1.110522498e-05    0.000000000e+00    0.000000000e+00    0.000000000e+00    0.000000000e+00
      378750000    5.790448189e-01   -4.301278666e-02   -1.376617438e-04    3.670961405e-06    0.000000000e+00    0.000000000e+00    0.000000000e+00    0.000000000e+00
      380375000    5.780510902e-01   -5.748663843e-02   -6.860937719e-05   -8.593484381e-05    0.000000000e+00    0.000000000e+00    0.000000000e+00    0.000000000e+00
      382000000    5.770633221e-01   -7.248427719e-02   -3.743742127e-05   -8.704447828e-05    0.000000000e+00    0.000000000e+00    0.000000000e+00    0.000000000e+00
      383625000    5.753218532e-01   -8.672779799e-02   -1.491282455e-04   -4.503316086e-05    0.000000000e+00    0.000000000e+00    0.000000000e+00    0.000000000e+00
      385250000    5.737666488e-01   -1.010593474e-01   -1.049556449e-04   -5.545025124e-05    0.000000000e+00    0.000000000e+00    0.000000000e+00    0.000000000e+00
      386875000    5.719326138e-01   -1.155086011e-01   -1.390694961e-04    4.700135833e-05    0.000000000e+00    0.000000000e+00    0.000000000e+00    0.000000000e+00
      388500000    5.693413615e-01   -1.297771335e-01    7.142141840e-05    8.377418271e-05    0.000000000e+00    0.000000000e+00    0.000000000e+00    0.000000000e+00
