! NanoVNA-App by OneOfEleven et al v1.1.209 (+OD15) 
! Date: 2024-07-30 12:06:54
! Start: 50kHz Stop: 6GHz Points: 801
! S-Parameter data: F S11 S21 S12 S22
# Hz S RI R 50
!     Frequency           S11_Real           S11_Imag           S21_Real           S21_Imag           S12_Real           S12_Imag           S22_Real           S22_Imag
          50000   -1.699424698e-03   -3.334566252e-03    2.251735651e-07   -7.833938980e-06    0.000000000e+00    0.000000000e+00    0.000000000e+00    0.000000000e+00
        7549938    3.300060926e-04   -5.455401260e-04   -2.914258584e-05    5.615964255e-06    0.000000000e+00    0.000000000e+00    0.000000000e+00    0.000000000e+00
       15049875    6.323212438e-05   -4.232487117e-04    9.452337508e-06    9.084047633e-06    0.000000000e+00    0.000000000e+00    0.000000000e+00    0.000000000e+00
       22549813   -6.550538819e-05   -2.940322156e-04    1.761757812e-05    1.458322095e-05    0.000000000e+00    0.000000000e+00    0.000000000e+00    0.000000000e+00
       30049750   -1.700141729e-04   -1.881736389e-04    1.524437084e-05   -1.534036301e-06    0.000000000e+00    0.000000000e+00    0.000000000e+00    0.000000000e+00
       37549688   -1.723209862e-04   -2.383594401e-04   -1.665778473e-05   -3.442042043e-06    0.000000000e+00    0.000000000e+00    0.000000000e+00    0.000000000e+00
       45049625   -2.054228244e-04   -3.017352137e-04   -8.693191376e-06    1.050491665e-05    0.000000000e+00    0.000000000e+00    0.000000000e+00    0.000000000e+00
       52549563   -5.044000500e-05   -3.006952466e-04   -2.242304845e-06   -1.821127262e-05    0.000000000e+00    0.000000000e+00    0.000000000e+00    0.000000000e+00
       60049500   -1.400753245e-04   -1.996439969e-04   -2.253878120e-05   -1.282252288e-05    0.000000000e+00    0.000000000e+00    0.000000000e+00    0.000000000e+00
       67549438   -7.067146362e-05   -1.875032031e-04   -1.366057222e-05    1.179200262e-05    0.000000000e+00    0.000000000e+00    0.000000000e+00    0.000000000e+00
       75049375   -1.373787236e-04   -3.049739753e-04    1.293749733e-06    3.187076072e-05    0.000000000e+00    0.000000000e+00    0.000000000e+00    0.000000000e+00
       82549313   -8.428120054e-05   -2.097344259e-04   -2.913797471e-05    1.407652780e-05    0.000000000e+00    0.000000000e+00    0.000000000e+00    0.000000000e+00
       90049250   -1.543775725e-04   -3.317124210e-04   -2.193109140e-05   -1.940585753e-05    0.000000000e+00    0.000000000e+00    0.000000000e+00    0.000000000e+00
       97549188   -1.439261541e-04   -1.575725182e-04   -1.304154193e-05   -1.012324333e-06    0.000000000e+00    0.000000000e+00    0.000000000e+00    0.000000000e+00
      105049125   -1.373109699e-04   -2.816615452e-04    1.488451744e-05   -1.751775017e-05    0.000000000e+00    0.000000000e+00    0.000000000e+00    0.000000000e+00
      112549063   -9.302298713e-05   -2.396848140e-04   -5.105015589e-06    1.528606299e-05    0.000000000e+00    0.000000000e+00    0.000000000e+00    0.000000000e+00
      120049000   -9.243825843e-06   -3.405702009e-04    1.203082411e-05   -2.647336805e-05    0.000000000e+00    0.000000000e+00    0.000000000e+00    0.000000000e+00
      127548938   -8.757083560e-05   -1.994162158e-04   -1.541896017e-05   -3.976843436e-05    0.000000000e+00    0.000000000e+00    0.000000000e+00    0.000000000e+00
      135048875    2.114209929e-05   -3.089897509e-04   -2.896524165e-06   -2.984711318e-05    0.000000000e+00    0.000000000e+00    0.000000000e+00    0.000000000e+00
      142548813   -1.028032711e-04   -2.673513081e-04    3.424211900e-05   -3.548514724e-05    0.000000000e+00    0.000000000e+00    0.000000000e+00    0.000000000e+00
      150048750   -7.175739302e-05   -3.832539078e-04   -1.553334914e-05    1.307532784e-05    0.000000000e+00    0.000000000e+00    0.000000000e+00    0.000000000e+00
      157548688    1.903804150e-05   -2.760136849e-04    9.220278116e-06    1.677942055e-05    0.000000000e+00    0.000000000e+00    0.000000000e+00    0.000000000e+00
      165048625   -1.094365070e-04   -2.646881039e-04   -1.855795517e-08   -4.956267730e-06    0.000000000e+00    0.000000000e+00    0.000000000e+00    0.000000000e+00
      172548563   -2.987396556e-06   -2.015342907e-04   -1.727427843e-05   -5.952633273e-06    0.000000000e+00    0.000000000e+00    0.000000000e+00    0.000000000e+00
      180048500   -9.459611465e-05   -2.013814956e-04    2.156962910e-05    2.278162719e-05    0.000000000e+00    0.000000000e+00    0.000000000e+00    0.000000000e+00
      187548438    4.838960740e-05   -2.426342544e-04   -1.804366366e-05    1.060181830e-06    0.000000000e+00    0.000000000e+00    0.000000000e+00    0.000000000e+00
      195048375   -8.577731933e-05   -1.996171486e-04    1.717105442e-05    3.233503548e-06    0.000000000e+00    0.000000000e+00    0.000000000e+00    0.000000000e+00
      202548313   -1.630408224e-04   -2.755746827e-04    5.200215583e-06    5.970605798e-06    0.000000000e+00    0.000000000e+00    0.000000000e+00    0.000000000e+00
      210048250   -1.674098748e-04   -3.555253497e-04    8.086417438e-06    3.496259887e-05    0.000000000e+00    0.000000000e+00    0.000000000e+00    0.000000000e+00
      217548188   -1.401517657e-04   -3.427665506e-04    2.991211886e-06    6.015866347e-06    0.000000000e+00    0.000000000e+00    0.000000000e+00    0.000000000e+00
      225048125   -1.881044300e-04   -2.281902707e-04   -2.222898729e-05    1.269985660e-05    0.000000000e+00    0.000000000e+00    0.000000000e+00    0.000000000e+00
      232548063   -2.351320436e-04   -2.939193510e-04   -4.423707287e-05   -3.728389856e-05    0.000000000e+00    0.000000000e+00    0.000000000e+00    0.000000000e+00
      240048000   -1.572956680e-04   -2.891487384e-04    2.192196553e-05   -8.436675671e-06    0.000000000e+00    0.000000000e+00    0.000000000e+00    0.000000000e+00
      247547938   -2.043433342e-04   -1.813927520e-04   -5.228024020e-05   -4.475866444e-05    0.000000000e+00    0.000000000e+00    0.000000000e+00    0.000000000e+00
      255047875   -2.066361776e-04   -1.975865307e-04   -1.260679346e-05    1.685852840e-05    0.000000000e+00    0.000000000e+00    0.000000000e+00    0.000000000e+00
      262547813   -1.530624868e-04   -2.606830385e-04   -1.630809129e-05    1.696620166e-05    0.000000000e+00    0.000000000e+00    0.000000000e+00    0.000000000e+00
      270047750   -1.214126023e-04   -3.127914970e-04   -2.621602789e-06    7.565951364e-06    0.000000000e+00    0.000000000e+00    0.000000000e+00    0.000000000e+00
      277547688   -1.706812036e-04   -3.265514097e-04   -2.896347496e-06    1.196148060e-05    0.000000000e+00    0.000000000e+00    0.000000000e+00    0.000000000e+00
      285047625   -1.499036589e-04   -4.205587902e-04    1.703046655e-05    2.715988921e-05    0.000000000e+00    0.000000000e+00    0.000000000e+00    0.000000000e+00
      292547563   -1.921875082e-04   -4.409337707e-04   -1.056888414e-05    2.508333819e-05    0.000000000e+00    0.000000000e+00    0.000000000e+00    0.000000000e+00
      300047500   -1.095065600e-04   -4.330391821e-04    1.911647087e-05    1.365584558e-05    0.000000000e+00    0.000000000e+00    0.000000000e+00    0.000000000e+00
      307547438   -2.047274320e-04   -4.551939201e-04   -3.405837197e-05   -2.174897600e-05    0.000000000e+00    0.000000000e+00    0.000000000e+00    0.000000000e+00
      315047375   -7.025420200e-05   -4.469410342e-04   -6.940615094e-06   -6.346293503e-06    0.000000000e+00    0.000000000e+00    0.000000000e+00    0.000000000e+00
      322547313   -8.813545719e-05   -4.945457331e-04    1.252870970e-05    1.505595492e-06    0.000000000e+00    0.000000000e+00    0.000000000e+00    0.000000000e+00
      330047250   -4.061884101e-05   -4.332820245e-04   -1.858019459e-05   -5.013438113e-06    0.000000000e+00    0.000000000e+00    0.000000000e+00    0.000000000e+00
      337547188   -5.542988583e-05   -5.164752365e-04   -2.661198960e-05   -4.874490500e-08    0.000000000e+00    0.000000000e+00    0.000000000e+00    0.000000000e+00
      345047125   -3.346581798e-05   -5.623670295e-04    4.467481267e-05    3.981620466e-06    0.000000000e+00    0.000000000e+00    0.000000000e+00    0.000000000e+00
      352547063   -5.663451248e-06   -6.018647691e-04    2.939755177e-05   -2.089055488e-05    0.000000000e+00    0.000000000e+00    0.000000000e+00    0.000000000e+00
      360047000   -2.233156238e-06   -5.193278776e-04   -1.327128211e-05    1.809461719e-05    0.000000000e+00    0.000000000e+00    0.000000000e+00    0.000000000e+00
      367546938    1.362899202e-04   -5.711924168e-04   -8.626481758e-06   -3.393531188e-06    0.000000000e+00    0.000000000e+00    0.000000000e+00    0.000000000e+00
      375046875    2.160552540e-04   -6.421681028e-04   -2.142242920e-05   -1.209079801e-05    0.000000000e+00    0.000000000e+00    0.000000000e+00    0.000000000e+00
      382546813    2.699942852e-04   -4.579182132e-04    1.139078449e-06   -2.678215969e-05    0.000000000e+00    0.000000000e+00    0.000000000e+00    0.000000000e+00
      390046750    1.897058391e-04   -5.592968664e-04   -3.387872493e-05   -2.592483725e-05    0.000000000e+00    0.000000000e+00    0.000000000e+00    0.000000000e+00
      397546688    2.431299508e-04   -3.709334123e-04    4.495184476e-05    1.561248268e-06    0.000000000e+00    0.000000000e+00    0.000000000e+00    0.000000000e+00
      405046625    2.905240108e-04   -4.220844421e-04   -1.186119698e-05    8.134552445e-06    0.000000000e+00    0.000000000e+00    0.000000000e+00    0.000000000e+00
      412546563    3.316074435e-04   -4.085147229e-04    3.721112307e-06    2.639608738e-06    0.000000000e+00    0.000000000e+00    0.000000000e+00    0.000000000e+00
      420046500    2.313407604e-04   -2.462368284e-04   -3.139343244e-05    3.502393884e-05    0.000000000e+00    0.000000000e+00    0.000000000e+00    0.000000000e+00
      427546438    3.454761463e-04   -4.206529702e-04   -3.602186189e-05   -2.282081005e-05    0.000000000e+00    0.000000000e+00    0.000000000e+00    0.000000000e+00
      435046375    2.743482182e-04   -2.723698271e-04    3.380615453e-06   -2.557373227e-05    0.000000000e+00    0.000000000e+00    0.000000000e+00    0.000000000e+00
      442546313    3.309225722e-04   -3.452590900e-04   -1.289586635e-05    4.722212452e-06    0.000000000e+00    0.000000000e+00    0.000000000e+00    0.000000000e+00
      450046250    3.465153859e-04   -9.825562302e-05    1.066267941e-05    2.675722317e-05    0.000000000e+00    0.000000000e+00    0.000000000e+00    0.000000000e+00
      457546188    3.510273818e-04   -2.402325626e-04   -3.980113433e-06   -3.059185474e-05    0.000000000e+00    0.000000000e+00    0.000000000e+00    0.000000000e+00
      465046125    3.873492824e-04   -3.661770279e-06    2.266758929e-05    3.689158802e-06    0.000000000e+00    0.000000000e+00    0.000000000e+00    0.000000000e+00
      472546063    1.849130349e-04   -1.347428333e-04   -2.380304250e-05   -6.431243094e-08    0.000000000e+00    0.000000000e+00    0.000000000e+00    0.000000000e+00
      480046000    2.970944042e-04   -4.803289994e-05   -3.977494271e-05    9.356695045e-06    0.000000000e+00    0.000000000e+00    0.000000000e+00    0.000000000e+00
      487545938    2.216696739e-04   -1.520028745e-04    5.325511302e-05    1.490839531e-05    0.000000000e+00    0.000000000e+00    0.000000000e+00    0.000000000e+00
      495045875    3.101656912e-04   -1.122877529e-05    1.195539062e-05    1.188199167e-05    0.000000000e+00    0.000000000e+00    0.000000000e+00    0.000000000e+00
      502545813    7.083976379e-05    4.572626131e-05   -9.383006727e-06    5.968789537e-06    0.000000000e+00    0.000000000e+00    0.000000000e+00    0.000000000e+00
      510045750    1.246928005e-04   -1.113982671e-05    1.445314956e-05   -5.406960554e-05    0.000000000e+00    0.000000000e+00    0.000000000e+00    0.000000000e+00
      517545688    1.144141133e-04   -7.349269436e-05    4.422401616e-05    3.459676736e-05    0.000000000e+00    0.000000000e+00    0.000000000e+00    0.000000000e+00
      525045625    3.398023910e-05    9.672423039e-05   -1.767022513e-05    3.156365210e-06    0.000000000e+00    0.000000000e+00    0.000000000e+00    0.000000000e+00
      532545563   -7.423550414e-05   -5.782839798e-05   -1.105859792e-05   -4.094736596e-06    0.000000000e+00    0.000000000e+00    0.000000000e+00    0.000000000e+00
      540045500    2.998732452e-05    5.158903150e-05   -4.010510384e-05    2.700083860e-05    0.000000000e+00    0.000000000e+00    0.000000000e+00    0.000000000e+00
      547545438   -3.336678856e-05   -4.754448673e-05   -3.369146361e-05   -2.768368358e-05    0.000000000e+00    0.000000000e+00    0.000000000e+00    0.000000000e+00
      555045375   -1.636526868e-04   -7.293444651e-05    2.326316462e-05   -4.625730526e-06    0.000000000e+00    0.000000000e+00    0.000000000e+00    0.000000000e+00
      562545313   -1.156970029e-04   -9.541476902e-05   -4.668180281e-06    2.058839164e-05    0.000000000e+00    0.000000000e+00    0.000000000e+00    0.000000000e+00
      570045250   -2.625725465e-04   -7.490417920e-05    1.984466326e-05    5.316902843e-06    0.000000000e+00    0.000000000e+00    0.000000000e+00    0.000000000e+00
      577545188   -2.032393240e-04   -1.607357117e-04   -1.319928197e-05   -2.529884841e-05    0.000000000e+00    0.000000000e+00    0.000000000e+00    0.000000000e+00
      585045125   -1.582571858e-04   -2.845917770e-04   -4.388007801e-05   -1.688273187e-05    0.000000000e+00    0.000000000e+00    0.000000000e+00    0.000000000e+00
      592545063   -2.095975651e-04   -2.265465446e-04   -1.841700760e-05   -8.931869161e-06    0.000000000e+00    0.000000000e+00    0.000000000e+00    0.000000000e+00
      600045000   -3.167986579e-04   -2.820100926e-04   -3.619809286e-05    2.378321005e-05    0.000000000e+00    0.000000000e+00    0.000000000e+00    0.000000000e+00
      607544938   -3.138282918e-04   -3.149928816e-04    5.154914106e-05   -3.661251685e-05    0.000000000e+00    0.000000000e+00    0.000000000e+00    0.000000000e+00
      615044875   -2.116631949e-04   -4.385806969e-04   -1.833771785e-05    2.460888936e-05    0.000000000e+00    0.000000000e+00    0.000000000e+00    0.000000000e+00
      622544813   -1.973775506e-04   -4.451097047e-04    1.358029294e-05   -2.323140143e-05    0.000000000e+00    0.000000000e+00    0.000000000e+00    0.000000000e+00
      630044750   -2.275272418e-04   -4.851050908e-04   -2.278710781e-05   -4.789829291e-06    0.000000000e+00    0.000000000e+00    0.000000000e+00    0.000000000e+00
      637544688   -9.215559112e-05   -4.567570286e-04   -3.497234729e-06   -4.948458354e-06    0.000000000e+00    0.000000000e+00    0.000000000e+00    0.000000000e+00
      645044625   -1.452663419e-04   -4.888194962e-04    9.968756785e-06    1.199240160e-05    0.000000000e+00    0.000000000e+00    0.000000000e+00    0.000000000e+00
      652544563   -4.758709474e-05   -4.248929035e-04   -4.261056529e-05   -1.236989920e-05    0.000000000e+00    0.000000000e+00    0.000000000e+00    0.000000000e+00
      660044500   -2.821241651e-05   -5.776310572e-04    8.503042409e-06   -2.867842159e-05    0.000000000e+00    0.000000000e+00    0.000000000e+00    0.000000000e+00
      667544438    9.980901814e-05   -6.810546038e-04   -4.705871106e-05   -1.033125318e-05    0.000000000e+00    0.000000000e+00    0.000000000e+00    0.000000000e+00
      675044375    1.243826409e-04   -5.619692383e-04   -5.562202932e-05    2.279452247e-06    0.000000000e+00    0.000000000e+00    0.000000000e+00    0.000000000e+00
      682544313    6.273827603e-05   -6.323778071e-04    4.959969829e-06   -3.032136874e-06    0.000000000e+00    0.000000000e+00    0.000000000e+00    0.000000000e+00
      690044250    2.102082071e-04   -5.415783962e-04   -3.544154242e-05   -2.602823542e-06    0.000000000e+00    0.000000000e+00    0.000000000e+00    0.000000000e+00
      697544188    2.565506729e-04   -7.256119279e-04    1.509874801e-05   -4.276015170e-05    0.000000000e+00    0.000000000e+00    0.000000000e+00    0.000000000e+00
      705044125    3.735836362e-04   -5.999205750e-04    2.047146882e-05   -9.333378330e-06    0.000000000e+00    0.000000000e+00    0.000000000e+00    0.000000000e+00
      712544063    2.938490361e-04   -6.181999343e-04   -5.142824011e-05    9.647585102e-06    0.000000000e+00    0.000000000e+00    0.000000000e+00    0.000000000e+00
      720044000    3.681666858e-04   -4.132360045e-04   -3.487397407e-05    5.908914773e-06    0.000000000e+00    0.000000000e+00    0.000000000e+00    0.000000000e+00
      727543938    5.377579364e-04   -4.164225829e-04   -1.158632313e-05    1.035025070e-05    0.000000000e+00    0.000000000e+00    0.000000000e+00    0.000000000e+00
      735043875    4.181953263e-04   -3.407738986e-04    4.865043229e-05   -2.393191244e-05    0.000000000e+00    0.000000000e+00    0.000000000e+00    0.000000000e+00
      742543813    5.854121409e-04   -4.096866178e-04   -1.333988075e-05   -1.405901912e-06    0.000000000e+00    0.000000000e+00    0.000000000e+00    0.000000000e+00
      750043750    4.210711922e-04   -2.913138596e-04   -6.287650649e-06   -1.404575596e-05    0.000000000e+00    0.000000000e+00    0.000000000e+00    0.000000000e+00
      757543688    4.346583155e-04   -1.539759396e-04   -4.567542874e-06   -6.047937859e-06    0.000000000e+00    0.000000000e+00    0.000000000e+00    0.000000000e+00
      765043625    6.130704423e-04   -1.194539800e-04    5.453337963e-06    8.733258028e-07    0.000000000e+00    0.000000000e+00    0.000000000e+00    0.000000000e+00
      772543563    5.107151228e-04   -1.468028204e-04    4.399787940e-05    9.452686754e-06    0.000000000e+00    0.000000000e+00    0.000000000e+00    0.000000000e+00
      780043500    3.928320657e-04   -1.261713624e-04    1.467500715e-05    1.967789285e-05    0.000000000e+00    0.000000000e+00    0.000000000e+00    0.000000000e+00
      787543438    4.251488135e-04   -5.549838170e-05    2.689239409e-06    3.680960072e-05    0.000000000e+00    0.000000000e+00    0.000000000e+00    0.000000000e+00
      795043375    3.243054962e-04   -2.379382749e-05   -2.055453706e-06    9.625025996e-06    0.000000000e+00    0.000000000e+00    0.000000000e+00    0.000000000e+00
      802543313    2.536105167e-04    2.868016600e-05   -4.119996447e-05    1.359681573e-05    0.000000000e+00    0.000000000e+00    0.000000000e+00    0.000000000e+00
      810043250    1.343373297e-04    9.953431436e-05   -3.856428884e-05    3.271171352e-07    0.000000000e+00    0.000000000e+00    0.000000000e+00    0.000000000e+00
      817543188    1.623788557e-04    6.959414168e-05   -1.608917410e-05    1.533105569e-05    0.000000000e+00    0.000000000e+00    0.000000000e+00    0.000000000e+00
      825043125    1.146867071e-04    2.355095348e-04   -2.911601587e-05    5.733646958e-06    0.000000000e+00    0.000000000e+00    0.000000000e+00    0.000000000e+00
      832543063    6.257949281e-05    1.988805016e-04    3.562373649e-06   -1.253924438e-05    0.000000000e+00    0.000000000e+00    0.000000000e+00    0.000000000e+00
      840043000   -1.388856472e-04    8.566393808e-05   -3.661490155e-06    5.376429726e-06    0.000000000e+00    0.000000000e+00    0.000000000e+00    0.000000000e+00
      847542938    3.584188448e-07    1.502691885e-04    2.516839959e-05   -4.861862544e-05    0.000000000e+00    0.000000000e+00    0.000000000e+00    0.000000000e+00
      855042875   -1.038414921e-04    1.713952079e-04   -2.163643876e-05   -9.203453374e-06    0.000000000e+00    0.000000000e+00    0.000000000e+00    0.000000000e+00
      862542813   -1.045285317e-04   -5.841558232e-05   -3.294727549e-06    1.000690827e-05    0.000000000e+00    0.000000000e+00    0.000000000e+00    0.000000000e+00
      870042750   -1.319192088e-04   -2.004923044e-05    9.484335351e-06    3.347487655e-05    0.000000000e+00    0.000000000e+00    0.000000000e+00    0.000000000e+00
