! NanoVNA-App by OneOfEleven et al v1.1.209 (+OD15) 
! Date: 2024-07-30 12:09:10
! Start: 50kHz Stop: 6GHz Points: 801
! S-Parameter data: F S11 S21 S12 S22
# Hz S RI R 50
!     Frequency           S11_Real           S11_Imag           S21_Real           S21_Imag           S12_Real           S12_Imag           S22_Real           S22_Imag
          50000   -2.387107816e-03   -5.179890431e-03   -6.260594319e-07   -6.703316103e-06    0.000000000e+00    0.000000000e+00    0.000000000e+00    0.000000000e+00
        7549938    6.518218433e-04   -7.940391661e-04   -2.050315061e-06    1.817230259e-05    0.000000000e+00    0.000000000e+00    0.000000000e+00    0.000000000e+00
       15049875   -6.263634714e-05   -6.397988764e-04   -2.545541247e-05   -6.740789559e-06    0.000000000e+00    0.000000000e+00    0.000000000e+00    0.000000000e+00
       22549813    9.295597920e-06   -4.149166925e-04    2.896649494e-05   -2.107701766e-05    0.000000000e+00    0.000000000e+00    0.000000000e+00    0.000000000e+00
       30049750   -2.559698187e-04   -3.792114439e-04   -1.256064479e-05    3.735620339e-05    0.000000000e+00    0.000000000e+00    0.000000000e+00    0.000000000e+00
       37549688   -1.007818355e-04   -3.085210919e-04   -3.654370448e-05   -6.454980394e-06    0.000000000e+00    0.000000000e+00    0.000000000e+00    0.000000000e+00
       45049625   -1.767356880e-04   -3.607258259e-04   -1.989338671e-05    1.068289930e-05    0.000000000e+00    0.000000000e+00    0.000000000e+00    0.000000000e+00
       52549563   -2.019824897e-04   -2.161764714e-04   -2.912330092e-05   -2.316239261e-05    0.000000000e+00    0.000000000e+00    0.000000000e+00    0.000000000e+00
       60049500   -1.685261086e-04   -2.816245542e-04    9.193402093e-07   -3.834636857e-07    0.000000000e+00    0.000000000e+00    0.000000000e+00    0.000000000e+00
       67549438   -1.090179212e-04   -1.859665499e-04   -1.008894196e-05    2.963023235e-06    0.000000000e+00    0.000000000e+00    0.000000000e+00    0.000000000e+00
       75049375   -2.500277187e-04   -2.994060633e-04   -2.946770292e-05   -3.516752258e-06    0.000000000e+00    0.000000000e+00    0.000000000e+00    0.000000000e+00
       82549313   -1.529831352e-04   -2.487758466e-04   -1.422107562e-05   -1.374300427e-05    0.000000000e+00    0.000000000e+00    0.000000000e+00    0.000000000e+00
       90049250   -2.450794273e-04   -3.376273380e-04   -1.686378346e-05   -7.131963230e-06    0.000000000e+00    0.000000000e+00    0.000000000e+00    0.000000000e+00
       97549188   -2.432784095e-04   -2.025705471e-04    3.917987488e-05    3.136545274e-05    0.000000000e+00    0.000000000e+00    0.000000000e+00    0.000000000e+00
      105049125   -3.448732969e-05   -3.202226071e-04    2.777595182e-05   -2.124111006e-06    0.000000000e+00    0.000000000e+00    0.000000000e+00    0.000000000e+00
      112549063   -9.791207412e-05   -2.570327197e-04    2.332604708e-06    3.944408945e-06    0.000000000e+00    0.000000000e+00    0.000000000e+00    0.000000000e+00
      120049000   -5.429910743e-05   -2.813188185e-04    8.101489584e-06   -1.016519491e-06    0.000000000e+00    0.000000000e+00    0.000000000e+00    0.000000000e+00
      127548938   -1.132388570e-04   -1.901265350e-04   -2.030267979e-06   -2.575387589e-05    0.000000000e+00    0.000000000e+00    0.000000000e+00    0.000000000e+00
      135048875   -4.241957504e-05   -3.013542737e-04   -1.185845667e-05   -1.143114423e-05    0.000000000e+00    0.000000000e+00    0.000000000e+00    0.000000000e+00
      142548813    4.476007689e-06   -3.049509251e-04    7.245818779e-06   -6.316114195e-06    0.000000000e+00    0.000000000e+00    0.000000000e+00    0.000000000e+00
      150048750   -1.748365466e-04   -3.303120029e-04   -3.033768189e-05   -2.690155270e-06    0.000000000e+00    0.000000000e+00    0.000000000e+00    0.000000000e+00
      157548688   -1.069357677e-04   -2.204316115e-04    5.353352208e-06    1.018094918e-05    0.000000000e+00    0.000000000e+00    0.000000000e+00    0.000000000e+00
      165048625   -9.079593292e-05   -2.967931796e-04   -2.395999581e-05   -1.072055602e-05    0.000000000e+00    0.000000000e+00    0.000000000e+00    0.000000000e+00
      172548563   -4.387764056e-05   -3.016295668e-04    2.928401045e-05    5.858718737e-07    0.000000000e+00    0.000000000e+00    0.000000000e+00    0.000000000e+00
      180048500   -1.262042060e-04   -1.902444637e-04    3.291313817e-07    1.426221024e-05    0.000000000e+00    0.000000000e+00    0.000000000e+00    0.000000000e+00
      187548438   -9.072648390e-05   -2.465737052e-04   -1.269794757e-05   -2.006844625e-05    0.000000000e+00    0.000000000e+00    0.000000000e+00    0.000000000e+00
      195048375   -1.240364945e-04   -1.401951595e-04   -1.129096927e-05   -1.414576127e-05    0.000000000e+00    0.000000000e+00    0.000000000e+00    0.000000000e+00
      202548313   -8.871518367e-05   -1.577931398e-04   -3.829847174e-06    2.703449718e-05    0.000000000e+00    0.000000000e+00    0.000000000e+00    0.000000000e+00
      210048250   -9.690121078e-05   -3.421923611e-04    5.295706433e-05    1.800733662e-05    0.000000000e+00    0.000000000e+00    0.000000000e+00    0.000000000e+00
      217548188   -3.967513476e-05   -1.681533467e-04   -4.349574738e-06   -2.813230594e-06    0.000000000e+00    0.000000000e+00    0.000000000e+00    0.000000000e+00
      225048125   -3.518571611e-05   -1.360564929e-04   -1.197032725e-05    2.455001777e-05    0.000000000e+00    0.000000000e+00    0.000000000e+00    0.000000000e+00
      232548063   -1.328201033e-04   -8.842501848e-05    1.599772804e-05    8.600342881e-06    0.000000000e+00    0.000000000e+00    0.000000000e+00    0.000000000e+00
      240048000   -1.787031797e-04   -2.090232738e-04   -8.718531717e-06   -1.672460348e-05    0.000000000e+00    0.000000000e+00    0.000000000e+00    0.000000000e+00
      247547938   -1.721579029e-04   -2.378639620e-04    1.570152017e-05   -9.587901332e-06    0.000000000e+00    0.000000000e+00    0.000000000e+00    0.000000000e+00
      255047875   -1.608556195e-04   -1.916765614e-04   -1.199947928e-05   -9.532363038e-06    0.000000000e+00    0.000000000e+00    0.000000000e+00    0.000000000e+00
      262547813   -2.409123990e-04   -3.125603835e-04    4.880862252e-05    6.801078143e-06    0.000000000e+00    0.000000000e+00    0.000000000e+00    0.000000000e+00
      270047750   -2.286662057e-04   -2.807041747e-04   -3.025929982e-05   -4.789551167e-05    0.000000000e+00    0.000000000e+00    0.000000000e+00    0.000000000e+00
      277547688   -1.854308066e-04   -3.146122326e-04   -3.229112190e-05   -9.828996554e-06    0.000000000e+00    0.000000000e+00    0.000000000e+00    0.000000000e+00
      285047625   -1.158700470e-04   -3.220491926e-04   -1.435850027e-05   -2.578452586e-05    0.000000000e+00    0.000000000e+00    0.000000000e+00    0.000000000e+00
      292547563   -1.925418474e-04   -5.053579807e-04    3.606652626e-06   -2.126223308e-06    0.000000000e+00    0.000000000e+00    0.000000000e+00    0.000000000e+00
      300047500   -2.388680587e-04   -3.904341720e-04    2.869600576e-05    3.496325371e-05    0.000000000e+00    0.000000000e+00    0.000000000e+00    0.000000000e+00
      307547438   -2.666017972e-04   -4.860337940e-04   -2.988438837e-06   -3.169104457e-05    0.000000000e+00    0.000000000e+00    0.000000000e+00    0.000000000e+00
      315047375   -1.807451044e-04   -4.550365556e-04   -3.128346361e-05   -4.306874871e-06    0.000000000e+00    0.000000000e+00    0.000000000e+00    0.000000000e+00
      322547313   -2.055266668e-04   -5.738558830e-04    7.747995369e-06   -1.858310497e-05    0.000000000e+00    0.000000000e+00    0.000000000e+00    0.000000000e+00
      330047250   -2.000712266e-04   -5.972766085e-04   -3.903528523e-06   -2.926857633e-05    0.000000000e+00    0.000000000e+00    0.000000000e+00    0.000000000e+00
      337547188   -1.870953274e-04   -5.983264418e-04    5.768457049e-05    6.390853741e-06    0.000000000e+00    0.000000000e+00    0.000000000e+00    0.000000000e+00
      345047125   -5.611710003e-05   -6.169474800e-04    1.959848305e-05   -8.732913557e-06    0.000000000e+00    0.000000000e+00    0.000000000e+00    0.000000000e+00
      352547063    4.671431088e-05   -5.077579408e-04    2.587300878e-05    1.914140739e-05    0.000000000e+00    0.000000000e+00    0.000000000e+00    0.000000000e+00
      360047000   -6.687848509e-05   -5.889015738e-04   -1.471686301e-05   -4.444420483e-06    0.000000000e+00    0.000000000e+00    0.000000000e+00    0.000000000e+00
      367546938    9.972770386e-06   -5.995000247e-04    1.214040367e-05    4.946523404e-06    0.000000000e+00    0.000000000e+00    0.000000000e+00    0.000000000e+00
      375046875    1.767885260e-04   -4.518681671e-04    2.425420234e-06    1.606270416e-05    0.000000000e+00    0.000000000e+00    0.000000000e+00    0.000000000e+00
      382546813    2.614885743e-04   -5.786296679e-04   -1.056272959e-05   -3.632637527e-05    0.000000000e+00    0.000000000e+00    0.000000000e+00    0.000000000e+00
      390046750    2.009285527e-04   -5.563740269e-04    7.014355106e-06    5.166435585e-06    0.000000000e+00    0.000000000e+00    0.000000000e+00    0.000000000e+00
      397546688    3.814564261e-04   -6.319911336e-04    1.959667316e-05    7.915566130e-06    0.000000000e+00    0.000000000e+00    0.000000000e+00    0.000000000e+00
      405046625    3.379140981e-04   -5.058255629e-04    1.503396561e-06    7.659054972e-07    0.000000000e+00    0.000000000e+00    0.000000000e+00    0.000000000e+00
      412546563    4.083889362e-04   -5.364386016e-04   -1.971146048e-06    1.692707701e-05    0.000000000e+00    0.000000000e+00    0.000000000e+00    0.000000000e+00
      420046500    4.074874741e-04   -4.178799572e-04    8.464474490e-07    1.921928560e-05    0.000000000e+00    0.000000000e+00    0.000000000e+00    0.000000000e+00
      427546438    3.616066824e-04   -3.275540075e-04    6.711635706e-06    2.018625855e-05    0.000000000e+00    0.000000000e+00    0.000000000e+00    0.000000000e+00
      435046375    3.671971499e-04   -2.124243329e-04   -3.293673944e-05    2.982042315e-05    0.000000000e+00    0.000000000e+00    0.000000000e+00    0.000000000e+00
      442546313    3.546907392e-04   -2.115318930e-04    2.426624269e-05    1.894754860e-06    0.000000000e+00    0.000000000e+00    0.000000000e+00    0.000000000e+00
      450046250    4.176070215e-04   -9.272072930e-05    5.858844452e-05    2.020503302e-07    0.000000000e+00    0.000000000e+00    0.000000000e+00    0.000000000e+00
      457546188    4.526893026e-04    3.936325083e-05   -1.561623321e-05   -6.380009381e-06    0.000000000e+00    0.000000000e+00    0.000000000e+00    0.000000000e+00
      465046125    4.189983592e-04    1.519237048e-05    4.031737717e-06    1.010769574e-05    0.000000000e+00    0.000000000e+00    0.000000000e+00    0.000000000e+00
      472546063    3.923210897e-04   -8.679687744e-05    1.875145790e-05   -1.019082902e-05    0.000000000e+00    0.000000000e+00    0.000000000e+00    0.000000000e+00
      480046000    3.496170975e-04    1.793622801e-06   -2.593074532e-05    9.218862942e-06    0.000000000e+00    0.000000000e+00    0.000000000e+00    0.000000000e+00
      487545938    3.568888933e-04    8.885403804e-05    1.183099266e-05   -4.144265768e-05    0.000000000e+00    0.000000000e+00    0.000000000e+00    0.000000000e+00
      495045875    2.847756841e-04    9.818304534e-05    1.337189497e-05   -8.331590834e-06    0.000000000e+00    0.000000000e+00    0.000000000e+00    0.000000000e+00
      502545813    2.639087907e-04    2.149067004e-04    1.405197963e-05   -1.094046456e-05    0.000000000e+00    0.000000000e+00    0.000000000e+00    0.000000000e+00
      510045750    1.619366376e-04    1.821150072e-04    1.541273605e-06   -4.824046482e-05    0.000000000e+00    0.000000000e+00    0.000000000e+00    0.000000000e+00
      517545688    3.172312427e-05    1.454448793e-04    1.472738222e-05   -1.734372631e-06    0.000000000e+00    0.000000000e+00    0.000000000e+00    0.000000000e+00
      525045625   -7.051415014e-05    9.871340444e-05    3.642951924e-06   -1.256614723e-05    0.000000000e+00    0.000000000e+00    0.000000000e+00    0.000000000e+00
      532545563    3.169104457e-05    1.879891206e-04    2.467956620e-06    2.576047336e-05    0.000000000e+00    0.000000000e+00    0.000000000e+00    0.000000000e+00
      540045500    7.069611456e-05    1.390997204e-04   -1.774346856e-05    1.517848068e-05    0.000000000e+00    0.000000000e+00    0.000000000e+00    0.000000000e+00
      547545438   -2.297314350e-04    1.948153222e-04    2.571724508e-05    3.778931568e-05    0.000000000e+00    0.000000000e+00    0.000000000e+00    0.000000000e+00
      555045375   -1.032227665e-04   -2.628517541e-05    1.279991864e-07    5.133978448e-06    0.000000000e+00    0.000000000e+00    0.000000000e+00    0.000000000e+00
      562545313   -3.785310837e-04    4.956887278e-05    2.647065048e-05   -7.321423254e-06    0.000000000e+00    0.000000000e+00    0.000000000e+00    0.000000000e+00
      570045250   -2.447171719e-04    1.111684824e-07    1.558945041e-05    8.287874152e-06    0.000000000e+00    0.000000000e+00    0.000000000e+00    0.000000000e+00
      577545188   -3.632013395e-04   -2.697904420e-04   -5.855034033e-06   -8.202461686e-06    0.000000000e+00    0.000000000e+00    0.000000000e+00    0.000000000e+00
      585045125   -3.622302611e-04   -6.926384231e-06   -2.368996684e-05    2.438740466e-06    0.000000000e+00    0.000000000e+00    0.000000000e+00    0.000000000e+00
      592545063   -5.394068430e-04   -4.059326238e-05    4.328418527e-06   -1.908944978e-05    0.000000000e+00    0.000000000e+00    0.000000000e+00    0.000000000e+00
      600045000   -4.257836845e-04   -2.892588673e-04    1.421253364e-05   -2.761486212e-05    0.000000000e+00    0.000000000e+00    0.000000000e+00    0.000000000e+00
      607544938   -5.842083483e-04   -4.388161469e-04   -9.767256415e-06   -1.863790771e-06    0.000000000e+00    0.000000000e+00    0.000000000e+00    0.000000000e+00
      615044875   -4.628848983e-04   -4.464715021e-04   -6.952221156e-05    3.248039093e-06    0.000000000e+00    0.000000000e+00    0.000000000e+00    0.000000000e+00
      622544813   -2.029002208e-04   -4.326769558e-04   -9.213040357e-06    9.118113667e-06    0.000000000e+00    0.000000000e+00    0.000000000e+00    0.000000000e+00
      630044750   -3.231637238e-04   -5.237812293e-04   -2.928677350e-05   -1.672296276e-05    0.000000000e+00    0.000000000e+00    0.000000000e+00    0.000000000e+00
      637544688   -2.798626665e-04   -6.559368339e-04   -6.418303383e-05   -1.386567601e-05    0.000000000e+00    0.000000000e+00    0.000000000e+00    0.000000000e+00
      645044625   -1.974611223e-04   -6.728438893e-04   -1.704177976e-06   -2.345641042e-05    0.000000000e+00    0.000000000e+00    0.000000000e+00    0.000000000e+00
      652544563   -1.612420747e-04   -7.847024826e-04   -8.487224363e-07   -7.381285286e-06    0.000000000e+00    0.000000000e+00    0.000000000e+00    0.000000000e+00
      660044500   -9.761784167e-05   -8.008983568e-04    8.988084119e-06   -1.553741276e-05    0.000000000e+00    0.000000000e+00    0.000000000e+00    0.000000000e+00
      667544438    1.422611240e-04   -7.374942070e-04   -3.984239083e-05    3.218790880e-05    0.000000000e+00    0.000000000e+00    0.000000000e+00    0.000000000e+00
      675044375    7.121076487e-05   -7.678238326e-04   -2.052162199e-05    5.292393325e-05    0.000000000e+00    0.000000000e+00    0.000000000e+00    0.000000000e+00
      682544313    9.971571853e-05   -8.994562668e-04   -1.643054748e-05   -5.055903785e-06    0.000000000e+00    0.000000000e+00    0.000000000e+00    0.000000000e+00
      690044250    1.894830057e-04   -7.625236176e-04   -7.746620213e-06   -1.425550454e-05    0.000000000e+00    0.000000000e+00    0.000000000e+00    0.000000000e+00
      697544188    4.528119171e-04   -8.832535823e-04    3.462304085e-05   -3.680526061e-05    0.000000000e+00    0.000000000e+00    0.000000000e+00    0.000000000e+00
      705044125    4.453009460e-04   -7.973161410e-04    2.117741315e-05   -7.809738236e-06    0.000000000e+00    0.000000000e+00    0.000000000e+00    0.000000000e+00
      712544063    4.814572458e-04   -7.239021943e-04    2.474384382e-05   -3.854515307e-05    0.000000000e+00    0.000000000e+00    0.000000000e+00    0.000000000e+00
      720044000    5.285533844e-04   -5.406993441e-04    3.622181248e-05    1.322295475e-06    0.000000000e+00    0.000000000e+00    0.000000000e+00    0.000000000e+00
      727543938    7.133423351e-04   -6.911246455e-04    8.801934115e-08   -1.824138849e-06    0.000000000e+00    0.000000000e+00    0.000000000e+00    0.000000000e+00
      735043875    6.109450478e-04   -5.516072270e-04    2.979396595e-05   -1.285599774e-05    0.000000000e+00    0.000000000e+00    0.000000000e+00    0.000000000e+00
      742543813    6.829055492e-04   -4.125261912e-04    1.487115151e-05    4.390171307e-05    0.000000000e+00    0.000000000e+00    0.000000000e+00    0.000000000e+00
      750043750    5.715424777e-04   -3.191707074e-04    1.642023926e-05   -2.539845991e-05    0.000000000e+00    0.000000000e+00    0.000000000e+00    0.000000000e+00
      757543688    6.182212383e-04   -2.901513362e-04    3.332876440e-05   -1.637042442e-05    0.000000000e+00    0.000000000e+00    0.000000000e+00    0.000000000e+00
      765043625    6.937186117e-04    2.935014709e-05   -1.336862078e-05   -3.322201337e-06    0.000000000e+00    0.000000000e+00    0.000000000e+00    0.000000000e+00
      772543563    6.656777114e-04   -5.221634638e-05   -2.836945896e-05    4.479366544e-05    0.000000000e+00    0.000000000e+00    0.000000000e+00    0.000000000e+00
      780043500    6.028750213e-04    1.032591099e-04   -1.929982864e-05   -9.819278830e-07    0.000000000e+00    0.000000000e+00    0.000000000e+00    0.000000000e+00
      787543438    4.982169485e-04    4.277689368e-05   -1.925832294e-05   -3.757496597e-05    0.000000000e+00    0.000000000e+00    0.000000000e+00    0.000000000e+00
      795043375    4.225729790e-04    1.772542164e-04   -2.660424434e-05   -2.309718002e-05    0.000000000e+00    0.000000000e+00    0.000000000e+00    0.000000000e+00
      802543313    3.711380414e-04    2.420495293e-04    7.012693004e-07   -2.597932325e-05    0.000000000e+00    0.000000000e+00    0.000000000e+00    0.000000000e+00
      810043250    2.045748697e-04    2.158259740e-04    1.759571751e-05    5.542990039e-06    0.000000000e+00    0.000000000e+00    0.000000000e+00    0.000000000e+00
      817543188    2.745038073e-04    2.513963263e-04   -2.426619903e-05    1.830200927e-05    0.000000000e+00    0.000000000e+00    0.000000000e+00    0.000000000e+00
      825043125    1.208977774e-04    3.066448844e-04   -1.499629889e-05    1.840915138e-05    0.000000000e+00    0.000000000e+00    0.000000000e+00    0.000000000e+00
      832543063    6.856837717e-05    2.866971190e-04    3.076627763e-05    2.037951708e-05    0.000000000e+00    0.000000000e+00    0.000000000e+00    0.000000000e+00
      840043000   -1.210127302e-04    3.461129963e-04    3.578497126e-05    2.390423288e-05    0.000000000e+00    0.000000000e+00    0.000000000e+00    0.000000000e+00
      847542938   -4.271537182e-05    1.327380451e-04    4.511827228e-06    1.156725193e-05    0.000000000e+00    0.000000000e+00    0.000000000e+00    0.000000000e+00
      855042875   -1.339480514e-04    3.273846814e-04    6.690421287e-05    2.701711855e-05    0.000000000e+00    0.000000000e+00    0.000000000e+00    0.000000000e+00
      862542813   -3.465685295e-04    2.970858477e-04   -1.115234954e-05    8.795311260e-06    0.000000000e+00    0.000000000e+00    0.000000000e+00    0.000000000e+00
      870042750   -3.419868590e-04    8.674942364e-05   -2.121785656e-06   -2.279450928e-05    0.000000000e+00    0.000000000e+00    0.000000000e+00    0.000000000e+00
