! NanoVNA-App by OneOfEleven et al v1.1.209 (+OD15) 
! Date: 2024-07-30 15:23:58
! Start: 200MHz Stop: 6GHz Points: 801
! S-Parameter data: F S11 S21 S12 S22
# Hz S RI R 50
!     Frequency           S11_Real           S11_Imag           S21_Real           S21_Imag           S12_Real           S12_Imag           S22_Real           S22_Imag
      200000000   -9.014788270e-01   -1.070613787e-01   -3.185123205e-07   -4.062149674e-05    0.000000000e+00    0.000000000e+00    0.000000000e+00    0.000000000e+00
      207250000   -9.117496014e-01   -1.811434887e-02    5.370005965e-06    2.603977919e-06    0.000000000e+00    0.000000000e+00    0.000000000e+00    0.000000000e+00
      214500000   -9.126185179e-01    7.305850834e-02    1.503340900e-05    1.169741154e-05    0.000000000e+00    0.000000000e+00    0.000000000e+00    0.000000000e+00
      221750000   -9.034289718e-01    1.646912992e-01    1.564621925e-05   -3.096088767e-05    0.000000000e+00    0.000000000e+00    0.000000000e+00    0.000000000e+00
      229000000   -8.859516382e-01    2.567301691e-01   -2.329517156e-05   -1.301988959e-06    0.000000000e+00    0.000000000e+00    0.000000000e+00    0.000000000e+00
      236250000   -8.560838103e-01    3.485525846e-01    6.869435310e-06   -1.403782517e-05    0.000000000e+00    0.000000000e+00    0.000000000e+00    0.000000000e+00
      243500000   -8.168615103e-01    4.369855225e-01    1.277495176e-05    3.658141941e-05    0.000000000e+00    0.000000000e+00    0.000000000e+00    0.000000000e+00
      250750000   -7.656781673e-01    5.229331255e-01    7.346272469e-06   -7.044523954e-06    0.000000000e+00    0.000000000e+00    0.000000000e+00    0.000000000e+00
      258000000   -7.045975924e-01    6.033517718e-01   -2.881418914e-05   -2.012960613e-05    0.000000000e+00    0.000000000e+00    0.000000000e+00    0.000000000e+00
      265250000   -6.330709457e-01    6.772202253e-01    1.355819404e-05    2.591032535e-05    0.000000000e+00    0.000000000e+00    0.000000000e+00    0.000000000e+00
      272500000   -5.524758697e-01    7.433220744e-01    9.814277291e-06   -9.695068002e-07    0.000000000e+00    0.000000000e+00    0.000000000e+00    0.000000000e+00
      279750000   -4.633695483e-01    7.999499440e-01    1.200009137e-05    8.568167686e-08    0.000000000e+00    0.000000000e+00    0.000000000e+00    0.000000000e+00
      287000000   -3.649816215e-01    8.458632827e-01   -4.688277841e-06    8.544884622e-06    0.000000000e+00    0.000000000e+00    0.000000000e+00    0.000000000e+00
      294250000   -2.619395554e-01    8.792980909e-01    3.041047603e-05    2.485699952e-06    0.000000000e+00    0.000000000e+00    0.000000000e+00    0.000000000e+00
      301500000   -1.536483616e-01    8.992067575e-01    3.146752715e-05   -9.959563613e-06    0.000000000e+00    0.000000000e+00    0.000000000e+00    0.000000000e+00
      308750000   -4.346117750e-02    9.067196250e-01   -2.392567694e-05    2.332590520e-05    0.000000000e+00    0.000000000e+00    0.000000000e+00    0.000000000e+00
      316000000    6.842365861e-02    8.993409872e-01   -1.243688166e-05   -4.204921424e-06    0.000000000e+00    0.000000000e+00    0.000000000e+00    0.000000000e+00
      323250000    1.778549552e-01    8.776905537e-01    4.228204489e-06    1.907441765e-05    0.000000000e+00    0.000000000e+00    0.000000000e+00    0.000000000e+00
      330500000    2.839366496e-01    8.424670696e-01    4.108715802e-05   -4.296470433e-05    0.000000000e+00    0.000000000e+00    0.000000000e+00    0.000000000e+00
      337750000    3.854169846e-01    7.943541408e-01   -1.809280366e-05   -2.499576658e-05    0.000000000e+00    0.000000000e+00    0.000000000e+00    0.000000000e+00
      345000000    4.791041613e-01    7.338907123e-01   -7.124617696e-07   -4.477053881e-05    0.000000000e+00    0.000000000e+00    0.000000000e+00    0.000000000e+00
      352250000    5.639618635e-01    6.621515155e-01   -5.976296961e-06   -1.862645149e-09    0.000000000e+00    0.000000000e+00    0.000000000e+00    0.000000000e+00
      359500000    6.390388608e-01    5.808682442e-01    1.925975084e-05    1.239497215e-05    0.000000000e+00    0.000000000e+00    0.000000000e+00    0.000000000e+00
      366750000    7.034493685e-01    4.921696782e-01    2.889893949e-06    2.595223486e-05    0.000000000e+00    0.000000000e+00    0.000000000e+00    0.000000000e+00
      374000000    7.562742829e-01    3.971309364e-01   -3.962032497e-05    4.512164742e-05    0.000000000e+00    0.000000000e+00    0.000000000e+00    0.000000000e+00
      381250000    7.968260050e-01    2.964977622e-01   -4.364084452e-05    2.835597843e-05    0.000000000e+00    0.000000000e+00    0.000000000e+00    0.000000000e+00
      388500000    8.253828883e-01    1.939011663e-01    2.744607627e-06   -1.679174602e-05    0.000000000e+00    0.000000000e+00    0.000000000e+00    0.000000000e+00
      395750000    8.417512774e-01    9.019812942e-02   -5.411915481e-06   -1.824367791e-05    0.000000000e+00    0.000000000e+00    0.000000000e+00    0.000000000e+00
      403000000    8.458817601e-01   -1.482084580e-02    9.545125067e-06    6.275251508e-06    0.000000000e+00    0.000000000e+00    0.000000000e+00    0.000000000e+00
      410250000    8.387286663e-01   -1.179983541e-01    4.414469004e-07   -3.302469850e-06    0.000000000e+00    0.000000000e+00    0.000000000e+00    0.000000000e+00
      417500000    8.210906386e-01   -2.184807211e-01    1.140963286e-05   -3.177393228e-05    0.000000000e+00    0.000000000e+00    0.000000000e+00    0.000000000e+00
      424750000    7.915700078e-01   -3.176549673e-01   -2.871826291e-05   -1.078564674e-05    0.000000000e+00    0.000000000e+00    0.000000000e+00    0.000000000e+00
      432000000    7.520620823e-01   -4.104303420e-01   -6.134621799e-06   -1.406855881e-05    0.000000000e+00    0.000000000e+00    0.000000000e+00    0.000000000e+00
      439250000    7.048056126e-01   -4.977566302e-01    3.624707460e-06   -5.014240742e-06    0.000000000e+00    0.000000000e+00    0.000000000e+00    0.000000000e+00
      446500000    6.481570005e-01   -5.788272023e-01   -4.217028618e-06    9.590759873e-06    0.000000000e+00    0.000000000e+00    0.000000000e+00    0.000000000e+00
      453750000    5.828266144e-01   -6.551148891e-01   -1.352466643e-05   -1.292116940e-05    0.000000000e+00    0.000000000e+00    0.000000000e+00    0.000000000e+00
      461000000    5.106188655e-01   -7.222844362e-01    1.516379416e-05   -7.108785212e-06    0.000000000e+00    0.000000000e+00    0.000000000e+00    0.000000000e+00
      468250000    4.326376915e-01   -7.815176249e-01    4.146806896e-05    9.722076356e-06    0.000000000e+00    0.000000000e+00    0.000000000e+00    0.000000000e+00
      475500000    3.479489386e-01   -8.328371644e-01   -1.282151788e-05    7.631257176e-06    0.000000000e+00    0.000000000e+00    0.000000000e+00    0.000000000e+00
      482750000    2.583744526e-01   -8.748837709e-01   -1.577846706e-05    6.468035281e-05    0.000000000e+00    0.000000000e+00    0.000000000e+00    0.000000000e+00
      490000000    1.653091013e-01   -9.071787596e-01   -3.697071224e-05   -5.199480802e-05    0.000000000e+00    0.000000000e+00    0.000000000e+00    0.000000000e+00
      497250000    6.802263856e-02   -9.300670028e-01   -2.806447446e-05   -1.240521669e-05    0.000000000e+00    0.000000000e+00    0.000000000e+00    0.000000000e+00
      504500000   -3.036661074e-02   -9.416510463e-01   -1.787766814e-05    4.617497325e-05    0.000000000e+00    0.000000000e+00    0.000000000e+00    0.000000000e+00
      511750000   -1.306010038e-01   -9.434310198e-01    1.522898674e-05   -2.235174179e-08    0.000000000e+00    0.000000000e+00    0.000000000e+00    0.000000000e+00
      519000000   -2.303763181e-01   -9.350590706e-01   -2.191960812e-05   -2.237036824e-06    0.000000000e+00    0.000000000e+00    0.000000000e+00    0.000000000e+00
      526250000   -3.304231465e-01   -9.142020345e-01    6.600469351e-05   -1.173559576e-05    0.000000000e+00    0.000000000e+00    0.000000000e+00    0.000000000e+00
      533500000   -4.274407923e-01   -8.831148744e-01   -1.689326018e-05   -3.371946514e-05    0.000000000e+00    0.000000000e+00    0.000000000e+00    0.000000000e+00
      540750000   -5.212266445e-01   -8.400524259e-01    5.392357707e-07   -1.710932702e-05    0.000000000e+00    0.000000000e+00    0.000000000e+00    0.000000000e+00
      548000000   -6.105692387e-01   -7.865600586e-01    4.013627768e-05   -1.992005855e-05    0.000000000e+00    0.000000000e+00    0.000000000e+00    0.000000000e+00
      555250000   -6.935302019e-01   -7.228600979e-01    2.534128726e-06    6.505008787e-05    0.000000000e+00    0.000000000e+00    0.000000000e+00    0.000000000e+00
      562500000   -7.690815926e-01   -6.490882039e-01   -1.830887049e-05   -2.695713192e-05    0.000000000e+00    0.000000000e+00    0.000000000e+00    0.000000000e+00
      569750000   -8.351368904e-01   -5.680593848e-01   -2.450961620e-05    1.648813486e-05    0.000000000e+00    0.000000000e+00    0.000000000e+00    0.000000000e+00
      577000000   -8.929927349e-01   -4.767082036e-01    1.530535519e-05   -2.760440111e-06    0.000000000e+00    0.000000000e+00    0.000000000e+00    0.000000000e+00
      584250000   -9.383497834e-01   -3.808498681e-01   -8.337199688e-06   -3.135856241e-05    0.000000000e+00    0.000000000e+00    0.000000000e+00    0.000000000e+00
      591500000   -9.718466997e-01   -2.792432904e-01    4.448927939e-06   -1.430511475e-05    0.000000000e+00    0.000000000e+00    0.000000000e+00    0.000000000e+00
      598750000   -9.937954545e-01   -1.720414311e-01   -2.857763320e-05    5.956739187e-06    0.000000000e+00    0.000000000e+00    0.000000000e+00    0.000000000e+00
      606000000   -1.002313614e+00   -6.438019872e-02   -2.368353307e-06   -2.653431147e-05    0.000000000e+00    0.000000000e+00    0.000000000e+00    0.000000000e+00
      613250000   -9.976426363e-01    4.244996980e-02    3.307126462e-05   -4.641711712e-05    0.000000000e+00    0.000000000e+00    0.000000000e+00    0.000000000e+00
      620500000   -9.805827737e-01    1.478167027e-01   -1.278892159e-05   -2.651847899e-05    0.000000000e+00    0.000000000e+00    0.000000000e+00    0.000000000e+00
      627750000   -9.496161342e-01    2.520527244e-01   -2.756714821e-06   -1.182034612e-05    0.000000000e+00    0.000000000e+00    0.000000000e+00    0.000000000e+00
      635000000   -9.082410336e-01    3.492907882e-01    9.234063327e-06   -1.637171954e-05    0.000000000e+00    0.000000000e+00    0.000000000e+00    0.000000000e+00
      642250000   -8.553386331e-01    4.409307539e-01    2.961605787e-06    2.861954272e-05    0.000000000e+00    0.000000000e+00    0.000000000e+00    0.000000000e+00
      649500000   -7.923476696e-01    5.247007012e-01   -9.821727872e-06    4.186294973e-05    0.000000000e+00    0.000000000e+00    0.000000000e+00    0.000000000e+00
      656750000   -7.198023200e-01    6.000629067e-01    1.937150955e-06   -3.307219595e-05    0.000000000e+00    0.000000000e+00    0.000000000e+00    0.000000000e+00
      664000000   -6.407166123e-01    6.659225821e-01    3.570690751e-06    4.841014743e-06    0.000000000e+00    0.000000000e+00    0.000000000e+00    0.000000000e+00
      671250000   -5.539305210e-01    7.209963202e-01    6.487406790e-05    2.067722380e-05    0.000000000e+00    0.000000000e+00    0.000000000e+00    0.000000000e+00
      678500000   -4.637713134e-01    7.662734389e-01    7.495284081e-06    2.074427903e-05    0.000000000e+00    0.000000000e+00    0.000000000e+00    0.000000000e+00
      685750000   -3.704117239e-01    8.004556298e-01   -9.933486581e-06   -3.344565630e-05    0.000000000e+00    0.000000000e+00    0.000000000e+00    0.000000000e+00
      693000000   -2.740249932e-01    8.230313659e-01    4.596263170e-05    2.292357385e-05    0.000000000e+00    0.000000000e+00    0.000000000e+00    0.000000000e+00
      700250000   -1.767493337e-01    8.362120986e-01    1.803971827e-06   -4.633143544e-05    0.000000000e+00    0.000000000e+00    0.000000000e+00    0.000000000e+00
      707500000   -7.908467948e-02    8.377588987e-01    4.564411938e-06   -1.481454819e-05    0.000000000e+00    0.000000000e+00    0.000000000e+00    0.000000000e+00
      714750000    1.774129085e-02    8.291752338e-01   -1.655891538e-05    2.557411790e-06    0.000000000e+00    0.000000000e+00    0.000000000e+00    0.000000000e+00
      722000000    1.095696092e-01    8.113046885e-01   -6.612390280e-07    4.528556019e-05    0.000000000e+00    0.000000000e+00    0.000000000e+00    0.000000000e+00
      729250000    2.013862580e-01    7.830097675e-01   -4.643574357e-06   -1.547206193e-05    0.000000000e+00    0.000000000e+00    0.000000000e+00    0.000000000e+00
      736500000    2.865188122e-01    7.467036247e-01    1.190230250e-05   -1.791585237e-05    0.000000000e+00    0.000000000e+00    0.000000000e+00    0.000000000e+00
      743750000    3.678410351e-01    7.023432255e-01    2.409238368e-05   -2.720020711e-05    0.000000000e+00    0.000000000e+00    0.000000000e+00    0.000000000e+00
      751000000    4.449086487e-01    6.497031450e-01    1.949071884e-05   -3.639142960e-05    0.000000000e+00    0.000000000e+00    0.000000000e+00    0.000000000e+00
      758250000    5.141709447e-01    5.901559591e-01   -6.236135960e-06   -4.362594336e-05    0.000000000e+00    0.000000000e+00    0.000000000e+00    0.000000000e+00
      765500000    5.787152052e-01    5.237327814e-01    5.136243999e-05   -1.812353730e-05    0.000000000e+00    0.000000000e+00    0.000000000e+00    0.000000000e+00
      772750000    6.352308989e-01    4.520933330e-01   -1.612212509e-05   -4.621036351e-05    0.000000000e+00    0.000000000e+00    0.000000000e+00    0.000000000e+00
      780000000    6.839267612e-01    3.752239645e-01    2.303998917e-05   -1.216027886e-05    0.000000000e+00    0.000000000e+00    0.000000000e+00    0.000000000e+00
      787250000    7.271940708e-01    2.925204933e-01   -7.449649274e-06   -2.931524068e-05    0.000000000e+00    0.000000000e+00    0.000000000e+00    0.000000000e+00
      794500000    7.599786520e-01    2.060539126e-01   -1.142732799e-05    1.827254891e-06    0.000000000e+00    0.000000000e+00    0.000000000e+00    0.000000000e+00
      801750000    7.843515873e-01    1.154274568e-01    2.344232053e-05   -1.308042556e-05    0.000000000e+00    0.000000000e+00    0.000000000e+00    0.000000000e+00
      809000000    8.001636267e-01    2.363739908e-02   -4.265084863e-05   -1.056212932e-05    0.000000000e+00    0.000000000e+00    0.000000000e+00    0.000000000e+00
      816250000    8.059055209e-01   -7.132959366e-02    2.073682845e-05   -3.258045763e-05    0.000000000e+00    0.000000000e+00    0.000000000e+00    0.000000000e+00
      823500000    8.013637066e-01   -1.662741750e-01   -8.000060916e-07   -5.633663386e-05    0.000000000e+00    0.000000000e+00    0.000000000e+00    0.000000000e+00
      830750000    7.871784568e-01   -2.627837062e-01   -4.182755947e-05   -3.299769014e-05    0.000000000e+00    0.000000000e+00    0.000000000e+00    0.000000000e+00
      838000000    7.624129653e-01   -3.563147187e-01   -2.343952656e-05    1.073442400e-05    0.000000000e+00    0.000000000e+00    0.000000000e+00    0.000000000e+00
      845250000    7.269159555e-01   -4.497797787e-01    1.038052142e-05   -5.220901221e-05    0.000000000e+00    0.000000000e+00    0.000000000e+00    0.000000000e+00
      852500000    6.801883578e-01   -5.384299755e-01    8.311122656e-06   -2.789311111e-05    0.000000000e+00    0.000000000e+00    0.000000000e+00    0.000000000e+00
      859750000    6.233901381e-01   -6.222527623e-01    9.501352906e-06   -1.889374107e-05    0.000000000e+00    0.000000000e+00    0.000000000e+00    0.000000000e+00
      867000000    5.539520383e-01   -7.016941905e-01    2.214778215e-05    2.716388553e-05    0.000000000e+00    0.000000000e+00    0.000000000e+00    0.000000000e+00
      874250000    4.773772359e-01   -7.715963721e-01    5.481764674e-06    2.574548125e-05    0.000000000e+00    0.000000000e+00    0.000000000e+00    0.000000000e+00
      881500000    3.885941505e-01   -8.339923620e-01    1.126900315e-07    5.336757749e-05    0.000000000e+00    0.000000000e+00    0.000000000e+00    0.000000000e+00
      888750000    2.945114672e-01   -8.841833472e-01   -1.990050077e-05   -3.134179860e-05    0.000000000e+00    0.000000000e+00    0.000000000e+00    0.000000000e+00
      896000000    1.919258237e-01   -9.228482842e-01   -1.080892980e-05    1.202337444e-05    0.000000000e+00    0.000000000e+00    0.000000000e+00    0.000000000e+00
      903250000    8.489575982e-02   -9.483261108e-01   -1.778267324e-05    2.859905362e-05    0.000000000e+00    0.000000000e+00    0.000000000e+00    0.000000000e+00
      910500000   -2.785160393e-02   -9.588798285e-01    1.338869333e-05    1.611560583e-05    0.000000000e+00    0.000000000e+00    0.000000000e+00    0.000000000e+00
      917750000   -1.393654644e-01   -9.544339180e-01    1.324806362e-05    1.488160342e-05    0.000000000e+00    0.000000000e+00    0.000000000e+00    0.000000000e+00
      925000000   -2.489352822e-01   -9.345543385e-01   -2.630054951e-05    4.815869033e-06    0.000000000e+00    0.000000000e+00    0.000000000e+00    0.000000000e+00
      932250000   -3.565976620e-01   -9.003569484e-01    4.211440682e-06   -5.010515451e-07    0.000000000e+00    0.000000000e+00    0.000000000e+00    0.000000000e+00
      939500000   -4.562883079e-01   -8.536975980e-01   -7.089227438e-06   -1.626741141e-05    0.000000000e+00    0.000000000e+00    0.000000000e+00    0.000000000e+00
      946750000   -5.497027040e-01   -7.927396297e-01    4.092324525e-05    4.372000694e-05    0.000000000e+00    0.000000000e+00    0.000000000e+00    0.000000000e+00
      954000000   -6.321153045e-01   -7.220814228e-01   -2.652406693e-05   -6.605871022e-06    0.000000000e+00    0.000000000e+00    0.000000000e+00    0.000000000e+00
      961250000   -7.038572431e-01   -6.397134662e-01    5.341321230e-05    3.309175372e-05    0.000000000e+00    0.000000000e+00    0.000000000e+00    0.000000000e+00
      968500000   -7.643319368e-01   -5.508641601e-01    2.971850336e-05    3.476627171e-06    0.000000000e+00    0.000000000e+00    0.000000000e+00    0.000000000e+00
      975750000   -8.107732534e-01   -4.574653506e-01    8.046627045e-06    2.504792064e-05    0.000000000e+00    0.000000000e+00    0.000000000e+00    0.000000000e+00
      983000000   -8.444870114e-01   -3.600695431e-01   -2.134870738e-05   -2.023577690e-05    0.000000000e+00    0.000000000e+00    0.000000000e+00    0.000000000e+00
      990250000   -8.654111624e-01   -2.599700391e-01   -5.424022675e-06   -7.290393114e-06    0.000000000e+00    0.000000000e+00    0.000000000e+00    0.000000000e+00
      997500000   -8.744210005e-01   -1.623809338e-01   -2.832338214e-05   -5.088374019e-05    0.000000000e+00    0.000000000e+00    0.000000000e+00    0.000000000e+00
     1004750000   -8.710766435e-01   -6.619363278e-02   -6.888713688e-05    4.456378520e-06    0.000000000e+00    0.000000000e+00    0.000000000e+00    0.000000000e+00
     1012000000   -8.573105931e-01    2.780064940e-02   -2.308562398e-05   -6.938632578e-05    0.000000000e+00    0.000000000e+00    0.000000000e+00    0.000000000e+00
     1019250000   -8.333154321e-01    1.154739112e-01   -1.462176442e-05    4.875473678e-06    0.000000000e+00    0.000000000e+00    0.000000000e+00    0.000000000e+00
     1026500000   -8.008957505e-01    2.000549138e-01   -1.839734614e-05    2.308003604e-05    0.000000000e+00    0.000000000e+00    0.000000000e+00    0.000000000e+00
     1033750000   -7.604128718e-01    2.776949704e-01    1.321826130e-05   -1.140218228e-05    0.000000000e+00    0.000000000e+00    0.000000000e+00    0.000000000e+00
     1041000000   -7.127369642e-01    3.493524790e-01   -4.136003554e-06    7.515773177e-06    0.000000000e+00    0.000000000e+00    0.000000000e+00    0.000000000e+00
