! NanoVNA-App by OneOfEleven et al v1.1.209 (+OD15) 
! Date: 2024-07-30 15:24:00
! Start: 200MHz Stop: 6GHz Points: 801
! S-Parameter data: F S11 S21 S12 S22
# Hz S RI R 50
!     Frequency           S11_Real           S11_Imag           S21_Real           S21_Imag           S12_Real           S12_Imag           S22_Real           S22_Imag
      200000000   -9.017060399e-01   -1.069361418e-01    2.077966928e-05    2.367421985e-06    0.000000000e+00    0.000000000e+00    0.000000000e+00    0.000000000e+00
      207250000   -9.119230509e-01   -1.800087653e-02   -4.293303937e-05    5.316175520e-05    0.000000000e+00    0.000000000e+00    0.000000000e+00    0.000000000e+00
      214500000   -9.125135541e-01    7.311785966e-02    3.530643880e-06   -7.771886885e-06    0.000000000e+00    0.000000000e+00    0.000000000e+00    0.000000000e+00
      221750000   -9.039307237e-01    1.651498824e-01    1.526065171e-05    2.842396498e-06    0.000000000e+00    0.000000000e+00    0.000000000e+00    0.000000000e+00
      229000000   -8.857280612e-01    2.569697201e-01   -8.211471140e-06   -2.228096128e-05    0.000000000e+00    0.000000000e+00    0.000000000e+00    0.000000000e+00
      236250000   -8.563070893e-01    3.483159244e-01   -2.311822027e-05   -8.641742170e-06    0.000000000e+00    0.000000000e+00    0.000000000e+00    0.000000000e+00
      243500000   -8.165915012e-01    4.369553924e-01   -1.979060471e-06    1.302547753e-05    0.000000000e+00    0.000000000e+00    0.000000000e+00    0.000000000e+00
      250750000   -7.655900121e-01    5.230891109e-01    2.265907824e-06   -1.666322351e-05    0.000000000e+00    0.000000000e+00    0.000000000e+00    0.000000000e+00
      258000000   -7.048404813e-01    6.035840511e-01   -1.106411219e-05   -5.190074444e-05    0.000000000e+00    0.000000000e+00    0.000000000e+00    0.000000000e+00
      265250000   -6.331836581e-01    6.771793365e-01    3.067124635e-05    1.067854464e-05    0.000000000e+00    0.000000000e+00    0.000000000e+00    0.000000000e+00
      272500000   -5.529886484e-01    7.435198426e-01   -4.623457789e-05   -2.755224705e-05    0.000000000e+00    0.000000000e+00    0.000000000e+00    0.000000000e+00
      279750000   -4.626451135e-01    7.997668982e-01   -2.999790013e-05   -2.371612936e-05    0.000000000e+00    0.000000000e+00    0.000000000e+00    0.000000000e+00
      287000000   -3.648911715e-01    8.456351161e-01    3.575347364e-06    8.491799235e-06    0.000000000e+00    0.000000000e+00    0.000000000e+00    0.000000000e+00
      294250000   -2.622270584e-01    8.795910478e-01    1.164153218e-07   -2.878252417e-05    0.000000000e+00    0.000000000e+00    0.000000000e+00    0.000000000e+00
      301500000   -1.540984213e-01    8.995025754e-01   -2.348888665e-05   -5.115941167e-05    0.000000000e+00    0.000000000e+00    0.000000000e+00    0.000000000e+00
      308750000   -4.284486175e-02    9.065044522e-01   -9.809620678e-06    6.936490536e-06    0.000000000e+00    0.000000000e+00    0.000000000e+00    0.000000000e+00
      316000000    6.764919311e-02    8.999142647e-01   -3.199093044e-05   -4.263594747e-06    0.000000000e+00    0.000000000e+00    0.000000000e+00    0.000000000e+00
      323250000    1.779979616e-01    8.775874972e-01   -6.273388863e-06   -4.596542567e-05    0.000000000e+00    0.000000000e+00    0.000000000e+00    0.000000000e+00
      330500000    2.840676606e-01    8.424521089e-01    1.776311547e-05   -5.939975381e-06    0.000000000e+00    0.000000000e+00    0.000000000e+00    0.000000000e+00
      337750000    3.852496147e-01    7.944386601e-01   -1.073908061e-05    2.015475184e-05    0.000000000e+00    0.000000000e+00    0.000000000e+00    0.000000000e+00
      345000000    4.786503911e-01    7.339247465e-01    2.777855843e-05   -1.390837133e-05    0.000000000e+00    0.000000000e+00    0.000000000e+00    0.000000000e+00
      352250000    5.641511083e-01    6.620857120e-01   -1.366157085e-05    4.240311682e-06    0.000000000e+00    0.000000000e+00    0.000000000e+00    0.000000000e+00
      359500000    6.390554309e-01    5.811161995e-01    6.079673767e-06    9.438022971e-06    0.000000000e+00    0.000000000e+00    0.000000000e+00    0.000000000e+00
      366750000    7.033268809e-01    4.918253124e-01    9.207054973e-06   -2.121552825e-06    0.000000000e+00    0.000000000e+00    0.000000000e+00    0.000000000e+00
      374000000    7.566964030e-01    3.970146179e-01   -1.865159720e-05   -3.545172513e-05    0.000000000e+00    0.000000000e+00    0.000000000e+00    0.000000000e+00
      381250000    7.966796160e-01    2.967586219e-01    6.647780538e-06   -3.848969936e-05    0.000000000e+00    0.000000000e+00    0.000000000e+00    0.000000000e+00
      388500000    8.248652816e-01    1.938430965e-01   -3.249663860e-05   -3.185123205e-07    0.000000000e+00    0.000000000e+00    0.000000000e+00    0.000000000e+00
      395750000    8.417031765e-01    8.984702826e-02    1.152325422e-05   -2.366118133e-05    0.000000000e+00    0.000000000e+00    0.000000000e+00    0.000000000e+00
      403000000    8.460801840e-01   -1.432840899e-02    4.503037781e-05    2.492591739e-05    0.000000000e+00    0.000000000e+00    0.000000000e+00    0.000000000e+00
      410250000    8.389244080e-01   -1.179062650e-01   -1.202337444e-05    5.661509931e-06    0.000000000e+00    0.000000000e+00    0.000000000e+00    0.000000000e+00
      417500000    8.201168776e-01   -2.192388475e-01   -4.488043487e-05    1.606717706e-05    0.000000000e+00    0.000000000e+00    0.000000000e+00    0.000000000e+00
      424750000    7.922649980e-01   -3.166292012e-01    7.417984307e-06    2.567470074e-05    0.000000000e+00    0.000000000e+00    0.000000000e+00    0.000000000e+00
      432000000    7.529007196e-01   -4.099343419e-01    2.061016858e-06    1.130998135e-05    0.000000000e+00    0.000000000e+00    0.000000000e+00    0.000000000e+00
      439250000    7.047695518e-01   -4.973503351e-01   -7.383525372e-06    3.487803042e-06    0.000000000e+00    0.000000000e+00    0.000000000e+00    0.000000000e+00
      446500000    6.480500102e-01   -5.792003870e-01    1.285132021e-05    2.363696694e-06    0.000000000e+00    0.000000000e+00    0.000000000e+00    0.000000000e+00
      453750000    5.834040046e-01   -6.546534896e-01    1.909025013e-05    1.877546310e-05    0.000000000e+00    0.000000000e+00    0.000000000e+00    0.000000000e+00
      461000000    5.113703012e-01   -7.219595909e-01   -2.551823854e-07   -3.074388951e-05    0.000000000e+00    0.000000000e+00    0.000000000e+00    0.000000000e+00
      468250000    4.323349893e-01   -7.812583447e-01    2.165231854e-05    9.083189070e-06    0.000000000e+00    0.000000000e+00    0.000000000e+00    0.000000000e+00
      475500000    3.481284976e-01   -8.327758312e-01    1.601967961e-05    1.665391028e-05    0.000000000e+00    0.000000000e+00    0.000000000e+00    0.000000000e+00
      482750000    2.584589422e-01   -8.747371435e-01    4.949979484e-06    1.338124275e-05    0.000000000e+00    0.000000000e+00    0.000000000e+00    0.000000000e+00
      490000000    1.649804562e-01   -9.073624015e-01   -2.645235509e-05   -1.512933522e-05    0.000000000e+00    0.000000000e+00    0.000000000e+00    0.000000000e+00
      497250000    6.904909760e-02   -9.299883246e-01    5.954876542e-06    6.943941116e-06    0.000000000e+00    0.000000000e+00    0.000000000e+00    0.000000000e+00
      504500000   -3.041700460e-02   -9.417953491e-01    1.597031951e-05   -1.557357609e-05    0.000000000e+00    0.000000000e+00    0.000000000e+00    0.000000000e+00
      511750000   -1.300713718e-01   -9.436794519e-01   -2.787075937e-05   -3.836769611e-05    0.000000000e+00    0.000000000e+00    0.000000000e+00    0.000000000e+00
      519000000   -2.311219424e-01   -9.351680279e-01    1.443829387e-05   -5.914457142e-05    0.000000000e+00    0.000000000e+00    0.000000000e+00    0.000000000e+00
      526250000   -3.302555978e-01   -9.142391682e-01   -9.250827134e-06   -3.931764513e-05    0.000000000e+00    0.000000000e+00    0.000000000e+00    0.000000000e+00
      533500000   -4.277113378e-01   -8.828969002e-01    1.045316458e-05    8.597970009e-06    0.000000000e+00    0.000000000e+00    0.000000000e+00    0.000000000e+00
      540750000   -5.213431120e-01   -8.399078250e-01   -2.414267510e-05    1.582782716e-05    0.000000000e+00    0.000000000e+00    0.000000000e+00    0.000000000e+00
      548000000   -6.109140515e-01   -7.866303921e-01   -5.439855158e-06    1.621432602e-05    0.000000000e+00    0.000000000e+00    0.000000000e+00    0.000000000e+00
      555250000   -6.936749816e-01   -7.237204313e-01   -3.320071846e-05   -1.250766218e-05    0.000000000e+00    0.000000000e+00    0.000000000e+00    0.000000000e+00
      562500000   -7.689020038e-01   -6.497092843e-01   -6.490387022e-06    1.172535121e-06    0.000000000e+00    0.000000000e+00    0.000000000e+00    0.000000000e+00
      569750000   -8.355984688e-01   -5.678439140e-01    7.297843695e-06    3.554392606e-05    0.000000000e+00    0.000000000e+00    0.000000000e+00    0.000000000e+00
      577000000   -8.924155831e-01   -4.769536257e-01   -2.158060670e-05   -9.229406714e-06    0.000000000e+00    0.000000000e+00    0.000000000e+00    0.000000000e+00
      584250000   -9.386056066e-01   -3.812167943e-01   -1.103617251e-06    9.066425264e-06    0.000000000e+00    0.000000000e+00    0.000000000e+00    0.000000000e+00
      591500000   -9.718819261e-01   -2.782396376e-01   -1.537892967e-05    7.166527212e-06    0.000000000e+00    0.000000000e+00    0.000000000e+00    0.000000000e+00
      598750000   -9.939444661e-01   -1.719420850e-01   -1.627393067e-05    1.562759280e-06    0.000000000e+00    0.000000000e+00    0.000000000e+00    0.000000000e+00
      606000000   -1.002410412e+00   -6.559887528e-02    1.216959208e-05    9.016133845e-06    0.000000000e+00    0.000000000e+00    0.000000000e+00    0.000000000e+00
      613250000   -9.979951978e-01    4.209091514e-02    2.101995051e-05   -5.452893674e-06    0.000000000e+00    0.000000000e+00    0.000000000e+00    0.000000000e+00
      620500000   -9.805369377e-01    1.476081312e-01    1.797638834e-05   -3.695581108e-05    0.000000000e+00    0.000000000e+00    0.000000000e+00    0.000000000e+00
      627750000   -9.501828551e-01    2.525504827e-01   -1.236982644e-05   -6.832182407e-06    0.000000000e+00    0.000000000e+00    0.000000000e+00    0.000000000e+00
      635000000   -9.088148475e-01    3.485357165e-01   -4.271976650e-06   -1.437123865e-05    0.000000000e+00    0.000000000e+00    0.000000000e+00    0.000000000e+00
      642250000   -8.544008136e-01    4.418875575e-01    9.329058230e-06   -1.637730747e-05    0.000000000e+00    0.000000000e+00    0.000000000e+00    0.000000000e+00
      649500000   -7.921631336e-01    5.245102644e-01    7.758848369e-06    1.058727503e-05    0.000000000e+00    0.000000000e+00    0.000000000e+00    0.000000000e+00
      656750000   -7.199365497e-01    5.999098420e-01   -3.775395453e-05    6.415881217e-06    0.000000000e+00    0.000000000e+00    0.000000000e+00    0.000000000e+00
      664000000   -6.396387219e-01    6.655787826e-01   -5.540624261e-05    2.718530595e-05    0.000000000e+00    0.000000000e+00    0.000000000e+00    0.000000000e+00
      671250000   -5.552629232e-01    7.209761143e-01   -1.676846296e-05    1.273863018e-05    0.000000000e+00    0.000000000e+00    0.000000000e+00    0.000000000e+00
      678500000   -4.638264179e-01    7.659780979e-01   -2.586282790e-06    4.180707037e-06    0.000000000e+00    0.000000000e+00    0.000000000e+00    0.000000000e+00
      685750000   -3.699419796e-01    8.004857302e-01    6.460584700e-06   -1.601316035e-05    0.000000000e+00    0.000000000e+00    0.000000000e+00    0.000000000e+00
      693000000   -2.738187611e-01    8.236447573e-01    4.213303328e-06    3.850553185e-05    0.000000000e+00    0.000000000e+00    0.000000000e+00    0.000000000e+00
      700250000   -1.759831458e-01    8.358264565e-01   -1.266598701e-07   -5.060806870e-06    0.000000000e+00    0.000000000e+00    0.000000000e+00    0.000000000e+00
      707500000   -7.899258286e-02    8.379430175e-01   -1.312326640e-05   -3.547407687e-05    0.000000000e+00    0.000000000e+00    0.000000000e+00    0.000000000e+00
      714750000    1.763414592e-02    8.292871118e-01    3.600027412e-05   -3.260932863e-05    0.000000000e+00    0.000000000e+00    0.000000000e+00    0.000000000e+00
      722000000    1.095755547e-01    8.114465475e-01    3.312714398e-05   -8.875504136e-06    0.000000000e+00    0.000000000e+00    0.000000000e+00    0.000000000e+00
      729250000    2.013267130e-01    7.832395434e-01   -2.980232239e-08   -5.555525422e-05    0.000000000e+00    0.000000000e+00    0.000000000e+00    0.000000000e+00
      736500000    2.861782908e-01    7.472305894e-01    1.544225961e-05    6.804242730e-06    0.000000000e+00    0.000000000e+00    0.000000000e+00    0.000000000e+00
      743750000    3.684135973e-01    7.019659281e-01    6.422400475e-06    1.625157893e-05    0.000000000e+00    0.000000000e+00    0.000000000e+00    0.000000000e+00
      751000000    4.447318614e-01    6.501144767e-01   -1.677311957e-06   -8.556991816e-06    0.000000000e+00    0.000000000e+00    0.000000000e+00    0.000000000e+00
      758250000    5.144949555e-01    5.898484588e-01   -2.013426274e-05   -7.412396371e-06    0.000000000e+00    0.000000000e+00    0.000000000e+00    0.000000000e+00
      765500000    5.774573088e-01    5.248439908e-01   -5.719251931e-06   -8.375383914e-06    0.000000000e+00    0.000000000e+00    0.000000000e+00    0.000000000e+00
      772750000    6.355604529e-01    4.517060220e-01    4.723668098e-06    6.256625056e-06    0.000000000e+00    0.000000000e+00    0.000000000e+00    0.000000000e+00
      780000000    6.833392978e-01    3.754391372e-01    7.788650692e-06    6.185844541e-06    0.000000000e+00    0.000000000e+00    0.000000000e+00    0.000000000e+00
      787250000    7.272073030e-01    2.916170657e-01    4.368834198e-06   -1.813564450e-05    0.000000000e+00    0.000000000e+00    0.000000000e+00    0.000000000e+00
      794500000    7.597379088e-01    2.062152475e-01   -2.800021321e-05    2.233311534e-05    0.000000000e+00    0.000000000e+00    0.000000000e+00    0.000000000e+00
      801750000    7.848831415e-01    1.162383929e-01   -2.546701580e-05   -2.004858106e-05    0.000000000e+00    0.000000000e+00    0.000000000e+00    0.000000000e+00
      809000000    8.000208139e-01    2.344896644e-02   -2.275034785e-05   -2.001877874e-05    0.000000000e+00    0.000000000e+00    0.000000000e+00    0.000000000e+00
      816250000    8.057155013e-01   -7.159696519e-02   -6.979331374e-06   -1.773424447e-05    0.000000000e+00    0.000000000e+00    0.000000000e+00    0.000000000e+00
      823500000    8.021438122e-01   -1.658070683e-01    3.609806299e-06   -3.905966878e-06    0.000000000e+00    0.000000000e+00    0.000000000e+00    0.000000000e+00
      830750000    7.877848744e-01   -2.623553872e-01    3.490410745e-05   -1.827254891e-05    0.000000000e+00    0.000000000e+00    0.000000000e+00    0.000000000e+00
      838000000    7.624157667e-01   -3.569566309e-01   -7.936730981e-06    8.045695722e-06    0.000000000e+00    0.000000000e+00    0.000000000e+00    0.000000000e+00
      845250000    7.264277935e-01   -4.500218928e-01    1.695938408e-06    3.597699106e-06    0.000000000e+00    0.000000000e+00    0.000000000e+00    0.000000000e+00
      852500000    6.803156137e-01   -5.391233563e-01    2.731848508e-05   -9.004026651e-06    0.000000000e+00    0.000000000e+00    0.000000000e+00    0.000000000e+00
      859750000    6.231414080e-01   -6.227428317e-01   -9.626150131e-06    1.349486411e-06    0.000000000e+00    0.000000000e+00    0.000000000e+00    0.000000000e+00
      867000000    5.548003912e-01   -7.023918033e-01    1.094024628e-05    9.594485164e-06    0.000000000e+00    0.000000000e+00    0.000000000e+00    0.000000000e+00
      874250000    4.773906171e-01   -7.718594670e-01   -2.752151340e-05   -2.705957741e-05    0.000000000e+00    0.000000000e+00    0.000000000e+00    0.000000000e+00
      881500000    3.895496130e-01   -8.341379762e-01    1.562200487e-05   -1.317169517e-05    0.000000000e+00    0.000000000e+00    0.000000000e+00    0.000000000e+00
      888750000    2.932021320e-01   -8.842918277e-01   -4.471372813e-05   -6.575137377e-07    0.000000000e+00    0.000000000e+00    0.000000000e+00    0.000000000e+00
      896000000    1.924141943e-01   -9.227421284e-01   -4.379171878e-05   -1.136027277e-05    0.000000000e+00    0.000000000e+00    0.000000000e+00    0.000000000e+00
      903250000    8.355603367e-02   -9.474322200e-01    2.365559340e-07    1.390464604e-06    0.000000000e+00    0.000000000e+00    0.000000000e+00    0.000000000e+00
      910500000   -2.629152499e-02   -9.593665004e-01    4.385039210e-05   -9.223818779e-06    0.000000000e+00    0.000000000e+00    0.000000000e+00    0.000000000e+00
      917750000   -1.382015795e-01   -9.542585015e-01    1.268275082e-05   -1.837499440e-05    0.000000000e+00    0.000000000e+00    0.000000000e+00    0.000000000e+00
      925000000   -2.493675202e-01   -9.349696040e-01    2.528913319e-05   -3.435928375e-05    0.000000000e+00    0.000000000e+00    0.000000000e+00    0.000000000e+00
      932250000   -3.556542397e-01   -9.009326696e-01   -3.837049007e-07    1.723598689e-05    0.000000000e+00    0.000000000e+00    0.000000000e+00    0.000000000e+00
      939500000   -4.566892982e-01   -8.522608280e-01   -8.407980204e-06   -9.834766388e-06    0.000000000e+00    0.000000000e+00    0.000000000e+00    0.000000000e+00
      946750000   -5.490537286e-01   -7.935482264e-01   -1.178774983e-05    1.702178270e-05    0.000000000e+00    0.000000000e+00    0.000000000e+00    0.000000000e+00
      954000000   -6.329932213e-01   -7.213544846e-01   -1.619104296e-05    1.086667180e-05    0.000000000e+00    0.000000000e+00    0.000000000e+00    0.000000000e+00
      961250000   -7.039008737e-01   -6.402952075e-01    4.335865378e-05    9.369105101e-07    0.000000000e+00    0.000000000e+00    0.000000000e+00    0.000000000e+00
      968500000   -7.637739778e-01   -5.513560772e-01    4.936195910e-05    4.644878209e-05    0.000000000e+00    0.000000000e+00    0.000000000e+00    0.000000000e+00
      975750000   -8.104081154e-01   -4.574609399e-01    3.224983811e-05   -1.592282206e-05    0.000000000e+00    0.000000000e+00    0.000000000e+00    0.000000000e+00
      983000000   -8.452494144e-01   -3.592137396e-01   -2.230517566e-06   -3.142282367e-06    0.000000000e+00    0.000000000e+00    0.000000000e+00    0.000000000e+00
      990250000   -8.656973839e-01   -2.611487806e-01   -3.629364073e-06   -1.528766006e-05    0.000000000e+00    0.000000000e+00    0.000000000e+00    0.000000000e+00
      997500000   -8.736600876e-01   -1.629661471e-01   -6.515532732e-06    1.003034413e-06    0.000000000e+00    0.000000000e+00    0.000000000e+00    0.000000000e+00
     1004750000   -8.711378574e-01   -6.586182863e-02    1.824274659e-05    5.338340998e-06    0.000000000e+00    0.000000000e+00    0.000000000e+00    0.000000000e+00
     1012000000   -8.569350243e-01    2.761055157e-02   -1.915358007e-05    5.353242159e-06    0.000000000e+00    0.000000000e+00    0.000000000e+00    0.000000000e+00
     1019250000   -8.334681988e-01    1.167819276e-01   -6.534997374e-05    2.154987305e-05    0.000000000e+00    0.000000000e+00    0.000000000e+00    0.000000000e+00
     1026500000   -8.006564379e-01    1.999221891e-01   -7.621943951e-06    3.197509795e-05    0.000000000e+00    0.000000000e+00    0.000000000e+00    0.000000000e+00
     1033750000   -7.599582076e-01    2.776712775e-01    9.088777006e-06    5.450099707e-06    0.000000000e+00    0.000000000e+00    0.000000000e+00    0.000000000e+00
     1041000000   -7.130678296e-01    3.488548994e-01   -3.597792238e-05    1.588556916e-05    0.000000000e+00    0.000000000e+00    0.000000000e+00    0.000000000e+00
