! NanoVNA-App by OneOfEleven et al v1.1.209 (+OD15) 
! Date: 2024-07-30 15:24:03
! Start: 200MHz Stop: 6GHz Points: 801
! S-Parameter data: F S11 S21 S12 S22
# Hz S RI R 50
!     Frequency           S11_Real           S11_Imag           S21_Real           S21_Imag           S12_Real           S12_Imag           S22_Real           S22_Imag
      200000000   -9.020352364e-01   -1.073470712e-01   -3.400631249e-05    4.651956260e-06    0.000000000e+00    0.000000000e+00    0.000000000e+00    0.000000000e+00
      207250000   -9.119281769e-01   -1.802785136e-02   -1.342501491e-05    9.197741747e-06    0.000000000e+00    0.000000000e+00    0.000000000e+00    0.000000000e+00
      214500000   -9.126930237e-01    7.307178527e-02    1.335144043e-05    3.216974437e-05    0.000000000e+00    0.000000000e+00    0.000000000e+00    0.000000000e+00
      221750000   -9.033010602e-01    1.651512831e-01   -8.806586266e-06    9.669922292e-06    0.000000000e+00    0.000000000e+00    0.000000000e+00    0.000000000e+00
      229000000   -8.845954537e-01    2.570881546e-01   -1.377426088e-05   -2.151820809e-05    0.000000000e+00    0.000000000e+00    0.000000000e+00    0.000000000e+00
      236250000   -8.562206626e-01    3.485374451e-01   -2.935994416e-05   -1.613609493e-05    0.000000000e+00    0.000000000e+00    0.000000000e+00    0.000000000e+00
      243500000   -8.162546754e-01    4.374890029e-01    1.781899482e-05   -1.390092075e-05    0.000000000e+00    0.000000000e+00    0.000000000e+00    0.000000000e+00
      250750000   -7.657742500e-01    5.229186416e-01   -2.686958760e-05   -6.271526217e-06    0.000000000e+00    0.000000000e+00    0.000000000e+00    0.000000000e+00
      258000000   -7.045665979e-01    6.031137705e-01    2.887751907e-05   -5.393289030e-06    0.000000000e+00    0.000000000e+00    0.000000000e+00    0.000000000e+00
      265250000   -6.333362460e-01    6.774097681e-01    1.342780888e-05   -1.945346594e-05    0.000000000e+00    0.000000000e+00    0.000000000e+00    0.000000000e+00
      272500000   -5.526454449e-01    7.433397770e-01    2.172030509e-05   -4.925765097e-06    0.000000000e+00    0.000000000e+00    0.000000000e+00    0.000000000e+00
      279750000   -4.632383287e-01    8.002945781e-01    4.404783249e-05   -1.676846296e-05    0.000000000e+00    0.000000000e+00    0.000000000e+00    0.000000000e+00
      287000000   -3.652041256e-01    8.454462290e-01   -2.260785550e-05   -6.658025086e-06    0.000000000e+00    0.000000000e+00    0.000000000e+00    0.000000000e+00
      294250000   -2.618540823e-01    8.793191910e-01   -3.082677722e-06   -5.565583706e-06    0.000000000e+00    0.000000000e+00    0.000000000e+00    0.000000000e+00
      301500000   -1.542815417e-01    9.002334476e-01    2.433266491e-05    3.813765943e-06    0.000000000e+00    0.000000000e+00    0.000000000e+00    0.000000000e+00
      308750000   -4.335031286e-02    9.068644047e-01   -3.330409527e-06    3.273598850e-06    0.000000000e+00    0.000000000e+00    0.000000000e+00    0.000000000e+00
      316000000    6.799943745e-02    8.994500041e-01   -1.026969403e-05   -1.604482532e-05    0.000000000e+00    0.000000000e+00    0.000000000e+00    0.000000000e+00
      323250000    1.781537086e-01    8.776837587e-01    3.143679351e-05   -1.724530011e-05    0.000000000e+00    0.000000000e+00    0.000000000e+00    0.000000000e+00
      330500000    2.844673991e-01    8.427910805e-01   -1.692678779e-05   -6.217509508e-06    0.000000000e+00    0.000000000e+00    0.000000000e+00    0.000000000e+00
      337750000    3.849993944e-01    7.943353057e-01   -3.910623491e-06    2.194382250e-05    0.000000000e+00    0.000000000e+00    0.000000000e+00    0.000000000e+00
      345000000    4.790256917e-01    7.327771783e-01    1.968070865e-05    2.117082477e-05    0.000000000e+00    0.000000000e+00    0.000000000e+00    0.000000000e+00
      352250000    5.641642213e-01    6.622647643e-01    1.177750528e-05    3.856141120e-05    0.000000000e+00    0.000000000e+00    0.000000000e+00    0.000000000e+00
      359500000    6.390518546e-01    5.808795691e-01    2.537015826e-05    1.107063144e-05    0.000000000e+00    0.000000000e+00    0.000000000e+00    0.000000000e+00
      366750000    7.035757303e-01    4.918705821e-01   -1.080986112e-05   -2.779439092e-05    0.000000000e+00    0.000000000e+00    0.000000000e+00    0.000000000e+00
      374000000    7.563251853e-01    3.976023495e-01    2.857390791e-05    2.482254058e-05    0.000000000e+00    0.000000000e+00    0.000000000e+00    0.000000000e+00
      381250000    7.971832752e-01    2.967100143e-01   -3.175809979e-07   -3.886222839e-05    0.000000000e+00    0.000000000e+00    0.000000000e+00    0.000000000e+00
      388500000    8.253500462e-01    1.944062859e-01   -2.085044980e-05   -7.849186659e-06    0.000000000e+00    0.000000000e+00    0.000000000e+00    0.000000000e+00
      395750000    8.414034247e-01    8.992891759e-02   -1.965556294e-05    7.803551853e-06    0.000000000e+00    0.000000000e+00    0.000000000e+00    0.000000000e+00
      403000000    8.462556005e-01   -1.448289026e-02    1.735612750e-05   -4.175119102e-06    0.000000000e+00    0.000000000e+00    0.000000000e+00    0.000000000e+00
      410250000    8.390931487e-01   -1.184004396e-01    4.662200809e-06   -1.217611134e-05    0.000000000e+00    0.000000000e+00    0.000000000e+00    0.000000000e+00
      417500000    8.208873272e-01   -2.187100053e-01    1.131556928e-05    4.200264812e-07    0.000000000e+00    0.000000000e+00    0.000000000e+00    0.000000000e+00
      424750000    7.918716669e-01   -3.170326948e-01   -1.014117151e-05    4.516914487e-07    0.000000000e+00    0.000000000e+00    0.000000000e+00    0.000000000e+00
      432000000    7.530147433e-01   -4.101945758e-01   -2.608541399e-05    2.332031727e-06    0.000000000e+00    0.000000000e+00    0.000000000e+00    0.000000000e+00
      439250000    7.046719193e-01   -4.978259504e-01   -6.495974958e-05   -1.291465014e-05    0.000000000e+00    0.000000000e+00    0.000000000e+00    0.000000000e+00
      446500000    6.478562355e-01   -5.790909529e-01   -9.595416486e-06   -2.767890692e-06    0.000000000e+00    0.000000000e+00    0.000000000e+00    0.000000000e+00
      453750000    5.825471282e-01   -6.545346975e-01   -3.006774932e-05   -3.053899854e-05    0.000000000e+00    0.000000000e+00    0.000000000e+00    0.000000000e+00
      461000000    5.102763772e-01   -7.218895555e-01   -1.500360668e-05   -9.680166841e-06    0.000000000e+00    0.000000000e+00    0.000000000e+00    0.000000000e+00
      468250000    4.328693748e-01   -7.816262245e-01   -2.520065755e-05   -1.246947795e-05    0.000000000e+00    0.000000000e+00    0.000000000e+00    0.000000000e+00
      475500000    3.473306894e-01   -8.329389691e-01   -3.258138895e-05    5.539506674e-06    0.000000000e+00    0.000000000e+00    0.000000000e+00    0.000000000e+00
      482750000    2.585298717e-01   -8.749957681e-01    4.678498954e-05    1.952331513e-05    0.000000000e+00    0.000000000e+00    0.000000000e+00    0.000000000e+00
      490000000    1.652689427e-01   -9.074687362e-01   -1.879595220e-05   -7.096678019e-06    0.000000000e+00    0.000000000e+00    0.000000000e+00    0.000000000e+00
      497250000    6.873064488e-02   -9.304272532e-01   -2.105999738e-05    1.514423639e-05    0.000000000e+00    0.000000000e+00    0.000000000e+00    0.000000000e+00
      504500000   -3.034191579e-02   -9.420924783e-01   -3.390014172e-07   -6.454158574e-05    0.000000000e+00    0.000000000e+00    0.000000000e+00    0.000000000e+00
      511750000   -1.305092722e-01   -9.437867403e-01   -1.928023994e-05   -2.197269350e-05    0.000000000e+00    0.000000000e+00    0.000000000e+00    0.000000000e+00
      519000000   -2.304120809e-01   -9.345698953e-01    5.010608584e-05    2.456456423e-05    0.000000000e+00    0.000000000e+00    0.000000000e+00    0.000000000e+00
      526250000   -3.305413127e-01   -9.144923091e-01   -2.247001976e-05   -6.231479347e-06    0.000000000e+00    0.000000000e+00    0.000000000e+00    0.000000000e+00
      533500000   -4.278501570e-01   -8.824850321e-01    2.036523074e-05   -3.090687096e-05    0.000000000e+00    0.000000000e+00    0.000000000e+00    0.000000000e+00
      540750000   -5.216865540e-01   -8.400244713e-01    3.379117697e-05    1.281499863e-05    0.000000000e+00    0.000000000e+00    0.000000000e+00    0.000000000e+00
      548000000   -6.109071374e-01   -7.864107490e-01    8.608214557e-06    2.016127110e-05    0.000000000e+00    0.000000000e+00    0.000000000e+00    0.000000000e+00
      555250000   -6.935042739e-01   -7.225597501e-01    3.477837890e-05   -1.763552427e-05    0.000000000e+00    0.000000000e+00    0.000000000e+00    0.000000000e+00
      562500000   -7.689470649e-01   -6.500506401e-01   -3.644730896e-05    1.270696521e-05    0.000000000e+00    0.000000000e+00    0.000000000e+00    0.000000000e+00
      569750000   -8.355761766e-01   -5.678275824e-01    2.550147474e-05   -1.598708332e-05    0.000000000e+00    0.000000000e+00    0.000000000e+00    0.000000000e+00
      577000000   -8.929481506e-01   -4.767951667e-01    3.867316991e-05    9.523704648e-06    0.000000000e+00    0.000000000e+00    0.000000000e+00    0.000000000e+00
      584250000   -9.386796951e-01   -3.805854917e-01   -1.120567322e-05   -3.060419112e-05    0.000000000e+00    0.000000000e+00    0.000000000e+00    0.000000000e+00
      591500000   -9.727160335e-01   -2.788554430e-01   -4.066061229e-05    1.011416316e-05    0.000000000e+00    0.000000000e+00    0.000000000e+00    0.000000000e+00
      598750000   -9.940696955e-01   -1.731153727e-01   -1.734122634e-06    1.991726458e-05    0.000000000e+00    0.000000000e+00    0.000000000e+00    0.000000000e+00
      606000000   -1.002597809e+00   -6.534108520e-02    2.100225538e-05   -5.097500980e-05    0.000000000e+00    0.000000000e+00    0.000000000e+00    0.000000000e+00
      613250000   -9.978983402e-01    4.261472821e-02    4.163850099e-05    1.134816557e-05    0.000000000e+00    0.000000000e+00    0.000000000e+00    0.000000000e+00
      620500000   -9.800303578e-01    1.487517804e-01    4.352349788e-05   -1.627113670e-05    0.000000000e+00    0.000000000e+00    0.000000000e+00    0.000000000e+00
      627750000   -9.501170516e-01    2.521343231e-01   -9.114854038e-06   -4.543457180e-05    0.000000000e+00    0.000000000e+00    0.000000000e+00    0.000000000e+00
      635000000   -9.080917239e-01    3.485628068e-01   -4.820525646e-06   -2.909172326e-05    0.000000000e+00    0.000000000e+00    0.000000000e+00    0.000000000e+00
      642250000   -8.555294275e-01    4.401729703e-01   -1.717358828e-06    3.625638783e-06    0.000000000e+00    0.000000000e+00    0.000000000e+00    0.000000000e+00
      649500000   -7.920497060e-01    5.252749920e-01   -2.018082887e-05   -4.423782229e-07    0.000000000e+00    0.000000000e+00    0.000000000e+00    0.000000000e+00
      656750000   -7.198833227e-01    5.997425318e-01    2.637505531e-05   -2.427957952e-06    0.000000000e+00    0.000000000e+00    0.000000000e+00    0.000000000e+00
      664000000   -6.401846409e-01    6.652985215e-01    4.599615932e-05   -9.680166841e-06    0.000000000e+00    0.000000000e+00    0.000000000e+00    0.000000000e+00
      671250000   -5.550267696e-01    7.210289836e-01    1.257006079e-05    3.977399319e-05    0.000000000e+00    0.000000000e+00    0.000000000e+00    0.000000000e+00
      678500000   -4.644767344e-01    7.665519714e-01    6.170012057e-06    2.899952233e-05    0.000000000e+00    0.000000000e+00    0.000000000e+00    0.000000000e+00
      685750000   -3.698428869e-01    8.000479937e-01    1.878477633e-06    2.565048635e-05    0.000000000e+00    0.000000000e+00    0.000000000e+00    0.000000000e+00
      693000000   -2.740060687e-01    8.236117959e-01   -2.541858703e-05    1.629162580e-05    0.000000000e+00    0.000000000e+00    0.000000000e+00    0.000000000e+00
      700250000   -1.759582460e-01    8.360821605e-01    1.286622137e-05   -1.187901944e-05    0.000000000e+00    0.000000000e+00    0.000000000e+00    0.000000000e+00
      707500000   -7.897451520e-02    8.378378153e-01   -2.334825695e-06   -2.136733383e-05    0.000000000e+00    0.000000000e+00    0.000000000e+00    0.000000000e+00
      714750000    1.686071791e-02    8.296291232e-01    1.368112862e-05    8.161179721e-06    0.000000000e+00    0.000000000e+00    0.000000000e+00    0.000000000e+00
      722000000    1.102760583e-01    8.109333515e-01    1.718662679e-05    2.085231245e-06    0.000000000e+00    0.000000000e+00    0.000000000e+00    0.000000000e+00
      729250000    2.017080784e-01    7.833676934e-01    2.399552613e-05   -1.813564450e-05    0.000000000e+00    0.000000000e+00    0.000000000e+00    0.000000000e+00
      736500000    2.865419388e-01    7.469502091e-01   -5.249865353e-06    8.068047464e-06    0.000000000e+00    0.000000000e+00    0.000000000e+00    0.000000000e+00
      743750000    3.678275645e-01    7.022234797e-01   -3.318116069e-05    2.395827323e-05    0.000000000e+00    0.000000000e+00    0.000000000e+00    0.000000000e+00
      751000000    4.446811378e-01    6.495895386e-01   -9.583309293e-06    2.081785351e-05    0.000000000e+00    0.000000000e+00    0.000000000e+00    0.000000000e+00
      758250000    5.146585107e-01    5.895388126e-01    1.514330506e-05    1.070369035e-05    0.000000000e+00    0.000000000e+00    0.000000000e+00    0.000000000e+00
      765500000    5.784056783e-01    5.242421627e-01   -2.988614142e-06    3.588385880e-06    0.000000000e+00    0.000000000e+00    0.000000000e+00    0.000000000e+00
      772750000    6.350899339e-01    4.520976543e-01    8.514150977e-06    2.768076956e-05    0.000000000e+00    0.000000000e+00    0.000000000e+00    0.000000000e+00
      780000000    6.838199496e-01    3.756377995e-01   -9.064562619e-06    1.296773553e-05    0.000000000e+00    0.000000000e+00    0.000000000e+00    0.000000000e+00
      787250000    7.272782326e-01    2.920666933e-01   -2.193264663e-06    3.689248115e-05    0.000000000e+00    0.000000000e+00    0.000000000e+00    0.000000000e+00
      794500000    7.596693039e-01    2.063454837e-01    3.674067557e-05   -2.122111619e-05    0.000000000e+00    0.000000000e+00    0.000000000e+00    0.000000000e+00
      801750000    7.842981219e-01    1.163496748e-01   -5.463138223e-06    9.831041098e-06    0.000000000e+00    0.000000000e+00    0.000000000e+00    0.000000000e+00
      809000000    8.000274897e-01    2.383048460e-02   -5.015637726e-05   -6.968155503e-06    0.000000000e+00    0.000000000e+00    0.000000000e+00    0.000000000e+00
      816250000    8.059744835e-01   -7.104498148e-02   -6.273388863e-06    8.285976946e-06    0.000000000e+00    0.000000000e+00    0.000000000e+00    0.000000000e+00
      823500000    8.018082976e-01   -1.669266224e-01    3.322865814e-05   -8.782371879e-06    0.000000000e+00    0.000000000e+00    0.000000000e+00    0.000000000e+00
      830750000    7.878143191e-01   -2.625093758e-01   -9.569339454e-06    3.420747817e-06    0.000000000e+00    0.000000000e+00    0.000000000e+00    0.000000000e+00
      838000000    7.630776763e-01   -3.563930094e-01    1.920759678e-05   -5.960464478e-08    0.000000000e+00    0.000000000e+00    0.000000000e+00    0.000000000e+00
      845250000    7.269930840e-01   -4.493682384e-01    3.246031702e-05    1.559220254e-05    0.000000000e+00    0.000000000e+00    0.000000000e+00    0.000000000e+00
      852500000    6.799080372e-01   -5.388043523e-01   -3.374647349e-05   -5.047768354e-06    0.000000000e+00    0.000000000e+00    0.000000000e+00    0.000000000e+00
      859750000    6.232293844e-01   -6.223837733e-01    1.804903150e-05    3.536697477e-05    0.000000000e+00    0.000000000e+00    0.000000000e+00    0.000000000e+00
      867000000    5.537706017e-01   -7.018216252e-01   -1.519639045e-05   -3.470387310e-05    0.000000000e+00    0.000000000e+00    0.000000000e+00    0.000000000e+00
      874250000    4.773180187e-01   -7.723122239e-01   -2.635922283e-05   -6.445683539e-06    0.000000000e+00    0.000000000e+00    0.000000000e+00    0.000000000e+00
      881500000    3.889746964e-01   -8.342991471e-01   -1.234561205e-05    1.220032573e-06    0.000000000e+00    0.000000000e+00    0.000000000e+00    0.000000000e+00
      888750000    2.948289812e-01   -8.841787577e-01    5.495082587e-05   -3.310944885e-05    0.000000000e+00    0.000000000e+00    0.000000000e+00    0.000000000e+00
      896000000    1.925261319e-01   -9.229943156e-01    1.866277307e-05    6.747804582e-05    0.000000000e+00    0.000000000e+00    0.000000000e+00    0.000000000e+00
      903250000    8.477026969e-02   -9.480862617e-01    5.690101534e-05   -1.666508615e-05    0.000000000e+00    0.000000000e+00    0.000000000e+00    0.000000000e+00
      910500000   -2.754380926e-02   -9.577072859e-01    1.657754183e-05   -1.348927617e-05    0.000000000e+00    0.000000000e+00    0.000000000e+00    0.000000000e+00
      917750000   -1.394870281e-01   -9.545450211e-01    3.156065941e-05    5.385186523e-05    0.000000000e+00    0.000000000e+00    0.000000000e+00    0.000000000e+00
      925000000   -2.491453439e-01   -9.346921444e-01   -6.426125765e-08   -3.528036177e-05    0.000000000e+00    0.000000000e+00    0.000000000e+00    0.000000000e+00
      932250000   -3.559246957e-01   -9.013503194e-01    2.197641879e-05   -7.217749953e-06    0.000000000e+00    0.000000000e+00    0.000000000e+00    0.000000000e+00
      939500000   -4.560246468e-01   -8.536982536e-01   -2.568028867e-05   -8.002854884e-06    0.000000000e+00    0.000000000e+00    0.000000000e+00    0.000000000e+00
      946750000   -5.495250821e-01   -7.933214307e-01    2.287235111e-05    5.101785064e-06    0.000000000e+00    0.000000000e+00    0.000000000e+00    0.000000000e+00
      954000000   -6.312063932e-01   -7.227611542e-01   -3.531202674e-05    3.058277071e-05    0.000000000e+00    0.000000000e+00    0.000000000e+00    0.000000000e+00
      961250000   -7.040703297e-01   -6.406408548e-01    2.800952643e-05    1.614633948e-05    0.000000000e+00    0.000000000e+00    0.000000000e+00    0.000000000e+00
      968500000   -7.642183900e-01   -5.504262447e-01    1.148320735e-06   -5.970709026e-06    0.000000000e+00    0.000000000e+00    0.000000000e+00    0.000000000e+00
      975750000   -8.107394576e-01   -4.575545788e-01   -3.171339631e-05   -1.723878086e-05    0.000000000e+00    0.000000000e+00    0.000000000e+00    0.000000000e+00
      983000000   -8.446812034e-01   -3.599162400e-01    7.537193596e-06    4.193745553e-06    0.000000000e+00    0.000000000e+00    0.000000000e+00    0.000000000e+00
      990250000   -8.656886816e-01   -2.610890269e-01    4.813075066e-05   -1.311022788e-05    0.000000000e+00    0.000000000e+00    0.000000000e+00    0.000000000e+00
      997500000   -8.745046854e-01   -1.630125493e-01    3.447383642e-05    2.068281174e-05    0.000000000e+00    0.000000000e+00    0.000000000e+00    0.000000000e+00
     1004750000   -8.711243272e-01   -6.623607129e-02    1.265201718e-05   -3.415439278e-05    0.000000000e+00    0.000000000e+00    0.000000000e+00    0.000000000e+00
     1012000000   -8.569070697e-01    2.760708891e-02    3.040768206e-06   -1.959968358e-05    0.000000000e+00    0.000000000e+00    0.000000000e+00    0.000000000e+00
     1019250000   -8.331043720e-01    1.162816808e-01    4.862435162e-06   -4.113931209e-05    0.000000000e+00    0.000000000e+00    0.000000000e+00    0.000000000e+00
     1026500000   -8.010468483e-01    1.994564086e-01   -2.447608858e-05   -1.600477844e-05    0.000000000e+00    0.000000000e+00    0.000000000e+00    0.000000000e+00
     1033750000   -7.598604560e-01    2.775048614e-01   -2.866610885e-05   -2.210028470e-06    0.000000000e+00    0.000000000e+00    0.000000000e+00    0.000000000e+00
     1041000000   -7.135983706e-01    3.483041227e-01    2.154801041e-05    1.858361065e-05    0.000000000e+00    0.000000000e+00    0.000000000e+00    0.000000000e+00
