! NanoVNA-App by OneOfEleven et al v1.1.209 (+OD15) 
! Date: 2024-07-30 15:24:08
! Start: 200MHz Stop: 6GHz Points: 801
! S-Parameter data: F S11 S21 S12 S22
# Hz S RI R 50
!     Frequency           S11_Real           S11_Imag           S21_Real           S21_Imag           S12_Real           S12_Imag           S22_Real           S22_Imag
      200000000   -9.020346999e-01   -1.073693261e-01    2.415291965e-05    1.291744411e-05    0.000000000e+00    0.000000000e+00    0.000000000e+00    0.000000000e+00
      207250000   -9.117038846e-01   -1.777745225e-02    4.358589649e-07    1.123733819e-05    0.000000000e+00    0.000000000e+00    0.000000000e+00    0.000000000e+00
      214500000   -9.126032591e-01    7.275643200e-02   -3.885664046e-05    1.924298704e-05    0.000000000e+00    0.000000000e+00    0.000000000e+00    0.000000000e+00
      221750000   -9.036465883e-01    1.650442332e-01    9.697861969e-06   -1.833774149e-06    0.000000000e+00    0.000000000e+00    0.000000000e+00    0.000000000e+00
      229000000   -8.856365681e-01    2.570435405e-01    2.511870116e-05    2.604350448e-05    0.000000000e+00    0.000000000e+00    0.000000000e+00    0.000000000e+00
      236250000   -8.561876416e-01    3.482256234e-01   -2.641044557e-05    7.495284081e-06    0.000000000e+00    0.000000000e+00    0.000000000e+00    0.000000000e+00
      243500000   -8.164164424e-01    4.372493923e-01   -1.152884215e-05    8.651055396e-06    0.000000000e+00    0.000000000e+00    0.000000000e+00    0.000000000e+00
      250750000   -7.658630013e-01    5.230311155e-01   -4.269648343e-05   -1.501291990e-05    0.000000000e+00    0.000000000e+00    0.000000000e+00    0.000000000e+00
      258000000   -7.052381635e-01    6.033428311e-01    2.097245306e-05    1.943111420e-05    0.000000000e+00    0.000000000e+00    0.000000000e+00    0.000000000e+00
      265250000   -6.337803006e-01    6.774370670e-01    1.659803092e-05    3.900378942e-06    0.000000000e+00    0.000000000e+00    0.000000000e+00    0.000000000e+00
      272500000   -5.526800156e-01    7.439256907e-01    1.797452569e-06    1.234840602e-05    0.000000000e+00    0.000000000e+00    0.000000000e+00    0.000000000e+00
      279750000   -4.632459879e-01    8.001482487e-01   -4.350394011e-05    2.361368388e-05    0.000000000e+00    0.000000000e+00    0.000000000e+00    0.000000000e+00
      287000000   -3.651677072e-01    8.460032344e-01   -2.188514918e-05    7.058493793e-06    0.000000000e+00    0.000000000e+00    0.000000000e+00    0.000000000e+00
      294250000   -2.620304227e-01    8.795546889e-01    2.801232040e-05   -6.393529475e-06    0.000000000e+00    0.000000000e+00    0.000000000e+00    0.000000000e+00
      301500000   -1.544318199e-01    8.997867703e-01    1.474935561e-05   -7.619149983e-06    0.000000000e+00    0.000000000e+00    0.000000000e+00    0.000000000e+00
      308750000   -4.296894744e-02    9.065258503e-01   -1.185573637e-06   -2.427864820e-05    0.000000000e+00    0.000000000e+00    0.000000000e+00    0.000000000e+00
      316000000    6.795386970e-02    8.998078704e-01   -1.725554466e-05    1.744646579e-05    0.000000000e+00    0.000000000e+00    0.000000000e+00    0.000000000e+00
      323250000    1.780336350e-01    8.778002262e-01    1.106504351e-05    1.184456050e-05    0.000000000e+00    0.000000000e+00    0.000000000e+00    0.000000000e+00
      330500000    2.843503952e-01    8.424590826e-01   -3.258604556e-05   -5.283392966e-06    0.000000000e+00    0.000000000e+00    0.000000000e+00    0.000000000e+00
      337750000    3.848263323e-01    7.946591973e-01    8.242204785e-07   -8.061528206e-06    0.000000000e+00    0.000000000e+00    0.000000000e+00    0.000000000e+00
      345000000    4.792255163e-01    7.334891558e-01   -5.227513611e-06   -1.617893577e-05    0.000000000e+00    0.000000000e+00    0.000000000e+00    0.000000000e+00
      352250000    5.639646053e-01    6.618524790e-01   -1.113675535e-05    2.978369594e-06    0.000000000e+00    0.000000000e+00    0.000000000e+00    0.000000000e+00
      359500000    6.391614079e-01    5.806242824e-01    2.130586654e-05   -6.184913218e-06    0.000000000e+00    0.000000000e+00    0.000000000e+00    0.000000000e+00
      366750000    7.035553455e-01    4.920859933e-01   -5.718320608e-07    3.070663661e-05    0.000000000e+00    0.000000000e+00    0.000000000e+00    0.000000000e+00
      374000000    7.559872270e-01    3.966038823e-01    9.177252650e-06   -3.110524267e-05    0.000000000e+00    0.000000000e+00    0.000000000e+00    0.000000000e+00
      381250000    7.968266010e-01    2.967314124e-01    2.341810614e-05    1.204852015e-05    0.000000000e+00    0.000000000e+00    0.000000000e+00    0.000000000e+00
      388500000    8.253082633e-01    1.941086054e-01    3.478489816e-05    8.303672075e-06    0.000000000e+00    0.000000000e+00    0.000000000e+00    0.000000000e+00
      395750000    8.416830301e-01    8.959052712e-02   -1.591630280e-06   -2.437736839e-05    0.000000000e+00    0.000000000e+00    0.000000000e+00    0.000000000e+00
      403000000    8.460850716e-01   -1.438639127e-02    6.480142474e-06    2.594664693e-06    0.000000000e+00    0.000000000e+00    0.000000000e+00    0.000000000e+00
      410250000    8.389797211e-01   -1.182527393e-01   -4.771165550e-06   -2.946332097e-05    0.000000000e+00    0.000000000e+00    0.000000000e+00    0.000000000e+00
      417500000    8.209765553e-01   -2.185584903e-01   -1.075584441e-05   -2.046301961e-05    0.000000000e+00    0.000000000e+00    0.000000000e+00    0.000000000e+00
      424750000    7.919657826e-01   -3.167113662e-01    1.661479473e-06    5.551334471e-05    0.000000000e+00    0.000000000e+00    0.000000000e+00    0.000000000e+00
      432000000    7.513790131e-01   -4.102133811e-01   -3.112107515e-05   -1.710839570e-06    0.000000000e+00    0.000000000e+00    0.000000000e+00    0.000000000e+00
      439250000    7.046548724e-01   -4.979197681e-01   -1.573935151e-06   -3.428477794e-05    0.000000000e+00    0.000000000e+00    0.000000000e+00    0.000000000e+00
      446500000    6.481557488e-01   -5.789878964e-01    2.453848720e-05    1.853518188e-05    0.000000000e+00    0.000000000e+00    0.000000000e+00    0.000000000e+00
      453750000    5.823395848e-01   -6.543999910e-01   -1.385062933e-05    3.326497972e-05    0.000000000e+00    0.000000000e+00    0.000000000e+00    0.000000000e+00
      461000000    5.110834241e-01   -7.222243547e-01   -1.592561603e-06   -7.704831660e-06    0.000000000e+00    0.000000000e+00    0.000000000e+00    0.000000000e+00
      468250000    4.326643050e-01   -7.813320160e-01    1.921132207e-05   -1.350417733e-07    0.000000000e+00    0.000000000e+00    0.000000000e+00    0.000000000e+00
      475500000    3.476518393e-01   -8.326674700e-01   -3.205612302e-05    2.129934728e-06    0.000000000e+00    0.000000000e+00    0.000000000e+00    0.000000000e+00
      482750000    2.586955130e-01   -8.747043014e-01    1.449789852e-05   -1.061242074e-05    0.000000000e+00    0.000000000e+00    0.000000000e+00    0.000000000e+00
      490000000    1.652514786e-01   -9.075429440e-01   -1.622363925e-05   -1.452770084e-05    0.000000000e+00    0.000000000e+00    0.000000000e+00    0.000000000e+00
      497250000    6.870541722e-02   -9.300798774e-01   -1.308508217e-06   -3.252457827e-05    0.000000000e+00    0.000000000e+00    0.000000000e+00    0.000000000e+00
      504500000   -2.999670058e-02   -9.423720837e-01    2.697110176e-05    2.560764551e-05    0.000000000e+00    0.000000000e+00    0.000000000e+00    0.000000000e+00
      511750000   -1.302978992e-01   -9.443140626e-01   -9.023584425e-06   -2.864655107e-05    0.000000000e+00    0.000000000e+00    0.000000000e+00    0.000000000e+00
      519000000   -2.306732535e-01   -9.348001480e-01    2.891570330e-05   -2.505257726e-05    0.000000000e+00    0.000000000e+00    0.000000000e+00    0.000000000e+00
      526250000   -3.304397166e-01   -9.137697816e-01   -2.505257726e-07    1.856032759e-05    0.000000000e+00    0.000000000e+00    0.000000000e+00    0.000000000e+00
      533500000   -4.279563427e-01   -8.828625083e-01   -1.761503518e-05    1.962296665e-05    0.000000000e+00    0.000000000e+00    0.000000000e+00    0.000000000e+00
      540750000   -5.216571689e-01   -8.410546780e-01    3.495812416e-05    1.031067222e-05    0.000000000e+00    0.000000000e+00    0.000000000e+00    0.000000000e+00
      548000000   -6.109727621e-01   -7.873591781e-01    1.471489668e-06   -1.201406121e-06    0.000000000e+00    0.000000000e+00    0.000000000e+00    0.000000000e+00
      555250000   -6.935492754e-01   -7.236090302e-01   -1.247879118e-05   -2.205651253e-05    0.000000000e+00    0.000000000e+00    0.000000000e+00    0.000000000e+00
      562500000   -7.692556977e-01   -6.492076516e-01   -1.770071685e-05    1.774355769e-05    0.000000000e+00    0.000000000e+00    0.000000000e+00    0.000000000e+00
      569750000   -8.360003829e-01   -5.671499968e-01   -1.105759293e-05    1.857057214e-05    0.000000000e+00    0.000000000e+00    0.000000000e+00    0.000000000e+00
      577000000   -8.922838569e-01   -4.776390195e-01    2.721883357e-05    6.707385182e-06    0.000000000e+00    0.000000000e+00    0.000000000e+00    0.000000000e+00
      584250000   -9.382644892e-01   -3.799771965e-01    5.347561091e-05    9.824521840e-06    0.000000000e+00    0.000000000e+00    0.000000000e+00    0.000000000e+00
      591500000   -9.719356298e-01   -2.788372338e-01   -5.197711289e-06    5.086883903e-06    0.000000000e+00    0.000000000e+00    0.000000000e+00    0.000000000e+00
      598750000   -9.942755103e-01   -1.721123457e-01   -2.186000347e-05    3.926735371e-05    0.000000000e+00    0.000000000e+00    0.000000000e+00    0.000000000e+00
      606000000   -1.002479911e+00   -6.514282525e-02   -5.040504038e-05    1.857709140e-05    0.000000000e+00    0.000000000e+00    0.000000000e+00    0.000000000e+00
      613250000   -9.977764487e-01    4.181731120e-02    4.011485726e-05    3.619585186e-05    0.000000000e+00    0.000000000e+00    0.000000000e+00    0.000000000e+00
      620500000   -9.801399708e-01    1.488640606e-01    1.585856080e-05    2.032797784e-05    0.000000000e+00    0.000000000e+00    0.000000000e+00    0.000000000e+00
      627750000   -9.497452974e-01    2.518202364e-01   -6.338581443e-06   -4.599988461e-05    0.000000000e+00    0.000000000e+00    0.000000000e+00    0.000000000e+00
      635000000   -9.086776376e-01    3.488651216e-01    1.166015863e-06   -1.471303403e-05    0.000000000e+00    0.000000000e+00    0.000000000e+00    0.000000000e+00
      642250000   -8.549335003e-01    4.414954484e-01   -3.715325147e-05    1.760199666e-05    0.000000000e+00    0.000000000e+00    0.000000000e+00    0.000000000e+00
      649500000   -7.925921082e-01    5.245099068e-01    1.553539187e-05   -4.820991307e-05    0.000000000e+00    0.000000000e+00    0.000000000e+00    0.000000000e+00
      656750000   -7.204918861e-01    5.994583368e-01   -3.072340041e-05   -4.130695015e-05    0.000000000e+00    0.000000000e+00    0.000000000e+00    0.000000000e+00
      664000000   -6.401824951e-01    6.659444571e-01    5.130656064e-06    3.265216947e-06    0.000000000e+00    0.000000000e+00    0.000000000e+00    0.000000000e+00
      671250000   -5.555008054e-01    7.212599516e-01    4.781410098e-06    7.217749953e-07    0.000000000e+00    0.000000000e+00    0.000000000e+00    0.000000000e+00
      678500000   -4.645182788e-01    7.665725946e-01   -2.594664693e-05   -2.459809184e-05    0.000000000e+00    0.000000000e+00    0.000000000e+00    0.000000000e+00
      685750000   -3.698324859e-01    8.002708554e-01    6.995163858e-06    2.583488822e-06    0.000000000e+00    0.000000000e+00    0.000000000e+00    0.000000000e+00
      693000000   -2.742862701e-01    8.231914639e-01   -4.978850484e-06   -6.038323045e-05    0.000000000e+00    0.000000000e+00    0.000000000e+00    0.000000000e+00
      700250000   -1.763873994e-01    8.361824751e-01    2.082530409e-05   -9.733252227e-06    0.000000000e+00    0.000000000e+00    0.000000000e+00    0.000000000e+00
      707500000   -7.910211384e-02    8.378856778e-01   -5.157291889e-05    2.308469266e-05    0.000000000e+00    0.000000000e+00    0.000000000e+00    0.000000000e+00
      714750000    1.789639704e-02    8.294497728e-01    1.329928637e-06   -1.566950232e-05    0.000000000e+00    0.000000000e+00    0.000000000e+00    0.000000000e+00
      722000000    1.104353964e-01    8.108442426e-01    1.464970410e-05   -2.988521010e-05    0.000000000e+00    0.000000000e+00    0.000000000e+00    0.000000000e+00
      729250000    2.009209841e-01    7.833423018e-01   -5.765818059e-06    5.235895514e-06    0.000000000e+00    0.000000000e+00    0.000000000e+00    0.000000000e+00
      736500000    2.870555818e-01    7.465712428e-01   -1.682899892e-06   -3.139860928e-05    0.000000000e+00    0.000000000e+00    0.000000000e+00    0.000000000e+00
      743750000    3.689047694e-01    7.016367316e-01    1.286063343e-05    6.882473826e-07    0.000000000e+00    0.000000000e+00    0.000000000e+00    0.000000000e+00
      751000000    4.448737204e-01    6.499649882e-01   -2.000201494e-05   -2.671778202e-05    0.000000000e+00    0.000000000e+00    0.000000000e+00    0.000000000e+00
      758250000    5.142504573e-01    5.901119113e-01    5.691219121e-05    1.518055797e-05    0.000000000e+00    0.000000000e+00    0.000000000e+00    0.000000000e+00
      765500000    5.785015225e-01    5.241546035e-01    1.578405499e-05    1.726113260e-05    0.000000000e+00    0.000000000e+00    0.000000000e+00    0.000000000e+00
      772750000    6.351684928e-01    4.520997405e-01   -3.852881491e-06   -1.079309732e-05    0.000000000e+00    0.000000000e+00    0.000000000e+00    0.000000000e+00
      780000000    6.841807365e-01    3.748938441e-01    1.471769065e-05    1.650489867e-05    0.000000000e+00    0.000000000e+00    0.000000000e+00    0.000000000e+00
      787250000    7.270048857e-01    2.922303081e-01   -2.111215144e-05   -2.174731344e-05    0.000000000e+00    0.000000000e+00    0.000000000e+00    0.000000000e+00
      794500000    7.598882318e-01    2.057727724e-01   -1.654867083e-05    2.926029265e-05    0.000000000e+00    0.000000000e+00    0.000000000e+00    0.000000000e+00
      801750000    7.847038507e-01    1.163952202e-01    3.688968718e-06    1.868885010e-05    0.000000000e+00    0.000000000e+00    0.000000000e+00    0.000000000e+00
      809000000    8.004320860e-01    2.388244867e-02   -4.187598825e-05   -1.627579331e-05    0.000000000e+00    0.000000000e+00    0.000000000e+00    0.000000000e+00
      816250000    8.058784604e-01   -7.030116767e-02   -3.453064710e-05    1.261476427e-05    0.000000000e+00    0.000000000e+00    0.000000000e+00    0.000000000e+00
      823500000    8.015300035e-01   -1.674283594e-01    6.983056664e-06    2.814643085e-05    0.000000000e+00    0.000000000e+00    0.000000000e+00    0.000000000e+00
      830750000    7.875163555e-01   -2.630101144e-01    1.536123455e-05    1.188647002e-05    0.000000000e+00    0.000000000e+00    0.000000000e+00    0.000000000e+00
      838000000    7.623272538e-01   -3.572187722e-01    5.681067705e-08    9.989365935e-06    0.000000000e+00    0.000000000e+00    0.000000000e+00    0.000000000e+00
      845250000    7.268999219e-01   -4.499907792e-01    1.272931695e-05   -2.457387745e-05    0.000000000e+00    0.000000000e+00    0.000000000e+00    0.000000000e+00
      852500000    6.800894141e-01   -5.388417840e-01   -1.402571797e-05   -3.235321492e-05    0.000000000e+00    0.000000000e+00    0.000000000e+00    0.000000000e+00
      859750000    6.231534481e-01   -6.226634383e-01   -3.524124622e-06    1.492910087e-05    0.000000000e+00    0.000000000e+00    0.000000000e+00    0.000000000e+00
      867000000    5.535340309e-01   -7.022668123e-01   -7.935799658e-06   -4.206784070e-06    0.000000000e+00    0.000000000e+00    0.000000000e+00    0.000000000e+00
      874250000    4.772278368e-01   -7.720549107e-01   -4.999153316e-05   -2.182647586e-05    0.000000000e+00    0.000000000e+00    0.000000000e+00    0.000000000e+00
      881500000    3.884423375e-01   -8.342717290e-01    1.728814095e-05    5.276873708e-06    0.000000000e+00    0.000000000e+00    0.000000000e+00    0.000000000e+00
      888750000    2.940651476e-01   -8.841797113e-01    1.225061715e-05   -1.206621528e-05    0.000000000e+00    0.000000000e+00    0.000000000e+00    0.000000000e+00
      896000000    1.924909055e-01   -9.227111936e-01    4.114583135e-06    1.366063952e-05    0.000000000e+00    0.000000000e+00    0.000000000e+00    0.000000000e+00
      903250000    8.506932110e-02   -9.475454688e-01   -1.308508217e-06   -2.286024392e-05    0.000000000e+00    0.000000000e+00    0.000000000e+00    0.000000000e+00
      910500000   -2.723784745e-02   -9.589349031e-01   -2.726353705e-05   -1.504458487e-05    0.000000000e+00    0.000000000e+00    0.000000000e+00    0.000000000e+00
      917750000   -1.393916607e-01   -9.539839625e-01   -1.244712621e-05   -8.974224329e-06    0.000000000e+00    0.000000000e+00    0.000000000e+00    0.000000000e+00
      925000000   -2.474874705e-01   -9.360243678e-01   -1.058354974e-05   -7.065013051e-06    0.000000000e+00    0.000000000e+00    0.000000000e+00    0.000000000e+00
      932250000   -3.570654988e-01   -9.011121988e-01    2.437457442e-05   -3.212597221e-05    0.000000000e+00    0.000000000e+00    0.000000000e+00    0.000000000e+00
      939500000   -4.567798376e-01   -8.531316519e-01   -2.484116703e-05   -1.822784543e-05    0.000000000e+00    0.000000000e+00    0.000000000e+00    0.000000000e+00
      946750000   -5.491383672e-01   -7.938594818e-01    5.235616118e-05   -1.073349267e-05    0.000000000e+00    0.000000000e+00    0.000000000e+00    0.000000000e+00
      954000000   -6.326435804e-01   -7.206081152e-01   -9.764917195e-06   -1.801922917e-05    0.000000000e+00    0.000000000e+00    0.000000000e+00    0.000000000e+00
      961250000   -7.043722868e-01   -6.402022243e-01    3.474485129e-05   -1.123640686e-05    0.000000000e+00    0.000000000e+00    0.000000000e+00    0.000000000e+00
      968500000   -7.644988894e-01   -5.501663685e-01    2.494733781e-05   -5.010701716e-05    0.000000000e+00    0.000000000e+00    0.000000000e+00    0.000000000e+00
      975750000   -8.105431199e-01   -4.581393301e-01   -1.221429557e-05   -4.400499165e-05    0.000000000e+00    0.000000000e+00    0.000000000e+00    0.000000000e+00
      983000000   -8.444869518e-01   -3.589445055e-01   -2.142507583e-05    1.074280590e-05    0.000000000e+00    0.000000000e+00    0.000000000e+00    0.000000000e+00
      990250000   -8.659698367e-01   -2.609854043e-01   -2.731475979e-05   -3.740377724e-05    0.000000000e+00    0.000000000e+00    0.000000000e+00    0.000000000e+00
      997500000   -8.737916946e-01   -1.635138094e-01    2.252589911e-05    3.545545042e-06    0.000000000e+00    0.000000000e+00    0.000000000e+00    0.000000000e+00
     1004750000   -8.713828325e-01   -6.718252599e-02    9.397044778e-07   -2.052914351e-05    0.000000000e+00    0.000000000e+00    0.000000000e+00    0.000000000e+00
     1012000000   -8.570807576e-01    2.861083485e-02    3.278627992e-05    1.467764378e-05    0.000000000e+00    0.000000000e+00    0.000000000e+00    0.000000000e+00
     1019250000   -8.334794641e-01    1.157082692e-01   -3.976561129e-05   -3.162585199e-05    0.000000000e+00    0.000000000e+00    0.000000000e+00    0.000000000e+00
     1026500000   -8.006961942e-01    2.006516904e-01    5.156639963e-05   -2.146419138e-05    0.000000000e+00    0.000000000e+00    0.000000000e+00    0.000000000e+00
     1033750000   -7.597285509e-01    2.783586681e-01   -3.780238330e-06    1.589208841e-05    0.000000000e+00    0.000000000e+00    0.000000000e+00    0.000000000e+00
     1041000000   -7.128872871e-01    3.497307301e-01    2.790708095e-05   -4.945322871e-07    0.000000000e+00    0.000000000e+00    0.000000000e+00    0.000000000e+00
