! NanoVNA-App by OneOfEleven et al v1.1.209 (+OD15) 
! Date: 2024-07-30 15:24:11
! Start: 200MHz Stop: 6GHz Points: 801
! S-Parameter data: F S11 S21 S12 S22
# Hz S RI R 50
!     Frequency           S11_Real           S11_Imag           S21_Real           S21_Imag           S12_Real           S12_Imag           S22_Real           S22_Imag
      200000000   -9.020910859e-01   -1.071565151e-01   -1.055467874e-05    1.442618668e-05    0.000000000e+00    0.000000000e+00    0.000000000e+00    0.000000000e+00
      207250000   -9.119610786e-01   -1.809638552e-02    1.582968980e-05    2.571474761e-05    0.000000000e+00    0.000000000e+00    0.000000000e+00    0.000000000e+00
      214500000   -9.127357602e-01    7.302007824e-02    5.749054253e-05   -2.541486174e-05    0.000000000e+00    0.000000000e+00    0.000000000e+00    0.000000000e+00
      221750000   -9.032856822e-01    1.651125550e-01    8.635222912e-06    3.039836884e-06    0.000000000e+00    0.000000000e+00    0.000000000e+00    0.000000000e+00
      229000000   -8.849510550e-01    2.573056519e-01    6.942078471e-06    2.248771489e-05    0.000000000e+00    0.000000000e+00    0.000000000e+00    0.000000000e+00
      236250000   -8.566679358e-01    3.481622040e-01    2.014450729e-05   -8.755363524e-06    0.000000000e+00    0.000000000e+00    0.000000000e+00    0.000000000e+00
      243500000   -8.161540031e-01    4.373000264e-01    3.502145410e-05   -4.043150693e-05    0.000000000e+00    0.000000000e+00    0.000000000e+00    0.000000000e+00
      250750000   -7.657184601e-01    5.230205059e-01   -4.614703357e-06   -8.249655366e-06    0.000000000e+00    0.000000000e+00    0.000000000e+00    0.000000000e+00
      258000000   -7.049762607e-01    6.035844088e-01    1.967418939e-05    4.259124398e-05    0.000000000e+00    0.000000000e+00    0.000000000e+00    0.000000000e+00
      265250000   -6.332933307e-01    6.773185134e-01   -4.442408681e-06    6.688758731e-06    0.000000000e+00    0.000000000e+00    0.000000000e+00    0.000000000e+00
      272500000   -5.522489548e-01    7.434778810e-01   -6.717629731e-06   -1.271255314e-06    0.000000000e+00    0.000000000e+00    0.000000000e+00    0.000000000e+00
      279750000   -4.628089368e-01    8.000153303e-01   -4.095956683e-06   -1.083128154e-05    0.000000000e+00    0.000000000e+00    0.000000000e+00    0.000000000e+00
      287000000   -3.652979434e-01    8.456937671e-01   -4.665926099e-07   -3.711879253e-05    0.000000000e+00    0.000000000e+00    0.000000000e+00    0.000000000e+00
      294250000   -2.620013058e-01    8.794268370e-01   -1.672469079e-05    1.208763570e-05    0.000000000e+00    0.000000000e+00    0.000000000e+00    0.000000000e+00
      301500000   -1.542595476e-01    9.003471136e-01   -2.909172326e-05    1.274049282e-05    0.000000000e+00    0.000000000e+00    0.000000000e+00    0.000000000e+00
      308750000   -4.320900887e-02    9.062925577e-01    4.461966455e-06   -9.539537132e-06    0.000000000e+00    0.000000000e+00    0.000000000e+00    0.000000000e+00
      316000000    6.816962361e-02    8.992662430e-01    1.791305840e-05   -3.358814865e-05    0.000000000e+00    0.000000000e+00    0.000000000e+00    0.000000000e+00
      323250000    1.776840538e-01    8.780589700e-01    2.098549157e-05   -3.752298653e-06    0.000000000e+00    0.000000000e+00    0.000000000e+00    0.000000000e+00
      330500000    2.843560278e-01    8.423298597e-01   -3.086682409e-05    2.112332731e-05    0.000000000e+00    0.000000000e+00    0.000000000e+00    0.000000000e+00
      337750000    3.845674098e-01    7.944886684e-01   -1.585390419e-05    2.570357174e-05    0.000000000e+00    0.000000000e+00    0.000000000e+00    0.000000000e+00
      345000000    4.791920483e-01    7.332791686e-01   -1.730024815e-05    1.300219446e-05    0.000000000e+00    0.000000000e+00    0.000000000e+00    0.000000000e+00
      352250000    5.641885400e-01    6.621799469e-01   -1.873821020e-06   -2.100784332e-05    0.000000000e+00    0.000000000e+00    0.000000000e+00    0.000000000e+00
      359500000    6.390242577e-01    5.809187889e-01   -4.277564585e-06    3.508105874e-05    0.000000000e+00    0.000000000e+00    0.000000000e+00    0.000000000e+00
      366750000    7.035995722e-01    4.913775325e-01   -2.605188638e-05   -8.046627045e-07    0.000000000e+00    0.000000000e+00    0.000000000e+00    0.000000000e+00
      374000000    7.560698390e-01    3.971685171e-01    6.581656635e-06   -1.118332148e-05    0.000000000e+00    0.000000000e+00    0.000000000e+00    0.000000000e+00
      381250000    7.969345450e-01    2.967111170e-01   -2.770498395e-05    3.011897206e-06    0.000000000e+00    0.000000000e+00    0.000000000e+00    0.000000000e+00
      388500000    8.252816796e-01    1.941863000e-01    4.336796701e-05   -5.299225450e-06    0.000000000e+00    0.000000000e+00    0.000000000e+00    0.000000000e+00
      395750000    8.417258859e-01    8.992759883e-02   -1.165457070e-05    1.374632120e-05    0.000000000e+00    0.000000000e+00    0.000000000e+00    0.000000000e+00
      403000000    8.460125327e-01   -1.456326526e-02   -9.497627616e-06    2.119503915e-05    0.000000000e+00    0.000000000e+00    0.000000000e+00    0.000000000e+00
      410250000    8.385424018e-01   -1.183876768e-01   -1.932308078e-05   -8.679926395e-07    0.000000000e+00    0.000000000e+00    0.000000000e+00    0.000000000e+00
      417500000    8.204342127e-01   -2.190452665e-01    4.185084254e-05   -2.135708928e-05    0.000000000e+00    0.000000000e+00    0.000000000e+00    0.000000000e+00
      424750000    7.920235395e-01   -3.169338703e-01   -1.843553036e-05    3.417953849e-07    0.000000000e+00    0.000000000e+00    0.000000000e+00    0.000000000e+00
      432000000    7.531074286e-01   -4.101813436e-01    5.183741450e-05    2.094078809e-05    0.000000000e+00    0.000000000e+00    0.000000000e+00    0.000000000e+00
      439250000    7.048093677e-01   -4.975832403e-01    1.560896635e-05   -9.229406714e-06    0.000000000e+00    0.000000000e+00    0.000000000e+00    0.000000000e+00
      446500000    6.479357481e-01   -5.792610645e-01    4.848837852e-05   -2.344883978e-05    0.000000000e+00    0.000000000e+00    0.000000000e+00    0.000000000e+00
      453750000    5.829261541e-01   -6.549701691e-01    3.758259118e-05    4.420615733e-05    0.000000000e+00    0.000000000e+00    0.000000000e+00    0.000000000e+00
      461000000    5.107505918e-01   -7.220523953e-01   -5.457550287e-07    4.394538701e-05    0.000000000e+00    0.000000000e+00    0.000000000e+00    0.000000000e+00
      468250000    4.324356318e-01   -7.817270756e-01    2.728682011e-05   -1.189392060e-05    0.000000000e+00    0.000000000e+00    0.000000000e+00    0.000000000e+00
      475500000    3.480028212e-01   -8.328169584e-01    5.044043064e-06    4.390999675e-05    0.000000000e+00    0.000000000e+00    0.000000000e+00    0.000000000e+00
      482750000    2.586534917e-01   -8.750782013e-01   -2.859160304e-05    2.732314169e-05    0.000000000e+00    0.000000000e+00    0.000000000e+00    0.000000000e+00
      490000000    1.646912992e-01   -9.073231816e-01    7.141381502e-06   -8.214265108e-06    0.000000000e+00    0.000000000e+00    0.000000000e+00    0.000000000e+00
      497250000    6.856123358e-02   -9.296205640e-01    1.785159111e-05    3.583449870e-05    0.000000000e+00    0.000000000e+00    0.000000000e+00    0.000000000e+00
      504500000   -3.032932617e-02   -9.421708584e-01   -2.082157880e-05   -2.025533468e-05    0.000000000e+00    0.000000000e+00    0.000000000e+00    0.000000000e+00
      511750000   -1.307325512e-01   -9.436223507e-01   -2.685934305e-06    2.081226557e-05    0.000000000e+00    0.000000000e+00    0.000000000e+00    0.000000000e+00
      519000000   -2.307856828e-01   -9.345464706e-01    4.135537893e-05    3.599561751e-06    0.000000000e+00    0.000000000e+00    0.000000000e+00    0.000000000e+00
      526250000   -3.303990364e-01   -9.143152237e-01    5.823560059e-06    2.957414836e-05    0.000000000e+00    0.000000000e+00    0.000000000e+00    0.000000000e+00
      533500000   -4.278349876e-01   -8.827269077e-01    3.648921847e-05   -1.685600728e-05    0.000000000e+00    0.000000000e+00    0.000000000e+00    0.000000000e+00
      540750000   -5.220152140e-01   -8.395261168e-01    5.737878382e-06   -3.762543201e-06    0.000000000e+00    0.000000000e+00    0.000000000e+00    0.000000000e+00
      548000000   -6.113677025e-01   -7.870603800e-01   -3.170222044e-06   -5.438923836e-06    0.000000000e+00    0.000000000e+00    0.000000000e+00    0.000000000e+00
      555250000   -6.936529875e-01   -7.227090001e-01    2.196244895e-05    3.827828914e-05    0.000000000e+00    0.000000000e+00    0.000000000e+00    0.000000000e+00
      562500000   -7.690832615e-01   -6.500391364e-01   -2.613104880e-05    8.634291589e-06    0.000000000e+00    0.000000000e+00    0.000000000e+00    0.000000000e+00
      569750000   -8.354689479e-01   -5.673047304e-01    4.947185516e-06   -2.015382051e-06    0.000000000e+00    0.000000000e+00    0.000000000e+00    0.000000000e+00
      577000000   -8.921408653e-01   -4.775401056e-01    3.153458238e-06   -9.919516742e-06    0.000000000e+00    0.000000000e+00    0.000000000e+00    0.000000000e+00
      584250000   -9.376510978e-01   -3.803813756e-01    9.322538972e-06   -1.190602779e-05    0.000000000e+00    0.000000000e+00    0.000000000e+00    0.000000000e+00
      591500000   -9.723042846e-01   -2.780678272e-01    2.380460501e-06   -1.333281398e-05    0.000000000e+00    0.000000000e+00    0.000000000e+00    0.000000000e+00
      598750000   -9.937958717e-01   -1.718587428e-01    2.085790038e-05   -4.000961781e-06    0.000000000e+00    0.000000000e+00    0.000000000e+00    0.000000000e+00
      606000000   -1.002290726e+00   -6.576279551e-02    5.783513188e-06   -3.054738045e-06    0.000000000e+00    0.000000000e+00    0.000000000e+00    0.000000000e+00
      613250000   -9.979757667e-01    4.157527909e-02    1.268927008e-05   -1.293793321e-05    0.000000000e+00    0.000000000e+00    0.000000000e+00    0.000000000e+00
      620500000   -9.808781147e-01    1.488835663e-01   -4.722829908e-05    1.011788845e-05    0.000000000e+00    0.000000000e+00    0.000000000e+00    0.000000000e+00
      627750000   -9.498836398e-01    2.522664964e-01    1.696124673e-05   -5.158223212e-05    0.000000000e+00    0.000000000e+00    0.000000000e+00    0.000000000e+00
      635000000   -9.087645411e-01    3.492496014e-01   -3.720726818e-05    1.490022987e-05    0.000000000e+00    0.000000000e+00    0.000000000e+00    0.000000000e+00
      642250000   -8.549143076e-01    4.414983988e-01   -8.278712630e-05   -2.297852188e-05    0.000000000e+00    0.000000000e+00    0.000000000e+00    0.000000000e+00
      649500000   -7.921980619e-01    5.243148208e-01    2.873782068e-05   -2.539716661e-06    0.000000000e+00    0.000000000e+00    0.000000000e+00    0.000000000e+00
      656750000   -7.205778956e-01    5.993506312e-01   -3.101676702e-05    1.745298505e-06    0.000000000e+00    0.000000000e+00    0.000000000e+00    0.000000000e+00
      664000000   -6.402770281e-01    6.657338738e-01    1.347064972e-05    1.317262650e-05    0.000000000e+00    0.000000000e+00    0.000000000e+00    0.000000000e+00
      671250000   -5.549193025e-01    7.209264636e-01   -1.148786396e-05   -1.622270793e-05    0.000000000e+00    0.000000000e+00    0.000000000e+00    0.000000000e+00
      678500000   -4.645381868e-01    7.660997510e-01    1.558288932e-05    3.134086728e-05    0.000000000e+00    0.000000000e+00    0.000000000e+00    0.000000000e+00
      685750000   -3.705275953e-01    8.006168008e-01    1.090113074e-05    1.198891550e-05    0.000000000e+00    0.000000000e+00    0.000000000e+00    0.000000000e+00
      693000000   -2.731987536e-01    8.232171535e-01   -1.446809620e-05   -2.092216164e-05    0.000000000e+00    0.000000000e+00    0.000000000e+00    0.000000000e+00
      700250000   -1.759797484e-01    8.359527588e-01    3.619678319e-05   -5.662441254e-06    0.000000000e+00    0.000000000e+00    0.000000000e+00    0.000000000e+00
      707500000   -7.990679145e-02    8.377239108e-01   -3.533810377e-05    2.723280340e-05    0.000000000e+00    0.000000000e+00    0.000000000e+00    0.000000000e+00
      714750000    1.691960916e-02    8.294940591e-01   -1.396704465e-05    2.900324762e-05    0.000000000e+00    0.000000000e+00    0.000000000e+00    0.000000000e+00
      722000000    1.102446616e-01    8.110905886e-01    6.276182830e-06   -6.358139217e-06    0.000000000e+00    0.000000000e+00    0.000000000e+00    0.000000000e+00
      729250000    1.997591853e-01    7.837845683e-01   -1.249369234e-05   -4.424247891e-05    0.000000000e+00    0.000000000e+00    0.000000000e+00    0.000000000e+00
      736500000    2.863999009e-01    7.469525337e-01   -3.474391997e-05   -6.588175893e-06    0.000000000e+00    0.000000000e+00    0.000000000e+00    0.000000000e+00
      743750000    3.676081896e-01    7.022123337e-01   -5.987752229e-05    6.262212992e-06    0.000000000e+00    0.000000000e+00    0.000000000e+00    0.000000000e+00
      751000000    4.451750517e-01    6.498371959e-01    2.518296242e-05   -1.490022987e-05    0.000000000e+00    0.000000000e+00    0.000000000e+00    0.000000000e+00
      758250000    5.144582391e-01    5.897793174e-01   -9.698793292e-06   -1.813564450e-05    0.000000000e+00    0.000000000e+00    0.000000000e+00    0.000000000e+00
      765500000    5.785433650e-01    5.243800879e-01   -3.248546273e-05    2.079084516e-05    0.000000000e+00    0.000000000e+00    0.000000000e+00    0.000000000e+00
      772750000    6.352607012e-01    4.520939887e-01   -9.252689779e-06   -1.777149737e-05    0.000000000e+00    0.000000000e+00    0.000000000e+00    0.000000000e+00
      780000000    6.840114594e-01    3.749479055e-01   -4.000682384e-05   -5.292333663e-05    0.000000000e+00    0.000000000e+00    0.000000000e+00    0.000000000e+00
      787250000    7.272052169e-01    2.913283110e-01    2.636108547e-05   -2.266932279e-05    0.000000000e+00    0.000000000e+00    0.000000000e+00    0.000000000e+00
      794500000    7.593817115e-01    2.066997588e-01   -1.191906631e-05   -4.326924682e-06    0.000000000e+00    0.000000000e+00    0.000000000e+00    0.000000000e+00
      801750000    7.845527530e-01    1.165812910e-01   -1.597683877e-05    2.938322723e-05    0.000000000e+00    0.000000000e+00    0.000000000e+00    0.000000000e+00
      809000000    8.004473448e-01    2.330527455e-02   -1.069437712e-05   -5.289912224e-07    0.000000000e+00    0.000000000e+00    0.000000000e+00    0.000000000e+00
      816250000    8.061752915e-01   -7.054924220e-02   -9.299255908e-06   -1.921411604e-05    0.000000000e+00    0.000000000e+00    0.000000000e+00    0.000000000e+00
      823500000    8.014783859e-01   -1.670933962e-01   -9.598210454e-06    1.022405922e-05    0.000000000e+00    0.000000000e+00    0.000000000e+00    0.000000000e+00
      830750000    7.875045538e-01   -2.628234029e-01   -2.705492079e-06    2.033077180e-06    0.000000000e+00    0.000000000e+00    0.000000000e+00    0.000000000e+00
      838000000    7.623220682e-01   -3.571416736e-01   -1.679174602e-05   -8.942559361e-06    0.000000000e+00    0.000000000e+00    0.000000000e+00    0.000000000e+00
      845250000    7.263548374e-01   -4.494726956e-01    7.115304470e-06   -3.183446825e-05    0.000000000e+00    0.000000000e+00    0.000000000e+00    0.000000000e+00
      852500000    6.802622676e-01   -5.387554169e-01    2.040062100e-05   -2.195965499e-05    0.000000000e+00    0.000000000e+00    0.000000000e+00    0.000000000e+00
      859750000    6.238349676e-01   -6.222200990e-01    8.285976946e-06    1.935940236e-05    0.000000000e+00    0.000000000e+00    0.000000000e+00    0.000000000e+00
      867000000    5.549963117e-01   -7.016570568e-01   -9.125098586e-06    9.628944099e-06    0.000000000e+00    0.000000000e+00    0.000000000e+00    0.000000000e+00
      874250000    4.781556129e-01   -7.715399265e-01   -4.705972970e-06   -1.599453390e-05    0.000000000e+00    0.000000000e+00    0.000000000e+00    0.000000000e+00
      881500000    3.887757361e-01   -8.342122436e-01    3.409292549e-05   -1.504458487e-05    0.000000000e+00    0.000000000e+00    0.000000000e+00    0.000000000e+00
      888750000    2.947516441e-01   -8.839308023e-01   -7.715448737e-05    1.086201519e-05    0.000000000e+00    0.000000000e+00    0.000000000e+00    0.000000000e+00
      896000000    1.924576461e-01   -9.229120016e-01   -1.970678568e-06    1.522433013e-05    0.000000000e+00    0.000000000e+00    0.000000000e+00    0.000000000e+00
      903250000    8.471252769e-02   -9.476550221e-01   -2.461578697e-05    5.672685802e-06    0.000000000e+00    0.000000000e+00    0.000000000e+00    0.000000000e+00
      910500000   -2.722792700e-02   -9.579809904e-01   -2.507027239e-05    2.002250403e-05    0.000000000e+00    0.000000000e+00    0.000000000e+00    0.000000000e+00
      917750000   -1.383907199e-01   -9.548152685e-01    4.471838474e-05   -4.651956260e-06    0.000000000e+00    0.000000000e+00    0.000000000e+00    0.000000000e+00
      925000000   -2.486862838e-01   -9.353055954e-01    2.969056368e-06    2.603232861e-05    0.000000000e+00    0.000000000e+00    0.000000000e+00    0.000000000e+00
      932250000   -3.560505211e-01   -9.010902047e-01   -4.057213664e-05    3.255251795e-05    0.000000000e+00    0.000000000e+00    0.000000000e+00    0.000000000e+00
      939500000   -4.565622509e-01   -8.530569077e-01    2.923514694e-05   -2.309679985e-06    0.000000000e+00    0.000000000e+00    0.000000000e+00    0.000000000e+00
      946750000   -5.487357974e-01   -7.937842607e-01    2.553593367e-05   -4.191882908e-06    0.000000000e+00    0.000000000e+00    0.000000000e+00    0.000000000e+00
      954000000   -6.327678561e-01   -7.182601094e-01    9.341165423e-07    2.039130777e-05    0.000000000e+00    0.000000000e+00    0.000000000e+00    0.000000000e+00
      961250000   -7.042550445e-01   -6.401460767e-01   -2.330727875e-05    1.691468060e-05    0.000000000e+00    0.000000000e+00    0.000000000e+00    0.000000000e+00
      968500000   -7.639647126e-01   -5.515153408e-01   -2.509448677e-05    1.860782504e-06    0.000000000e+00    0.000000000e+00    0.000000000e+00    0.000000000e+00
      975750000   -8.104480505e-01   -4.576347470e-01    2.984981984e-05    8.964911103e-06    0.000000000e+00    0.000000000e+00    0.000000000e+00    0.000000000e+00
      983000000   -8.451085687e-01   -3.591925204e-01    1.249369234e-05    4.771724343e-05    0.000000000e+00    0.000000000e+00    0.000000000e+00    0.000000000e+00
      990250000   -8.653474450e-01   -2.622552216e-01    8.549541235e-07    2.121366560e-05    0.000000000e+00    0.000000000e+00    0.000000000e+00    0.000000000e+00
      997500000   -8.745819926e-01   -1.621576697e-01    3.222469240e-05   -7.480382919e-06    0.000000000e+00    0.000000000e+00    0.000000000e+00    0.000000000e+00
     1004750000   -8.704428077e-01   -6.697867811e-02   -2.375897020e-05    2.082437277e-05    0.000000000e+00    0.000000000e+00    0.000000000e+00    0.000000000e+00
     1012000000   -8.572107553e-01    2.788408101e-02   -2.913177013e-05   -2.572126687e-05    0.000000000e+00    0.000000000e+00    0.000000000e+00    0.000000000e+00
     1019250000   -8.334844708e-01    1.160768270e-01   -1.833587885e-05   -5.769543350e-06    0.000000000e+00    0.000000000e+00    0.000000000e+00    0.000000000e+00
     1026500000   -8.006662726e-01    2.005764395e-01    4.135817289e-05    4.983041435e-05    0.000000000e+00    0.000000000e+00    0.000000000e+00    0.000000000e+00
     1033750000   -7.599582076e-01    2.788336873e-01   -1.856777817e-05   -1.829769462e-05    0.000000000e+00    0.000000000e+00    0.000000000e+00    0.000000000e+00
     1041000000   -7.125858665e-01    3.486660421e-01   -2.549309283e-05   -1.163408160e-05    0.000000000e+00    0.000000000e+00    0.000000000e+00    0.000000000e+00
