! NanoVNA-App by OneOfEleven et al v1.1.209 (+OD15) 
! Date: 2024-07-30 15:24:19
! Start: 200MHz Stop: 6GHz Points: 801
! S-Parameter data: F S11 S21 S12 S22
# Hz S RI R 50
!     Frequency           S11_Real           S11_Imag           S21_Real           S21_Imag           S12_Real           S12_Imag           S22_Real           S22_Imag
      200000000   -9.017291069e-01   -1.068862677e-01    1.218449324e-05   -3.064982593e-06    0.000000000e+00    0.000000000e+00    0.000000000e+00    0.000000000e+00
      207250000   -9.118999243e-01   -1.812239736e-02    3.460515290e-05   -1.531094313e-06    0.000000000e+00    0.000000000e+00    0.000000000e+00    0.000000000e+00
      214500000   -9.126695395e-01    7.288207859e-02    9.748153389e-06    1.707673073e-05    0.000000000e+00    0.000000000e+00    0.000000000e+00    0.000000000e+00
      221750000   -9.035004973e-01    1.651344895e-01    1.749861985e-05   -1.031812280e-05    0.000000000e+00    0.000000000e+00    0.000000000e+00    0.000000000e+00
      229000000   -8.848806620e-01    2.571930587e-01   -2.250354737e-05    5.489774048e-05    0.000000000e+00    0.000000000e+00    0.000000000e+00    0.000000000e+00
      236250000   -8.563300371e-01    3.487257659e-01    1.891888678e-05   -1.145806164e-05    0.000000000e+00    0.000000000e+00    0.000000000e+00    0.000000000e+00
      243500000   -8.164898157e-01    4.373742342e-01   -1.752190292e-05    2.839602530e-06    0.000000000e+00    0.000000000e+00    0.000000000e+00    0.000000000e+00
      250750000   -7.656311393e-01    5.232145190e-01    3.590248525e-06   -3.729015589e-06    0.000000000e+00    0.000000000e+00    0.000000000e+00    0.000000000e+00
      258000000   -7.041526437e-01    6.033318639e-01    3.482215106e-05    2.383533865e-05    0.000000000e+00    0.000000000e+00    0.000000000e+00    0.000000000e+00
      265250000   -6.340659857e-01    6.776852012e-01   -2.463534474e-05   -8.146278560e-06    0.000000000e+00    0.000000000e+00    0.000000000e+00    0.000000000e+00
      272500000   -5.520284176e-01    7.438706756e-01    1.010764390e-05   -2.029072493e-05    0.000000000e+00    0.000000000e+00    0.000000000e+00    0.000000000e+00
      279750000   -4.635347426e-01    8.002526164e-01   -1.897290349e-05   -2.517830580e-05    0.000000000e+00    0.000000000e+00    0.000000000e+00    0.000000000e+00
      287000000   -3.652428389e-01    8.456844687e-01    7.245689631e-06    1.371651888e-05    0.000000000e+00    0.000000000e+00    0.000000000e+00    0.000000000e+00
      294250000   -2.620128691e-01    8.792019486e-01   -7.826834917e-06    7.192604244e-06    0.000000000e+00    0.000000000e+00    0.000000000e+00    0.000000000e+00
      301500000   -1.537713856e-01    9.001573324e-01   -2.540275455e-05    9.332783520e-06    0.000000000e+00    0.000000000e+00    0.000000000e+00    0.000000000e+00
      308750000   -4.304325208e-02    9.065374732e-01    3.728084266e-06   -4.488043487e-06    0.000000000e+00    0.000000000e+00    0.000000000e+00    0.000000000e+00
      316000000    6.819421053e-02    8.989897370e-01    1.499708742e-05    5.248934031e-06    0.000000000e+00    0.000000000e+00    0.000000000e+00    0.000000000e+00
      323250000    1.779416353e-01    8.778374791e-01    2.411939204e-05    1.976825297e-05    0.000000000e+00    0.000000000e+00    0.000000000e+00    0.000000000e+00
      330500000    2.844847739e-01    8.423712254e-01    6.143189967e-05   -6.644986570e-06    0.000000000e+00    0.000000000e+00    0.000000000e+00    0.000000000e+00
      337750000    3.857136965e-01    7.939730287e-01    2.498738468e-06    2.554617822e-06    0.000000000e+00    0.000000000e+00    0.000000000e+00    0.000000000e+00
      345000000    4.791620374e-01    7.336742282e-01    3.198441118e-05    2.976786345e-05    0.000000000e+00    0.000000000e+00    0.000000000e+00    0.000000000e+00
      352250000    5.641284585e-01    6.622201800e-01    2.613291144e-05    1.291185617e-05    0.000000000e+00    0.000000000e+00    0.000000000e+00    0.000000000e+00
      359500000    6.392461061e-01    5.807315707e-01   -1.559592783e-05   -2.194195986e-06    0.000000000e+00    0.000000000e+00    0.000000000e+00    0.000000000e+00
      366750000    7.032395005e-01    4.922316968e-01   -2.511125058e-05    2.237036824e-06    0.000000000e+00    0.000000000e+00    0.000000000e+00    0.000000000e+00
      374000000    7.557661533e-01    3.971968889e-01    1.972075552e-05   -3.768410534e-05    0.000000000e+00    0.000000000e+00    0.000000000e+00    0.000000000e+00
      381250000    7.972319126e-01    2.967906594e-01   -9.679235518e-06    2.085231245e-06    0.000000000e+00    0.000000000e+00    0.000000000e+00    0.000000000e+00
      388500000    8.256222606e-01    1.938538402e-01    2.565048635e-05   -1.340173185e-06    0.000000000e+00    0.000000000e+00    0.000000000e+00    0.000000000e+00
      395750000    8.419228196e-01    9.040662646e-02    8.869916201e-06   -3.325752914e-06    0.000000000e+00    0.000000000e+00    0.000000000e+00    0.000000000e+00
      403000000    8.459716439e-01   -1.485065091e-02    3.493390977e-05   -1.817662269e-05    0.000000000e+00    0.000000000e+00    0.000000000e+00    0.000000000e+00
      410250000    8.388687372e-01   -1.184297651e-01   -2.619810402e-06    2.409704030e-05    0.000000000e+00    0.000000000e+00    0.000000000e+00    0.000000000e+00
      417500000    8.211537600e-01   -2.184583396e-01    4.547648132e-05    8.438713849e-06    0.000000000e+00    0.000000000e+00    0.000000000e+00    0.000000000e+00
      424750000    7.918905020e-01   -3.167109191e-01   -1.505389810e-05    6.929971278e-06    0.000000000e+00    0.000000000e+00    0.000000000e+00    0.000000000e+00
      432000000    7.530271411e-01   -4.097709656e-01    3.834441304e-05   -1.722201705e-05    0.000000000e+00    0.000000000e+00    0.000000000e+00    0.000000000e+00
      439250000    7.050069571e-01   -4.975619912e-01   -1.051556319e-05    5.126930773e-06    0.000000000e+00    0.000000000e+00    0.000000000e+00    0.000000000e+00
      446500000    6.478217840e-01   -5.791896582e-01    2.662837505e-05    3.407709301e-06    0.000000000e+00    0.000000000e+00    0.000000000e+00    0.000000000e+00
      453750000    5.828308463e-01   -6.546353698e-01    4.212930799e-05   -2.227723598e-06    0.000000000e+00    0.000000000e+00    0.000000000e+00    0.000000000e+00
      461000000    5.115263462e-01   -7.219864130e-01   -1.269392669e-06    5.372799933e-06    0.000000000e+00    0.000000000e+00    0.000000000e+00    0.000000000e+00
      468250000    4.322154820e-01   -7.814449668e-01   -1.969654113e-05    3.436580300e-05    0.000000000e+00    0.000000000e+00    0.000000000e+00    0.000000000e+00
      475500000    3.477709591e-01   -8.327145576e-01   -2.442114055e-05    1.660548151e-06    0.000000000e+00    0.000000000e+00    0.000000000e+00    0.000000000e+00
      482750000    2.592600286e-01   -8.748826385e-01    4.398077726e-05   -2.290122211e-05    0.000000000e+00    0.000000000e+00    0.000000000e+00    0.000000000e+00
      490000000    1.646983027e-01   -9.071983695e-01   -1.924112439e-06    2.429820597e-05    0.000000000e+00    0.000000000e+00    0.000000000e+00    0.000000000e+00
      497250000    6.881558895e-02   -9.300149679e-01    9.694136679e-06    1.310557127e-05    0.000000000e+00    0.000000000e+00    0.000000000e+00    0.000000000e+00
      504500000   -3.063483536e-02   -9.421975613e-01   -4.563108087e-05    5.235895514e-06    0.000000000e+00    0.000000000e+00    0.000000000e+00    0.000000000e+00
      511750000   -1.311520189e-01   -9.438571334e-01    1.542828977e-05    4.679057747e-05    0.000000000e+00    0.000000000e+00    0.000000000e+00    0.000000000e+00
      519000000   -2.308775634e-01   -9.344357848e-01   -2.715922892e-05    5.742534995e-06    0.000000000e+00    0.000000000e+00    0.000000000e+00    0.000000000e+00
      526250000   -3.308606744e-01   -9.140416980e-01   -2.301670611e-05    2.898648381e-05    0.000000000e+00    0.000000000e+00    0.000000000e+00    0.000000000e+00
      533500000   -4.280114770e-01   -8.827518821e-01   -1.193676144e-05    3.375113010e-06    0.000000000e+00    0.000000000e+00    0.000000000e+00    0.000000000e+00
      540750000   -5.216291547e-01   -8.408792019e-01    2.577900887e-06   -2.413056791e-06    0.000000000e+00    0.000000000e+00    0.000000000e+00    0.000000000e+00
      548000000   -6.105937958e-01   -7.872917652e-01    2.189446241e-05   -8.278526366e-06    0.000000000e+00    0.000000000e+00    0.000000000e+00    0.000000000e+00
      555250000   -6.937686205e-01   -7.236757874e-01    5.303882062e-06    1.063290983e-05    0.000000000e+00    0.000000000e+00    0.000000000e+00    0.000000000e+00
      562500000   -7.692022920e-01   -6.491811275e-01   -1.437030733e-06   -1.746974885e-05    0.000000000e+00    0.000000000e+00    0.000000000e+00    0.000000000e+00
      569750000   -8.354467154e-01   -5.674468279e-01    1.778267324e-05   -1.676008105e-05    0.000000000e+00    0.000000000e+00    0.000000000e+00    0.000000000e+00
      577000000   -8.926799893e-01   -4.768223763e-01    1.852679998e-05   -4.302337766e-05    0.000000000e+00    0.000000000e+00    0.000000000e+00    0.000000000e+00
      584250000   -9.381039739e-01   -3.803652525e-01    4.843808711e-06   -4.568416625e-05    0.000000000e+00    0.000000000e+00    0.000000000e+00    0.000000000e+00
      591500000   -9.724987149e-01   -2.795302868e-01   -3.193598241e-05   -3.439839929e-05    0.000000000e+00    0.000000000e+00    0.000000000e+00    0.000000000e+00
      598750000   -9.936289191e-01   -1.722514629e-01   -3.592949361e-05   -2.331659198e-05    0.000000000e+00    0.000000000e+00    0.000000000e+00    0.000000000e+00
      606000000   -1.002359033e+00   -6.485421956e-02    2.622697502e-05   -4.138331860e-05    0.000000000e+00    0.000000000e+00    0.000000000e+00    0.000000000e+00
      613250000   -9.980674982e-01    4.138140380e-02   -7.023103535e-06    1.208763570e-05    0.000000000e+00    0.000000000e+00    0.000000000e+00    0.000000000e+00
      620500000   -9.799084663e-01    1.488540024e-01    8.911825716e-06    3.201048821e-05    0.000000000e+00    0.000000000e+00    0.000000000e+00    0.000000000e+00
      627750000   -9.493159056e-01    2.518174052e-01    3.146007657e-06   -6.577931345e-06    0.000000000e+00    0.000000000e+00    0.000000000e+00    0.000000000e+00
      635000000   -9.086356759e-01    3.492308557e-01   -9.196810424e-06   -2.018176019e-06    0.000000000e+00    0.000000000e+00    0.000000000e+00    0.000000000e+00
      642250000   -8.551465869e-01    4.411932826e-01    2.796947956e-05    2.815760672e-05    0.000000000e+00    0.000000000e+00    0.000000000e+00    0.000000000e+00
      649500000   -7.923641205e-01    5.246521831e-01    8.849427104e-06    3.402121365e-06    0.000000000e+00    0.000000000e+00    0.000000000e+00    0.000000000e+00
      656750000   -7.195467353e-01    6.003766060e-01    2.559740096e-05    6.891787052e-08    0.000000000e+00    0.000000000e+00    0.000000000e+00    0.000000000e+00
      664000000   -6.396355629e-01    6.658160090e-01    5.504209548e-05   -3.576278687e-07    0.000000000e+00    0.000000000e+00    0.000000000e+00    0.000000000e+00
      671250000   -5.544509292e-01    7.212458253e-01   -1.610442996e-05   -7.534399629e-06    0.000000000e+00    0.000000000e+00    0.000000000e+00    0.000000000e+00
      678500000   -4.634066224e-01    7.662109137e-01   -1.378916204e-05   -1.178123057e-06    0.000000000e+00    0.000000000e+00    0.000000000e+00    0.000000000e+00
      685750000   -3.704743087e-01    8.005204201e-01   -1.274980605e-06    1.062080264e-05    0.000000000e+00    0.000000000e+00    0.000000000e+00    0.000000000e+00
      693000000   -2.743627131e-01    8.229631782e-01    7.655471563e-06   -2.887658775e-05    0.000000000e+00    0.000000000e+00    0.000000000e+00    0.000000000e+00
      700250000   -1.763019264e-01    8.360558152e-01   -4.004687071e-07   -1.476891339e-05    0.000000000e+00    0.000000000e+00    0.000000000e+00    0.000000000e+00
      707500000   -7.890476286e-02    8.377335668e-01    6.439164281e-06   -3.144145012e-06    0.000000000e+00    0.000000000e+00    0.000000000e+00    0.000000000e+00
      714750000    1.812312193e-02    8.291772604e-01    1.031626016e-05   -2.687331289e-05    0.000000000e+00    0.000000000e+00    0.000000000e+00    0.000000000e+00
      722000000    1.094719395e-01    8.111597300e-01   -2.919137478e-05    5.229376256e-06    0.000000000e+00    0.000000000e+00    0.000000000e+00    0.000000000e+00
      729250000    2.008130699e-01    7.834889293e-01    2.522952855e-05    2.401322126e-05    0.000000000e+00    0.000000000e+00    0.000000000e+00    0.000000000e+00
      736500000    2.865828872e-01    7.471259236e-01    4.564318806e-05    1.549720764e-05    0.000000000e+00    0.000000000e+00    0.000000000e+00    0.000000000e+00
      743750000    3.681323230e-01    7.020899057e-01   -2.633687109e-05   -1.615844667e-05    0.000000000e+00    0.000000000e+00    0.000000000e+00    0.000000000e+00
      751000000    4.451203346e-01    6.498991251e-01    1.671630889e-05    1.125037670e-05    0.000000000e+00    0.000000000e+00    0.000000000e+00    0.000000000e+00
      758250000    5.145726800e-01    5.902053714e-01   -1.540966332e-05    4.105363041e-05    0.000000000e+00    0.000000000e+00    0.000000000e+00    0.000000000e+00
      765500000    5.778955817e-01    5.245838165e-01   -8.220784366e-06    1.698825508e-05    0.000000000e+00    0.000000000e+00    0.000000000e+00    0.000000000e+00
      772750000    6.351320744e-01    4.521442652e-01   -5.851499736e-06   -2.471823245e-05    0.000000000e+00    0.000000000e+00    0.000000000e+00    0.000000000e+00
      780000000    6.838378310e-01    3.754277527e-01    7.558614016e-06   -2.152658999e-05    0.000000000e+00    0.000000000e+00    0.000000000e+00    0.000000000e+00
      787250000    7.268618941e-01    2.925389409e-01   -7.748603821e-06    2.284534276e-05    0.000000000e+00    0.000000000e+00    0.000000000e+00    0.000000000e+00
      794500000    7.601082921e-01    2.068148255e-01   -1.903623343e-05   -1.975335181e-05    0.000000000e+00    0.000000000e+00    0.000000000e+00    0.000000000e+00
      801750000    7.844472528e-01    1.161701381e-01    4.254747182e-05   -2.333428711e-05    0.000000000e+00    0.000000000e+00    0.000000000e+00    0.000000000e+00
      809000000    8.003181815e-01    2.309719659e-02   -1.927092671e-05   -1.748278737e-05    0.000000000e+00    0.000000000e+00    0.000000000e+00    0.000000000e+00
      816250000    8.056643009e-01   -7.111904025e-02    4.402734339e-05    1.752283424e-05    0.000000000e+00    0.000000000e+00    0.000000000e+00    0.000000000e+00
      823500000    8.015306592e-01   -1.666988730e-01    3.902986646e-05   -9.313225746e-10    0.000000000e+00    0.000000000e+00    0.000000000e+00    0.000000000e+00
      830750000    7.870230079e-01   -2.626506984e-01   -1.391395926e-06    1.958850771e-05    0.000000000e+00    0.000000000e+00    0.000000000e+00    0.000000000e+00
      838000000    7.626258135e-01   -3.570948243e-01   -1.999270171e-05   -1.379009336e-05    0.000000000e+00    0.000000000e+00    0.000000000e+00    0.000000000e+00
      845250000    7.267717719e-01   -4.498606622e-01   -1.021102071e-05   -1.714285463e-05    0.000000000e+00    0.000000000e+00    0.000000000e+00    0.000000000e+00
      852500000    6.800684929e-01   -5.387895107e-01    7.227994502e-06   -1.817569137e-05    0.000000000e+00    0.000000000e+00    0.000000000e+00    0.000000000e+00
      859750000    6.231530905e-01   -6.229593754e-01    1.844950020e-06    3.127474338e-05    0.000000000e+00    0.000000000e+00    0.000000000e+00    0.000000000e+00
      867000000    5.545667410e-01   -7.024837732e-01   -1.123547554e-05    1.946091652e-05    0.000000000e+00    0.000000000e+00    0.000000000e+00    0.000000000e+00
      874250000    4.774904251e-01   -7.718334198e-01    6.024073809e-05   -4.253350198e-06    0.000000000e+00    0.000000000e+00    0.000000000e+00    0.000000000e+00
      881500000    3.879444003e-01   -8.337897658e-01    1.829955727e-05   -3.246031702e-05    0.000000000e+00    0.000000000e+00    0.000000000e+00    0.000000000e+00
      888750000    2.939796150e-01   -8.842151165e-01   -3.222376108e-07   -2.101529390e-05    0.000000000e+00    0.000000000e+00    0.000000000e+00    0.000000000e+00
      896000000    1.919932812e-01   -9.233624339e-01    1.763086766e-05    2.138037235e-05    0.000000000e+00    0.000000000e+00    0.000000000e+00    0.000000000e+00
      903250000    8.447795361e-02   -9.475034475e-01   -2.134032547e-05   -1.319125295e-05    0.000000000e+00    0.000000000e+00    0.000000000e+00    0.000000000e+00
      910500000   -2.658405900e-02   -9.595035911e-01    4.686415195e-06    3.538746387e-05    0.000000000e+00    0.000000000e+00    0.000000000e+00    0.000000000e+00
      917750000   -1.382831782e-01   -9.545380473e-01    1.385342330e-05   -1.073814929e-06    0.000000000e+00    0.000000000e+00    0.000000000e+00    0.000000000e+00
      925000000   -2.483232915e-01   -9.352869987e-01   -2.788379788e-05    9.979121387e-06    0.000000000e+00    0.000000000e+00    0.000000000e+00    0.000000000e+00
      932250000   -3.561916649e-01   -9.010416865e-01    2.184882760e-06   -2.816319466e-06    0.000000000e+00    0.000000000e+00    0.000000000e+00    0.000000000e+00
      939500000   -4.563028812e-01   -8.535005450e-01   -1.471955329e-05   -3.758911043e-05    0.000000000e+00    0.000000000e+00    0.000000000e+00    0.000000000e+00
      946750000   -5.491167307e-01   -7.933881283e-01    2.255290747e-05    2.258364111e-05    0.000000000e+00    0.000000000e+00    0.000000000e+00    0.000000000e+00
      954000000   -6.327747107e-01   -7.190805078e-01    1.331325620e-05   -3.408733755e-05    0.000000000e+00    0.000000000e+00    0.000000000e+00    0.000000000e+00
      961250000   -7.045351863e-01   -6.407352686e-01   -5.313195288e-06    3.098882735e-05    0.000000000e+00    0.000000000e+00    0.000000000e+00    0.000000000e+00
      968500000   -7.640486956e-01   -5.514239073e-01    2.790708095e-05    5.185604095e-06    0.000000000e+00    0.000000000e+00    0.000000000e+00    0.000000000e+00
      975750000   -8.112663627e-01   -4.566245973e-01   -4.783272743e-06    5.732290447e-06    0.000000000e+00    0.000000000e+00    0.000000000e+00    0.000000000e+00
      983000000   -8.445965052e-01   -3.589007556e-01   -8.465722203e-07   -8.438713849e-06    0.000000000e+00    0.000000000e+00    0.000000000e+00    0.000000000e+00
      990250000   -8.655222058e-01   -2.618796229e-01    3.141723573e-05    1.005828381e-07    0.000000000e+00    0.000000000e+00    0.000000000e+00    0.000000000e+00
      997500000   -8.739276528e-01   -1.622198671e-01   -4.745740443e-05   -4.990678281e-05    0.000000000e+00    0.000000000e+00    0.000000000e+00    0.000000000e+00
     1004750000   -8.709222078e-01   -6.669447571e-02    1.508463174e-05    1.314468682e-05    0.000000000e+00    0.000000000e+00    0.000000000e+00    0.000000000e+00
     1012000000   -8.573026657e-01    2.726342157e-02    4.440639168e-05   -2.035498619e-05    0.000000000e+00    0.000000000e+00    0.000000000e+00    0.000000000e+00
     1019250000   -8.336706758e-01    1.158870980e-01    4.876684397e-05    8.390285075e-06    0.000000000e+00    0.000000000e+00    0.000000000e+00    0.000000000e+00
     1026500000   -8.008208275e-01    2.006717771e-01   -1.659058034e-05   -2.752803266e-05    0.000000000e+00    0.000000000e+00    0.000000000e+00    0.000000000e+00
     1033750000   -7.604868412e-01    2.773467898e-01    8.290633559e-06   -1.918338239e-05    0.000000000e+00    0.000000000e+00    0.000000000e+00    0.000000000e+00
     1041000000   -7.136868238e-01    3.486030698e-01   -2.195965499e-05   -3.475695848e-05    0.000000000e+00    0.000000000e+00    0.000000000e+00    0.000000000e+00
