! NanoVNA-App by OneOfEleven et al v1.1.209 (+OD15) 
! Date: 2024-07-30 15:24:21
! Start: 200MHz Stop: 6GHz Points: 801
! S-Parameter data: F S11 S21 S12 S22
# Hz S RI R 50
!     Frequency           S11_Real           S11_Imag           S21_Real           S21_Imag           S12_Real           S12_Imag           S22_Real           S22_Imag
      200000000   -9.019039273e-01   -1.068346798e-01   -3.982335329e-06    4.001893103e-06    0.000000000e+00    0.000000000e+00    0.000000000e+00    0.000000000e+00
      207250000   -9.118393064e-01   -1.796311140e-02    5.771405995e-06    2.956949174e-06    0.000000000e+00    0.000000000e+00    0.000000000e+00    0.000000000e+00
      214500000   -9.126549959e-01    7.268579304e-02   -1.937244087e-05    2.643093467e-05    0.000000000e+00    0.000000000e+00    0.000000000e+00    0.000000000e+00
      221750000   -9.036154747e-01    1.654151529e-01   -2.093613148e-06   -7.666647434e-06    0.000000000e+00    0.000000000e+00    0.000000000e+00    0.000000000e+00
      229000000   -8.851588368e-01    2.566791177e-01    2.887099981e-07    7.705762982e-06    0.000000000e+00    0.000000000e+00    0.000000000e+00    0.000000000e+00
      236250000   -8.553667068e-01    3.484662473e-01    1.520849764e-06   -1.199543476e-05    0.000000000e+00    0.000000000e+00    0.000000000e+00    0.000000000e+00
      243500000   -8.164109588e-01    4.374710023e-01    3.088451922e-05   -1.473538578e-05    0.000000000e+00    0.000000000e+00    0.000000000e+00    0.000000000e+00
      250750000   -7.658159733e-01    5.229102373e-01    3.104191273e-05   -6.028451025e-06    0.000000000e+00    0.000000000e+00    0.000000000e+00    0.000000000e+00
      258000000   -7.049682140e-01    6.033696532e-01   -8.849427104e-06   -2.733618021e-05    0.000000000e+00    0.000000000e+00    0.000000000e+00    0.000000000e+00
      265250000   -6.336225271e-01    6.776316762e-01    8.735805750e-06   -4.107132554e-07    0.000000000e+00    0.000000000e+00    0.000000000e+00    0.000000000e+00
      272500000   -5.523170233e-01    7.439378500e-01    6.108544767e-06    2.626888454e-05    0.000000000e+00    0.000000000e+00    0.000000000e+00    0.000000000e+00
      279750000   -4.632236660e-01    7.998135686e-01   -3.005098552e-05   -1.402106136e-05    0.000000000e+00    0.000000000e+00    0.000000000e+00    0.000000000e+00
      287000000   -3.652467430e-01    8.458391428e-01   -4.479289055e-05   -2.232193947e-05    0.000000000e+00    0.000000000e+00    0.000000000e+00    0.000000000e+00
      294250000   -2.619255483e-01    8.791223764e-01    1.896638423e-05   -1.789443195e-05    0.000000000e+00    0.000000000e+00    0.000000000e+00    0.000000000e+00
      301500000   -1.537207216e-01    8.999533653e-01   -6.800517440e-06    5.516782403e-05    0.000000000e+00    0.000000000e+00    0.000000000e+00    0.000000000e+00
      308750000   -4.331628606e-02    9.069243073e-01    9.412877262e-06   -3.566313535e-05    0.000000000e+00    0.000000000e+00    0.000000000e+00    0.000000000e+00
      316000000    6.804185361e-02    8.997135758e-01   -2.003554255e-05    1.665577292e-05    0.000000000e+00    0.000000000e+00    0.000000000e+00    0.000000000e+00
      323250000    1.781476140e-01    8.777123690e-01    1.167971641e-05    1.142453402e-05    0.000000000e+00    0.000000000e+00    0.000000000e+00    0.000000000e+00
      330500000    2.840654850e-01    8.424032331e-01    9.655021131e-06   -2.726912498e-05    0.000000000e+00    0.000000000e+00    0.000000000e+00    0.000000000e+00
      337750000    3.851047158e-01    7.941784859e-01    1.373700798e-06   -8.584000170e-06    0.000000000e+00    0.000000000e+00    0.000000000e+00    0.000000000e+00
      345000000    4.791547358e-01    7.334089279e-01   -8.074566722e-06   -1.652725041e-05    0.000000000e+00    0.000000000e+00    0.000000000e+00    0.000000000e+00
      352250000    5.640485883e-01    6.614687443e-01    1.338776201e-05   -4.537682980e-05    0.000000000e+00    0.000000000e+00    0.000000000e+00    0.000000000e+00
      359500000    6.390138865e-01    5.811297297e-01    4.388391972e-06    2.474896610e-05    0.000000000e+00    0.000000000e+00    0.000000000e+00    0.000000000e+00
      366750000    7.034676075e-01    4.920403063e-01    1.785997301e-05    3.561004996e-05    0.000000000e+00    0.000000000e+00    0.000000000e+00    0.000000000e+00
      374000000    7.561072707e-01    3.973607421e-01    3.172829747e-05    2.506468445e-05    0.000000000e+00    0.000000000e+00    0.000000000e+00    0.000000000e+00
      381250000    7.967550755e-01    2.961060703e-01   -3.049150109e-06   -1.274701208e-05    0.000000000e+00    0.000000000e+00    0.000000000e+00    0.000000000e+00
      388500000    8.251134753e-01    1.938445568e-01    4.074536264e-06   -3.873277456e-05    0.000000000e+00    0.000000000e+00    0.000000000e+00    0.000000000e+00
      395750000    8.415786624e-01    8.995550871e-02    1.872330904e-05    1.796893775e-05    0.000000000e+00    0.000000000e+00    0.000000000e+00    0.000000000e+00
      403000000    8.456909657e-01   -1.514545083e-02    5.054380745e-05    1.370627433e-05    0.000000000e+00    0.000000000e+00    0.000000000e+00    0.000000000e+00
      410250000    8.389521837e-01   -1.184924617e-01   -7.188878953e-06    2.255942672e-05    0.000000000e+00    0.000000000e+00    0.000000000e+00    0.000000000e+00
      417500000    8.211590052e-01   -2.188541144e-01   -1.418404281e-06   -1.317821443e-06    0.000000000e+00    0.000000000e+00    0.000000000e+00    0.000000000e+00
      424750000    7.919405103e-01   -3.169180453e-01   -6.203539670e-06   -6.771646440e-06    0.000000000e+00    0.000000000e+00    0.000000000e+00    0.000000000e+00
      432000000    7.522166967e-01   -4.098707736e-01    6.649643183e-07   -1.634377986e-05    0.000000000e+00    0.000000000e+00    0.000000000e+00    0.000000000e+00
      439250000    7.046059370e-01   -4.977728724e-01   -5.633477122e-05    5.130656064e-06    0.000000000e+00    0.000000000e+00    0.000000000e+00    0.000000000e+00
      446500000    6.480215192e-01   -5.788888931e-01    9.237788618e-06   -1.523364335e-05    0.000000000e+00    0.000000000e+00    0.000000000e+00    0.000000000e+00
      453750000    5.827538371e-01   -6.549453735e-01   -4.498288035e-07   -5.990266800e-06    0.000000000e+00    0.000000000e+00    0.000000000e+00    0.000000000e+00
      461000000    5.106880665e-01   -7.217957377e-01   -1.758802682e-05    3.579072654e-05    0.000000000e+00    0.000000000e+00    0.000000000e+00    0.000000000e+00
      468250000    4.327826500e-01   -7.817505598e-01    1.509487629e-05    2.690963447e-05    0.000000000e+00    0.000000000e+00    0.000000000e+00    0.000000000e+00
      475500000    3.480525911e-01   -8.329833150e-01    8.974224329e-06    1.078844070e-05    0.000000000e+00    0.000000000e+00    0.000000000e+00    0.000000000e+00
      482750000    2.588632405e-01   -8.750338554e-01   -3.810785711e-05    2.729706466e-06    0.000000000e+00    0.000000000e+00    0.000000000e+00    0.000000000e+00
      490000000    1.659026593e-01   -9.075765014e-01    2.877414227e-05    1.941155642e-05    0.000000000e+00    0.000000000e+00    0.000000000e+00    0.000000000e+00
      497250000    6.872940809e-02   -9.297677279e-01   -9.073875844e-06    2.603046596e-06    0.000000000e+00    0.000000000e+00    0.000000000e+00    0.000000000e+00
      504500000   -3.050551005e-02   -9.422940612e-01    2.489611506e-05   -2.098549157e-05    0.000000000e+00    0.000000000e+00    0.000000000e+00    0.000000000e+00
      511750000   -1.303533763e-01   -9.439781308e-01    4.748813808e-06   -2.019945532e-05    0.000000000e+00    0.000000000e+00    0.000000000e+00    0.000000000e+00
      519000000   -2.308291346e-01   -9.347091317e-01   -4.042964429e-05   -1.303944737e-05    0.000000000e+00    0.000000000e+00    0.000000000e+00    0.000000000e+00
      526250000   -3.301767111e-01   -9.145109653e-01   -2.549495548e-05    1.897104084e-05    0.000000000e+00    0.000000000e+00    0.000000000e+00    0.000000000e+00
      533500000   -4.277797341e-01   -8.828060627e-01    2.515781671e-05    2.472009510e-05    0.000000000e+00    0.000000000e+00    0.000000000e+00    0.000000000e+00
      540750000   -5.218250751e-01   -8.404763341e-01    1.640990376e-06   -1.383852214e-05    0.000000000e+00    0.000000000e+00    0.000000000e+00    0.000000000e+00
      548000000   -6.108400226e-01   -7.873017192e-01   -1.032836735e-05   -3.107544035e-05    0.000000000e+00    0.000000000e+00    0.000000000e+00    0.000000000e+00
      555250000   -6.937565804e-01   -7.228661776e-01    1.357868314e-06   -3.300607204e-06    0.000000000e+00    0.000000000e+00    0.000000000e+00    0.000000000e+00
      562500000   -7.686488032e-01   -6.499263048e-01    5.873851478e-06   -1.606531441e-06    0.000000000e+00    0.000000000e+00    0.000000000e+00    0.000000000e+00
      569750000   -8.356214762e-01   -5.679264665e-01    2.977531403e-05   -4.378892481e-05    0.000000000e+00    0.000000000e+00    0.000000000e+00    0.000000000e+00
      577000000   -8.922051191e-01   -4.778322875e-01   -2.758577466e-05    2.299528569e-05    0.000000000e+00    0.000000000e+00    0.000000000e+00    0.000000000e+00
      584250000   -9.378328323e-01   -3.807585239e-01    1.084059477e-06    2.692267299e-05    0.000000000e+00    0.000000000e+00    0.000000000e+00    0.000000000e+00
      591500000   -9.726690650e-01   -2.779786289e-01    2.124346793e-06    1.951307058e-05    0.000000000e+00    0.000000000e+00    0.000000000e+00    0.000000000e+00
      598750000   -9.942165613e-01   -1.720744371e-01    1.284014434e-05    3.204215318e-05    0.000000000e+00    0.000000000e+00    0.000000000e+00    0.000000000e+00
      606000000   -1.002568364e+00   -6.529664248e-02    1.996755600e-05    1.404061913e-05    0.000000000e+00    0.000000000e+00    0.000000000e+00    0.000000000e+00
      613250000   -9.979850054e-01    4.225578532e-02    2.826005220e-05    2.575106919e-06    0.000000000e+00    0.000000000e+00    0.000000000e+00    0.000000000e+00
      620500000   -9.804061651e-01    1.480632275e-01   -2.346374094e-05    8.428469300e-07    0.000000000e+00    0.000000000e+00    0.000000000e+00    0.000000000e+00
      627750000   -9.503112435e-01    2.515451610e-01   -2.266652882e-05   -1.957640052e-06    0.000000000e+00    0.000000000e+00    0.000000000e+00    0.000000000e+00
      635000000   -9.084734917e-01    3.492383063e-01   -5.746260285e-07   -1.231487840e-05    0.000000000e+00    0.000000000e+00    0.000000000e+00    0.000000000e+00
      642250000   -8.553014994e-01    4.410629869e-01   -3.229826689e-06   -2.646259964e-05    0.000000000e+00    0.000000000e+00    0.000000000e+00    0.000000000e+00
      649500000   -7.927867174e-01    5.240173340e-01   -3.624614328e-05   -3.367662430e-06    0.000000000e+00    0.000000000e+00    0.000000000e+00    0.000000000e+00
      656750000   -7.204557657e-01    5.996403098e-01    2.344232053e-05    1.054257154e-05    0.000000000e+00    0.000000000e+00    0.000000000e+00    0.000000000e+00
      664000000   -6.402853727e-01    6.653225422e-01   -2.047698945e-05    3.228522837e-05    0.000000000e+00    0.000000000e+00    0.000000000e+00    0.000000000e+00
      671250000   -5.541892648e-01    7.208850384e-01   -3.919191658e-05    3.207474947e-06    0.000000000e+00    0.000000000e+00    0.000000000e+00    0.000000000e+00
      678500000   -4.632917047e-01    7.662178874e-01    1.616310328e-05   -3.194715828e-05    0.000000000e+00    0.000000000e+00    0.000000000e+00    0.000000000e+00
      685750000   -3.689875603e-01    8.006337285e-01   -7.326714694e-06    3.718119115e-05    0.000000000e+00    0.000000000e+00    0.000000000e+00    0.000000000e+00
      693000000   -2.739892602e-01    8.236197829e-01    1.727230847e-05   -8.924864233e-06    0.000000000e+00    0.000000000e+00    0.000000000e+00    0.000000000e+00
      700250000   -1.763015985e-01    8.359298706e-01    1.241639256e-05   -4.704110324e-06    0.000000000e+00    0.000000000e+00    0.000000000e+00    0.000000000e+00
      707500000   -7.826463133e-02    8.377312422e-01    2.853572369e-06   -2.046488225e-05    0.000000000e+00    0.000000000e+00    0.000000000e+00    0.000000000e+00
      714750000    1.782728732e-02    8.296297193e-01   -6.263144314e-06    1.448951662e-05    0.000000000e+00    0.000000000e+00    0.000000000e+00    0.000000000e+00
      722000000    1.086872295e-01    8.114807606e-01   -1.971609890e-06    1.869536936e-05    0.000000000e+00    0.000000000e+00    0.000000000e+00    0.000000000e+00
      729250000    2.012298703e-01    7.832249403e-01    1.751165837e-05    2.833083272e-06    0.000000000e+00    0.000000000e+00    0.000000000e+00    0.000000000e+00
      736500000    2.869098186e-01    7.463713288e-01   -2.160761505e-05    9.930692613e-06    0.000000000e+00    0.000000000e+00    0.000000000e+00    0.000000000e+00
      743750000    3.682618141e-01    7.022932768e-01   -4.042498767e-05    1.266971231e-05    0.000000000e+00    0.000000000e+00    0.000000000e+00    0.000000000e+00
      751000000    4.444934428e-01    6.498575807e-01   -3.197230399e-06    4.190485924e-05    0.000000000e+00    0.000000000e+00    0.000000000e+00    0.000000000e+00
      758250000    5.147128105e-01    5.902649164e-01    2.754293382e-05   -1.596100628e-05    0.000000000e+00    0.000000000e+00    0.000000000e+00    0.000000000e+00
      765500000    5.783268213e-01    5.239987969e-01   -3.480352461e-06   -4.012789577e-05    0.000000000e+00    0.000000000e+00    0.000000000e+00    0.000000000e+00
      772750000    6.348505020e-01    4.523414969e-01    2.349819988e-05   -5.243346095e-06    0.000000000e+00    0.000000000e+00    0.000000000e+00    0.000000000e+00
      780000000    6.837797761e-01    3.756652474e-01    9.312294424e-06    1.353211701e-06    0.000000000e+00    0.000000000e+00    0.000000000e+00    0.000000000e+00
      787250000    7.272881269e-01    2.914652228e-01    2.694595605e-05    5.856156349e-06    0.000000000e+00    0.000000000e+00    0.000000000e+00    0.000000000e+00
      794500000    7.596414685e-01    2.059919238e-01   -2.142228186e-05    3.104005009e-05    0.000000000e+00    0.000000000e+00    0.000000000e+00    0.000000000e+00
      801750000    7.845467329e-01    1.160996780e-01    6.674788892e-06   -3.259629011e-08    0.000000000e+00    0.000000000e+00    0.000000000e+00    0.000000000e+00
      809000000    8.001543880e-01    2.350021154e-02   -2.848915756e-06    3.247521818e-06    0.000000000e+00    0.000000000e+00    0.000000000e+00    0.000000000e+00
      816250000    8.058734536e-01   -7.048173249e-02   -1.092907041e-05   -2.219807357e-05    0.000000000e+00    0.000000000e+00    0.000000000e+00    0.000000000e+00
      823500000    8.016645908e-01   -1.672863215e-01    3.516767174e-05   -4.798173904e-06    0.000000000e+00    0.000000000e+00    0.000000000e+00    0.000000000e+00
      830750000    7.880207896e-01   -2.624208927e-01    1.471210271e-05   -1.702643931e-05    0.000000000e+00    0.000000000e+00    0.000000000e+00    0.000000000e+00
      838000000    7.627676129e-01   -3.570532501e-01   -3.195833415e-05   -1.425109804e-05    0.000000000e+00    0.000000000e+00    0.000000000e+00    0.000000000e+00
      845250000    7.271893620e-01   -4.492917657e-01    1.464039087e-05    6.224960089e-06    0.000000000e+00    0.000000000e+00    0.000000000e+00    0.000000000e+00
      852500000    6.799184680e-01   -5.384384394e-01    5.606561899e-07   -4.022195935e-05    0.000000000e+00    0.000000000e+00    0.000000000e+00    0.000000000e+00
      859750000    6.237094402e-01   -6.225552559e-01   -4.422385246e-05   -1.246202737e-05    0.000000000e+00    0.000000000e+00    0.000000000e+00    0.000000000e+00
      867000000    5.532051325e-01   -7.023146749e-01    1.850351691e-05    4.370696843e-06    0.000000000e+00    0.000000000e+00    0.000000000e+00    0.000000000e+00
      874250000    4.784386158e-01   -7.715774775e-01    2.533197403e-07    4.367902875e-07    0.000000000e+00    0.000000000e+00    0.000000000e+00    0.000000000e+00
      881500000    3.886730075e-01   -8.340221047e-01    5.748122931e-06    1.111719757e-05    0.000000000e+00    0.000000000e+00    0.000000000e+00    0.000000000e+00
      888750000    2.943751812e-01   -8.840569854e-01    3.215856850e-05    9.331852198e-07    0.000000000e+00    0.000000000e+00    0.000000000e+00    0.000000000e+00
      896000000    1.920939237e-01   -9.226446748e-01   -1.332536340e-05   -2.056453377e-05    0.000000000e+00    0.000000000e+00    0.000000000e+00    0.000000000e+00
      903250000    8.353015035e-02   -9.482262731e-01    3.356393427e-05   -1.086387783e-05    0.000000000e+00    0.000000000e+00    0.000000000e+00    0.000000000e+00
      910500000   -2.702738717e-02   -9.584785700e-01    2.281367779e-05   -6.948597729e-06    0.000000000e+00    0.000000000e+00    0.000000000e+00    0.000000000e+00
      917750000   -1.388466656e-01   -9.542093873e-01    5.438923836e-07   -1.071952283e-05    0.000000000e+00    0.000000000e+00    0.000000000e+00    0.000000000e+00
      925000000   -2.485181689e-01   -9.354893565e-01   -2.849660814e-05    4.294235259e-05    0.000000000e+00    0.000000000e+00    0.000000000e+00    0.000000000e+00
      932250000   -3.558842242e-01   -9.011450410e-01    1.401081681e-05   -7.450580597e-07    0.000000000e+00    0.000000000e+00    0.000000000e+00    0.000000000e+00
      939500000   -4.565745890e-01   -8.531343341e-01   -2.261810005e-05   -2.275407314e-05    0.000000000e+00    0.000000000e+00    0.000000000e+00    0.000000000e+00
      946750000   -5.483347774e-01   -7.929714322e-01    2.303626388e-05   -2.666376531e-06    0.000000000e+00    0.000000000e+00    0.000000000e+00    0.000000000e+00
      954000000   -6.331639290e-01   -7.200804949e-01   -1.183617860e-05   -4.451721907e-06    0.000000000e+00    0.000000000e+00    0.000000000e+00    0.000000000e+00
      961250000   -7.039457560e-01   -6.402431726e-01   -9.911134839e-06    1.372490078e-05    0.000000000e+00    0.000000000e+00    0.000000000e+00    0.000000000e+00
      968500000   -7.639659643e-01   -5.505231023e-01   -2.448447049e-06   -1.098681241e-05    0.000000000e+00    0.000000000e+00    0.000000000e+00    0.000000000e+00
      975750000   -8.109804988e-01   -4.572832286e-01    2.215430140e-05    4.057120532e-05    0.000000000e+00    0.000000000e+00    0.000000000e+00    0.000000000e+00
      983000000   -8.441299200e-01   -3.613168597e-01    9.769573808e-06    1.846253872e-05    0.000000000e+00    0.000000000e+00    0.000000000e+00    0.000000000e+00
      990250000   -8.654730916e-01   -2.606250048e-01   -1.619756222e-05   -3.104563802e-05    0.000000000e+00    0.000000000e+00    0.000000000e+00    0.000000000e+00
      997500000   -8.738142848e-01   -1.618107855e-01    1.479871571e-05    9.758397937e-06    0.000000000e+00    0.000000000e+00    0.000000000e+00    0.000000000e+00
     1004750000   -8.710011244e-01   -6.603645533e-02    3.268476576e-05   -4.770234227e-06    0.000000000e+00    0.000000000e+00    0.000000000e+00    0.000000000e+00
     1012000000   -8.571208119e-01    2.648578212e-02    3.653578460e-05    4.274304956e-05    0.000000000e+00    0.000000000e+00    0.000000000e+00    0.000000000e+00
     1019250000   -8.332983255e-01    1.163245589e-01    3.560539335e-05    1.252628863e-06    0.000000000e+00    0.000000000e+00    0.000000000e+00    0.000000000e+00
     1026500000   -8.006052971e-01    2.005556822e-01   -1.313164830e-05    1.999270171e-05    0.000000000e+00    0.000000000e+00    0.000000000e+00    0.000000000e+00
     1033750000   -7.598161101e-01    2.783368528e-01   -2.066046000e-05    6.974022835e-05    0.000000000e+00    0.000000000e+00    0.000000000e+00    0.000000000e+00
     1041000000   -7.135176063e-01    3.490853012e-01    8.477829397e-06    1.202151179e-05    0.000000000e+00    0.000000000e+00    0.000000000e+00    0.000000000e+00
