! NanoVNA-App by OneOfEleven et al v1.1.209 (+OD15) 
! Date: 2024-07-30 12:32:05
! Start: 50kHz Stop: 5MHz Points: 201
! S-Parameter data: F S11 S21 S12 S22
# Hz S RI R 50
!     Frequency           S11_Real           S11_Imag           S21_Real           S21_Imag           S12_Real           S12_Imag           S22_Real           S22_Imag
          50000    9.993625879e-01   -2.990524098e-02    1.162392346e-05    1.951101240e-06    0.000000000e+00    0.000000000e+00    0.000000000e+00    0.000000000e+00
          74750    9.979267716e-01   -4.468194023e-02   -3.432551239e-05   -3.169103593e-06    0.000000000e+00    0.000000000e+00    0.000000000e+00    0.000000000e+00
          99500    9.938157797e-01   -5.345641077e-02    3.451396196e-06    3.936007124e-05    0.000000000e+00    0.000000000e+00    0.000000000e+00    0.000000000e+00
         124250    9.924108982e-01   -6.628488749e-02    2.731687709e-05    1.407896980e-05    0.000000000e+00    0.000000000e+00    0.000000000e+00    0.000000000e+00
         149000    9.910822511e-01   -7.932888716e-02    1.070194776e-05    1.818873170e-05    0.000000000e+00    0.000000000e+00    0.000000000e+00    0.000000000e+00
         173750    1.047264218e+00   -4.398044571e-02    9.771194527e-06   -8.910355064e-06    0.000000000e+00    0.000000000e+00    0.000000000e+00    0.000000000e+00
         198500    9.949340224e-01   -1.049247012e-01    2.230227983e-05    2.180831416e-06    0.000000000e+00    0.000000000e+00    0.000000000e+00    0.000000000e+00
         223250    9.938001633e-01   -1.184253469e-01   -1.762508691e-05   -2.305827911e-05    0.000000000e+00    0.000000000e+00    0.000000000e+00    0.000000000e+00
         248000    9.931861162e-01   -1.325269938e-01   -7.861468475e-06   -2.888050403e-05    0.000000000e+00    0.000000000e+00    0.000000000e+00    0.000000000e+00
         272750    9.919358492e-01   -1.466977149e-01   -8.001448805e-06   -1.923773925e-05    0.000000000e+00    0.000000000e+00    0.000000000e+00    0.000000000e+00
         297500    9.903153777e-01   -1.608749330e-01   -8.542287105e-06    2.050078365e-05    0.000000000e+00    0.000000000e+00    0.000000000e+00    0.000000000e+00
         322250    9.882572293e-01   -1.755281836e-01   -3.965287760e-06   -1.345344458e-06    0.000000000e+00    0.000000000e+00    0.000000000e+00    0.000000000e+00
         347000    9.854813218e-01   -1.896219254e-01    5.990637419e-06    1.434374371e-05    0.000000000e+00    0.000000000e+00    0.000000000e+00    0.000000000e+00
         371750    9.831240773e-01   -2.036102563e-01    5.678162324e-06    1.170356609e-05    0.000000000e+00    0.000000000e+00    0.000000000e+00    0.000000000e+00
         396500    9.801514745e-01   -2.181516737e-01    1.545882515e-05    1.368779704e-05    0.000000000e+00    0.000000000e+00    0.000000000e+00    0.000000000e+00
         421250    9.638328552e-01   -2.362348884e-01   -6.160639168e-05   -1.677636760e-06    0.000000000e+00    0.000000000e+00    0.000000000e+00    0.000000000e+00
         446000    9.620704055e-01   -2.503335774e-01   -1.622253876e-05   -2.022393346e-05    0.000000000e+00    0.000000000e+00    0.000000000e+00    0.000000000e+00
         470750    9.580520988e-01   -2.635489702e-01    3.601278877e-05    6.045689952e-05    0.000000000e+00    0.000000000e+00    0.000000000e+00    0.000000000e+00
         495500    9.529938102e-01   -2.756129801e-01   -2.067646346e-05   -2.900153788e-07    0.000000000e+00    0.000000000e+00    0.000000000e+00    0.000000000e+00
         520250    9.490579367e-01   -2.887636721e-01    1.673771476e-05   -3.664628821e-05    0.000000000e+00    0.000000000e+00    0.000000000e+00    0.000000000e+00
         545000    9.441267848e-01   -3.013329208e-01   -2.358439815e-06   -5.815188615e-06    0.000000000e+00    0.000000000e+00    0.000000000e+00    0.000000000e+00
         569750    9.380245209e-01   -3.147298098e-01   -1.423718822e-05   -2.786543973e-06    0.000000000e+00    0.000000000e+00    0.000000000e+00    0.000000000e+00
         594500    9.341675043e-01   -3.262821734e-01   -2.390832378e-05   -1.148976207e-05    0.000000000e+00    0.000000000e+00    0.000000000e+00    0.000000000e+00
         619250    9.290875793e-01   -3.391790092e-01    1.865656122e-05    1.001730834e-05    0.000000000e+00    0.000000000e+00    0.000000000e+00    0.000000000e+00
         644000    9.234467149e-01   -3.518030643e-01    2.321932698e-05   -2.210075081e-06    0.000000000e+00    0.000000000e+00    0.000000000e+00    0.000000000e+00
         668750    9.186193347e-01   -3.629539609e-01   -1.462286264e-06    7.250666386e-06    0.000000000e+00    0.000000000e+00    0.000000000e+00    0.000000000e+00
         693500    9.131355882e-01   -3.746060729e-01   -2.790143844e-05    2.463406236e-05    0.000000000e+00    0.000000000e+00    0.000000000e+00    0.000000000e+00
         718250    9.078098536e-01   -3.864730299e-01    7.938153431e-06    1.823663479e-05    0.000000000e+00    0.000000000e+00    0.000000000e+00    0.000000000e+00
         743000    9.013873339e-01   -3.984337747e-01   -3.486941205e-05    2.434082307e-05    0.000000000e+00    0.000000000e+00    0.000000000e+00    0.000000000e+00
         767750    8.952762485e-01   -4.097974598e-01   -5.636224159e-06   -1.707458068e-05    0.000000000e+00    0.000000000e+00    0.000000000e+00    0.000000000e+00
         792500    8.893237114e-01   -4.204694927e-01   -1.380573940e-05    1.945756048e-05    0.000000000e+00    0.000000000e+00    0.000000000e+00    0.000000000e+00
         817250    8.828939795e-01   -4.317740798e-01    1.263535160e-05    1.995434650e-05    0.000000000e+00    0.000000000e+00    0.000000000e+00    0.000000000e+00
         842000    8.767841458e-01   -4.430117905e-01   -8.200502634e-06   -2.067113911e-07    0.000000000e+00    0.000000000e+00    0.000000000e+00    0.000000000e+00
         866750    8.698452115e-01   -4.536346197e-01   -3.867809482e-06   -1.142669316e-05    0.000000000e+00    0.000000000e+00    0.000000000e+00    0.000000000e+00
         891500    8.633288741e-01   -4.644225538e-01   -5.452050027e-05   -3.436515908e-05    0.000000000e+00    0.000000000e+00    0.000000000e+00    0.000000000e+00
         916250    8.573019505e-01   -4.759825766e-01    2.338832746e-05   -3.082738112e-05    0.000000000e+00    0.000000000e+00    0.000000000e+00    0.000000000e+00
         941000    8.505455256e-01   -4.864790142e-01    3.391716382e-05   -1.204334421e-05    0.000000000e+00    0.000000000e+00    0.000000000e+00    0.000000000e+00
         965750    8.439983726e-01   -4.967176318e-01    2.984073944e-05   -1.559026896e-05    0.000000000e+00    0.000000000e+00    0.000000000e+00    0.000000000e+00
         990500    8.362773657e-01   -5.067824125e-01   -9.570231668e-06   -1.140283712e-05    0.000000000e+00    0.000000000e+00    0.000000000e+00    0.000000000e+00
        1015250    8.292998075e-01   -5.166390538e-01   -4.418698154e-05   -5.104266620e-06    0.000000000e+00    0.000000000e+00    0.000000000e+00    0.000000000e+00
        1040000    8.217309117e-01   -5.266879797e-01    1.817422162e-05   -2.978374687e-05    0.000000000e+00    0.000000000e+00    0.000000000e+00    0.000000000e+00
        1064750    8.152332902e-01   -5.362328887e-01   -1.745966983e-05    1.549322405e-05    0.000000000e+00    0.000000000e+00    0.000000000e+00    0.000000000e+00
        1089500    8.076720834e-01   -5.462900996e-01   -2.018533996e-05    8.876096217e-06    0.000000000e+00    0.000000000e+00    0.000000000e+00    0.000000000e+00
        1114250    8.007081747e-01   -5.558508635e-01   -3.708470103e-05    2.330413918e-05    0.000000000e+00    0.000000000e+00    0.000000000e+00    0.000000000e+00
        1139000    7.934265137e-01   -5.648263693e-01   -1.859366603e-05   -3.271876631e-05    0.000000000e+00    0.000000000e+00    0.000000000e+00    0.000000000e+00
        1163750    7.856472135e-01   -5.744483471e-01   -2.765885483e-06   -1.027601957e-05    0.000000000e+00    0.000000000e+00    0.000000000e+00    0.000000000e+00
        1188500    7.779229283e-01   -5.831862092e-01   -1.305988371e-05   -3.494441626e-05    0.000000000e+00    0.000000000e+00    0.000000000e+00    0.000000000e+00
        1213250    7.703313231e-01   -5.928192735e-01    1.014137160e-05    2.382587263e-05    0.000000000e+00    0.000000000e+00    0.000000000e+00    0.000000000e+00
        1238000    7.627836466e-01   -6.014472246e-01    3.192130316e-05    5.261189017e-06    0.000000000e+00    0.000000000e+00    0.000000000e+00    0.000000000e+00
        1262750    7.549238801e-01   -6.095081568e-01   -2.637913713e-05   -8.727606655e-06    0.000000000e+00    0.000000000e+00    0.000000000e+00    0.000000000e+00
        1287500    7.466381192e-01   -6.182212234e-01   -1.121537389e-05   -1.292819434e-05    0.000000000e+00    0.000000000e+00    0.000000000e+00    0.000000000e+00
        1312250    7.394202948e-01   -6.266677976e-01   -1.033021817e-05   -1.774766133e-05    0.000000000e+00    0.000000000e+00    0.000000000e+00    0.000000000e+00
        1337000    7.308972478e-01   -6.347000003e-01   -1.956010465e-08    3.212930824e-05    0.000000000e+00    0.000000000e+00    0.000000000e+00    0.000000000e+00
        1361750    7.230058312e-01   -6.428499222e-01    6.980056241e-06    1.176732349e-05    0.000000000e+00    0.000000000e+00    0.000000000e+00    0.000000000e+00
        1386500    7.148518562e-01   -6.507604122e-01   -3.273538459e-05    5.142574810e-05    0.000000000e+00    0.000000000e+00    0.000000000e+00    0.000000000e+00
        1411250    7.065969706e-01   -6.591228247e-01   -1.609016363e-05    6.620813110e-06    0.000000000e+00    0.000000000e+00    0.000000000e+00    0.000000000e+00
        1436000    6.989542842e-01   -6.664997339e-01   -8.574195931e-07    3.827086559e-08    0.000000000e+00    0.000000000e+00    0.000000000e+00    0.000000000e+00
        1460750    6.907111406e-01   -6.742469072e-01    2.188100552e-05   -1.464249544e-05    0.000000000e+00    0.000000000e+00    0.000000000e+00    0.000000000e+00
        1485500    6.823363304e-01   -6.818191409e-01   -1.120701199e-05    3.010009095e-05    0.000000000e+00    0.000000000e+00    0.000000000e+00    0.000000000e+00
        1510250    6.745794415e-01   -6.889853477e-01   -3.734004349e-05    1.648736179e-05    0.000000000e+00    0.000000000e+00    0.000000000e+00    0.000000000e+00
        1535000    6.662940979e-01   -6.960874200e-01    1.295250240e-05    1.916747578e-07    0.000000000e+00    0.000000000e+00    0.000000000e+00    0.000000000e+00
        1559750    6.575022340e-01   -7.027196884e-01   -3.326130172e-05    2.280768058e-05    0.000000000e+00    0.000000000e+00    0.000000000e+00    0.000000000e+00
        1584500    6.495979428e-01   -7.098752260e-01    1.530666850e-05   -3.137367912e-06    0.000000000e+00    0.000000000e+00    0.000000000e+00    0.000000000e+00
        1609250    6.410970688e-01   -7.164761424e-01    1.413928749e-05   -9.604906154e-06    0.000000000e+00    0.000000000e+00    0.000000000e+00    0.000000000e+00
        1634000    6.328712702e-01   -7.234393358e-01    2.472057895e-05   -1.735724982e-05    0.000000000e+00    0.000000000e+00    0.000000000e+00    0.000000000e+00
        1658750    6.245785356e-01   -7.301008701e-01   -3.491088819e-06   -7.184373771e-06    0.000000000e+00    0.000000000e+00    0.000000000e+00    0.000000000e+00
        1683500    6.160339117e-01   -7.359831333e-01   -1.391421938e-05   -1.033312856e-05    0.000000000e+00    0.000000000e+00    0.000000000e+00    0.000000000e+00
        1708250    6.073945761e-01   -7.424296141e-01   -1.972929931e-05   -1.173590772e-05    0.000000000e+00    0.000000000e+00    0.000000000e+00    0.000000000e+00
        1733000    5.991135836e-01   -7.487815619e-01   -3.086100378e-06   -2.763403791e-05    0.000000000e+00    0.000000000e+00    0.000000000e+00    0.000000000e+00
        1757750    5.907256603e-01   -7.547771335e-01   -1.332211104e-05    2.489380859e-05    0.000000000e+00    0.000000000e+00    0.000000000e+00    0.000000000e+00
        1782500    5.823833346e-01   -7.599232793e-01    1.438832260e-05    6.079310424e-06    0.000000000e+00    0.000000000e+00    0.000000000e+00    0.000000000e+00
        1807250    5.735989213e-01   -7.666458488e-01   -1.147956937e-05    2.983311242e-05    0.000000000e+00    0.000000000e+00    0.000000000e+00    0.000000000e+00
        1832000    5.653548837e-01   -7.713090777e-01   -2.919200597e-06   -1.930639519e-05    0.000000000e+00    0.000000000e+00    0.000000000e+00    0.000000000e+00
        1856750    5.568163395e-01   -7.766483426e-01    1.217188037e-05    5.507612968e-06    0.000000000e+00    0.000000000e+00    0.000000000e+00    0.000000000e+00
        1881500    5.487728119e-01   -7.825548649e-01   -1.456564041e-05   -3.726305658e-05    0.000000000e+00    0.000000000e+00    0.000000000e+00    0.000000000e+00
        1906250    5.397154689e-01   -7.879742384e-01   -4.258376975e-06   -4.372787953e-05    0.000000000e+00    0.000000000e+00    0.000000000e+00    0.000000000e+00
        1931000    5.316613317e-01   -7.930456996e-01   -5.110599432e-06   -2.297082210e-05    0.000000000e+00    0.000000000e+00    0.000000000e+00    0.000000000e+00
        1955750    5.231536031e-01   -7.977440357e-01    2.499648872e-06   -5.661067007e-06    0.000000000e+00    0.000000000e+00    0.000000000e+00    0.000000000e+00
        1980500    5.145067573e-01   -8.029736876e-01   -1.963712748e-05    3.250896771e-05    0.000000000e+00    0.000000000e+00    0.000000000e+00    0.000000000e+00
        2005250    5.062665343e-01   -8.072472811e-01   -1.466538720e-06    5.639064511e-06    0.000000000e+00    0.000000000e+00    0.000000000e+00    0.000000000e+00
        2030000    4.978654087e-01   -8.122765422e-01    1.621691990e-05    4.811601684e-05    0.000000000e+00    0.000000000e+00    0.000000000e+00    0.000000000e+00
        2054750    4.895378053e-01   -8.169537783e-01   -2.715087612e-05   -1.307162984e-05    0.000000000e+00    0.000000000e+00    0.000000000e+00    0.000000000e+00
        2079500    4.806950390e-01   -8.208720684e-01    3.068423393e-05   -1.894195702e-05    0.000000000e+00    0.000000000e+00    0.000000000e+00    0.000000000e+00
        2104250    4.725174308e-01   -8.253272176e-01   -2.248529563e-05    1.291424360e-05    0.000000000e+00    0.000000000e+00    0.000000000e+00    0.000000000e+00
        2129000    4.643605947e-01   -8.301260471e-01   -2.797029993e-05   -5.395563676e-07    0.000000000e+00    0.000000000e+00    0.000000000e+00    0.000000000e+00
        2153750    4.557853639e-01   -8.335971832e-01   -1.794326863e-06   -8.618279026e-06    0.000000000e+00    0.000000000e+00    0.000000000e+00    0.000000000e+00
        2178500    4.474581480e-01   -8.378651738e-01    1.383646395e-05   -4.374914170e-06    0.000000000e+00    0.000000000e+00    0.000000000e+00    0.000000000e+00
        2203250    4.387775362e-01   -8.417552114e-01   -1.912938023e-05   -1.246310512e-05    0.000000000e+00    0.000000000e+00    0.000000000e+00    0.000000000e+00
        2228000    4.303304255e-01   -8.452251554e-01   -2.003196823e-05   -2.890612996e-05    0.000000000e+00    0.000000000e+00    0.000000000e+00    0.000000000e+00
        2252750    4.227714837e-01   -8.495077491e-01    9.641781617e-06   -3.166870738e-05    0.000000000e+00    0.000000000e+00    0.000000000e+00    0.000000000e+00
        2277500    4.145163000e-01   -8.526912928e-01    1.507795878e-05    1.029138821e-05    0.000000000e+00    0.000000000e+00    0.000000000e+00    0.000000000e+00
        2302250    4.063120484e-01   -8.559311628e-01   -6.343815130e-06   -4.384552994e-06    0.000000000e+00    0.000000000e+00    0.000000000e+00    0.000000000e+00
        2327000    3.979611695e-01   -8.590837717e-01    2.030334826e-06    3.617288530e-05    0.000000000e+00    0.000000000e+00    0.000000000e+00    0.000000000e+00
        2351750    3.897841871e-01   -8.625354171e-01   -4.515527326e-05   -4.704147614e-06    0.000000000e+00    0.000000000e+00    0.000000000e+00    0.000000000e+00
        2376500    3.814555109e-01   -8.658214808e-01   -6.724357718e-06    5.857417364e-06    0.000000000e+00    0.000000000e+00    0.000000000e+00    0.000000000e+00
        2401250    3.733794987e-01   -8.691758513e-01    1.774471457e-05   -2.977898703e-06    0.000000000e+00    0.000000000e+00    0.000000000e+00    0.000000000e+00
        2426000    3.651634455e-01   -8.720048070e-01   -1.723247260e-05    1.313880239e-05    0.000000000e+00    0.000000000e+00    0.000000000e+00    0.000000000e+00
        2450750    3.567398489e-01   -8.751574159e-01    2.635433520e-05    1.611035259e-05    0.000000000e+00    0.000000000e+00    0.000000000e+00    0.000000000e+00
        2475500    3.492201269e-01   -8.784400821e-01   -9.314953786e-06   -9.163413779e-06    0.000000000e+00    0.000000000e+00    0.000000000e+00    0.000000000e+00
        2500250    3.413027525e-01   -8.805115819e-01   -2.330408506e-07    5.716472970e-06    0.000000000e+00    0.000000000e+00    0.000000000e+00    0.000000000e+00
        2525000    3.332549036e-01   -8.834102154e-01   -1.956383312e-05   -8.516205526e-06    0.000000000e+00    0.000000000e+00    0.000000000e+00    0.000000000e+00
        2549750    3.250814378e-01   -8.862440586e-01   -8.847658137e-06   -2.326489084e-05    0.000000000e+00    0.000000000e+00    0.000000000e+00    0.000000000e+00
        2574500    3.174164295e-01   -8.886148334e-01   -2.213274684e-06   -3.060556310e-06    0.000000000e+00    0.000000000e+00    0.000000000e+00    0.000000000e+00
        2599250    3.095873594e-01   -8.905101418e-01   -3.041089985e-05    7.469296179e-06    0.000000000e+00    0.000000000e+00    0.000000000e+00    0.000000000e+00
        2624000    3.014229238e-01   -8.930699825e-01    7.807113320e-07    5.326215614e-06    0.000000000e+00    0.000000000e+00    0.000000000e+00    0.000000000e+00
        2648750    2.939558029e-01   -8.957388997e-01   -1.598900417e-05    4.044125671e-05    0.000000000e+00    0.000000000e+00    0.000000000e+00    0.000000000e+00
        2673500    2.856723666e-01   -8.976346254e-01   -6.624205525e-06    3.058703078e-05    0.000000000e+00    0.000000000e+00    0.000000000e+00    0.000000000e+00
        2698250    2.778038979e-01   -8.992404342e-01   -5.607472121e-05    1.780378989e-05    0.000000000e+00    0.000000000e+00    0.000000000e+00    0.000000000e+00
        2723000    2.704401612e-01   -9.019265771e-01   -3.987363743e-05   -1.613608401e-05    0.000000000e+00    0.000000000e+00    0.000000000e+00    0.000000000e+00
        2747750    2.629390061e-01   -9.033643603e-01    1.724405411e-05   -7.842164450e-06    0.000000000e+00    0.000000000e+00    0.000000000e+00    0.000000000e+00
        2772500    2.549236417e-01   -9.053048491e-01   -3.252525494e-05   -3.456243576e-06    0.000000000e+00    0.000000000e+00    0.000000000e+00    0.000000000e+00
        2797250    2.475292385e-01   -9.070340991e-01    1.692389304e-07    2.029762800e-05    0.000000000e+00    0.000000000e+00    0.000000000e+00    0.000000000e+00
        2822000    2.398294657e-01   -9.083996415e-01   -6.070175004e-06    1.432042973e-05    0.000000000e+00    0.000000000e+00    0.000000000e+00    0.000000000e+00
        2846750    2.328123301e-01   -9.106423855e-01   -3.013352762e-05   -3.872791785e-05    0.000000000e+00    0.000000000e+00    0.000000000e+00    0.000000000e+00
        2871500    2.245562375e-01   -9.124979377e-01    4.652694042e-05   -4.310533404e-05    0.000000000e+00    0.000000000e+00    0.000000000e+00    0.000000000e+00
        2896250    2.176639885e-01   -9.136496782e-01   -1.957241693e-05    1.565079037e-05    0.000000000e+00    0.000000000e+00    0.000000000e+00    0.000000000e+00
        2921000    2.102217674e-01   -9.149173498e-01   -2.924973342e-05    4.177365918e-05    0.000000000e+00    0.000000000e+00    0.000000000e+00    0.000000000e+00
