! NanoVNA-App by OneOfEleven et al v1.1.209 (+OD15) 
! Date: 2024-07-30 12:31:49
! Start: 50kHz Stop: 5MHz Points: 201
! S-Parameter data: F S11 S21 S12 S22
# Hz S RI R 50
!     Frequency           S11_Real           S11_Imag           S21_Real           S21_Imag           S12_Real           S12_Imag           S22_Real           S22_Imag
          50000    9.993900061e-01   -2.974010259e-02    2.000191125e-05    1.930761073e-06    0.000000000e+00    0.000000000e+00    0.000000000e+00    0.000000000e+00
          74750    9.986078739e-01   -4.448285326e-02   -3.517782534e-05   -2.206651334e-05    0.000000000e+00    0.000000000e+00    0.000000000e+00    0.000000000e+00
          99500    9.939017892e-01   -5.345335975e-02   -2.596943341e-05   -6.505341389e-06    0.000000000e+00    0.000000000e+00    0.000000000e+00    0.000000000e+00
         124250    9.926655889e-01   -6.636527181e-02    1.256664200e-05    7.317696145e-06    0.000000000e+00    0.000000000e+00    0.000000000e+00    0.000000000e+00
         149000    9.908387065e-01   -7.965924591e-02    8.985266504e-06    1.721027729e-05    0.000000000e+00    0.000000000e+00    0.000000000e+00    0.000000000e+00
         173750    1.047207594e+00   -4.389252141e-02    2.711833758e-06    1.763597720e-05    0.000000000e+00    0.000000000e+00    0.000000000e+00    0.000000000e+00
         198500    9.951576591e-01   -1.051138937e-01    2.910474223e-06    3.342499622e-05    0.000000000e+00    0.000000000e+00    0.000000000e+00    0.000000000e+00
         223250    9.939442277e-01   -1.184675768e-01    1.605537000e-05   -3.073932385e-05    0.000000000e+00    0.000000000e+00    0.000000000e+00    0.000000000e+00
         248000    9.931520820e-01   -1.326517612e-01   -3.350229599e-05   -1.887583835e-06    0.000000000e+00    0.000000000e+00    0.000000000e+00    0.000000000e+00
         272750    9.918982983e-01   -1.467794627e-01    8.764965060e-06   -1.141000848e-05    0.000000000e+00    0.000000000e+00    0.000000000e+00    0.000000000e+00
         297500    9.903321266e-01   -1.608917415e-01    9.350287655e-06    2.334475994e-06    0.000000000e+00    0.000000000e+00    0.000000000e+00    0.000000000e+00
         322250    9.880220890e-01   -1.753390878e-01    6.488181498e-06    1.163772936e-06    0.000000000e+00    0.000000000e+00    0.000000000e+00    0.000000000e+00
         347000    9.855997562e-01   -1.894044131e-01   -3.048436952e-07   -2.430290351e-07    0.000000000e+00    0.000000000e+00    0.000000000e+00    0.000000000e+00
         371750    9.828807116e-01   -2.036603540e-01    6.856671007e-06    5.019727723e-06    0.000000000e+00    0.000000000e+00    0.000000000e+00    0.000000000e+00
         396500    9.799859524e-01   -2.182946056e-01    2.408519686e-05    5.717620752e-06    0.000000000e+00    0.000000000e+00    0.000000000e+00    0.000000000e+00
         421250    9.637219310e-01   -2.362128049e-01   -2.948701331e-05   -2.158059715e-06    0.000000000e+00    0.000000000e+00    0.000000000e+00    0.000000000e+00
         446000    9.619195461e-01   -2.505387664e-01    9.363837307e-06    2.707375097e-05    0.000000000e+00    0.000000000e+00    0.000000000e+00    0.000000000e+00
         470750    9.580919743e-01   -2.630686760e-01   -6.208517334e-06    6.543950349e-06    0.000000000e+00    0.000000000e+00    0.000000000e+00    0.000000000e+00
         495500    9.527998567e-01   -2.757242322e-01   -3.159541666e-05    8.792529229e-07    0.000000000e+00    0.000000000e+00    0.000000000e+00    0.000000000e+00
         520250    9.489661455e-01   -2.889449298e-01   -7.504996574e-06    1.091253034e-05    0.000000000e+00    0.000000000e+00    0.000000000e+00    0.000000000e+00
         545000    9.438706636e-01   -3.016737103e-01    1.793763113e-05    5.380579296e-06    0.000000000e+00    0.000000000e+00    0.000000000e+00    0.000000000e+00
         569750    9.382840991e-01   -3.141385317e-01    1.124744449e-05    6.899904292e-07    0.000000000e+00    0.000000000e+00    0.000000000e+00    0.000000000e+00
         594500    9.343174100e-01   -3.261584044e-01   -1.456146947e-05   -5.286949090e-05    0.000000000e+00    0.000000000e+00    0.000000000e+00    0.000000000e+00
         619250    9.291783571e-01   -3.387391865e-01    1.725565744e-05   -5.779041021e-05    0.000000000e+00    0.000000000e+00    0.000000000e+00    0.000000000e+00
         644000    9.228754044e-01   -3.516771495e-01    1.099847395e-05    2.758447772e-05    0.000000000e+00    0.000000000e+00    0.000000000e+00    0.000000000e+00
         668750    9.186925292e-01   -3.629750907e-01    1.942762174e-05   -8.545453966e-06    0.000000000e+00    0.000000000e+00    0.000000000e+00    0.000000000e+00
         693500    9.131743312e-01   -3.747848570e-01   -3.889908385e-06   -1.223449181e-05    0.000000000e+00    0.000000000e+00    0.000000000e+00    0.000000000e+00
         718250    9.076975584e-01   -3.866100609e-01    2.625610250e-06   -2.020852662e-05    0.000000000e+00    0.000000000e+00    0.000000000e+00    0.000000000e+00
         743000    9.010564685e-01   -3.985626698e-01   -2.310262425e-05    2.735261296e-05    0.000000000e+00    0.000000000e+00    0.000000000e+00    0.000000000e+00
         767750    8.952954412e-01   -4.094997048e-01   -5.198442068e-06    4.721360256e-06    0.000000000e+00    0.000000000e+00    0.000000000e+00    0.000000000e+00
         792500    8.891100883e-01   -4.206026196e-01   -6.342922006e-06    1.366660308e-05    0.000000000e+00    0.000000000e+00    0.000000000e+00    0.000000000e+00
         817250    8.828653693e-01   -4.321987331e-01    6.058440249e-06   -2.985644642e-05    0.000000000e+00    0.000000000e+00    0.000000000e+00    0.000000000e+00
         842000    8.766055107e-01   -4.429618120e-01    3.380353519e-05   -9.105310710e-06    0.000000000e+00    0.000000000e+00    0.000000000e+00    0.000000000e+00
         866750    8.709322214e-01   -4.540445507e-01    1.668844925e-05   -4.146397259e-06    0.000000000e+00    0.000000000e+00    0.000000000e+00    0.000000000e+00
         891500    8.641693592e-01   -4.650992751e-01   -4.759674084e-06   -6.172142093e-06    0.000000000e+00    0.000000000e+00    0.000000000e+00    0.000000000e+00
         916250    8.567966819e-01   -4.760391414e-01   -1.400047381e-06    2.826690798e-05    0.000000000e+00    0.000000000e+00    0.000000000e+00    0.000000000e+00
         941000    8.499663472e-01   -4.864824414e-01   -2.733346628e-05   -2.446273902e-05    0.000000000e+00    0.000000000e+00    0.000000000e+00    0.000000000e+00
         965750    8.433861136e-01   -4.966092408e-01    1.499668178e-05   -1.065529705e-05    0.000000000e+00    0.000000000e+00    0.000000000e+00    0.000000000e+00
         990500    8.359006047e-01   -5.064165592e-01   -3.789146285e-05   -4.633727258e-06    0.000000000e+00    0.000000000e+00    0.000000000e+00    0.000000000e+00
        1015250    8.298935294e-01   -5.167241096e-01   -4.091467417e-06    1.800897007e-05    0.000000000e+00    0.000000000e+00    0.000000000e+00    0.000000000e+00
        1040000    8.226306438e-01   -5.264763236e-01   -2.414969822e-05    3.038972682e-05    0.000000000e+00    0.000000000e+00    0.000000000e+00    0.000000000e+00
        1064750    8.143248558e-01   -5.363782048e-01   -4.924278528e-06   -6.631787528e-06    0.000000000e+00    0.000000000e+00    0.000000000e+00    0.000000000e+00
        1089500    8.075706363e-01   -5.459798574e-01   -3.024081525e-05    4.725342933e-06    0.000000000e+00    0.000000000e+00    0.000000000e+00    0.000000000e+00
        1114250    8.005884290e-01   -5.563112497e-01   -5.500741827e-05   -1.882389483e-06    0.000000000e+00    0.000000000e+00    0.000000000e+00    0.000000000e+00
        1139000    7.926583290e-01   -5.645303726e-01    4.729110879e-05    5.220181720e-06    0.000000000e+00    0.000000000e+00    0.000000000e+00    0.000000000e+00
        1163750    7.850885391e-01   -5.745221376e-01    2.425667662e-05   -2.585193033e-05    0.000000000e+00    0.000000000e+00    0.000000000e+00    0.000000000e+00
        1188500    7.778913975e-01   -5.835475326e-01   -3.102907431e-05   -3.081111572e-05    0.000000000e+00    0.000000000e+00    0.000000000e+00    0.000000000e+00
        1213250    7.699378133e-01   -5.926516652e-01   -4.829999853e-06   -3.287195341e-06    0.000000000e+00    0.000000000e+00    0.000000000e+00    0.000000000e+00
        1238000    7.625782490e-01   -6.006420255e-01   -4.174444985e-05   -7.034768714e-06    0.000000000e+00    0.000000000e+00    0.000000000e+00    0.000000000e+00
        1262750    7.547214031e-01   -6.099402308e-01   -2.693433089e-05   -7.864658983e-06    0.000000000e+00    0.000000000e+00    0.000000000e+00    0.000000000e+00
        1287500    7.462995648e-01   -6.180532575e-01    4.598445958e-05   -1.590966713e-05    0.000000000e+00    0.000000000e+00    0.000000000e+00    0.000000000e+00
        1312250    7.396041155e-01   -6.268696785e-01   -1.088206659e-06    9.693253560e-07    0.000000000e+00    0.000000000e+00    0.000000000e+00    0.000000000e+00
        1337000    7.315286398e-01   -6.348688602e-01   -4.507214868e-08   -1.256656651e-05    0.000000000e+00    0.000000000e+00    0.000000000e+00    0.000000000e+00
        1361750    7.233418226e-01   -6.425879002e-01    2.382611274e-05    1.245801286e-05    0.000000000e+00    0.000000000e+00    0.000000000e+00    0.000000000e+00
        1386500    7.150641084e-01   -6.513110995e-01   -6.760183169e-06    3.309896783e-05    0.000000000e+00    0.000000000e+00    0.000000000e+00    0.000000000e+00
        1411250    7.067815065e-01   -6.585703492e-01    9.137806956e-06   -3.804188282e-06    0.000000000e+00    0.000000000e+00    0.000000000e+00    0.000000000e+00
        1436000    6.989576221e-01   -6.667729020e-01    8.180156328e-06    2.778764838e-06    0.000000000e+00    0.000000000e+00    0.000000000e+00    0.000000000e+00
        1460750    6.905881166e-01   -6.743493676e-01    1.497351968e-05    2.729188054e-06    0.000000000e+00    0.000000000e+00    0.000000000e+00    0.000000000e+00
        1485500    6.827197075e-01   -6.814244390e-01   -8.465733117e-06   -1.629632970e-05    0.000000000e+00    0.000000000e+00    0.000000000e+00    0.000000000e+00
        1510250    6.743959785e-01   -6.890046597e-01   -1.059325950e-05   -2.288383257e-05    0.000000000e+00    0.000000000e+00    0.000000000e+00    0.000000000e+00
        1535000    6.656653285e-01   -6.960573792e-01    5.447982767e-05    1.096093092e-05    0.000000000e+00    0.000000000e+00    0.000000000e+00    0.000000000e+00
        1559750    6.575410366e-01   -7.028877139e-01   -1.684913877e-05    2.520113776e-05    0.000000000e+00    0.000000000e+00    0.000000000e+00    0.000000000e+00
        1584500    6.496543288e-01   -7.101590633e-01    3.550552719e-05   -4.502885349e-05    0.000000000e+00    0.000000000e+00    0.000000000e+00    0.000000000e+00
        1609250    6.411541700e-01   -7.167739272e-01   -2.498506728e-05   -1.025457095e-05    0.000000000e+00    0.000000000e+00    0.000000000e+00    0.000000000e+00
        1634000    6.326139569e-01   -7.232000232e-01   -2.217986366e-05    1.934106513e-05    0.000000000e+00    0.000000000e+00    0.000000000e+00    0.000000000e+00
        1658750    6.243932247e-01   -7.297985554e-01    9.180917914e-06   -1.732174678e-05    0.000000000e+00    0.000000000e+00    0.000000000e+00    0.000000000e+00
        1683500    6.161584258e-01   -7.363232374e-01   -7.798547813e-06   -7.775292033e-06    0.000000000e+00    0.000000000e+00    0.000000000e+00    0.000000000e+00
        1708250    6.074918509e-01   -7.426472306e-01   -2.797515845e-05    6.404146006e-06    0.000000000e+00    0.000000000e+00    0.000000000e+00    0.000000000e+00
        1733000    5.991848707e-01   -7.486569285e-01   -3.638358612e-05    4.011018518e-06    0.000000000e+00    0.000000000e+00    0.000000000e+00    0.000000000e+00
        1757750    5.904284716e-01   -7.549672723e-01    7.707782970e-06    6.996383036e-06    0.000000000e+00    0.000000000e+00    0.000000000e+00    0.000000000e+00
        1782500    5.821534991e-01   -7.602075338e-01   -9.826289897e-06    2.097558536e-05    0.000000000e+00    0.000000000e+00    0.000000000e+00    0.000000000e+00
        1807250    5.739337206e-01   -7.658959031e-01    1.904742703e-06    1.532558235e-05    0.000000000e+00    0.000000000e+00    0.000000000e+00    0.000000000e+00
        1832000    5.660101771e-01   -7.712430358e-01   -3.433986785e-05   -1.781476385e-05    0.000000000e+00    0.000000000e+00    0.000000000e+00    0.000000000e+00
        1856750    5.565791726e-01   -7.767570615e-01   -2.971425056e-05    2.035133730e-05    0.000000000e+00    0.000000000e+00    0.000000000e+00    0.000000000e+00
        1881500    5.485699177e-01   -7.822982669e-01    5.184981637e-05    2.057002348e-05    0.000000000e+00    0.000000000e+00    0.000000000e+00    0.000000000e+00
        1906250    5.405169129e-01   -7.878129482e-01    6.631586530e-06   -3.462990435e-06    0.000000000e+00    0.000000000e+00    0.000000000e+00    0.000000000e+00
        1931000    5.314663053e-01   -7.931905389e-01    4.278714550e-05   -2.714613584e-05    0.000000000e+00    0.000000000e+00    0.000000000e+00    0.000000000e+00
        1955750    5.233077407e-01   -7.977381945e-01    4.146542778e-06   -1.803430314e-05    0.000000000e+00    0.000000000e+00    0.000000000e+00    0.000000000e+00
        1980500    5.152469277e-01   -8.028008342e-01   -8.166978205e-07    4.640004408e-05    0.000000000e+00    0.000000000e+00    0.000000000e+00    0.000000000e+00
        2005250    5.062881112e-01   -8.078248501e-01   -7.252591786e-06   -3.701596142e-05    0.000000000e+00    0.000000000e+00    0.000000000e+00    0.000000000e+00
        2030000    4.976391792e-01   -8.119920492e-01   -1.203476222e-05    3.065652345e-05    0.000000000e+00    0.000000000e+00    0.000000000e+00    0.000000000e+00
        2054750    4.895052016e-01   -8.168527484e-01    2.076872988e-06    6.812211382e-07    0.000000000e+00    0.000000000e+00    0.000000000e+00    0.000000000e+00
        2079500    4.811853766e-01   -8.214634657e-01    3.780908082e-05   -1.478127069e-05    0.000000000e+00    0.000000000e+00    0.000000000e+00    0.000000000e+00
        2104250    4.722195566e-01   -8.253954649e-01   -1.355262702e-05    2.246883196e-05    0.000000000e+00    0.000000000e+00    0.000000000e+00    0.000000000e+00
        2129000    4.644539952e-01   -8.295451999e-01    1.341972893e-05   -1.779798185e-05    0.000000000e+00    0.000000000e+00    0.000000000e+00    0.000000000e+00
        2153750    4.562458694e-01   -8.337800503e-01    5.930417319e-05    2.758970368e-05    0.000000000e+00    0.000000000e+00    0.000000000e+00    0.000000000e+00
        2178500    4.470888972e-01   -8.376173377e-01    3.122549970e-05    1.927557423e-05    0.000000000e+00    0.000000000e+00    0.000000000e+00    0.000000000e+00
        2203250    4.392734468e-01   -8.414372206e-01    2.756967433e-06   -6.197262223e-07    0.000000000e+00    0.000000000e+00    0.000000000e+00    0.000000000e+00
        2228000    4.309273064e-01   -8.453686833e-01   -9.758191482e-06    2.264873001e-05    0.000000000e+00    0.000000000e+00    0.000000000e+00    0.000000000e+00
        2252750    4.225347042e-01   -8.491267562e-01    1.661365786e-05    2.213241260e-06    0.000000000e+00    0.000000000e+00    0.000000000e+00    0.000000000e+00
        2277500    4.139053822e-01   -8.522638083e-01   -4.650257324e-05   -9.054315342e-06    0.000000000e+00    0.000000000e+00    0.000000000e+00    0.000000000e+00
        2302250    4.062104523e-01   -8.562247753e-01    2.426676929e-06   -7.779760381e-06    0.000000000e+00    0.000000000e+00    0.000000000e+00    0.000000000e+00
        2327000    3.973569274e-01   -8.591941595e-01   -8.843808246e-06    2.090871385e-05    0.000000000e+00    0.000000000e+00    0.000000000e+00    0.000000000e+00
        2351750    3.899182379e-01   -8.628216386e-01   -3.675668995e-05    1.442711323e-06    0.000000000e+00    0.000000000e+00    0.000000000e+00    0.000000000e+00
        2376500    3.816638589e-01   -8.658842444e-01    1.405111675e-06    3.382698878e-06    0.000000000e+00    0.000000000e+00    0.000000000e+00    0.000000000e+00
        2401250    3.734112680e-01   -8.690035343e-01    9.300324564e-06    1.381520178e-05    0.000000000e+00    0.000000000e+00    0.000000000e+00    0.000000000e+00
        2426000    3.649994731e-01   -8.719633818e-01   -4.229124897e-05    6.063817636e-06    0.000000000e+00    0.000000000e+00    0.000000000e+00    0.000000000e+00
        2450750    3.570167720e-01   -8.756290674e-01   -1.938553760e-05    1.440249798e-05    0.000000000e+00    0.000000000e+00    0.000000000e+00    0.000000000e+00
        2475500    3.493176103e-01   -8.780595660e-01   -8.640372471e-06   -1.106453783e-05    0.000000000e+00    0.000000000e+00    0.000000000e+00    0.000000000e+00
        2500250    3.407015204e-01   -8.807655573e-01   -3.698298315e-06    3.729847595e-05    0.000000000e+00    0.000000000e+00    0.000000000e+00    0.000000000e+00
        2525000    3.331985474e-01   -8.835100532e-01   -1.807707235e-06   -2.681310798e-05    0.000000000e+00    0.000000000e+00    0.000000000e+00    0.000000000e+00
        2549750    3.252696097e-01   -8.856765628e-01   -2.517115536e-05   -3.154699243e-06    0.000000000e+00    0.000000000e+00    0.000000000e+00    0.000000000e+00
        2574500    3.171315193e-01   -8.881374598e-01   -3.368913167e-05    3.818831465e-05    0.000000000e+00    0.000000000e+00    0.000000000e+00    0.000000000e+00
        2599250    3.092307448e-01   -8.904504776e-01   -2.693203669e-06    1.432096178e-05    0.000000000e+00    0.000000000e+00    0.000000000e+00    0.000000000e+00
        2624000    3.013007641e-01   -8.931901455e-01   -2.336066473e-06   -7.803260814e-06    0.000000000e+00    0.000000000e+00    0.000000000e+00    0.000000000e+00
        2648750    2.936984599e-01   -8.953797221e-01    1.367662117e-05   -5.707560922e-05    0.000000000e+00    0.000000000e+00    0.000000000e+00    0.000000000e+00
        2673500    2.855791748e-01   -8.976973891e-01    3.880983968e-06   -1.804177373e-05    0.000000000e+00    0.000000000e+00    0.000000000e+00    0.000000000e+00
        2698250    2.780917287e-01   -8.995177150e-01    4.356752106e-05   -4.856847227e-06    0.000000000e+00    0.000000000e+00    0.000000000e+00    0.000000000e+00
        2723000    2.705363035e-01   -9.015659094e-01   -4.210046973e-05    4.544060630e-06    0.000000000e+00    0.000000000e+00    0.000000000e+00    0.000000000e+00
        2747750    2.624323964e-01   -9.033497572e-01   -1.685917232e-05   -7.721066140e-06    0.000000000e+00    0.000000000e+00    0.000000000e+00    0.000000000e+00
        2772500    2.550383210e-01   -9.054958820e-01   -1.427673851e-05   -3.399258276e-05    0.000000000e+00    0.000000000e+00    0.000000000e+00    0.000000000e+00
        2797250    2.477130145e-01   -9.065896273e-01   -3.881441808e-05    1.519342004e-05    0.000000000e+00    0.000000000e+00    0.000000000e+00    0.000000000e+00
        2822000    2.397675663e-01   -9.082509279e-01   -8.151692782e-06   -3.916037713e-06    0.000000000e+00    0.000000000e+00    0.000000000e+00    0.000000000e+00
        2846750    2.323576957e-01   -9.100668430e-01    2.152846537e-05    1.639014044e-05    0.000000000e+00    0.000000000e+00    0.000000000e+00    0.000000000e+00
        2871500    2.248949260e-01   -9.117596149e-01    1.263410013e-05   -1.223963409e-05    0.000000000e+00    0.000000000e+00    0.000000000e+00    0.000000000e+00
        2896250    2.175968736e-01   -9.134972095e-01    3.103194467e-05   -4.889263437e-06    0.000000000e+00    0.000000000e+00    0.000000000e+00    0.000000000e+00
        2921000    2.098469883e-01   -9.146806002e-01    9.604203115e-06    1.359446287e-05    0.000000000e+00    0.000000000e+00    0.000000000e+00    0.000000000e+00
