! NanoVNA-App by OneOfEleven et al v1.1.209 (+OD15) 
! Date: 2024-07-30 12:32:09
! Start: 50kHz Stop: 5MHz Points: 201
! S-Parameter data: F S11 S21 S12 S22
# Hz S RI R 50
!     Frequency           S11_Real           S11_Imag           S21_Real           S21_Imag           S12_Real           S12_Imag           S22_Real           S22_Imag
          50000    9.994428754e-01   -2.977166325e-02    7.048561201e-07   -2.965791055e-06    0.000000000e+00    0.000000000e+00    0.000000000e+00    0.000000000e+00
          74750    9.987657070e-01   -4.415271431e-02   -3.576322342e-05   -2.309731099e-05    0.000000000e+00    0.000000000e+00    0.000000000e+00    0.000000000e+00
          99500    9.932968616e-01   -5.317740887e-02   -2.078114267e-05    6.676500107e-06    0.000000000e+00    0.000000000e+00    0.000000000e+00    0.000000000e+00
         124250    9.928579330e-01   -6.603331119e-02    1.932998930e-05    1.485210214e-05    0.000000000e+00    0.000000000e+00    0.000000000e+00    0.000000000e+00
         149000    9.909836054e-01   -7.943806052e-02    2.203725489e-05    2.989262839e-06    0.000000000e+00    0.000000000e+00    0.000000000e+00    0.000000000e+00
         173750    1.047327518e+00   -4.394174740e-02    6.443512120e-06    8.332025573e-06    0.000000000e+00    0.000000000e+00    0.000000000e+00    0.000000000e+00
         198500    9.950724840e-01   -1.048431918e-01    9.848734408e-06   -1.518191857e-05    0.000000000e+00    0.000000000e+00    0.000000000e+00    0.000000000e+00
         223250    9.940234423e-01   -1.185538173e-01    2.798013554e-07   -1.791639806e-05    0.000000000e+00    0.000000000e+00    0.000000000e+00    0.000000000e+00
         248000    9.934061766e-01   -1.326024830e-01   -1.133144815e-05    1.875419457e-06    0.000000000e+00    0.000000000e+00    0.000000000e+00    0.000000000e+00
         272750    9.917874932e-01   -1.466708481e-01   -1.188537408e-05   -2.278571083e-05    0.000000000e+00    0.000000000e+00    0.000000000e+00    0.000000000e+00
         297500    9.901732802e-01   -1.608444750e-01   -2.552707883e-05    6.525630852e-06    0.000000000e+00    0.000000000e+00    0.000000000e+00    0.000000000e+00
         322250    9.882009625e-01   -1.751759052e-01    8.825461464e-07   -2.500147502e-06    0.000000000e+00    0.000000000e+00    0.000000000e+00    0.000000000e+00
         347000    9.857283235e-01   -1.893095672e-01   -1.173201326e-05   -8.723023711e-06    0.000000000e+00    0.000000000e+00    0.000000000e+00    0.000000000e+00
         371750    9.829634428e-01   -2.033922523e-01   -4.023571364e-06    2.485059849e-05    0.000000000e+00    0.000000000e+00    0.000000000e+00    0.000000000e+00
         396500    9.801461101e-01   -2.183273882e-01   -3.439816510e-06    9.420226888e-06    0.000000000e+00    0.000000000e+00    0.000000000e+00    0.000000000e+00
         421250    9.640019536e-01   -2.362250835e-01    3.584481965e-05    2.302794383e-05    0.000000000e+00    0.000000000e+00    0.000000000e+00    0.000000000e+00
         446000    9.619379640e-01   -2.504021823e-01   -9.836711797e-06   -2.032654447e-05    0.000000000e+00    0.000000000e+00    0.000000000e+00    0.000000000e+00
         470750    9.583835602e-01   -2.631703913e-01    5.146974672e-06    5.372292890e-06    0.000000000e+00    0.000000000e+00    0.000000000e+00    0.000000000e+00
         495500    9.532573819e-01   -2.757430673e-01    1.807952867e-05    4.838228415e-05    0.000000000e+00    0.000000000e+00    0.000000000e+00    0.000000000e+00
         520250    9.492737651e-01   -2.888853252e-01   -5.587710621e-05    2.406263411e-05    0.000000000e+00    0.000000000e+00    0.000000000e+00    0.000000000e+00
         545000    9.439793825e-01   -3.014891148e-01   -8.233666449e-06   -9.969816347e-06    0.000000000e+00    0.000000000e+00    0.000000000e+00    0.000000000e+00
         569750    9.384265542e-01   -3.144722581e-01   -1.615445763e-05   -1.058131056e-05    0.000000000e+00    0.000000000e+00    0.000000000e+00    0.000000000e+00
         594500    9.339154959e-01   -3.261343837e-01   -2.423885235e-06   -3.581129567e-05    0.000000000e+00    0.000000000e+00    0.000000000e+00    0.000000000e+00
         619250    9.289565086e-01   -3.389093578e-01    1.040765892e-05    3.440217552e-05    0.000000000e+00    0.000000000e+00    0.000000000e+00    0.000000000e+00
         644000    9.232850075e-01   -3.516274691e-01    4.588462252e-05   -7.774674486e-06    0.000000000e+00    0.000000000e+00    0.000000000e+00    0.000000000e+00
         668750    9.186342359e-01   -3.628108203e-01    2.866054638e-05   -5.775061254e-06    0.000000000e+00    0.000000000e+00    0.000000000e+00    0.000000000e+00
         693500    9.131651521e-01   -3.748555183e-01   -3.206603651e-05    2.424929335e-05    0.000000000e+00    0.000000000e+00    0.000000000e+00    0.000000000e+00
         718250    9.073569179e-01   -3.869176805e-01   -3.532001756e-06    1.860271550e-05    0.000000000e+00    0.000000000e+00    0.000000000e+00    0.000000000e+00
         743000    9.014870524e-01   -3.985897303e-01    1.445283579e-05   -3.130517143e-06    0.000000000e+00    0.000000000e+00    0.000000000e+00    0.000000000e+00
         767750    8.954721093e-01   -4.096913636e-01   -1.771229108e-05   -2.470339859e-05    0.000000000e+00    0.000000000e+00    0.000000000e+00    0.000000000e+00
         792500    8.893345594e-01   -4.208991826e-01   -4.071849617e-05    3.777349775e-05    0.000000000e+00    0.000000000e+00    0.000000000e+00    0.000000000e+00
         817250    8.829350471e-01   -4.320445359e-01    1.247237833e-05    3.612234286e-05    0.000000000e+00    0.000000000e+00    0.000000000e+00    0.000000000e+00
         842000    8.767238855e-01   -4.430574477e-01   -2.467726335e-05    2.495943590e-05    0.000000000e+00    0.000000000e+00    0.000000000e+00    0.000000000e+00
         866750    8.701321483e-01   -4.534035027e-01    3.636147449e-05   -1.796757897e-05    0.000000000e+00    0.000000000e+00    0.000000000e+00    0.000000000e+00
         891500    8.633230925e-01   -4.644988775e-01    2.181457785e-05   -1.573418012e-05    0.000000000e+00    0.000000000e+00    0.000000000e+00    0.000000000e+00
         916250    8.574113846e-01   -4.758515954e-01    1.069306836e-05   -1.498180495e-07    0.000000000e+00    0.000000000e+00    0.000000000e+00    0.000000000e+00
         941000    8.505133390e-01   -4.863256812e-01    9.364207472e-06   -2.884845890e-05    0.000000000e+00    0.000000000e+00    0.000000000e+00    0.000000000e+00
         965750    8.439031243e-01   -4.965572655e-01   -1.354835695e-05   -2.088790825e-05    0.000000000e+00    0.000000000e+00    0.000000000e+00    0.000000000e+00
         990500    8.371030092e-01   -5.066264868e-01   -1.485993471e-05   -2.192004104e-05    0.000000000e+00    0.000000000e+00    0.000000000e+00    0.000000000e+00
        1015250    8.296324015e-01   -5.171617866e-01   -1.509243702e-05   -4.939800783e-05    0.000000000e+00    0.000000000e+00    0.000000000e+00    0.000000000e+00
        1040000    8.217572570e-01   -5.265598893e-01   -1.964152943e-05   -1.137909476e-05    0.000000000e+00    0.000000000e+00    0.000000000e+00    0.000000000e+00
        1064750    8.147889972e-01   -5.366268754e-01   -1.589087515e-05    4.823111794e-07    0.000000000e+00    0.000000000e+00    0.000000000e+00    0.000000000e+00
        1089500    8.077845573e-01   -5.461124182e-01    8.947793503e-06    6.719381781e-05    0.000000000e+00    0.000000000e+00    0.000000000e+00    0.000000000e+00
        1114250    7.999284267e-01   -5.562519431e-01   -2.493371903e-05   -1.935422915e-05    0.000000000e+00    0.000000000e+00    0.000000000e+00    0.000000000e+00
        1139000    7.934083343e-01   -5.648571253e-01    2.150741784e-05   -2.572235462e-05    0.000000000e+00    0.000000000e+00    0.000000000e+00    0.000000000e+00
        1163750    7.860821486e-01   -5.740743279e-01    3.291101166e-05    2.128680899e-05    0.000000000e+00    0.000000000e+00    0.000000000e+00    0.000000000e+00
        1188500    7.778368592e-01   -5.832428336e-01    2.290180782e-05    2.445286373e-05    0.000000000e+00    0.000000000e+00    0.000000000e+00    0.000000000e+00
        1213250    7.705096006e-01   -5.926557183e-01    4.985321357e-05    8.746370440e-06    0.000000000e+00    0.000000000e+00    0.000000000e+00    0.000000000e+00
        1238000    7.627495527e-01   -6.004788280e-01   -5.817307283e-06   -4.340647138e-05    0.000000000e+00    0.000000000e+00    0.000000000e+00    0.000000000e+00
        1262750    7.548267841e-01   -6.095969677e-01   -2.832210885e-05    6.834499800e-06    0.000000000e+00    0.000000000e+00    0.000000000e+00    0.000000000e+00
        1287500    7.464692593e-01   -6.183977127e-01    1.549771355e-06   -2.775110488e-06    0.000000000e+00    0.000000000e+00    0.000000000e+00    0.000000000e+00
        1312250    7.394905090e-01   -6.266438961e-01   -2.371791379e-05   -7.538240425e-06    0.000000000e+00    0.000000000e+00    0.000000000e+00    0.000000000e+00
        1337000    7.314493060e-01   -6.349128485e-01   -6.827529432e-06    8.892304322e-06    0.000000000e+00    0.000000000e+00    0.000000000e+00    0.000000000e+00
        1361750    7.230365276e-01   -6.429725289e-01   -3.351135456e-05    7.662859571e-05    0.000000000e+00    0.000000000e+00    0.000000000e+00    0.000000000e+00
        1386500    7.146295309e-01   -6.511927843e-01    1.141266785e-05    3.671928789e-05    0.000000000e+00    0.000000000e+00    0.000000000e+00    0.000000000e+00
        1411250    7.069458365e-01   -6.587523818e-01    8.804575373e-06    1.283922484e-05    0.000000000e+00    0.000000000e+00    0.000000000e+00    0.000000000e+00
        1436000    6.990261674e-01   -6.668987870e-01    2.450355532e-05   -2.477440103e-05    0.000000000e+00    0.000000000e+00    0.000000000e+00    0.000000000e+00
        1460750    6.903330684e-01   -6.741942167e-01    2.102065991e-05   -2.685975687e-06    0.000000000e+00    0.000000000e+00    0.000000000e+00    0.000000000e+00
        1485500    6.826673150e-01   -6.816278100e-01   -3.238409772e-05   -9.967931874e-06    0.000000000e+00    0.000000000e+00    0.000000000e+00    0.000000000e+00
        1510250    6.749739647e-01   -6.896225214e-01    2.898782441e-06    1.211054314e-05    0.000000000e+00    0.000000000e+00    0.000000000e+00    0.000000000e+00
        1535000    6.659117341e-01   -6.959629655e-01    2.143821075e-05    2.559910718e-05    0.000000000e+00    0.000000000e+00    0.000000000e+00    0.000000000e+00
        1559750    6.576412916e-01   -7.023150325e-01    3.113714229e-06    4.146334686e-05    0.000000000e+00    0.000000000e+00    0.000000000e+00    0.000000000e+00
        1584500    6.498755217e-01   -7.102649212e-01   -6.859808764e-06   -3.835432835e-06    0.000000000e+00    0.000000000e+00    0.000000000e+00    0.000000000e+00
        1609250    6.408787370e-01   -7.165557146e-01    2.717218013e-05    6.315126029e-06    0.000000000e+00    0.000000000e+00    0.000000000e+00    0.000000000e+00
        1634000    6.325566173e-01   -7.233799696e-01   -1.118318551e-06   -1.865975901e-05    0.000000000e+00    0.000000000e+00    0.000000000e+00    0.000000000e+00
        1658750    6.244772673e-01   -7.294878960e-01   -1.601117583e-05   -3.017366362e-05    0.000000000e+00    0.000000000e+00    0.000000000e+00    0.000000000e+00
        1683500    6.159129739e-01   -7.361009717e-01    2.459874850e-05    1.534905641e-05    0.000000000e+00    0.000000000e+00    0.000000000e+00    0.000000000e+00
        1708250    6.073812246e-01   -7.421225905e-01   -3.637638656e-06    2.161339762e-05    0.000000000e+00    0.000000000e+00    0.000000000e+00    0.000000000e+00
        1733000    5.992447138e-01   -7.483527064e-01   -1.759006227e-05   -8.529891602e-06    0.000000000e+00    0.000000000e+00    0.000000000e+00    0.000000000e+00
        1757750    5.903487206e-01   -7.550119162e-01    2.219004637e-05    1.571919893e-05    0.000000000e+00    0.000000000e+00    0.000000000e+00    0.000000000e+00
        1782500    5.823338032e-01   -7.599009871e-01   -2.392414353e-05    2.366613990e-05    0.000000000e+00    0.000000000e+00    0.000000000e+00    0.000000000e+00
        1807250    5.737392902e-01   -7.661360502e-01   -1.991956560e-05    1.272703685e-05    0.000000000e+00    0.000000000e+00    0.000000000e+00    0.000000000e+00
        1832000    5.658647418e-01   -7.718104720e-01   -1.174858539e-06   -1.382089340e-05    0.000000000e+00    0.000000000e+00    0.000000000e+00    0.000000000e+00
        1856750    5.564099550e-01   -7.767161727e-01   -4.801921023e-05   -1.527394488e-05    0.000000000e+00    0.000000000e+00    0.000000000e+00    0.000000000e+00
        1881500    5.482284427e-01   -7.825445533e-01    1.246733427e-05   -3.372311039e-05    0.000000000e+00    0.000000000e+00    0.000000000e+00    0.000000000e+00
        1906250    5.405138731e-01   -7.880358100e-01    1.020744185e-05   -2.004841554e-05    0.000000000e+00    0.000000000e+00    0.000000000e+00    0.000000000e+00
        1931000    5.313088298e-01   -7.929100990e-01   -1.726896880e-05   -3.399455863e-06    0.000000000e+00    0.000000000e+00    0.000000000e+00    0.000000000e+00
        1955750    5.227543712e-01   -7.980647087e-01   -3.397499677e-05   -2.408064393e-05    0.000000000e+00    0.000000000e+00    0.000000000e+00    0.000000000e+00
        1980500    5.151254535e-01   -8.027185798e-01    2.615317862e-05    1.934130523e-05    0.000000000e+00    0.000000000e+00    0.000000000e+00    0.000000000e+00
        2005250    5.059638023e-01   -8.072423339e-01    5.260578291e-06    1.816271106e-05    0.000000000e+00    0.000000000e+00    0.000000000e+00    0.000000000e+00
        2030000    4.973857701e-01   -8.117985725e-01   -3.209155238e-06   -5.683376912e-06    0.000000000e+00    0.000000000e+00    0.000000000e+00    0.000000000e+00
        2054750    4.898230433e-01   -8.171780109e-01   -1.443134533e-05   -3.937740985e-06    0.000000000e+00    0.000000000e+00    0.000000000e+00    0.000000000e+00
        2079500    4.806698859e-01   -8.212533593e-01    8.963130313e-06    2.784543540e-05    0.000000000e+00    0.000000000e+00    0.000000000e+00    0.000000000e+00
        2104250    4.721134901e-01   -8.251197934e-01   -1.820175021e-05   -5.953767413e-06    0.000000000e+00    0.000000000e+00    0.000000000e+00    0.000000000e+00
        2129000    4.648579061e-01   -8.296877146e-01    2.375120130e-05    3.257419667e-05    0.000000000e+00    0.000000000e+00    0.000000000e+00    0.000000000e+00
        2153750    4.563526809e-01   -8.339409232e-01   -8.862902177e-06   -4.896701284e-06    0.000000000e+00    0.000000000e+00    0.000000000e+00    0.000000000e+00
        2178500    4.469044507e-01   -8.374554515e-01    1.054931181e-05    2.152048728e-05    0.000000000e+00    0.000000000e+00    0.000000000e+00    0.000000000e+00
        2203250    4.391945302e-01   -8.417581916e-01    7.301911410e-06   -2.218590816e-05    0.000000000e+00    0.000000000e+00    0.000000000e+00    0.000000000e+00
        2228000    4.309051931e-01   -8.452602625e-01   -2.726657112e-05    1.191384399e-05    0.000000000e+00    0.000000000e+00    0.000000000e+00    0.000000000e+00
        2252750    4.221166074e-01   -8.489690423e-01    1.312529548e-05   -1.296723167e-05    0.000000000e+00    0.000000000e+00    0.000000000e+00    0.000000000e+00
        2277500    4.144316316e-01   -8.527024388e-01   -7.941637705e-06   -1.190150215e-05    0.000000000e+00    0.000000000e+00    0.000000000e+00    0.000000000e+00
        2302250    4.063542485e-01   -8.558373451e-01    4.967689051e-07    7.680031558e-06    0.000000000e+00    0.000000000e+00    0.000000000e+00    0.000000000e+00
        2327000    3.972901702e-01   -8.592110276e-01    8.275645996e-06   -8.027857803e-06    0.000000000e+00    0.000000000e+00    0.000000000e+00    0.000000000e+00
        2351750    3.894635737e-01   -8.631579280e-01    1.483716233e-06   -1.668856203e-05    0.000000000e+00    0.000000000e+00    0.000000000e+00    0.000000000e+00
        2376500    3.818024397e-01   -8.659517765e-01   -2.677115663e-05   -9.194143786e-06    0.000000000e+00    0.000000000e+00    0.000000000e+00    0.000000000e+00
        2401250    3.730534613e-01   -8.691728115e-01    1.627076358e-06   -8.028456250e-06    0.000000000e+00    0.000000000e+00    0.000000000e+00    0.000000000e+00
        2426000    3.651479781e-01   -8.723832965e-01    2.901218249e-05   -2.310532363e-05    0.000000000e+00    0.000000000e+00    0.000000000e+00    0.000000000e+00
        2450750    3.572771549e-01   -8.754683137e-01   -3.478919098e-05   -1.130139481e-05    0.000000000e+00    0.000000000e+00    0.000000000e+00    0.000000000e+00
        2475500    3.493747711e-01   -8.780735135e-01   -3.581689452e-05   -4.416457102e-07    0.000000000e+00    0.000000000e+00    0.000000000e+00    0.000000000e+00
        2500250    3.413616419e-01   -8.808965683e-01    3.538804594e-05   -2.839844274e-05    0.000000000e+00    0.000000000e+00    0.000000000e+00    0.000000000e+00
        2525000    3.332027793e-01   -8.834830523e-01    2.076842293e-06   -1.668843106e-05    0.000000000e+00    0.000000000e+00    0.000000000e+00    0.000000000e+00
        2549750    3.253056109e-01   -8.858298659e-01    1.902155964e-05    4.722761514e-05    0.000000000e+00    0.000000000e+00    0.000000000e+00    0.000000000e+00
        2574500    3.169520497e-01   -8.879644871e-01   -2.040985601e-05   -1.562248508e-05    0.000000000e+00    0.000000000e+00    0.000000000e+00    0.000000000e+00
        2599250    3.095191419e-01   -8.908987045e-01    2.979270721e-05   -8.956656529e-06    0.000000000e+00    0.000000000e+00    0.000000000e+00    0.000000000e+00
        2624000    3.013264239e-01   -8.928131461e-01   -5.423378298e-06   -1.952404818e-05    0.000000000e+00    0.000000000e+00    0.000000000e+00    0.000000000e+00
        2648750    2.935071886e-01   -8.949429393e-01    1.426257404e-05   -3.309335398e-06    0.000000000e+00    0.000000000e+00    0.000000000e+00    0.000000000e+00
        2673500    2.859241068e-01   -8.975085020e-01   -1.306499598e-05   -2.138005766e-05    0.000000000e+00    0.000000000e+00    0.000000000e+00    0.000000000e+00
        2698250    2.784241736e-01   -8.992793560e-01   -2.401878919e-05    8.810143299e-06    0.000000000e+00    0.000000000e+00    0.000000000e+00    0.000000000e+00
        2723000    2.699712515e-01   -9.015302658e-01   -9.426045153e-07   -1.381993843e-05    0.000000000e+00    0.000000000e+00    0.000000000e+00    0.000000000e+00
        2747750    2.627336979e-01   -9.036893249e-01   -5.882342066e-06    8.556266039e-06    0.000000000e+00    0.000000000e+00    0.000000000e+00    0.000000000e+00
        2772500    2.547342777e-01   -9.052172899e-01    3.990422101e-06   -9.777578271e-06    0.000000000e+00    0.000000000e+00    0.000000000e+00    0.000000000e+00
        2797250    2.476725280e-01   -9.067489505e-01   -2.940728154e-05    5.644136763e-06    0.000000000e+00    0.000000000e+00    0.000000000e+00    0.000000000e+00
        2822000    2.398630083e-01   -9.085139036e-01   -6.154378934e-05   -4.992076811e-06    0.000000000e+00    0.000000000e+00    0.000000000e+00    0.000000000e+00
        2846750    2.326349616e-01   -9.103752971e-01    2.140147626e-05   -4.180348697e-05    0.000000000e+00    0.000000000e+00    0.000000000e+00    0.000000000e+00
        2871500    2.250062674e-01   -9.117612839e-01    3.781474334e-06   -2.945296546e-05    0.000000000e+00    0.000000000e+00    0.000000000e+00    0.000000000e+00
        2896250    2.174747288e-01   -9.137976766e-01   -1.170727592e-05   -2.352507909e-05    0.000000000e+00    0.000000000e+00    0.000000000e+00    0.000000000e+00
        2921000    2.102066129e-01   -9.151775837e-01    3.415952960e-05   -6.230824056e-06    0.000000000e+00    0.000000000e+00    0.000000000e+00    0.000000000e+00
