! NanoVNA-App
! Date: 2024-06-25 16:10:34
! Start: 200MHz Stop: 6GHz Points: 801
! S-Parameter data: F S11 S21 S12 S22
# Hz S RI R 50
!     Frequency           S11_Real           S11_Imag           S21_Real           S21_Imag           S12_Real           S12_Imag           S22_Real           S22_Imag
      200000000   -9.978884459e-01   -1.184408888e-01   -6.128102541e-06   -1.712888479e-05    0.000000000e+00    0.000000000e+00    0.000000000e+00    0.000000000e+00
      207250000   -1.010124683e+00   -1.917988621e-02    5.308538675e-07   -1.992564648e-05    0.000000000e+00    0.000000000e+00    0.000000000e+00    0.000000000e+00
      214500000   -1.011992216e+00    8.188578486e-02   -1.844763756e-05   -1.042801887e-05    0.000000000e+00    0.000000000e+00    0.000000000e+00    0.000000000e+00
      221750000   -1.002246737e+00    1.845098734e-01   -9.076669812e-06    4.894100130e-06    0.000000000e+00    0.000000000e+00    0.000000000e+00    0.000000000e+00
      229000000   -9.830387831e-01    2.875097096e-01   -2.575572580e-05   -4.583783448e-05    0.000000000e+00    0.000000000e+00    0.000000000e+00    0.000000000e+00
      236250000   -9.503757954e-01    3.903459609e-01    2.870615572e-05    5.769543350e-06    0.000000000e+00    0.000000000e+00    0.000000000e+00    0.000000000e+00
      243500000   -9.082006216e-01    4.902507961e-01   -4.721805453e-06    1.908466220e-05    0.000000000e+00    0.000000000e+00    0.000000000e+00    0.000000000e+00
      250750000   -8.519648910e-01    5.869007707e-01    1.787021756e-05    1.996476203e-05    0.000000000e+00    0.000000000e+00    0.000000000e+00    0.000000000e+00
      258000000   -7.838047743e-01    6.779581904e-01   -1.689698547e-05   -2.775341272e-06    0.000000000e+00    0.000000000e+00    0.000000000e+00    0.000000000e+00
      265250000   -7.049573660e-01    7.620090246e-01   -3.889203072e-06    2.050772309e-05    0.000000000e+00    0.000000000e+00    0.000000000e+00    0.000000000e+00
      272500000   -6.138223410e-01    8.376770020e-01    2.847239375e-05   -7.517635822e-06    0.000000000e+00    0.000000000e+00    0.000000000e+00    0.000000000e+00
      279750000   -5.128840804e-01    9.015499949e-01    1.776684076e-05   -1.530256122e-05    0.000000000e+00    0.000000000e+00    0.000000000e+00    0.000000000e+00
      287000000   -4.023845494e-01    9.539622068e-01   -1.897104084e-06    4.516448826e-05    0.000000000e+00    0.000000000e+00    0.000000000e+00    0.000000000e+00
      294250000   -2.853024900e-01    9.923668504e-01    1.538824290e-05   -3.594905138e-07    0.000000000e+00    0.000000000e+00    0.000000000e+00    0.000000000e+00
      301500000   -1.631927043e-01    1.016022325e+00   -1.470278949e-05   -7.617287338e-06    0.000000000e+00    0.000000000e+00    0.000000000e+00    0.000000000e+00
      308750000   -3.844526410e-02    1.024100423e+00   -1.138355583e-05    4.460103810e-06    0.000000000e+00    0.000000000e+00    0.000000000e+00    0.000000000e+00
      316000000    8.824449033e-02    1.015461087e+00   -5.303882062e-06    1.402013004e-05    0.000000000e+00    0.000000000e+00    0.000000000e+00    0.000000000e+00
      323250000    2.126067728e-01    9.902992249e-01   -1.750327647e-05    2.353265882e-05    0.000000000e+00    0.000000000e+00    0.000000000e+00    0.000000000e+00
      330500000    3.328786194e-01    9.497814775e-01   -2.353452146e-06    7.054768503e-06    0.000000000e+00    0.000000000e+00    0.000000000e+00    0.000000000e+00
      337750000    4.470970929e-01    8.937610388e-01    1.294538379e-06    3.063865006e-05    0.000000000e+00    0.000000000e+00    0.000000000e+00    0.000000000e+00
      345000000    5.520675778e-01    8.239719272e-01    4.310160875e-06    1.433677971e-05    0.000000000e+00    0.000000000e+00    0.000000000e+00    0.000000000e+00
      352250000    6.476193666e-01    7.423828244e-01   -2.628006041e-05    3.262422979e-06    0.000000000e+00    0.000000000e+00    0.000000000e+00    0.000000000e+00
      359500000    7.315737009e-01    6.505891681e-01    2.587120980e-05    1.087319106e-05    0.000000000e+00    0.000000000e+00    0.000000000e+00    0.000000000e+00
      366750000    8.029705882e-01    5.492652059e-01    1.609325409e-05    3.149546683e-05    0.000000000e+00    0.000000000e+00    0.000000000e+00    0.000000000e+00
      374000000    8.606057167e-01    4.417927861e-01   -7.654540241e-06   -4.144385457e-05    0.000000000e+00    0.000000000e+00    0.000000000e+00    0.000000000e+00
      381250000    9.051010013e-01    3.282833993e-01   -3.101676702e-05   -4.050321877e-06    0.000000000e+00    0.000000000e+00    0.000000000e+00    0.000000000e+00
      388500000    9.342877269e-01    2.121732831e-01   -9.450130165e-06   -2.520810813e-05    0.000000000e+00    0.000000000e+00    0.000000000e+00    0.000000000e+00
      395750000    9.509461522e-01    9.574846923e-02    2.860091627e-05   -1.257658005e-05    0.000000000e+00    0.000000000e+00    0.000000000e+00    0.000000000e+00
      403000000    9.542039633e-01   -2.171595953e-02   -2.194847912e-05   -3.194436431e-05    0.000000000e+00    0.000000000e+00    0.000000000e+00    0.000000000e+00
      410250000    9.444559813e-01   -1.374091506e-01    1.674611121e-05    3.055576235e-05    0.000000000e+00    0.000000000e+00    0.000000000e+00    0.000000000e+00
      417500000    9.226155877e-01   -2.495015413e-01   -1.254212111e-05   -4.302710295e-07    0.000000000e+00    0.000000000e+00    0.000000000e+00    0.000000000e+00
      424750000    8.889582753e-01   -3.580042720e-01    3.930181265e-07   -1.897104084e-06    0.000000000e+00    0.000000000e+00    0.000000000e+00    0.000000000e+00
      432000000    8.442511559e-01   -4.608296752e-01   -2.137850970e-05    6.938353181e-07    0.000000000e+00    0.000000000e+00    0.000000000e+00    0.000000000e+00
      439250000    7.890537381e-01   -5.579220653e-01    3.678724170e-06    1.955311745e-05    0.000000000e+00    0.000000000e+00    0.000000000e+00    0.000000000e+00
      446500000    7.249151468e-01   -6.472509503e-01   -1.474563032e-05   -9.728595614e-06    0.000000000e+00    0.000000000e+00    0.000000000e+00    0.000000000e+00
      453750000    6.512343287e-01   -7.306397557e-01    2.671778202e-05   -1.066457480e-05    0.000000000e+00    0.000000000e+00    0.000000000e+00    0.000000000e+00
      461000000    5.706893206e-01   -8.044028282e-01    1.466367394e-05   -1.738406718e-05    0.000000000e+00    0.000000000e+00    0.000000000e+00    0.000000000e+00
      468250000    4.828732610e-01   -8.692038655e-01   -1.305900514e-05    2.383161336e-05    0.000000000e+00    0.000000000e+00    0.000000000e+00    0.000000000e+00
      475500000    3.876612186e-01   -9.254047871e-01   -2.608634531e-05   -1.235771924e-05    0.000000000e+00    0.000000000e+00    0.000000000e+00    0.000000000e+00
      482750000    2.889267802e-01   -9.709751010e-01   -1.395773143e-05    7.068738341e-07    0.000000000e+00    0.000000000e+00    0.000000000e+00    0.000000000e+00
      490000000    1.857185662e-01   -1.005954623e+00    1.242011786e-05   -4.246830940e-07    0.000000000e+00    0.000000000e+00    0.000000000e+00    0.000000000e+00
      497250000    7.820361853e-02   -1.030684948e+00    1.863203943e-05   -7.749535143e-06    0.000000000e+00    0.000000000e+00    0.000000000e+00    0.000000000e+00
      504500000   -3.211470321e-02   -1.042468429e+00   -1.354515553e-05    2.911593765e-05    0.000000000e+00    0.000000000e+00    0.000000000e+00    0.000000000e+00
      511750000   -1.437966675e-01   -1.044093132e+00    8.255243301e-06   -4.798173904e-06    0.000000000e+00    0.000000000e+00    0.000000000e+00    0.000000000e+00
      519000000   -2.551349401e-01   -1.032847166e+00    1.342594624e-05   -2.177152783e-05    0.000000000e+00    0.000000000e+00    0.000000000e+00    0.000000000e+00
      526250000   -3.652035892e-01   -1.008838534e+00   -3.172643483e-05   -1.894962043e-05    0.000000000e+00    0.000000000e+00    0.000000000e+00    0.000000000e+00
      533500000   -4.734170437e-01   -9.732435942e-01    1.577381045e-05   -1.189485192e-05    0.000000000e+00    0.000000000e+00    0.000000000e+00    0.000000000e+00
      540750000   -5.774784684e-01   -9.257811308e-01    7.358379662e-06    1.310091466e-05    0.000000000e+00    0.000000000e+00    0.000000000e+00    0.000000000e+00
      548000000   -6.771432161e-01   -8.651052713e-01    2.636387944e-05    2.114102244e-07    0.000000000e+00    0.000000000e+00    0.000000000e+00    0.000000000e+00
      555250000   -7.677192688e-01   -7.930186391e-01   -9.979121387e-06    1.886114478e-05    0.000000000e+00    0.000000000e+00    0.000000000e+00    0.000000000e+00
      562500000   -8.509784937e-01   -7.105607390e-01    2.906471491e-05    3.418885171e-06    0.000000000e+00    0.000000000e+00    0.000000000e+00    0.000000000e+00
      569750000   -9.242135882e-01   -6.190728545e-01    3.936327994e-05    6.146728992e-07    0.000000000e+00    0.000000000e+00    0.000000000e+00    0.000000000e+00
      577000000   -9.869112968e-01   -5.162096620e-01   -1.418218017e-05   -1.070834696e-05    0.000000000e+00    0.000000000e+00    0.000000000e+00    0.000000000e+00
      584250000   -1.036602020e+00   -4.102755785e-01    3.489665687e-06    2.944283187e-05    0.000000000e+00    0.000000000e+00    0.000000000e+00    0.000000000e+00
      591500000   -1.073277116e+00   -2.946655750e-01   -2.132728696e-06    1.072604209e-05    0.000000000e+00    0.000000000e+00    0.000000000e+00    0.000000000e+00
      598750000   -1.095980287e+00   -1.761424989e-01    1.122150570e-05   -2.719182521e-05    0.000000000e+00    0.000000000e+00    0.000000000e+00    0.000000000e+00
      606000000   -1.103584290e+00   -5.697599426e-02    1.068226993e-05   -6.497837603e-06    0.000000000e+00    0.000000000e+00    0.000000000e+00    0.000000000e+00
      613250000   -1.097244978e+00    6.263585389e-02   -1.086946577e-05   -1.251604408e-05    0.000000000e+00    0.000000000e+00    0.000000000e+00    0.000000000e+00
      620500000   -1.075748682e+00    1.799446195e-01    2.449378371e-07   -2.621300519e-05    0.000000000e+00    0.000000000e+00    0.000000000e+00    0.000000000e+00
      627750000   -1.040806293e+00    2.948459685e-01    2.330634743e-05    6.766058505e-06    0.000000000e+00    0.000000000e+00    0.000000000e+00    0.000000000e+00
      635000000   -9.924749732e-01    4.020154476e-01    5.215406418e-08   -6.336718798e-06    0.000000000e+00    0.000000000e+00    0.000000000e+00    0.000000000e+00
      642250000   -9.309141636e-01    5.039291382e-01   -1.477543265e-05   -1.396890730e-05    0.000000000e+00    0.000000000e+00    0.000000000e+00    0.000000000e+00
      649500000   -8.601822853e-01    5.938217044e-01    1.680850983e-05    4.016794264e-06    0.000000000e+00    0.000000000e+00    0.000000000e+00    0.000000000e+00
      656750000   -7.789441347e-01    6.764453053e-01   -6.095506251e-06   -3.996770829e-05    0.000000000e+00    0.000000000e+00    0.000000000e+00    0.000000000e+00
      664000000   -6.895058751e-01    7.477900386e-01    2.868473530e-05   -3.060791641e-05    0.000000000e+00    0.000000000e+00    0.000000000e+00    0.000000000e+00
      671250000   -5.941456556e-01    8.078464866e-01    7.973052561e-06    1.084804535e-05    0.000000000e+00    0.000000000e+00    0.000000000e+00    0.000000000e+00
      678500000   -4.929043651e-01    8.552017212e-01    3.139954060e-05   -1.369137317e-05    0.000000000e+00    0.000000000e+00    0.000000000e+00    0.000000000e+00
      685750000   -3.880236447e-01    8.906964660e-01   -3.463309258e-05    5.159527063e-06    0.000000000e+00    0.000000000e+00    0.000000000e+00    0.000000000e+00
      693000000   -2.813895941e-01    9.141515493e-01   -1.142732799e-05    1.828931272e-05    0.000000000e+00    0.000000000e+00    0.000000000e+00    0.000000000e+00
      700250000   -1.751586050e-01    9.261190891e-01    2.361834049e-06    1.574028283e-05    0.000000000e+00    0.000000000e+00    0.000000000e+00    0.000000000e+00
      707500000   -6.827466190e-02    9.257615209e-01    4.939734936e-06   -9.375624359e-06    0.000000000e+00    0.000000000e+00    0.000000000e+00    0.000000000e+00
      714750000    3.686284646e-02    9.148169756e-01   -2.033542842e-05    2.080574632e-05    0.000000000e+00    0.000000000e+00    0.000000000e+00    0.000000000e+00
      722000000    1.375988126e-01    8.932400942e-01   -4.724599421e-05    3.510713577e-05    0.000000000e+00    0.000000000e+00    0.000000000e+00    0.000000000e+00
      729250000    2.372483164e-01    8.614089489e-01   -2.261996269e-05    1.421011984e-05    0.000000000e+00    0.000000000e+00    0.000000000e+00    0.000000000e+00
      736500000    3.302876055e-01    8.206934929e-01   -1.155585051e-05    3.346800804e-05    0.000000000e+00    0.000000000e+00    0.000000000e+00    0.000000000e+00
      743750000    4.187787175e-01    7.706229091e-01   -1.182872802e-05   -1.009460539e-05    0.000000000e+00    0.000000000e+00    0.000000000e+00    0.000000000e+00
      751000000    5.011302233e-01    7.130432725e-01    3.033690155e-05   -1.437496394e-05    0.000000000e+00    0.000000000e+00    0.000000000e+00    0.000000000e+00
      758250000    5.771259069e-01    6.470986009e-01   -2.444256097e-05   -3.539491445e-05    0.000000000e+00    0.000000000e+00    0.000000000e+00    0.000000000e+00
      765500000    6.465477347e-01    5.749380589e-01    2.426374704e-05    2.685189247e-05    0.000000000e+00    0.000000000e+00    0.000000000e+00    0.000000000e+00
      772750000    7.077729702e-01    4.960728288e-01    4.034489393e-06    1.840945333e-05    0.000000000e+00    0.000000000e+00    0.000000000e+00    0.000000000e+00
      780000000    7.602581382e-01    4.117903411e-01    1.436378807e-05   -6.257556379e-06    0.000000000e+00    0.000000000e+00    0.000000000e+00    0.000000000e+00
      787250000    8.078287244e-01    3.208899200e-01    9.527429938e-06   -4.832353443e-05    0.000000000e+00    0.000000000e+00    0.000000000e+00    0.000000000e+00
      794500000    8.430603147e-01    2.262413055e-01    2.876948565e-05    1.331977546e-05    0.000000000e+00    0.000000000e+00    0.000000000e+00    0.000000000e+00
      801750000    8.696858287e-01    1.272204965e-01   -1.050438732e-05    7.450580597e-07    0.000000000e+00    0.000000000e+00    0.000000000e+00    0.000000000e+00
      809000000    8.868005872e-01    2.621064335e-02    8.929520845e-06    7.358379662e-06    0.000000000e+00    0.000000000e+00    0.000000000e+00    0.000000000e+00
      816250000    8.931224942e-01   -7.750295103e-02    6.957910955e-06   -3.218650818e-06    0.000000000e+00    0.000000000e+00    0.000000000e+00    0.000000000e+00
      823500000    8.883060813e-01   -1.828736961e-01   -1.002568752e-05    3.055110574e-05    0.000000000e+00    0.000000000e+00    0.000000000e+00    0.000000000e+00
      830750000    8.731848598e-01   -2.878969014e-01    5.731359124e-06   -1.117307693e-05    0.000000000e+00    0.000000000e+00    0.000000000e+00    0.000000000e+00
      838000000    8.448449969e-01   -3.932683468e-01    2.467911690e-05   -6.927177310e-06    0.000000000e+00    0.000000000e+00    0.000000000e+00    0.000000000e+00
      845250000    8.053404689e-01   -4.954752028e-01    2.134218812e-05   -3.537628800e-05    0.000000000e+00    0.000000000e+00    0.000000000e+00    0.000000000e+00
      852500000    7.543547750e-01   -5.936318636e-01   -3.751553595e-05    1.689791679e-05    0.000000000e+00    0.000000000e+00    0.000000000e+00    0.000000000e+00
      859750000    6.907979250e-01   -6.865807772e-01    9.347684681e-06    3.761611879e-05    0.000000000e+00    0.000000000e+00    0.000000000e+00    0.000000000e+00
      867000000    6.142016053e-01   -7.748464346e-01   -2.393964678e-05    3.450829536e-05    0.000000000e+00    0.000000000e+00    0.000000000e+00    0.000000000e+00
      874250000    5.288981199e-01   -8.517290950e-01   -1.664180309e-05    2.987403423e-05    0.000000000e+00    0.000000000e+00    0.000000000e+00    0.000000000e+00
      881500000    4.305421114e-01   -9.212163687e-01   -1.316424459e-05   -1.767650247e-06    0.000000000e+00    0.000000000e+00    0.000000000e+00    0.000000000e+00
      888750000    3.245656788e-01   -9.759817123e-01   -3.640726209e-05    1.008156687e-05    0.000000000e+00    0.000000000e+00    0.000000000e+00    0.000000000e+00
      896000000    2.096295357e-01   -1.017969728e+00    2.229027450e-05   -6.574206054e-06    0.000000000e+00    0.000000000e+00    0.000000000e+00    0.000000000e+00
      903250000    9.097164124e-02   -1.044832110e+00    2.256594598e-05   -5.370005965e-06    0.000000000e+00    0.000000000e+00    0.000000000e+00    0.000000000e+00
      910500000   -3.595435619e-02   -1.056004167e+00   -2.171192318e-05   -2.696644515e-05    0.000000000e+00    0.000000000e+00    0.000000000e+00    0.000000000e+00
      917750000   -1.591951698e-01   -1.049579382e+00   -8.079223335e-06    1.724623144e-05    0.000000000e+00    0.000000000e+00    0.000000000e+00    0.000000000e+00
      925000000   -2.812916636e-01   -1.027108788e+00    1.063290983e-05   -1.828838140e-05    0.000000000e+00    0.000000000e+00    0.000000000e+00    0.000000000e+00
      932250000   -4.020502567e-01   -9.857450128e-01    8.673407137e-06   -5.364418030e-06    0.000000000e+00    0.000000000e+00    0.000000000e+00    0.000000000e+00
      939500000   -5.117839575e-01   -9.307015538e-01    2.440996468e-06    4.048924893e-05    0.000000000e+00    0.000000000e+00    0.000000000e+00    0.000000000e+00
      946750000   -6.142206192e-01   -8.608566523e-01    1.772958785e-05    2.306047827e-05    0.000000000e+00    0.000000000e+00    0.000000000e+00    0.000000000e+00
      954000000   -7.045498490e-01   -7.794967294e-01   -4.075746983e-05    2.461019903e-05    0.000000000e+00    0.000000000e+00    0.000000000e+00    0.000000000e+00
      961250000   -7.817330360e-01   -6.883915067e-01    2.652220428e-05    9.736977518e-06    0.000000000e+00    0.000000000e+00    0.000000000e+00    0.000000000e+00
      968500000   -8.459761739e-01   -5.863614678e-01    2.032332122e-05    2.471450716e-05    0.000000000e+00    0.000000000e+00    0.000000000e+00    0.000000000e+00
      975750000   -8.940045238e-01   -4.832213521e-01    4.340428859e-05    9.169802070e-06    0.000000000e+00    0.000000000e+00    0.000000000e+00    0.000000000e+00
      983000000   -9.290912747e-01   -3.735675812e-01   -1.824181527e-05   -6.522051990e-06    0.000000000e+00    0.000000000e+00    0.000000000e+00    0.000000000e+00
      990250000   -9.486027956e-01   -2.642777860e-01    2.862885594e-06   -2.598017454e-05    0.000000000e+00    0.000000000e+00    0.000000000e+00    0.000000000e+00
      997500000   -9.543587565e-01   -1.559363604e-01    1.305155456e-05   -4.339963198e-06    0.000000000e+00    0.000000000e+00    0.000000000e+00    0.000000000e+00
     1004750000   -9.479898214e-01   -5.127710849e-02   -4.963949323e-06   -3.331899643e-05    0.000000000e+00    0.000000000e+00    0.000000000e+00    0.000000000e+00
     1012000000   -9.293054342e-01    5.149986967e-02   -4.358589649e-07   -2.714153379e-05    0.000000000e+00    0.000000000e+00    0.000000000e+00    0.000000000e+00
     1019250000   -9.005527496e-01    1.458260715e-01   -3.796163946e-05    1.333933324e-05    0.000000000e+00    0.000000000e+00    0.000000000e+00    0.000000000e+00
     1026500000   -8.623509407e-01    2.352280617e-01    9.127892554e-06    1.176260412e-05    0.000000000e+00    0.000000000e+00    0.000000000e+00    0.000000000e+00
     1033750000   -8.165905476e-01    3.188301623e-01   -2.350658178e-06   -3.033317626e-06    0.000000000e+00    0.000000000e+00    0.000000000e+00    0.000000000e+00
     1041000000   -7.635301352e-01    3.944506645e-01    9.637326002e-06   -1.434236765e-06    0.000000000e+00    0.000000000e+00    0.000000000e+00    0.000000000e+00
