! NanoVNA-App
! Date: 2024-06-25 16:11:03
! Start: 200MHz Stop: 6GHz Points: 801
! S-Parameter data: F S11 S21 S12 S22
# Hz S RI R 50
!     Frequency           S11_Real           S11_Imag           S21_Real           S21_Imag           S12_Real           S12_Imag           S22_Real           S22_Imag
      200000000   -9.984501004e-01   -1.184352562e-01    6.843358278e-06    3.135669976e-05    0.000000000e+00    0.000000000e+00    0.000000000e+00    0.000000000e+00
      207250000   -1.009966850e+00   -1.927103661e-02   -9.655952454e-06   -3.217719495e-06    0.000000000e+00    0.000000000e+00    0.000000000e+00    0.000000000e+00
      214500000   -1.011674523e+00    8.148902655e-02    2.435222268e-05   -3.215856850e-06    0.000000000e+00    0.000000000e+00    0.000000000e+00    0.000000000e+00
      221750000   -1.002244473e+00    1.852887273e-01    1.805089414e-05   -2.036057413e-05    0.000000000e+00    0.000000000e+00    0.000000000e+00    0.000000000e+00
      229000000   -9.823196530e-01    2.876262367e-01   -1.724064350e-05    1.323409379e-06    0.000000000e+00    0.000000000e+00    0.000000000e+00    0.000000000e+00
      236250000   -9.515196681e-01    3.902122676e-01   -1.420266926e-06   -9.707175195e-06    0.000000000e+00    0.000000000e+00    0.000000000e+00    0.000000000e+00
      243500000   -9.078260660e-01    4.898657203e-01    3.066845238e-06    1.836009324e-05    0.000000000e+00    0.000000000e+00    0.000000000e+00    0.000000000e+00
      250750000   -8.518841267e-01    5.869074464e-01   -1.453980803e-05    9.871087968e-06    0.000000000e+00    0.000000000e+00    0.000000000e+00    0.000000000e+00
      258000000   -7.838509083e-01    6.781545281e-01   -1.157168299e-05   -2.365652472e-05    0.000000000e+00    0.000000000e+00    0.000000000e+00    0.000000000e+00
      265250000   -7.045930624e-01    7.620621324e-01    1.284573227e-05   -1.515820622e-05    0.000000000e+00    0.000000000e+00    0.000000000e+00    0.000000000e+00
      272500000   -6.132740974e-01    8.370589018e-01   -2.361927181e-05    3.095157444e-05    0.000000000e+00    0.000000000e+00    0.000000000e+00    0.000000000e+00
      279750000   -5.126347542e-01    9.012457728e-01    2.978369594e-05    1.685321331e-05    0.000000000e+00    0.000000000e+00    0.000000000e+00    0.000000000e+00
      287000000   -4.023946226e-01    9.541574717e-01   -4.864484072e-05    4.845671356e-06    0.000000000e+00    0.000000000e+00    0.000000000e+00    0.000000000e+00
      294250000   -2.858182788e-01    9.922170639e-01    3.654509783e-05   -1.238659024e-06    0.000000000e+00    0.000000000e+00    0.000000000e+00    0.000000000e+00
      301500000   -1.628707349e-01    1.015551805e+00   -1.810397953e-05    1.772865653e-05    0.000000000e+00    0.000000000e+00    0.000000000e+00    0.000000000e+00
      308750000   -3.790398315e-02    1.023869753e+00    1.297332346e-06    2.365000546e-05    0.000000000e+00    0.000000000e+00    0.000000000e+00    0.000000000e+00
      316000000    8.785986900e-02    1.015371919e+00   -7.108785212e-06    1.193955541e-05    0.000000000e+00    0.000000000e+00    0.000000000e+00    0.000000000e+00
      323250000    2.124333233e-01    9.907061458e-01    9.683892131e-06    3.150757402e-05    0.000000000e+00    0.000000000e+00    0.000000000e+00    0.000000000e+00
      330500000    3.330784738e-01    9.499377012e-01    2.743117511e-05   -1.968815923e-06    0.000000000e+00    0.000000000e+00    0.000000000e+00    0.000000000e+00
      337750000    4.472894371e-01    8.939632177e-01    7.377937436e-06   -1.577101648e-05    0.000000000e+00    0.000000000e+00    0.000000000e+00    0.000000000e+00
      345000000    5.519835353e-01    8.239018917e-01   -2.703815699e-05    2.258457243e-06    0.000000000e+00    0.000000000e+00    0.000000000e+00    0.000000000e+00
      352250000    6.469845176e-01    7.426818609e-01   -1.641735435e-05    1.429673284e-05    0.000000000e+00    0.000000000e+00    0.000000000e+00    0.000000000e+00
      359500000    7.311896682e-01    6.502824426e-01   -2.609193325e-05    1.463759691e-05    0.000000000e+00    0.000000000e+00    0.000000000e+00    0.000000000e+00
      366750000    8.025796413e-01    5.489712358e-01   -1.987442374e-06   -1.591630280e-05    0.000000000e+00    0.000000000e+00    0.000000000e+00    0.000000000e+00
      374000000    8.601517081e-01    4.415897429e-01   -2.641603351e-05    3.132037818e-06    0.000000000e+00    0.000000000e+00    0.000000000e+00    0.000000000e+00
      381250000    9.046040773e-01    3.278572857e-01   -9.506940842e-06    1.787208021e-05    0.000000000e+00    0.000000000e+00    0.000000000e+00    0.000000000e+00
      388500000    9.352118373e-01    2.127194703e-01   -1.794379205e-05   -2.605933696e-05    0.000000000e+00    0.000000000e+00    0.000000000e+00    0.000000000e+00
      395750000    9.514554143e-01    9.578714520e-02    2.198386937e-05   -3.725290298e-06    0.000000000e+00    0.000000000e+00    0.000000000e+00    0.000000000e+00
      403000000    9.546292424e-01   -2.160212211e-02   -1.402851194e-05   -1.535750926e-05    0.000000000e+00    0.000000000e+00    0.000000000e+00    0.000000000e+00
      410250000    9.448443651e-01   -1.375115216e-01    2.768263221e-05   -2.293009311e-05    0.000000000e+00    0.000000000e+00    0.000000000e+00    0.000000000e+00
      417500000    9.226763248e-01   -2.488607168e-01   -2.883933485e-05    5.044136196e-05    0.000000000e+00    0.000000000e+00    0.000000000e+00    0.000000000e+00
      424750000    8.895018101e-01   -3.579966426e-01    2.949126065e-05    4.325993359e-06    0.000000000e+00    0.000000000e+00    0.000000000e+00    0.000000000e+00
      432000000    8.449628353e-01   -4.608963132e-01    2.807285637e-05   -1.847650856e-05    0.000000000e+00    0.000000000e+00    0.000000000e+00    0.000000000e+00
      439250000    7.890447378e-01   -5.578722954e-01    1.472886652e-05    6.097368896e-06    0.000000000e+00    0.000000000e+00    0.000000000e+00    0.000000000e+00
      446500000    7.247728705e-01   -6.475609541e-01    9.172596037e-06    2.334080637e-05    0.000000000e+00    0.000000000e+00    0.000000000e+00    0.000000000e+00
      453750000    6.513323784e-01   -7.303624153e-01   -1.514423639e-05    2.295058221e-05    0.000000000e+00    0.000000000e+00    0.000000000e+00    0.000000000e+00
      461000000    5.703226924e-01   -8.040080667e-01   -2.853479236e-05    3.264471889e-05    0.000000000e+00    0.000000000e+00    0.000000000e+00    0.000000000e+00
      468250000    4.832353890e-01   -8.692001700e-01   -8.322298527e-06    1.743528992e-05    0.000000000e+00    0.000000000e+00    0.000000000e+00    0.000000000e+00
      475500000    3.887585700e-01   -9.256102443e-01    1.506786793e-05   -2.849847078e-06    0.000000000e+00    0.000000000e+00    0.000000000e+00    0.000000000e+00
      482750000    2.892584205e-01   -9.710708261e-01   -3.019627184e-05    8.054077625e-06    0.000000000e+00    0.000000000e+00    0.000000000e+00    0.000000000e+00
      490000000    1.858402640e-01   -1.006181836e+00   -1.716148108e-05    5.304254591e-05    0.000000000e+00    0.000000000e+00    0.000000000e+00    0.000000000e+00
      497250000    7.795418054e-02   -1.030617833e+00   -2.541765571e-05    2.838112414e-05    0.000000000e+00    0.000000000e+00    0.000000000e+00    0.000000000e+00
      504500000   -3.263169900e-02   -1.043102860e+00   -1.541618258e-05    1.926627010e-05    0.000000000e+00    0.000000000e+00    0.000000000e+00    0.000000000e+00
      511750000   -1.436214596e-01   -1.044015884e+00    2.590473741e-05    1.268647611e-05    0.000000000e+00    0.000000000e+00    0.000000000e+00    0.000000000e+00
      519000000   -2.553573251e-01   -1.032938957e+00   -8.065253496e-06   -4.408881068e-06    0.000000000e+00    0.000000000e+00    0.000000000e+00    0.000000000e+00
      526250000   -3.658645451e-01   -1.009042621e+00    2.136453986e-05   -8.401460946e-06    0.000000000e+00    0.000000000e+00    0.000000000e+00    0.000000000e+00
      533500000   -4.738096297e-01   -9.729001522e-01    1.328624785e-05    5.032215267e-05    0.000000000e+00    0.000000000e+00    0.000000000e+00    0.000000000e+00
      540750000   -5.778994560e-01   -9.254970551e-01    5.511660129e-05   -2.411194146e-05    0.000000000e+00    0.000000000e+00    0.000000000e+00    0.000000000e+00
      548000000   -6.760398746e-01   -8.643997312e-01   -4.207529128e-05    6.103888154e-06    0.000000000e+00    0.000000000e+00    0.000000000e+00    0.000000000e+00
      555250000   -7.674142718e-01   -7.928149700e-01   -4.275236279e-05   -1.327507198e-05    0.000000000e+00    0.000000000e+00    0.000000000e+00    0.000000000e+00
      562500000   -8.514238000e-01   -7.104216814e-01    4.682410508e-05    3.942381591e-05    0.000000000e+00    0.000000000e+00    0.000000000e+00    0.000000000e+00
      569750000   -9.248316288e-01   -6.187090278e-01   -8.473172784e-06   -2.486631274e-06    0.000000000e+00    0.000000000e+00    0.000000000e+00    0.000000000e+00
      577000000   -9.872497916e-01   -5.172951221e-01   -1.214817166e-05   -2.720393240e-05    0.000000000e+00    0.000000000e+00    0.000000000e+00    0.000000000e+00
      584250000   -1.037462592e+00   -4.090937078e-01    5.676411092e-06   -2.207886428e-05    0.000000000e+00    0.000000000e+00    0.000000000e+00    0.000000000e+00
      591500000   -1.073512554e+00   -2.951442599e-01   -9.296461940e-06    3.988668323e-05    0.000000000e+00    0.000000000e+00    0.000000000e+00    0.000000000e+00
      598750000   -1.095795870e+00   -1.759102196e-01    2.085231245e-05    5.934387445e-06    0.000000000e+00    0.000000000e+00    0.000000000e+00    0.000000000e+00
      606000000   -1.103501678e+00   -5.665768310e-02    2.693943679e-05    1.912564039e-05    0.000000000e+00    0.000000000e+00    0.000000000e+00    0.000000000e+00
      613250000   -1.097276568e+00    6.243938580e-02   -1.671630889e-05    1.491047442e-06    0.000000000e+00    0.000000000e+00    0.000000000e+00    0.000000000e+00
      620500000   -1.075524092e+00    1.813258380e-01   -1.610163599e-05   -8.619390428e-06    0.000000000e+00    0.000000000e+00    0.000000000e+00    0.000000000e+00
      627750000   -1.040875316e+00    2.951528132e-01   -5.149468780e-05   -3.875233233e-06    0.000000000e+00    0.000000000e+00    0.000000000e+00    0.000000000e+00
      635000000   -9.920678139e-01    4.021921158e-01   -1.434702426e-05   -4.626717418e-05    0.000000000e+00    0.000000000e+00    0.000000000e+00    0.000000000e+00
      642250000   -9.315655828e-01    5.034176111e-01    1.806486398e-05   -2.302229404e-06    0.000000000e+00    0.000000000e+00    0.000000000e+00    0.000000000e+00
      649500000   -8.607022166e-01    5.939364433e-01    1.002475619e-05    4.918314517e-06    0.000000000e+00    0.000000000e+00    0.000000000e+00    0.000000000e+00
      656750000   -7.794017792e-01    6.763916612e-01   -5.148351192e-06    1.859571785e-05    0.000000000e+00    0.000000000e+00    0.000000000e+00    0.000000000e+00
      664000000   -6.889906526e-01    7.473975420e-01   -2.445839345e-05    3.690831363e-05    0.000000000e+00    0.000000000e+00    0.000000000e+00    0.000000000e+00
      671250000   -5.937703252e-01    8.066406846e-01   -1.577194780e-05   -2.026464790e-05    0.000000000e+00    0.000000000e+00    0.000000000e+00    0.000000000e+00
      678500000   -4.929920137e-01    8.547710776e-01    2.268142998e-05    2.384185791e-06    0.000000000e+00    0.000000000e+00    0.000000000e+00    0.000000000e+00
      685750000   -3.878967464e-01    8.908581138e-01    4.943460226e-06   -3.710016608e-05    0.000000000e+00    0.000000000e+00    0.000000000e+00    0.000000000e+00
      693000000   -2.812263072e-01    9.140663147e-01    1.732725650e-05    1.419521868e-05    0.000000000e+00    0.000000000e+00    0.000000000e+00    0.000000000e+00
      700250000   -1.749494821e-01    9.258439541e-01   -7.778406143e-06   -3.844592720e-05    0.000000000e+00    0.000000000e+00    0.000000000e+00    0.000000000e+00
      707500000   -6.803407520e-02    9.262086153e-01   -1.600850374e-05   -8.065253496e-07    0.000000000e+00    0.000000000e+00    0.000000000e+00    0.000000000e+00
      714750000    3.762419522e-02    9.144271612e-01   -2.960860729e-05   -1.048482955e-05    0.000000000e+00    0.000000000e+00    0.000000000e+00    0.000000000e+00
      722000000    1.376341879e-01    8.931757212e-01    2.889335155e-05    3.207195550e-05    0.000000000e+00    0.000000000e+00    0.000000000e+00    0.000000000e+00
      729250000    2.376465350e-01    8.612579703e-01   -1.604203135e-05   -3.366172314e-05    0.000000000e+00    0.000000000e+00    0.000000000e+00    0.000000000e+00
      736500000    3.297962844e-01    8.212876320e-01    5.780719221e-06   -2.121087164e-05    0.000000000e+00    0.000000000e+00    0.000000000e+00    0.000000000e+00
      743750000    4.180447161e-01    7.714393139e-01   -2.202484757e-05    2.654548734e-05    0.000000000e+00    0.000000000e+00    0.000000000e+00    0.000000000e+00
      751000000    5.018736720e-01    7.132787108e-01   -3.458559513e-05   -1.101754606e-06    0.000000000e+00    0.000000000e+00    0.000000000e+00    0.000000000e+00
      758250000    5.775140524e-01    6.474646926e-01    3.678724170e-07    3.029406071e-05    0.000000000e+00    0.000000000e+00    0.000000000e+00    0.000000000e+00
      765500000    6.467189193e-01    5.739814639e-01    3.808829933e-05    4.638917744e-05    0.000000000e+00    0.000000000e+00    0.000000000e+00    0.000000000e+00
      772750000    7.079633474e-01    4.956814051e-01   -1.719966531e-05    1.757778227e-05    0.000000000e+00    0.000000000e+00    0.000000000e+00    0.000000000e+00
      780000000    7.605662942e-01    4.113449454e-01   -1.741480082e-05   -5.659647286e-06    0.000000000e+00    0.000000000e+00    0.000000000e+00    0.000000000e+00
      787250000    8.067399859e-01    3.200678527e-01    9.462237358e-06   -3.289896995e-05    0.000000000e+00    0.000000000e+00    0.000000000e+00    0.000000000e+00
      794500000    8.433479667e-01    2.264448106e-01   -8.301809430e-06    2.091750503e-06    0.000000000e+00    0.000000000e+00    0.000000000e+00    0.000000000e+00
      801750000    8.701174855e-01    1.271753460e-01   -8.679926395e-06    2.035684884e-05    0.000000000e+00    0.000000000e+00    0.000000000e+00    0.000000000e+00
      809000000    8.865923882e-01    2.654059976e-02    7.566995919e-06    1.459009945e-05    0.000000000e+00    0.000000000e+00    0.000000000e+00    0.000000000e+00
      816250000    8.933414221e-01   -7.662167400e-02   -8.642673492e-07   -8.909031749e-06    0.000000000e+00    0.000000000e+00    0.000000000e+00    0.000000000e+00
      823500000    8.887356520e-01   -1.837631464e-01    3.719702363e-05    5.285255611e-06    0.000000000e+00    0.000000000e+00    0.000000000e+00    0.000000000e+00
      830750000    8.720555902e-01   -2.883654237e-01   -1.102313399e-05    6.376672536e-05    0.000000000e+00    0.000000000e+00    0.000000000e+00    0.000000000e+00
      838000000    8.452458978e-01   -3.930579424e-01   -1.610349864e-05    1.696497202e-05    0.000000000e+00    0.000000000e+00    0.000000000e+00    0.000000000e+00
      845250000    8.057089448e-01   -4.944526553e-01    2.434942871e-05   -3.139767796e-05    0.000000000e+00    0.000000000e+00    0.000000000e+00    0.000000000e+00
      852500000    7.535066605e-01   -5.937019587e-01    9.405426681e-06    1.017190516e-05    0.000000000e+00    0.000000000e+00    0.000000000e+00    0.000000000e+00
      859750000    6.914398074e-01   -6.866644621e-01    3.632903099e-05    3.506056964e-05    0.000000000e+00    0.000000000e+00    0.000000000e+00    0.000000000e+00
      867000000    6.147765517e-01   -7.746643424e-01    3.069452941e-05    2.335198224e-05    0.000000000e+00    0.000000000e+00    0.000000000e+00    0.000000000e+00
      874250000    5.292263627e-01   -8.525937200e-01   -5.281530321e-06   -1.190695912e-05    0.000000000e+00    0.000000000e+00    0.000000000e+00    0.000000000e+00
      881500000    4.303267300e-01   -9.210966229e-01    6.879679859e-06   -3.200490028e-05    0.000000000e+00    0.000000000e+00    0.000000000e+00    0.000000000e+00
      888750000    3.257393539e-01   -9.756345153e-01    3.967992961e-05   -4.931353033e-06    0.000000000e+00    0.000000000e+00    0.000000000e+00    0.000000000e+00
      896000000    2.101492882e-01   -1.018116951e+00    1.316796988e-05    3.089010715e-05    0.000000000e+00    0.000000000e+00    0.000000000e+00    0.000000000e+00
      903250000    9.156037122e-02   -1.045760512e+00    3.498978913e-06    1.602713019e-05    0.000000000e+00    0.000000000e+00    0.000000000e+00    0.000000000e+00
      910500000   -3.555229306e-02   -1.055680275e+00    5.685724318e-06    3.263074905e-05    0.000000000e+00    0.000000000e+00    0.000000000e+00    0.000000000e+00
      917750000   -1.589210182e-01   -1.050301552e+00    3.652554005e-05   -1.305714250e-05    0.000000000e+00    0.000000000e+00    0.000000000e+00    0.000000000e+00
      925000000   -2.816730142e-01   -1.026247978e+00   -1.833308488e-05    1.672562212e-05    0.000000000e+00    0.000000000e+00    0.000000000e+00    0.000000000e+00
      932250000   -4.020861089e-01   -9.863957167e-01   -6.174668670e-06   -9.229406714e-07    0.000000000e+00    0.000000000e+00    0.000000000e+00    0.000000000e+00
      939500000   -5.117046237e-01   -9.313070774e-01   -9.757466614e-06    3.149639815e-05    0.000000000e+00    0.000000000e+00    0.000000000e+00    0.000000000e+00
      946750000   -6.142248511e-01   -8.611909747e-01    6.229616702e-06   -2.411939204e-05    0.000000000e+00    0.000000000e+00    0.000000000e+00    0.000000000e+00
      954000000   -7.051430345e-01   -7.796543837e-01   -5.755573511e-07   -3.257021308e-05    0.000000000e+00    0.000000000e+00    0.000000000e+00    0.000000000e+00
      961250000   -7.810875177e-01   -6.885266304e-01   -2.272706479e-05    7.594004273e-06    0.000000000e+00    0.000000000e+00    0.000000000e+00    0.000000000e+00
      968500000   -8.458510637e-01   -5.871308446e-01   -2.366490662e-06   -1.728814095e-05    0.000000000e+00    0.000000000e+00    0.000000000e+00    0.000000000e+00
      975750000   -8.942933679e-01   -4.830394387e-01    1.663528383e-05    8.063390851e-06    0.000000000e+00    0.000000000e+00    0.000000000e+00    0.000000000e+00
      983000000   -9.291385412e-01   -3.719661534e-01    1.668836921e-05    1.124478877e-05    0.000000000e+00    0.000000000e+00    0.000000000e+00    0.000000000e+00
      990250000   -9.478962421e-01   -2.639128268e-01   -5.104579031e-06   -3.726594150e-05    0.000000000e+00    0.000000000e+00    0.000000000e+00    0.000000000e+00
      997500000   -9.546347260e-01   -1.559828520e-01    6.052665412e-06    1.589022577e-05    0.000000000e+00    0.000000000e+00    0.000000000e+00    0.000000000e+00
     1004750000   -9.476659894e-01   -5.113202333e-02    5.064532161e-06   -2.305582166e-05    0.000000000e+00    0.000000000e+00    0.000000000e+00    0.000000000e+00
     1012000000   -9.294341207e-01    5.177734047e-02    3.133341670e-05   -4.508532584e-06    0.000000000e+00    0.000000000e+00    0.000000000e+00    0.000000000e+00
     1019250000   -9.008942842e-01    1.463030726e-01   -1.665763557e-05    6.019137800e-06    0.000000000e+00    0.000000000e+00    0.000000000e+00    0.000000000e+00
     1026500000   -8.627004623e-01    2.347673625e-01   -2.628844231e-05    2.835504711e-05    0.000000000e+00    0.000000000e+00    0.000000000e+00    0.000000000e+00
     1033750000   -8.158225417e-01    3.193811476e-01    2.002250403e-05   -2.003181726e-05    0.000000000e+00    0.000000000e+00    0.000000000e+00    0.000000000e+00
     1041000000   -7.643243670e-01    3.936699629e-01    1.842342317e-05   -1.404341310e-05    0.000000000e+00    0.000000000e+00    0.000000000e+00    0.000000000e+00
