! NanoVNA-App
! Date: 2024-06-25 16:11:11
! Start: 200MHz Stop: 6GHz Points: 801
! S-Parameter data: F S11 S21 S12 S22
# Hz S RI R 50
!     Frequency           S11_Real           S11_Imag           S21_Real           S21_Imag           S12_Real           S12_Imag           S22_Real           S22_Imag
      200000000   -9.986201525e-01   -1.185665131e-01   -2.699717879e-05    6.958842278e-06    0.000000000e+00    0.000000000e+00    0.000000000e+00    0.000000000e+00
      207250000   -1.010154724e+00   -1.936198957e-02   -5.853362381e-06    1.039449126e-05    0.000000000e+00    0.000000000e+00    0.000000000e+00    0.000000000e+00
      214500000   -1.011746645e+00    8.131455630e-02    1.260638237e-05   -1.171696931e-05    0.000000000e+00    0.000000000e+00    0.000000000e+00    0.000000000e+00
      221750000   -1.003241658e+00    1.843380779e-01    1.782085747e-05    2.107769251e-05    0.000000000e+00    0.000000000e+00    0.000000000e+00    0.000000000e+00
      229000000   -9.825637341e-01    2.874163985e-01   -6.296671927e-06    2.977438271e-05    0.000000000e+00    0.000000000e+00    0.000000000e+00    0.000000000e+00
      236250000   -9.506374002e-01    3.904826045e-01    1.550186425e-05    1.080892980e-05    0.000000000e+00    0.000000000e+00    0.000000000e+00    0.000000000e+00
      243500000   -9.076232910e-01    4.899851978e-01    1.495424658e-05    2.805516124e-05    0.000000000e+00    0.000000000e+00    0.000000000e+00    0.000000000e+00
      250750000   -8.516473174e-01    5.871003866e-01   -1.683738083e-05   -1.709628850e-05    0.000000000e+00    0.000000000e+00    0.000000000e+00    0.000000000e+00
      258000000   -7.845499516e-01    6.780934334e-01    6.378628314e-06    6.532296538e-06    0.000000000e+00    0.000000000e+00    0.000000000e+00    0.000000000e+00
      265250000   -7.045034766e-01    7.621645927e-01    3.189779818e-06   -2.332776785e-05    0.000000000e+00    0.000000000e+00    0.000000000e+00    0.000000000e+00
      272500000   -6.144791245e-01    8.375400901e-01    2.728682011e-05   -2.291053534e-06    0.000000000e+00    0.000000000e+00    0.000000000e+00    0.000000000e+00
      279750000   -5.125176311e-01    9.017237425e-01   -5.533359945e-05    1.821387559e-05    0.000000000e+00    0.000000000e+00    0.000000000e+00    0.000000000e+00
      287000000   -4.024455845e-01    9.540559649e-01   -6.379559636e-06   -1.357123256e-05    0.000000000e+00    0.000000000e+00    0.000000000e+00    0.000000000e+00
      294250000   -2.856095731e-01    9.924780130e-01    6.885267794e-06   -7.468275726e-06    0.000000000e+00    0.000000000e+00    0.000000000e+00    0.000000000e+00
      301500000   -1.635405570e-01    1.016477108e+00   -1.551583409e-05   -6.857328117e-05    0.000000000e+00    0.000000000e+00    0.000000000e+00    0.000000000e+00
      308750000   -3.783434629e-02    1.023501515e+00   -1.566205174e-05    1.252628863e-06    0.000000000e+00    0.000000000e+00    0.000000000e+00    0.000000000e+00
      316000000    8.831416816e-02    1.015186310e+00   -9.072013199e-06   -4.335865378e-05    0.000000000e+00    0.000000000e+00    0.000000000e+00    0.000000000e+00
      323250000    2.126840204e-01    9.901707768e-01    5.939975381e-06    1.945532858e-06    0.000000000e+00    0.000000000e+00    0.000000000e+00    0.000000000e+00
      330500000    3.327303827e-01    9.495212436e-01   -1.895148307e-05    9.833835065e-06    0.000000000e+00    0.000000000e+00    0.000000000e+00    0.000000000e+00
      337750000    4.466616511e-01    8.937771916e-01   -3.803987056e-05    1.070741564e-05    0.000000000e+00    0.000000000e+00    0.000000000e+00    0.000000000e+00
      345000000    5.518268943e-01    8.240971565e-01   -2.759788185e-05    3.690458834e-05    0.000000000e+00    0.000000000e+00    0.000000000e+00    0.000000000e+00
      352250000    6.477842927e-01    7.431274652e-01    1.014210284e-06   -3.376044333e-06    0.000000000e+00    0.000000000e+00    0.000000000e+00    0.000000000e+00
      359500000    7.311790586e-01    6.500709057e-01    9.573996067e-07    8.595176041e-06    0.000000000e+00    0.000000000e+00    0.000000000e+00    0.000000000e+00
      366750000    8.025793433e-01    5.492743254e-01    3.225170076e-06    1.892074943e-05    0.000000000e+00    0.000000000e+00    0.000000000e+00    0.000000000e+00
      374000000    8.604754210e-01    4.420624673e-01    2.564955503e-05   -3.429409117e-05    0.000000000e+00    0.000000000e+00    0.000000000e+00    0.000000000e+00
      381250000    9.045200944e-01    3.277263939e-01   -6.561167538e-06    2.613104880e-05    0.000000000e+00    0.000000000e+00    0.000000000e+00    0.000000000e+00
      388500000    9.350111485e-01    2.120503634e-01    7.783994079e-06   -1.339521259e-05    0.000000000e+00    0.000000000e+00    0.000000000e+00    0.000000000e+00
      395750000    9.509877563e-01    9.531862289e-02   -6.576068699e-06   -1.869630069e-05    0.000000000e+00    0.000000000e+00    0.000000000e+00    0.000000000e+00
      403000000    9.543378353e-01   -2.165919729e-02   -3.718771040e-06   -1.057051122e-06    0.000000000e+00    0.000000000e+00    0.000000000e+00    0.000000000e+00
      410250000    9.448235631e-01   -1.372754276e-01    4.734843969e-05   -2.321694046e-05    0.000000000e+00    0.000000000e+00    0.000000000e+00    0.000000000e+00
      417500000    9.227364659e-01   -2.491787374e-01    2.471730113e-06   -6.047077477e-06    0.000000000e+00    0.000000000e+00    0.000000000e+00    0.000000000e+00
      424750000    8.892449737e-01   -3.577430844e-01   -1.848954707e-05   -3.256835043e-06    0.000000000e+00    0.000000000e+00    0.000000000e+00    0.000000000e+00
      432000000    8.437051177e-01   -4.608301818e-01   -2.791080624e-05   -1.496728510e-05    0.000000000e+00    0.000000000e+00    0.000000000e+00    0.000000000e+00
      439250000    7.894771099e-01   -5.578259826e-01   -8.089467883e-06   -1.172069460e-05    0.000000000e+00    0.000000000e+00    0.000000000e+00    0.000000000e+00
      446500000    7.247840762e-01   -6.479385495e-01   -4.799105227e-06   -9.805895388e-06    0.000000000e+00    0.000000000e+00    0.000000000e+00    0.000000000e+00
      453750000    6.509506106e-01   -7.303435802e-01   -5.067139864e-05   -9.577721357e-06    0.000000000e+00    0.000000000e+00    0.000000000e+00    0.000000000e+00
      461000000    5.707560778e-01   -8.036937714e-01   -1.158472151e-05    1.421011984e-05    0.000000000e+00    0.000000000e+00    0.000000000e+00    0.000000000e+00
      468250000    4.830049276e-01   -8.691511154e-01   -1.460406929e-05    4.921481013e-05    0.000000000e+00    0.000000000e+00    0.000000000e+00    0.000000000e+00
      475500000    3.883883655e-01   -9.253837466e-01   -2.008583397e-05   -2.067536116e-07    0.000000000e+00    0.000000000e+00    0.000000000e+00    0.000000000e+00
      482750000    2.890676856e-01   -9.706666470e-01    1.758337021e-05   -4.335958511e-05    0.000000000e+00    0.000000000e+00    0.000000000e+00    0.000000000e+00
      490000000    1.857545525e-01   -1.006128430e+00    1.365318894e-05   -1.206062734e-06    0.000000000e+00    0.000000000e+00    0.000000000e+00    0.000000000e+00
      497250000    7.774708420e-02   -1.030197501e+00   -1.751817763e-05    7.181428373e-06    0.000000000e+00    0.000000000e+00    0.000000000e+00    0.000000000e+00
      504500000   -3.202301636e-02   -1.043188453e+00    3.087427467e-05   -3.081653267e-05    0.000000000e+00    0.000000000e+00    0.000000000e+00    0.000000000e+00
      511750000   -1.435861290e-01   -1.044014692e+00    3.723800182e-05    4.072859883e-05    0.000000000e+00    0.000000000e+00    0.000000000e+00    0.000000000e+00
      519000000   -2.551728487e-01   -1.033055186e+00   -1.790188253e-05    1.316796988e-05    0.000000000e+00    0.000000000e+00    0.000000000e+00    0.000000000e+00
      526250000   -3.656421006e-01   -1.008992672e+00   -3.671273589e-06   -1.312792301e-05    0.000000000e+00    0.000000000e+00    0.000000000e+00    0.000000000e+00
      533500000   -4.732512236e-01   -9.734148979e-01    3.359187394e-05    1.485180110e-05    0.000000000e+00    0.000000000e+00    0.000000000e+00    0.000000000e+00
      540750000   -5.778399110e-01   -9.252715111e-01   -4.016142339e-05   -2.753175795e-05    0.000000000e+00    0.000000000e+00    0.000000000e+00    0.000000000e+00
      548000000   -6.764660478e-01   -8.648476005e-01   -2.814456820e-06    1.323129982e-05    0.000000000e+00    0.000000000e+00    0.000000000e+00    0.000000000e+00
      555250000   -7.678811550e-01   -7.924618125e-01   -6.143003702e-06   -1.015607268e-05    0.000000000e+00    0.000000000e+00    0.000000000e+00    0.000000000e+00
      562500000   -8.515122533e-01   -7.105629444e-01   -3.345310688e-06    3.053341061e-05    0.000000000e+00    0.000000000e+00    0.000000000e+00    0.000000000e+00
      569750000   -9.245603681e-01   -6.179642081e-01    2.550799400e-05   -1.450069249e-05    0.000000000e+00    0.000000000e+00    0.000000000e+00    0.000000000e+00
      577000000   -9.871023297e-01   -5.174861550e-01   -4.028901458e-06    3.349874169e-05    0.000000000e+00    0.000000000e+00    0.000000000e+00    0.000000000e+00
      584250000   -1.036577582e+00   -4.093054235e-01    1.404993236e-05    4.257727414e-05    0.000000000e+00    0.000000000e+00    0.000000000e+00    0.000000000e+00
      591500000   -1.072673559e+00   -2.946830094e-01   -8.072704077e-06    2.673827112e-06    0.000000000e+00    0.000000000e+00    0.000000000e+00    0.000000000e+00
      598750000   -1.095851421e+00   -1.761647314e-01   -4.304945469e-05    1.559592783e-05    0.000000000e+00    0.000000000e+00    0.000000000e+00    0.000000000e+00
      606000000   -1.103414416e+00   -5.679665878e-02    1.501198858e-05   -5.285255611e-06    0.000000000e+00    0.000000000e+00    0.000000000e+00    0.000000000e+00
      613250000   -1.096704721e+00    6.234037504e-02    1.562852412e-05    2.249982208e-05    0.000000000e+00    0.000000000e+00    0.000000000e+00    0.000000000e+00
      620500000   -1.076489568e+00    1.793322861e-01   -3.361608833e-05    7.105059922e-06    0.000000000e+00    0.000000000e+00    0.000000000e+00    0.000000000e+00
      627750000   -1.040146232e+00    2.947822213e-01    6.007030606e-07    1.044012606e-05    0.000000000e+00    0.000000000e+00    0.000000000e+00    0.000000000e+00
      635000000   -9.922018051e-01    4.022218883e-01    8.979812264e-06    1.320615411e-05    0.000000000e+00    0.000000000e+00    0.000000000e+00    0.000000000e+00
      642250000   -9.311482310e-01    5.039271712e-01    1.946929842e-05    2.678297460e-05    0.000000000e+00    0.000000000e+00    0.000000000e+00    0.000000000e+00
      649500000   -8.597104549e-01    5.948886275e-01   -1.365412027e-05   -4.106201231e-06    0.000000000e+00    0.000000000e+00    0.000000000e+00    0.000000000e+00
      656750000   -7.787882686e-01    6.766486168e-01   -1.363083720e-05   -6.044283509e-06    0.000000000e+00    0.000000000e+00    0.000000000e+00    0.000000000e+00
      664000000   -6.893080473e-01    7.476452589e-01    2.702977508e-05   -3.524590284e-05    0.000000000e+00    0.000000000e+00    0.000000000e+00    0.000000000e+00
      671250000   -5.941739082e-01    8.068100810e-01    3.332272172e-05    3.152713180e-05    0.000000000e+00    0.000000000e+00    0.000000000e+00    0.000000000e+00
      678500000   -4.935651720e-01    8.550684452e-01    1.298077404e-05    1.993868500e-05    0.000000000e+00    0.000000000e+00    0.000000000e+00    0.000000000e+00
      685750000   -3.883924782e-01    8.900850415e-01   -2.672243863e-05   -2.041552216e-05    0.000000000e+00    0.000000000e+00    0.000000000e+00    0.000000000e+00
      693000000   -2.822681367e-01    9.139981270e-01   -1.028086990e-05    2.888403833e-05    0.000000000e+00    0.000000000e+00    0.000000000e+00    0.000000000e+00
      700250000   -1.738434285e-01    9.255831242e-01    1.088343561e-05   -7.441267371e-07    0.000000000e+00    0.000000000e+00    0.000000000e+00    0.000000000e+00
      707500000   -6.779681891e-02    9.260392785e-01    5.168840289e-07   -1.836474985e-05    0.000000000e+00    0.000000000e+00    0.000000000e+00    0.000000000e+00
      714750000    3.661164641e-02    9.146779180e-01    1.081638038e-05    1.644715667e-06    0.000000000e+00    0.000000000e+00    0.000000000e+00    0.000000000e+00
      722000000    1.388810277e-01    8.933172822e-01   -3.859121352e-05   -2.791173756e-06    0.000000000e+00    0.000000000e+00    0.000000000e+00    0.000000000e+00
      729250000    2.368425876e-01    8.616231680e-01   -9.800307453e-06   -2.263113856e-05    0.000000000e+00    0.000000000e+00    0.000000000e+00    0.000000000e+00
      736500000    3.305283785e-01    8.209865093e-01    2.515502274e-05    3.922730684e-06    0.000000000e+00    0.000000000e+00    0.000000000e+00    0.000000000e+00
      743750000    4.186460972e-01    7.713620067e-01    2.115592360e-05   -4.087761045e-05    0.000000000e+00    0.000000000e+00    0.000000000e+00    0.000000000e+00
      751000000    5.009039044e-01    7.134031653e-01   -4.526507109e-05   -1.317914575e-05    0.000000000e+00    0.000000000e+00    0.000000000e+00    0.000000000e+00
      758250000    5.772468448e-01    6.484279037e-01    4.831887782e-05    1.003034413e-06    0.000000000e+00    0.000000000e+00    0.000000000e+00    0.000000000e+00
      765500000    6.457928419e-01    5.761153698e-01   -6.405636668e-06    4.477892071e-05    0.000000000e+00    0.000000000e+00    0.000000000e+00    0.000000000e+00
      772750000    7.082782984e-01    4.954539239e-01   -2.612266690e-05   -3.955885768e-05    0.000000000e+00    0.000000000e+00    0.000000000e+00    0.000000000e+00
      780000000    7.607673407e-01    4.118458927e-01    5.289912224e-07   -1.263990998e-05    0.000000000e+00    0.000000000e+00    0.000000000e+00    0.000000000e+00
      787250000    8.070984483e-01    3.192366064e-01    4.243198782e-05    1.248251647e-05    0.000000000e+00    0.000000000e+00    0.000000000e+00    0.000000000e+00
      794500000    8.428512812e-01    2.268177569e-01   -2.327747643e-05    6.499327719e-05    0.000000000e+00    0.000000000e+00    0.000000000e+00    0.000000000e+00
      801750000    8.698684573e-01    1.274699718e-01   -3.038905561e-06   -1.896917820e-05    0.000000000e+00    0.000000000e+00    0.000000000e+00    0.000000000e+00
      809000000    8.869379163e-01    2.660363540e-02    1.567602158e-05    6.787478924e-06    0.000000000e+00    0.000000000e+00    0.000000000e+00    0.000000000e+00
      816250000    8.928949237e-01   -7.841084898e-02   -4.249066114e-05    1.622736454e-05    0.000000000e+00    0.000000000e+00    0.000000000e+00    0.000000000e+00
      823500000    8.884297013e-01   -1.835688651e-01    4.077609628e-05   -1.765787601e-06    0.000000000e+00    0.000000000e+00    0.000000000e+00    0.000000000e+00
      830750000    8.721197248e-01   -2.885847390e-01   -2.775341272e-05    4.218891263e-06    0.000000000e+00    0.000000000e+00    0.000000000e+00    0.000000000e+00
      838000000    8.456544876e-01   -3.920833170e-01   -1.220032573e-07    1.306366175e-05    0.000000000e+00    0.000000000e+00    0.000000000e+00    0.000000000e+00
      845250000    8.066914082e-01   -4.941579998e-01    1.363456249e-06    1.005735248e-05    0.000000000e+00    0.000000000e+00    0.000000000e+00    0.000000000e+00
      852500000    7.540187836e-01   -5.938858986e-01   -3.246590495e-05    1.987628639e-05    0.000000000e+00    0.000000000e+00    0.000000000e+00    0.000000000e+00
      859750000    6.914703250e-01   -6.861421466e-01    1.222174615e-05    4.676263779e-05    0.000000000e+00    0.000000000e+00    0.000000000e+00    0.000000000e+00
      867000000    6.144783497e-01   -7.748416066e-01   -1.466181129e-05   -2.423860133e-05    0.000000000e+00    0.000000000e+00    0.000000000e+00    0.000000000e+00
      874250000    5.294944644e-01   -8.521019220e-01    3.585591912e-05    3.798212856e-05    0.000000000e+00    0.000000000e+00    0.000000000e+00    0.000000000e+00
      881500000    4.302689731e-01   -9.208463430e-01   -5.224533379e-05   -5.986541510e-06    0.000000000e+00    0.000000000e+00    0.000000000e+00    0.000000000e+00
      888750000    3.249718249e-01   -9.759354591e-01   -9.409151971e-06   -2.631824464e-05    0.000000000e+00    0.000000000e+00    0.000000000e+00    0.000000000e+00
      896000000    2.093277127e-01   -1.018156528e+00   -1.083128154e-05   -1.506228000e-05    0.000000000e+00    0.000000000e+00    0.000000000e+00    0.000000000e+00
      903250000    9.077989310e-02   -1.044743180e+00    2.790987492e-05   -4.689209163e-06    0.000000000e+00    0.000000000e+00    0.000000000e+00    0.000000000e+00
      910500000   -3.514509648e-02   -1.055881381e+00   -3.248732537e-05   -7.636845112e-06    0.000000000e+00    0.000000000e+00    0.000000000e+00    0.000000000e+00
      917750000   -1.584066749e-01   -1.049667239e+00    1.014024019e-05   -7.309019566e-06    0.000000000e+00    0.000000000e+00    0.000000000e+00    0.000000000e+00
      925000000   -2.810381651e-01   -1.026581407e+00   -2.734083682e-05    4.043057561e-05    0.000000000e+00    0.000000000e+00    0.000000000e+00    0.000000000e+00
      932250000   -4.024152756e-01   -9.861397147e-01   -2.566725016e-06    7.958151400e-06    0.000000000e+00    0.000000000e+00    0.000000000e+00    0.000000000e+00
      939500000   -5.123007298e-01   -9.312291741e-01    1.573562622e-05   -3.331713378e-05    0.000000000e+00    0.000000000e+00    0.000000000e+00    0.000000000e+00
      946750000   -6.136532426e-01   -8.615235686e-01    8.909031749e-06   -6.253831089e-06    0.000000000e+00    0.000000000e+00    0.000000000e+00    0.000000000e+00
      954000000   -7.048087120e-01   -7.787267566e-01    3.857631236e-05   -4.153698683e-07    0.000000000e+00    0.000000000e+00    0.000000000e+00    0.000000000e+00
      961250000   -7.814515233e-01   -6.887156963e-01    4.049483687e-05   -2.177525312e-05    0.000000000e+00    0.000000000e+00    0.000000000e+00    0.000000000e+00
      968500000   -8.454648256e-01   -5.871238708e-01    2.414546907e-05    1.535471529e-05    0.000000000e+00    0.000000000e+00    0.000000000e+00    0.000000000e+00
      975750000   -8.944890499e-01   -4.822848439e-01    3.181397915e-06    2.475455403e-06    0.000000000e+00    0.000000000e+00    0.000000000e+00    0.000000000e+00
      983000000   -9.291964173e-01   -3.728134632e-01    1.030601561e-05    7.165782154e-05    0.000000000e+00    0.000000000e+00    0.000000000e+00    0.000000000e+00
      990250000   -9.487847090e-01   -2.644276321e-01    1.653470099e-05   -5.634501576e-07    0.000000000e+00    0.000000000e+00    0.000000000e+00    0.000000000e+00
      997500000   -9.543793797e-01   -1.551228464e-01    2.025905997e-05    7.739290595e-06    0.000000000e+00    0.000000000e+00    0.000000000e+00    0.000000000e+00
     1004750000   -9.479452968e-01   -5.042250827e-02   -5.755573511e-06    1.013372093e-05    0.000000000e+00    0.000000000e+00    0.000000000e+00    0.000000000e+00
     1012000000   -9.291079640e-01    5.094457790e-02   -1.741293818e-05   -2.771336585e-05    0.000000000e+00    0.000000000e+00    0.000000000e+00    0.000000000e+00
     1019250000   -9.008967280e-01    1.461192071e-01   -3.167148679e-05   -3.816094249e-05    0.000000000e+00    0.000000000e+00    0.000000000e+00    0.000000000e+00
     1026500000   -8.625525236e-01    2.364386320e-01   -9.686686099e-06   -3.344658762e-05    0.000000000e+00    0.000000000e+00    0.000000000e+00    0.000000000e+00
     1033750000   -8.165106773e-01    3.183364272e-01   -5.659647286e-06   -4.121474922e-05    0.000000000e+00    0.000000000e+00    0.000000000e+00    0.000000000e+00
     1041000000   -7.637279630e-01    3.941435814e-01   -2.312939614e-05    1.725275069e-05    0.000000000e+00    0.000000000e+00    0.000000000e+00    0.000000000e+00
