! NanoVNA-App
! Date: 2024-06-25 16:11:14
! Start: 200MHz Stop: 6GHz Points: 801
! S-Parameter data: F S11 S21 S12 S22
# Hz S RI R 50
!     Frequency           S11_Real           S11_Imag           S21_Real           S21_Imag           S12_Real           S12_Imag           S22_Real           S22_Imag
      200000000   -9.982515574e-01   -1.187204346e-01   -7.306225598e-06   -3.039836884e-05    0.000000000e+00    0.000000000e+00    0.000000000e+00    0.000000000e+00
      207250000   -1.010009885e+00   -1.956817694e-02    3.341492265e-05   -1.269951463e-05    0.000000000e+00    0.000000000e+00    0.000000000e+00    0.000000000e+00
      214500000   -1.011598587e+00    8.183605969e-02   -3.136601299e-05    1.764949411e-05    0.000000000e+00    0.000000000e+00    0.000000000e+00    0.000000000e+00
      221750000   -1.002874732e+00    1.847007722e-01   -2.581533045e-05   -9.809620678e-06    0.000000000e+00    0.000000000e+00    0.000000000e+00    0.000000000e+00
      229000000   -9.834267497e-01    2.872403264e-01    1.284014434e-05   -1.028925180e-05    0.000000000e+00    0.000000000e+00    0.000000000e+00    0.000000000e+00
      236250000   -9.515197873e-01    3.901411891e-01    1.643691212e-05    3.725197166e-05    0.000000000e+00    0.000000000e+00    0.000000000e+00    0.000000000e+00
      243500000   -9.074411988e-01    4.898566306e-01    6.255693734e-06   -1.298543066e-05    0.000000000e+00    0.000000000e+00    0.000000000e+00    0.000000000e+00
      250750000   -8.514606953e-01    5.873138309e-01   -2.264231443e-05    2.144649625e-05    0.000000000e+00    0.000000000e+00    0.000000000e+00    0.000000000e+00
      258000000   -7.836461663e-01    6.777485609e-01   -3.266986459e-05    1.862645149e-06    0.000000000e+00    0.000000000e+00    0.000000000e+00    0.000000000e+00
      265250000   -7.040586472e-01    7.618830800e-01   -2.384744585e-05   -8.707866073e-07    0.000000000e+00    0.000000000e+00    0.000000000e+00    0.000000000e+00
      272500000   -6.135681868e-01    8.372682929e-01   -1.011416316e-06   -1.259148121e-05    0.000000000e+00    0.000000000e+00    0.000000000e+00    0.000000000e+00
      279750000   -5.131962299e-01    9.016959071e-01   -6.480142474e-06    2.220459282e-05    0.000000000e+00    0.000000000e+00    0.000000000e+00    0.000000000e+00
      287000000   -4.024688303e-01    9.542053342e-01   -1.643318683e-05   -3.388989717e-05    0.000000000e+00    0.000000000e+00    0.000000000e+00    0.000000000e+00
      294250000   -2.855990529e-01    9.924456477e-01    1.895427704e-05   -1.398008317e-05    0.000000000e+00    0.000000000e+00    0.000000000e+00    0.000000000e+00
      301500000   -1.638821512e-01    1.015781641e+00   -8.315779269e-06   -5.188398063e-06    0.000000000e+00    0.000000000e+00    0.000000000e+00    0.000000000e+00
      308750000   -3.788161650e-02    1.024114251e+00    9.677372873e-06   -1.182314008e-05    0.000000000e+00    0.000000000e+00    0.000000000e+00    0.000000000e+00
      316000000    8.812656254e-02    1.015221357e+00    2.462323755e-05    1.318473369e-05    0.000000000e+00    0.000000000e+00    0.000000000e+00    0.000000000e+00
      323250000    2.128851563e-01    9.908290505e-01    1.828745008e-05   -3.403797746e-05    0.000000000e+00    0.000000000e+00    0.000000000e+00    0.000000000e+00
      330500000    3.332329690e-01    9.498602152e-01   -1.758243889e-05    3.780703992e-05    0.000000000e+00    0.000000000e+00    0.000000000e+00    0.000000000e+00
      337750000    4.468055665e-01    8.937981129e-01    8.793547750e-06   -4.614051431e-05    0.000000000e+00    0.000000000e+00    0.000000000e+00    0.000000000e+00
      345000000    5.519586205e-01    8.239153624e-01   -6.692484021e-06    2.851616591e-05    0.000000000e+00    0.000000000e+00    0.000000000e+00    0.000000000e+00
      352250000    6.474193335e-01    7.423644662e-01    2.467725426e-05   -3.478489816e-06    0.000000000e+00    0.000000000e+00    0.000000000e+00    0.000000000e+00
      359500000    7.313301563e-01    6.498408318e-01   -8.889473975e-06   -1.346785575e-05    0.000000000e+00    0.000000000e+00    0.000000000e+00    0.000000000e+00
      366750000    8.026728034e-01    5.492134690e-01   -3.161747009e-05   -2.090819180e-06    0.000000000e+00    0.000000000e+00    0.000000000e+00    0.000000000e+00
      374000000    8.605726957e-01    4.418144226e-01   -1.863576472e-05    3.481376916e-05    0.000000000e+00    0.000000000e+00    0.000000000e+00    0.000000000e+00
      381250000    9.045011997e-01    3.276064694e-01    1.830980182e-06    1.818872988e-05    0.000000000e+00    0.000000000e+00    0.000000000e+00    0.000000000e+00
      388500000    9.353000522e-01    2.128834575e-01   -5.550682545e-07   -5.643814802e-07    0.000000000e+00    0.000000000e+00    0.000000000e+00    0.000000000e+00
      395750000    9.509100318e-01    9.584175795e-02    4.175212234e-05    5.827285349e-06    0.000000000e+00    0.000000000e+00    0.000000000e+00    0.000000000e+00
      403000000    9.544292092e-01   -2.166785300e-02   -7.085502148e-06    4.171580076e-05    0.000000000e+00    0.000000000e+00    0.000000000e+00    0.000000000e+00
      410250000    9.449616671e-01   -1.368242204e-01    6.775371730e-06   -3.320537508e-05    0.000000000e+00    0.000000000e+00    0.000000000e+00    0.000000000e+00
      417500000    9.224344492e-01   -2.495028675e-01   -5.668960512e-06    1.691281796e-06    0.000000000e+00    0.000000000e+00    0.000000000e+00    0.000000000e+00
      424750000    8.890178800e-01   -3.583923876e-01   -4.398263991e-05    6.563961506e-06    0.000000000e+00    0.000000000e+00    0.000000000e+00    0.000000000e+00
      432000000    8.433073163e-01   -4.606706798e-01   -2.655666322e-05    3.519654274e-05    0.000000000e+00    0.000000000e+00    0.000000000e+00    0.000000000e+00
      439250000    7.891882658e-01   -5.577333570e-01    2.076011151e-05   -8.099712431e-06    0.000000000e+00    0.000000000e+00    0.000000000e+00    0.000000000e+00
      446500000    7.249143720e-01   -6.474680901e-01   -5.429610610e-06    2.229586244e-05    0.000000000e+00    0.000000000e+00    0.000000000e+00    0.000000000e+00
      453750000    6.517842412e-01   -7.306857109e-01   -5.748122931e-06    1.371745020e-05    0.000000000e+00    0.000000000e+00    0.000000000e+00    0.000000000e+00
      461000000    5.708435178e-01   -8.044628501e-01    8.653849363e-06    8.468516171e-06    0.000000000e+00    0.000000000e+00    0.000000000e+00    0.000000000e+00
      468250000    4.834524691e-01   -8.692311645e-01   -2.317316830e-05   -3.164447844e-05    0.000000000e+00    0.000000000e+00    0.000000000e+00    0.000000000e+00
      475500000    3.882199228e-01   -9.252797961e-01   -3.984570503e-05    1.118518412e-05    0.000000000e+00    0.000000000e+00    0.000000000e+00    0.000000000e+00
      482750000    2.891809344e-01   -9.705894589e-01   -1.610908657e-05    1.098960638e-06    0.000000000e+00    0.000000000e+00    0.000000000e+00    0.000000000e+00
      490000000    1.850773543e-01   -1.005998611e+00    2.635270357e-05    1.940410584e-05    0.000000000e+00    0.000000000e+00    0.000000000e+00    0.000000000e+00
      497250000    7.801971585e-02   -1.030362487e+00   -1.760572195e-05    1.699384302e-05    0.000000000e+00    0.000000000e+00    0.000000000e+00    0.000000000e+00
      504500000   -3.138953447e-02   -1.043466330e+00    7.877126336e-06    1.764018089e-05    0.000000000e+00    0.000000000e+00    0.000000000e+00    0.000000000e+00
      511750000   -1.431829333e-01   -1.044397473e+00    2.284906805e-05    1.149810851e-05    0.000000000e+00    0.000000000e+00    0.000000000e+00    0.000000000e+00
      519000000   -2.551285028e-01   -1.033473015e+00    1.577660441e-06    1.034606248e-05    0.000000000e+00    0.000000000e+00    0.000000000e+00    0.000000000e+00
      526250000   -3.651470840e-01   -1.009132862e+00   -6.074178964e-05   -2.155266702e-05    0.000000000e+00    0.000000000e+00    0.000000000e+00    0.000000000e+00
      533500000   -4.732969999e-01   -9.740367532e-01    2.048909664e-06   -9.188428521e-06    0.000000000e+00    0.000000000e+00    0.000000000e+00    0.000000000e+00
      540750000   -5.776087642e-01   -9.253566265e-01   -1.119263470e-05    2.172030509e-05    0.000000000e+00    0.000000000e+00    0.000000000e+00    0.000000000e+00
      548000000   -6.765443087e-01   -8.644275665e-01    1.787859946e-05   -1.380778849e-05    0.000000000e+00    0.000000000e+00    0.000000000e+00    0.000000000e+00
      555250000   -7.678743005e-01   -7.924703360e-01   -1.058261842e-05   -1.023616642e-05    0.000000000e+00    0.000000000e+00    0.000000000e+00    0.000000000e+00
      562500000   -8.511528373e-01   -7.108740807e-01   -2.921558917e-05    2.340134233e-05    0.000000000e+00    0.000000000e+00    0.000000000e+00    0.000000000e+00
      569750000   -9.242913723e-01   -6.188720465e-01   -3.044493496e-06   -3.734603524e-05    0.000000000e+00    0.000000000e+00    0.000000000e+00    0.000000000e+00
      577000000   -9.870247245e-01   -5.162637234e-01   -2.610217780e-05   -2.863164991e-05    0.000000000e+00    0.000000000e+00    0.000000000e+00    0.000000000e+00
      584250000   -1.036143661e+00   -4.095174670e-01    4.591979086e-05   -6.631016731e-07    0.000000000e+00    0.000000000e+00    0.000000000e+00    0.000000000e+00
      591500000   -1.072744370e+00   -2.945569456e-01    7.553026080e-07   -2.549029887e-06    0.000000000e+00    0.000000000e+00    0.000000000e+00    0.000000000e+00
      598750000   -1.095762253e+00   -1.753042638e-01    3.850646317e-05   -5.739741027e-06    0.000000000e+00    0.000000000e+00    0.000000000e+00    0.000000000e+00
      606000000   -1.103464842e+00   -5.765654892e-02   -9.704381227e-07   -2.167839557e-05    0.000000000e+00    0.000000000e+00    0.000000000e+00    0.000000000e+00
      613250000   -1.096831322e+00    6.261468679e-02    3.724358976e-05    1.536775380e-05    0.000000000e+00    0.000000000e+00    0.000000000e+00    0.000000000e+00
      620500000   -1.075920939e+00    1.803041399e-01    3.245100379e-05   -2.572033554e-05    0.000000000e+00    0.000000000e+00    0.000000000e+00    0.000000000e+00
      627750000   -1.040614486e+00    2.948201299e-01   -3.596302122e-05   -1.630932093e-05    0.000000000e+00    0.000000000e+00    0.000000000e+00    0.000000000e+00
      635000000   -9.925948977e-01    4.016006589e-01    3.927573562e-05    9.793788195e-06    0.000000000e+00    0.000000000e+00    0.000000000e+00    0.000000000e+00
      642250000   -9.312362671e-01    5.038396716e-01    9.220093489e-07    4.615634680e-06    0.000000000e+00    0.000000000e+00    0.000000000e+00    0.000000000e+00
      649500000   -8.598980308e-01    5.943844318e-01    4.264526069e-06    3.206636757e-05    0.000000000e+00    0.000000000e+00    0.000000000e+00    0.000000000e+00
      656750000   -7.787101269e-01    6.759979725e-01   -3.016646951e-05    8.798204362e-06    0.000000000e+00    0.000000000e+00    0.000000000e+00    0.000000000e+00
      664000000   -6.898953319e-01    7.481436729e-01    2.506840974e-05   -1.513119787e-05    0.000000000e+00    0.000000000e+00    0.000000000e+00    0.000000000e+00
      671250000   -5.944209695e-01    8.075938821e-01    2.251937985e-05   -3.296881914e-06    0.000000000e+00    0.000000000e+00    0.000000000e+00    0.000000000e+00
      678500000   -4.927462339e-01    8.550220728e-01    9.709037840e-06   -1.337286085e-05    0.000000000e+00    0.000000000e+00    0.000000000e+00    0.000000000e+00
      685750000   -3.880676925e-01    8.901165128e-01   -1.601874828e-06   -4.609115422e-06    0.000000000e+00    0.000000000e+00    0.000000000e+00    0.000000000e+00
      693000000   -2.829482555e-01    9.137924910e-01    1.174490899e-05    6.980262697e-06    0.000000000e+00    0.000000000e+00    0.000000000e+00    0.000000000e+00
      700250000   -1.746171564e-01    9.258287549e-01    2.634059638e-05    1.640059054e-06    0.000000000e+00    0.000000000e+00    0.000000000e+00    0.000000000e+00
      707500000   -6.791937351e-02    9.255791903e-01   -2.295617014e-05    3.180373460e-05    0.000000000e+00    0.000000000e+00    0.000000000e+00    0.000000000e+00
      714750000    3.755357489e-02    9.145646095e-01    3.566592932e-05    1.174584031e-05    0.000000000e+00    0.000000000e+00    0.000000000e+00    0.000000000e+00
      722000000    1.373448968e-01    8.934673667e-01    1.128762960e-06   -2.911034971e-05    0.000000000e+00    0.000000000e+00    0.000000000e+00    0.000000000e+00
      729250000    2.372763157e-01    8.617767692e-01   -8.316710591e-06   -2.347957343e-05    0.000000000e+00    0.000000000e+00    0.000000000e+00    0.000000000e+00
      736500000    3.298743963e-01    8.209358454e-01    8.353032172e-06    2.813991159e-05    0.000000000e+00    0.000000000e+00    0.000000000e+00    0.000000000e+00
      743750000    4.181906283e-01    7.717403769e-01   -2.177804708e-05    8.402392268e-06    0.000000000e+00    0.000000000e+00    0.000000000e+00    0.000000000e+00
      751000000    5.017672777e-01    7.134864926e-01   -2.752989531e-06    6.343238056e-06    0.000000000e+00    0.000000000e+00    0.000000000e+00    0.000000000e+00
      758250000    5.766717196e-01    6.481891870e-01    1.888722181e-05   -3.053061664e-05    0.000000000e+00    0.000000000e+00    0.000000000e+00    0.000000000e+00
      765500000    6.469132304e-01    5.746384263e-01    1.463852823e-05    1.067295671e-06    0.000000000e+00    0.000000000e+00    0.000000000e+00    0.000000000e+00
      772750000    7.081272006e-01    4.958071411e-01   -6.098020822e-05   -1.332070678e-05    0.000000000e+00    0.000000000e+00    0.000000000e+00    0.000000000e+00
      780000000    7.602882981e-01    4.126373827e-01   -3.102142364e-05    8.204951882e-07    0.000000000e+00    0.000000000e+00    0.000000000e+00    0.000000000e+00
      787250000    8.070199490e-01    3.193167746e-01   -2.575572580e-05   -4.463829100e-06    0.000000000e+00    0.000000000e+00    0.000000000e+00    0.000000000e+00
      794500000    8.431310058e-01    2.263567597e-01    7.336959243e-06    2.119690180e-06    0.000000000e+00    0.000000000e+00    0.000000000e+00    0.000000000e+00
      801750000    8.697637320e-01    1.273126453e-01    8.624047041e-07   -4.205945879e-05    0.000000000e+00    0.000000000e+00    0.000000000e+00    0.000000000e+00
      809000000    8.864777684e-01    2.626572363e-02   -5.756970495e-05    1.142267138e-05    0.000000000e+00    0.000000000e+00    0.000000000e+00    0.000000000e+00
      816250000    8.932996392e-01   -7.737354189e-02   -2.227723598e-06   -2.053938806e-05    0.000000000e+00    0.000000000e+00    0.000000000e+00    0.000000000e+00
      823500000    8.881492615e-01   -1.833097339e-01   -7.953494787e-06    5.617924035e-05    0.000000000e+00    0.000000000e+00    0.000000000e+00    0.000000000e+00
      830750000    8.731630445e-01   -2.873415947e-01    6.048008800e-06   -3.947038203e-05    0.000000000e+00    0.000000000e+00    0.000000000e+00    0.000000000e+00
      838000000    8.443377614e-01   -3.937735558e-01    3.827735782e-07   -1.089647412e-06    0.000000000e+00    0.000000000e+00    0.000000000e+00    0.000000000e+00
      845250000    8.063510656e-01   -4.945712090e-01   -2.789869905e-05   -2.471916378e-05    0.000000000e+00    0.000000000e+00    0.000000000e+00    0.000000000e+00
      852500000    7.536427379e-01   -5.937525034e-01   -4.599802196e-06    4.611909389e-06    0.000000000e+00    0.000000000e+00    0.000000000e+00    0.000000000e+00
      859750000    6.915466189e-01   -6.865485311e-01    1.466646791e-05   -7.589347661e-06    0.000000000e+00    0.000000000e+00    0.000000000e+00    0.000000000e+00
      867000000    6.147062778e-01   -7.741923332e-01    1.570116729e-05    1.543667167e-05    0.000000000e+00    0.000000000e+00    0.000000000e+00    0.000000000e+00
      874250000    5.290382504e-01   -8.522680402e-01   -4.761386663e-05    2.229958773e-05    0.000000000e+00    0.000000000e+00    0.000000000e+00    0.000000000e+00
      881500000    4.298647940e-01   -9.209935069e-01   -6.256625056e-06   -6.934627891e-06    0.000000000e+00    0.000000000e+00    0.000000000e+00    0.000000000e+00
      888750000    3.244644105e-01   -9.758288264e-01    1.676380634e-07   -1.318193972e-05    0.000000000e+00    0.000000000e+00    0.000000000e+00    0.000000000e+00
      896000000    2.098734379e-01   -1.018020272e+00   -2.786330879e-05   -1.134164631e-05    0.000000000e+00    0.000000000e+00    0.000000000e+00    0.000000000e+00
      903250000    9.008643776e-02   -1.045142174e+00    1.419335604e-05   -1.174211502e-05    0.000000000e+00    0.000000000e+00    0.000000000e+00    0.000000000e+00
      910500000   -3.504391760e-02   -1.055531502e+00   -4.614889622e-05    1.464597881e-05    0.000000000e+00    0.000000000e+00    0.000000000e+00    0.000000000e+00
      917750000   -1.597253382e-01   -1.048864007e+00    4.104804248e-05   -3.414228559e-06    0.000000000e+00    0.000000000e+00    0.000000000e+00    0.000000000e+00
      925000000   -2.813050151e-01   -1.026633024e+00   -3.972556442e-05   -1.900736243e-05    0.000000000e+00    0.000000000e+00    0.000000000e+00    0.000000000e+00
      932250000   -4.021477997e-01   -9.859649539e-01   -1.331698149e-05    1.638289541e-05    0.000000000e+00    0.000000000e+00    0.000000000e+00    0.000000000e+00
      939500000   -5.120506883e-01   -9.314815402e-01   -1.048762351e-05   -2.602580935e-05    0.000000000e+00    0.000000000e+00    0.000000000e+00    0.000000000e+00
      946750000   -6.147599220e-01   -8.606824875e-01    2.035684884e-05    5.980767310e-05    0.000000000e+00    0.000000000e+00    0.000000000e+00    0.000000000e+00
      954000000   -7.039355636e-01   -7.803539038e-01   -7.273629308e-07   -1.825392246e-06    0.000000000e+00    0.000000000e+00    0.000000000e+00    0.000000000e+00
      961250000   -7.811230421e-01   -6.884744763e-01    2.413149923e-05    3.185309470e-05    0.000000000e+00    0.000000000e+00    0.000000000e+00    0.000000000e+00
      968500000   -8.456400633e-01   -5.874540210e-01   -6.800517440e-06   -6.025005132e-05    0.000000000e+00    0.000000000e+00    0.000000000e+00    0.000000000e+00
      975750000   -8.942059278e-01   -4.832590520e-01   -1.310743392e-05    1.803599298e-05    0.000000000e+00    0.000000000e+00    0.000000000e+00    0.000000000e+00
      983000000   -9.288965464e-01   -3.729513288e-01    5.120225251e-05    4.339963198e-07    0.000000000e+00    0.000000000e+00    0.000000000e+00    0.000000000e+00
      990250000   -9.485414624e-01   -2.646669447e-01    1.462828368e-05    3.518722951e-05    0.000000000e+00    0.000000000e+00    0.000000000e+00    0.000000000e+00
      997500000   -9.543392062e-01   -1.551251709e-01   -4.386994988e-05   -2.426747233e-05    0.000000000e+00    0.000000000e+00    0.000000000e+00    0.000000000e+00
     1004750000   -9.478380084e-01   -5.093660951e-02   -1.227948815e-05    2.124812454e-05    0.000000000e+00    0.000000000e+00    0.000000000e+00    0.000000000e+00
     1012000000   -9.293577671e-01    5.078145117e-02   -2.447143197e-05   -5.095265806e-06    0.000000000e+00    0.000000000e+00    0.000000000e+00    0.000000000e+00
     1019250000   -9.009847045e-01    1.460938156e-01   -7.903203368e-06   -1.409649849e-05    0.000000000e+00    0.000000000e+00    0.000000000e+00    0.000000000e+00
     1026500000   -8.623084426e-01    2.354748696e-01   -1.305341721e-05    2.418830991e-05    0.000000000e+00    0.000000000e+00    0.000000000e+00    0.000000000e+00
     1033750000   -8.160644174e-01    3.188230693e-01    8.191913366e-06   -5.941838026e-06    0.000000000e+00    0.000000000e+00    0.000000000e+00    0.000000000e+00
     1041000000   -7.650458813e-01    3.926856518e-01    2.525374293e-05    1.390650868e-05    0.000000000e+00    0.000000000e+00    0.000000000e+00    0.000000000e+00
