! NanoVNA-App
! Date: 2024-06-25 16:11:16
! Start: 200MHz Stop: 6GHz Points: 801
! S-Parameter data: F S11 S21 S12 S22
# Hz S RI R 50
!     Frequency           S11_Real           S11_Imag           S21_Real           S21_Imag           S12_Real           S12_Imag           S22_Real           S22_Imag
      200000000   -9.982550740e-01   -1.181277707e-01   -5.518086255e-06   -1.278426498e-05    0.000000000e+00    0.000000000e+00    0.000000000e+00    0.000000000e+00
      207250000   -1.009890556e+00   -1.917108893e-02   -1.120194793e-05    8.739531040e-06    0.000000000e+00    0.000000000e+00    0.000000000e+00    0.000000000e+00
      214500000   -1.011878967e+00    8.140613884e-02    2.544373274e-06    2.227816731e-05    0.000000000e+00    0.000000000e+00    0.000000000e+00    0.000000000e+00
      221750000   -1.002503753e+00    1.847461909e-01   -9.951181710e-06    1.655612141e-05    0.000000000e+00    0.000000000e+00    0.000000000e+00    0.000000000e+00
      229000000   -9.830794930e-01    2.874173224e-01   -2.111773938e-05   -6.184913218e-06    0.000000000e+00    0.000000000e+00    0.000000000e+00    0.000000000e+00
      236250000   -9.514619112e-01    3.900808096e-01   -6.495043635e-06   -3.559514880e-06    0.000000000e+00    0.000000000e+00    0.000000000e+00    0.000000000e+00
      243500000   -9.073802829e-01    4.900836349e-01   -3.218185157e-05   -4.501082003e-06    0.000000000e+00    0.000000000e+00    0.000000000e+00    0.000000000e+00
      250750000   -8.515442014e-01    5.871093273e-01    1.685693860e-07    6.420537829e-06    0.000000000e+00    0.000000000e+00    0.000000000e+00    0.000000000e+00
      258000000   -7.845205069e-01    6.780725718e-01   -9.105540812e-06    2.669449896e-05    0.000000000e+00    0.000000000e+00    0.000000000e+00    0.000000000e+00
      265250000   -7.043336034e-01    7.620436549e-01   -2.607330680e-05   -1.477357000e-05    0.000000000e+00    0.000000000e+00    0.000000000e+00    0.000000000e+00
      272500000   -6.131954789e-01    8.367871046e-01   -1.566670835e-05    3.677699715e-05    0.000000000e+00    0.000000000e+00    0.000000000e+00    0.000000000e+00
      279750000   -5.135125518e-01    9.021544456e-01    2.039317042e-05   -2.689380199e-05    0.000000000e+00    0.000000000e+00    0.000000000e+00    0.000000000e+00
      287000000   -4.024894834e-01    9.540575743e-01    2.656131983e-05   -1.725833863e-05    0.000000000e+00    0.000000000e+00    0.000000000e+00    0.000000000e+00
      294250000   -2.856665254e-01    9.924513698e-01    1.122616231e-05    1.134350896e-05    0.000000000e+00    0.000000000e+00    0.000000000e+00    0.000000000e+00
      301500000   -1.636944562e-01    1.016631365e+00    1.749023795e-05   -9.432435036e-06    0.000000000e+00    0.000000000e+00    0.000000000e+00    0.000000000e+00
      308750000   -3.767220303e-02    1.022938967e+00    9.754672647e-06    9.175390005e-06    0.000000000e+00    0.000000000e+00    0.000000000e+00    0.000000000e+00
      316000000    8.882188052e-02    1.014794946e+00    1.368578523e-05    2.965889871e-05    0.000000000e+00    0.000000000e+00    0.000000000e+00    0.000000000e+00
      323250000    2.122637928e-01    9.908468127e-01   -2.666190267e-05    7.331371307e-06    0.000000000e+00    0.000000000e+00    0.000000000e+00    0.000000000e+00
      330500000    3.325146139e-01    9.501113296e-01   -2.351403236e-05    7.352791727e-06    0.000000000e+00    0.000000000e+00    0.000000000e+00    0.000000000e+00
      337750000    4.469748139e-01    8.944724202e-01    2.980232239e-07   -3.874022514e-05    0.000000000e+00    0.000000000e+00    0.000000000e+00    0.000000000e+00
      345000000    5.522885919e-01    8.237985373e-01    1.432094723e-05   -2.877414227e-05    0.000000000e+00    0.000000000e+00    0.000000000e+00    0.000000000e+00
      352250000    6.478712559e-01    7.430891395e-01   -1.444015652e-05    1.193769276e-05    0.000000000e+00    0.000000000e+00    0.000000000e+00    0.000000000e+00
      359500000    7.315637469e-01    6.498820186e-01   -1.154839993e-07    9.959563613e-06    0.000000000e+00    0.000000000e+00    0.000000000e+00    0.000000000e+00
      366750000    8.026446104e-01    5.493115783e-01   -4.280358553e-06    3.709457815e-06    0.000000000e+00    0.000000000e+00    0.000000000e+00    0.000000000e+00
      374000000    8.603086472e-01    4.421614707e-01   -1.912005246e-06    6.126239896e-06    0.000000000e+00    0.000000000e+00    0.000000000e+00    0.000000000e+00
      381250000    9.048823714e-01    3.282538354e-01    2.326816320e-05   -2.837833017e-05    0.000000000e+00    0.000000000e+00    0.000000000e+00    0.000000000e+00
      388500000    9.347993135e-01    2.122021466e-01    1.419987530e-05   -1.373421401e-05    0.000000000e+00    0.000000000e+00    0.000000000e+00    0.000000000e+00
      395750000    9.515030980e-01    9.603314847e-02    3.078952432e-06   -4.282686859e-05    0.000000000e+00    0.000000000e+00    0.000000000e+00    0.000000000e+00
      403000000    9.544772506e-01   -2.222852595e-02   -9.080395103e-06   -1.582317054e-06    0.000000000e+00    0.000000000e+00    0.000000000e+00    0.000000000e+00
      410250000    9.445990920e-01   -1.367873996e-01    7.198192179e-06   -1.809652895e-05    0.000000000e+00    0.000000000e+00    0.000000000e+00    0.000000000e+00
      417500000    9.225097299e-01   -2.496550828e-01   -1.205317676e-05    1.685600728e-05    0.000000000e+00    0.000000000e+00    0.000000000e+00    0.000000000e+00
      424750000    8.889390826e-01   -3.582503796e-01   -5.242414773e-06   -7.679685950e-06    0.000000000e+00    0.000000000e+00    0.000000000e+00    0.000000000e+00
      432000000    8.440701365e-01   -4.610650837e-01   -4.100240767e-05    2.116616815e-05    0.000000000e+00    0.000000000e+00    0.000000000e+00    0.000000000e+00
      439250000    7.890137434e-01   -5.580847263e-01   -1.395680010e-05    7.746741176e-06    0.000000000e+00    0.000000000e+00    0.000000000e+00    0.000000000e+00
      446500000    7.247110009e-01   -6.476570964e-01    3.025867045e-05   -1.629441977e-05    0.000000000e+00    0.000000000e+00    0.000000000e+00    0.000000000e+00
      453750000    6.511415243e-01   -7.306347489e-01   -5.094334483e-06   -1.981295645e-05    0.000000000e+00    0.000000000e+00    0.000000000e+00    0.000000000e+00
      461000000    5.712172389e-01   -8.047505021e-01    8.052214980e-06   -6.573274732e-06    0.000000000e+00    0.000000000e+00    0.000000000e+00    0.000000000e+00
      468250000    4.830635786e-01   -8.691239953e-01    3.829225898e-05   -7.332302630e-06    0.000000000e+00    0.000000000e+00    0.000000000e+00    0.000000000e+00
      475500000    3.880564272e-01   -9.252550602e-01   -6.012246013e-05    3.944151103e-06    0.000000000e+00    0.000000000e+00    0.000000000e+00    0.000000000e+00
      482750000    2.892429233e-01   -9.706087708e-01    6.482936442e-06    3.767479211e-05    0.000000000e+00    0.000000000e+00    0.000000000e+00    0.000000000e+00
      490000000    1.856231689e-01   -1.005975842e+00    1.731701195e-05   -9.418465197e-06    0.000000000e+00    0.000000000e+00    0.000000000e+00    0.000000000e+00
      497250000    7.777030021e-02   -1.029807091e+00    3.495253623e-05   -5.167815834e-05    0.000000000e+00    0.000000000e+00    0.000000000e+00    0.000000000e+00
      504500000   -3.235206380e-02   -1.043041110e+00   -5.172938108e-05    1.337006688e-05    0.000000000e+00    0.000000000e+00    0.000000000e+00    0.000000000e+00
      511750000   -1.434229612e-01   -1.043663144e+00   -7.586553693e-06    3.163795918e-05    0.000000000e+00    0.000000000e+00    0.000000000e+00    0.000000000e+00
      519000000   -2.552238405e-01   -1.032028556e+00   -6.536953151e-06    6.676651537e-06    0.000000000e+00    0.000000000e+00    0.000000000e+00    0.000000000e+00
      526250000   -3.651262522e-01   -1.008977890e+00    1.639127731e-07   -1.634843647e-05    0.000000000e+00    0.000000000e+00    0.000000000e+00    0.000000000e+00
      533500000   -4.733564556e-01   -9.738567472e-01   -2.186279744e-05    3.415998071e-05    0.000000000e+00    0.000000000e+00    0.000000000e+00    0.000000000e+00
      540750000   -5.773971081e-01   -9.254398346e-01   -1.482665539e-06   -1.687556505e-05    0.000000000e+00    0.000000000e+00    0.000000000e+00    0.000000000e+00
      548000000   -6.762648821e-01   -8.640306592e-01   -1.522339880e-05   -3.894232213e-05    0.000000000e+00    0.000000000e+00    0.000000000e+00    0.000000000e+00
      555250000   -7.671711445e-01   -7.936797142e-01    4.700850695e-05    1.418218017e-05    0.000000000e+00    0.000000000e+00    0.000000000e+00    0.000000000e+00
      562500000   -8.512735963e-01   -7.105477452e-01   -3.594905138e-07   -6.143003702e-06    0.000000000e+00    0.000000000e+00    0.000000000e+00    0.000000000e+00
      569750000   -9.246733785e-01   -6.184546351e-01    2.786703408e-05    4.084873945e-05    0.000000000e+00    0.000000000e+00    0.000000000e+00    0.000000000e+00
      577000000   -9.866662025e-01   -5.172704458e-01   -9.451061487e-06    3.537908196e-05    0.000000000e+00    0.000000000e+00    0.000000000e+00    0.000000000e+00
      584250000   -1.036280751e+00   -4.088398814e-01    2.128630877e-05    4.917383194e-06    0.000000000e+00    0.000000000e+00    0.000000000e+00    0.000000000e+00
      591500000   -1.072451949e+00   -2.951141894e-01   -5.559716374e-05    1.318939030e-05    0.000000000e+00    0.000000000e+00    0.000000000e+00    0.000000000e+00
      598750000   -1.096148968e+00   -1.762044728e-01   -1.901760697e-05   -1.269765198e-05    0.000000000e+00    0.000000000e+00    0.000000000e+00    0.000000000e+00
      606000000   -1.103355765e+00   -5.748212710e-02    1.081451774e-05   -1.211743802e-05    0.000000000e+00    0.000000000e+00    0.000000000e+00    0.000000000e+00
      613250000   -1.096797228e+00    6.390097737e-02   -3.401655704e-05    1.822598279e-06    0.000000000e+00    0.000000000e+00    0.000000000e+00    0.000000000e+00
      620500000   -1.075958848e+00    1.801178753e-01    2.248305827e-05    1.474376768e-05    0.000000000e+00    0.000000000e+00    0.000000000e+00    0.000000000e+00
      627750000   -1.040558338e+00    2.949456573e-01    2.263113856e-05    1.655239612e-05    0.000000000e+00    0.000000000e+00    0.000000000e+00    0.000000000e+00
      635000000   -9.918309450e-01    4.020346999e-01    2.224929631e-06    2.502463758e-06    0.000000000e+00    0.000000000e+00    0.000000000e+00    0.000000000e+00
      642250000   -9.313509464e-01    5.025916100e-01   -1.791119576e-05    7.327646017e-06    0.000000000e+00    0.000000000e+00    0.000000000e+00    0.000000000e+00
      649500000   -8.601979613e-01    5.942009091e-01    1.397170126e-05   -1.326669008e-05    0.000000000e+00    0.000000000e+00    0.000000000e+00    0.000000000e+00
      656750000   -7.786815166e-01    6.764950156e-01    1.525413245e-05   -2.477038652e-05    0.000000000e+00    0.000000000e+00    0.000000000e+00    0.000000000e+00
      664000000   -6.887966990e-01    7.475125790e-01    1.899525523e-05   -3.118067980e-06    0.000000000e+00    0.000000000e+00    0.000000000e+00    0.000000000e+00
      671250000   -5.942241549e-01    8.072420359e-01    2.683978528e-05   -8.546747267e-06    0.000000000e+00    0.000000000e+00    0.000000000e+00    0.000000000e+00
      678500000   -4.930833280e-01    8.549476266e-01   -1.779757440e-06    3.842636943e-06    0.000000000e+00    0.000000000e+00    0.000000000e+00    0.000000000e+00
      685750000   -3.883712888e-01    8.907341957e-01    6.778165698e-06    6.005167961e-06    0.000000000e+00    0.000000000e+00    0.000000000e+00    0.000000000e+00
      693000000   -2.822079659e-01    9.141336679e-01   -3.785546869e-05    2.316106111e-05    0.000000000e+00    0.000000000e+00    0.000000000e+00    0.000000000e+00
      700250000   -1.747027338e-01    9.258686304e-01   -8.901581168e-06    1.924019307e-05    0.000000000e+00    0.000000000e+00    0.000000000e+00    0.000000000e+00
      707500000   -6.821862608e-02    9.255945683e-01    2.063903958e-05   -1.329928637e-05    0.000000000e+00    0.000000000e+00    0.000000000e+00    0.000000000e+00
      714750000    3.794946149e-02    9.146246910e-01    5.477108061e-06    2.019386739e-05    0.000000000e+00    0.000000000e+00    0.000000000e+00    0.000000000e+00
      722000000    1.367301345e-01    8.942110538e-01   -6.101094186e-06   -3.351643682e-05    0.000000000e+00    0.000000000e+00    0.000000000e+00    0.000000000e+00
      729250000    2.371114045e-01    8.616632223e-01    2.054125071e-05    3.248732537e-05    0.000000000e+00    0.000000000e+00    0.000000000e+00    0.000000000e+00
      736500000    3.293143511e-01    8.210682273e-01   -1.086015254e-05   -1.968629658e-05    0.000000000e+00    0.000000000e+00    0.000000000e+00    0.000000000e+00
      743750000    4.183185995e-01    7.709796429e-01    1.092068851e-05   -3.522261977e-06    0.000000000e+00    0.000000000e+00    0.000000000e+00    0.000000000e+00
      751000000    5.011538863e-01    7.142563462e-01    2.178363502e-06    1.567043364e-05    0.000000000e+00    0.000000000e+00    0.000000000e+00    0.000000000e+00
      758250000    5.769662261e-01    6.480027437e-01   -3.834441304e-05   -8.198432624e-06    0.000000000e+00    0.000000000e+00    0.000000000e+00    0.000000000e+00
      765500000    6.467660069e-01    5.750555396e-01   -6.493180990e-06    5.812384188e-06    0.000000000e+00    0.000000000e+00    0.000000000e+00    0.000000000e+00
      772750000    7.085066438e-01    4.949402809e-01    3.129802644e-05   -2.484116703e-05    0.000000000e+00    0.000000000e+00    0.000000000e+00    0.000000000e+00
      780000000    7.607416511e-01    4.119154513e-01    3.434251994e-05   -3.478489816e-05    0.000000000e+00    0.000000000e+00    0.000000000e+00    0.000000000e+00
      787250000    8.068472147e-01    3.202289343e-01   -5.499273539e-05   -4.529487342e-05    0.000000000e+00    0.000000000e+00    0.000000000e+00    0.000000000e+00
      794500000    8.427962661e-01    2.262082845e-01    1.300685108e-05   -2.997927368e-06    0.000000000e+00    0.000000000e+00    0.000000000e+00    0.000000000e+00
      801750000    8.699666858e-01    1.274353862e-01    1.912377775e-05    5.667097867e-06    0.000000000e+00    0.000000000e+00    0.000000000e+00    0.000000000e+00
      809000000    8.868803382e-01    2.656642348e-02   -6.183981895e-07   -1.814030111e-05    0.000000000e+00    0.000000000e+00    0.000000000e+00    0.000000000e+00
      816250000    8.930670619e-01   -7.817143202e-02   -1.029483974e-05    7.674098015e-07    0.000000000e+00    0.000000000e+00    0.000000000e+00    0.000000000e+00
      823500000    8.891238570e-01   -1.824885905e-01   -1.526065171e-05    9.639188647e-07    0.000000000e+00    0.000000000e+00    0.000000000e+00    0.000000000e+00
      830750000    8.727733493e-01   -2.880419493e-01   -7.808208466e-06    5.286466330e-05    0.000000000e+00    0.000000000e+00    0.000000000e+00    0.000000000e+00
      838000000    8.447256684e-01   -3.925278485e-01   -2.918485552e-05    1.451186836e-05    0.000000000e+00    0.000000000e+00    0.000000000e+00    0.000000000e+00
      845250000    8.061236143e-01   -4.946754873e-01   -4.789419472e-05   -7.404945791e-06    0.000000000e+00    0.000000000e+00    0.000000000e+00    0.000000000e+00
      852500000    7.547171712e-01   -5.931671262e-01    2.488959581e-05   -9.056180716e-06    0.000000000e+00    0.000000000e+00    0.000000000e+00    0.000000000e+00
      859750000    6.915575266e-01   -6.859683394e-01   -2.110097557e-05    1.038145274e-05    0.000000000e+00    0.000000000e+00    0.000000000e+00    0.000000000e+00
      867000000    6.141034961e-01   -7.744968534e-01    5.717482418e-05   -7.369555533e-06    0.000000000e+00    0.000000000e+00    0.000000000e+00    0.000000000e+00
      874250000    5.299381018e-01   -8.516031504e-01    3.318302333e-06    3.191549331e-05    0.000000000e+00    0.000000000e+00    0.000000000e+00    0.000000000e+00
      881500000    4.308989942e-01   -9.208106399e-01   -2.489984035e-05    4.833564162e-07    0.000000000e+00    0.000000000e+00    0.000000000e+00    0.000000000e+00
      888750000    3.240303099e-01   -9.762644768e-01    9.439885616e-06   -3.028847277e-05    0.000000000e+00    0.000000000e+00    0.000000000e+00    0.000000000e+00
      896000000    2.100486159e-01   -1.017832875e+00    2.113822848e-05    1.286063343e-05    0.000000000e+00    0.000000000e+00    0.000000000e+00    0.000000000e+00
      903250000    9.059678018e-02   -1.044893980e+00    2.069585025e-05    1.079589128e-05    0.000000000e+00    0.000000000e+00    0.000000000e+00    0.000000000e+00
      910500000   -3.574419394e-02   -1.055581689e+00    4.997476935e-06    9.163282812e-06    0.000000000e+00    0.000000000e+00    0.000000000e+00    0.000000000e+00
      917750000   -1.591327935e-01   -1.049548745e+00   -4.927441478e-05    1.669861376e-06    0.000000000e+00    0.000000000e+00    0.000000000e+00    0.000000000e+00
      925000000   -2.816101909e-01   -1.026677728e+00   -3.509223461e-06   -1.934822649e-05    0.000000000e+00    0.000000000e+00    0.000000000e+00    0.000000000e+00
      932250000   -4.016512930e-01   -9.867250323e-01    1.893937588e-05    4.170276225e-05    0.000000000e+00    0.000000000e+00    0.000000000e+00    0.000000000e+00
      939500000   -5.120564103e-01   -9.313283563e-01    6.835907698e-06    9.297393262e-06    0.000000000e+00    0.000000000e+00    0.000000000e+00    0.000000000e+00
      946750000   -6.143512726e-01   -8.609299064e-01    1.973472536e-06   -3.064051270e-07    0.000000000e+00    0.000000000e+00    0.000000000e+00    0.000000000e+00
      954000000   -7.039445043e-01   -7.809079885e-01   -6.566755474e-06    4.009064287e-05    0.000000000e+00    0.000000000e+00    0.000000000e+00    0.000000000e+00
      961250000   -7.821182609e-01   -6.873554587e-01    2.256315202e-05   -2.176780254e-05    0.000000000e+00    0.000000000e+00    0.000000000e+00    0.000000000e+00
      968500000   -8.453140259e-01   -5.880284309e-01    2.496782690e-05    3.691576421e-05    0.000000000e+00    0.000000000e+00    0.000000000e+00    0.000000000e+00
      975750000   -8.934141994e-01   -4.835607409e-01    4.203617573e-05    3.232620656e-05    0.000000000e+00    0.000000000e+00    0.000000000e+00    0.000000000e+00
      983000000   -9.293324351e-01   -3.738982081e-01    2.229772508e-05    6.008893251e-06    0.000000000e+00    0.000000000e+00    0.000000000e+00    0.000000000e+00
      990250000   -9.489269853e-01   -2.633741796e-01    4.956964403e-05    5.028210580e-05    0.000000000e+00    0.000000000e+00    0.000000000e+00    0.000000000e+00
      997500000   -9.543664455e-01   -1.560251266e-01    2.257525921e-06   -2.457201481e-05    0.000000000e+00    0.000000000e+00    0.000000000e+00    0.000000000e+00
     1004750000   -9.475646019e-01   -5.080874264e-02   -3.151595592e-05    1.424271613e-05    0.000000000e+00    0.000000000e+00    0.000000000e+00    0.000000000e+00
     1012000000   -9.293326139e-01    5.028672144e-02    2.500973642e-05   -8.038245142e-06    0.000000000e+00    0.000000000e+00    0.000000000e+00    0.000000000e+00
     1019250000   -9.005022645e-01    1.461728960e-01    5.248095840e-05    4.756264389e-06    0.000000000e+00    0.000000000e+00    0.000000000e+00    0.000000000e+00
     1026500000   -8.624731302e-01    2.365175933e-01   -1.407694072e-05   -1.845415682e-05    0.000000000e+00    0.000000000e+00    0.000000000e+00    0.000000000e+00
     1033750000   -8.158345819e-01    3.190158606e-01    3.341585398e-05    1.205038279e-05    0.000000000e+00    0.000000000e+00    0.000000000e+00    0.000000000e+00
     1041000000   -7.639529109e-01    3.938372135e-01   -1.024641097e-05    1.965090632e-06    0.000000000e+00    0.000000000e+00    0.000000000e+00    0.000000000e+00
