! NanoVNA-App
! Date: 2024-06-25 16:11:19
! Start: 200MHz Stop: 6GHz Points: 801
! S-Parameter data: F S11 S21 S12 S22
# Hz S RI R 50
!     Frequency           S11_Real           S11_Imag           S21_Real           S21_Imag           S12_Real           S12_Imag           S22_Real           S22_Imag
      200000000   -9.985985160e-01   -1.187784299e-01    1.650862396e-05   -3.300793469e-05    0.000000000e+00    0.000000000e+00    0.000000000e+00    0.000000000e+00
      207250000   -1.010204315e+00   -1.933252066e-02    2.222787589e-05   -5.078967661e-05    0.000000000e+00    0.000000000e+00    0.000000000e+00    0.000000000e+00
      214500000   -1.011936426e+00    8.136680722e-02   -2.076849341e-07   -2.156943083e-06    0.000000000e+00    0.000000000e+00    0.000000000e+00    0.000000000e+00
      221750000   -1.002874136e+00    1.848071814e-01    1.670140773e-05   -6.606802344e-06    0.000000000e+00    0.000000000e+00    0.000000000e+00    0.000000000e+00
      229000000   -9.826871157e-01    2.875250876e-01    3.045331687e-05   -2.217013389e-05    0.000000000e+00    0.000000000e+00    0.000000000e+00    0.000000000e+00
      236250000   -9.514278173e-01    3.902724683e-01   -4.094094038e-06   -4.140008241e-05    0.000000000e+00    0.000000000e+00    0.000000000e+00    0.000000000e+00
      243500000   -9.075410962e-01    4.902625084e-01    3.339536488e-05    3.992673010e-05    0.000000000e+00    0.000000000e+00    0.000000000e+00    0.000000000e+00
      250750000   -8.519414067e-01    5.866500139e-01   -2.641230822e-05   -1.272745430e-05    0.000000000e+00    0.000000000e+00    0.000000000e+00    0.000000000e+00
      258000000   -7.841268182e-01    6.777771711e-01   -1.210719347e-05    3.421213478e-05    0.000000000e+00    0.000000000e+00    0.000000000e+00    0.000000000e+00
      265250000   -7.042522430e-01    7.617079616e-01    1.406762749e-05   -3.945361823e-05    0.000000000e+00    0.000000000e+00    0.000000000e+00    0.000000000e+00
      272500000   -6.139627099e-01    8.374885321e-01   -9.927898645e-06    2.304092050e-06    0.000000000e+00    0.000000000e+00    0.000000000e+00    0.000000000e+00
      279750000   -5.135049224e-01    9.020883441e-01   -7.010065019e-06   -8.679926395e-06    0.000000000e+00    0.000000000e+00    0.000000000e+00    0.000000000e+00
      287000000   -4.026822448e-01    9.541577101e-01    1.358892769e-05   -5.192868412e-05    0.000000000e+00    0.000000000e+00    0.000000000e+00    0.000000000e+00
      294250000   -2.856228054e-01    9.924109578e-01   -2.300366759e-06    1.736357808e-05    0.000000000e+00    0.000000000e+00    0.000000000e+00    0.000000000e+00
      301500000   -1.634439230e-01    1.015402317e+00   -3.840215504e-05   -1.874193549e-05    0.000000000e+00    0.000000000e+00    0.000000000e+00    0.000000000e+00
      308750000   -3.820569068e-02    1.024204254e+00   -5.841255188e-06   -2.455711365e-05    0.000000000e+00    0.000000000e+00    0.000000000e+00    0.000000000e+00
      316000000    8.797827363e-02    1.014649272e+00   -3.257021308e-05   -1.930631697e-06    0.000000000e+00    0.000000000e+00    0.000000000e+00    0.000000000e+00
      323250000    2.129299492e-01    9.901809096e-01   -6.159767509e-06   -1.124199480e-05    0.000000000e+00    0.000000000e+00    0.000000000e+00    0.000000000e+00
      330500000    3.328166604e-01    9.496811032e-01    2.211146057e-05   -2.656225115e-05    0.000000000e+00    0.000000000e+00    0.000000000e+00    0.000000000e+00
      337750000    4.465743005e-01    8.939161301e-01   -1.193210483e-05    1.905020326e-05    0.000000000e+00    0.000000000e+00    0.000000000e+00    0.000000000e+00
      345000000    5.522515774e-01    8.253076077e-01   -7.073394954e-06   -1.494958997e-05    0.000000000e+00    0.000000000e+00    0.000000000e+00    0.000000000e+00
      352250000    6.478211880e-01    7.428556085e-01   -1.348275691e-05    2.198573202e-05    0.000000000e+00    0.000000000e+00    0.000000000e+00    0.000000000e+00
      359500000    7.312883139e-01    6.502110958e-01    2.178084105e-05    2.534966916e-05    0.000000000e+00    0.000000000e+00    0.000000000e+00    0.000000000e+00
      366750000    8.027912974e-01    5.495204329e-01    2.048257738e-05   -9.036622941e-06    0.000000000e+00    0.000000000e+00    0.000000000e+00    0.000000000e+00
      374000000    8.602089882e-01    4.422268271e-01   -1.879036427e-05    3.169290721e-05    0.000000000e+00    0.000000000e+00    0.000000000e+00    0.000000000e+00
      381250000    9.050107598e-01    3.280341327e-01   -4.659686238e-05    2.670101821e-05    0.000000000e+00    0.000000000e+00    0.000000000e+00    0.000000000e+00
      388500000    9.349753857e-01    2.128781974e-01   -1.346599311e-05   -9.949319065e-06    0.000000000e+00    0.000000000e+00    0.000000000e+00    0.000000000e+00
      395750000    9.511597157e-01    9.487255663e-02    2.258177847e-05    1.156609505e-05    0.000000000e+00    0.000000000e+00    0.000000000e+00    0.000000000e+00
      403000000    9.546486735e-01   -2.179592103e-02   -2.409983426e-05   -1.736730337e-05    0.000000000e+00    0.000000000e+00    0.000000000e+00    0.000000000e+00
      410250000    9.449799061e-01   -1.368712485e-01   -4.640128464e-05   -5.270540714e-05    0.000000000e+00    0.000000000e+00    0.000000000e+00    0.000000000e+00
      417500000    9.233225584e-01   -2.489775419e-01   -8.879229426e-06    1.154746860e-05    0.000000000e+00    0.000000000e+00    0.000000000e+00    0.000000000e+00
      424750000    8.885955811e-01   -3.582228422e-01    7.808208466e-06   -2.825073898e-05    0.000000000e+00    0.000000000e+00    0.000000000e+00    0.000000000e+00
      432000000    8.433986306e-01   -4.609459639e-01    4.450790584e-06   -1.908931881e-05    0.000000000e+00    0.000000000e+00    0.000000000e+00    0.000000000e+00
      439250000    7.889216542e-01   -5.579410195e-01   -1.166015863e-05   -2.937391400e-05    0.000000000e+00    0.000000000e+00    0.000000000e+00    0.000000000e+00
      446500000    7.247133255e-01   -6.472827196e-01   -9.895302355e-06    2.677366138e-05    0.000000000e+00    0.000000000e+00    0.000000000e+00    0.000000000e+00
      453750000    6.513360143e-01   -7.302488685e-01   -4.189833999e-05   -4.279427230e-06    0.000000000e+00    0.000000000e+00    0.000000000e+00    0.000000000e+00
      461000000    5.709508061e-01   -8.039315939e-01    3.600493073e-06   -2.186559141e-05    0.000000000e+00    0.000000000e+00    0.000000000e+00    0.000000000e+00
      468250000    4.836532772e-01   -8.690192103e-01   -3.958214074e-05   -9.800307453e-06    0.000000000e+00    0.000000000e+00    0.000000000e+00    0.000000000e+00
      475500000    3.881877065e-01   -9.253536463e-01    1.354143023e-05    4.081707448e-05    0.000000000e+00    0.000000000e+00    0.000000000e+00    0.000000000e+00
      482750000    2.894489765e-01   -9.707676768e-01   -1.066271216e-05   -1.724530011e-05    0.000000000e+00    0.000000000e+00    0.000000000e+00    0.000000000e+00
      490000000    1.858646274e-01   -1.006094813e+00   -3.980565816e-05    4.271231592e-05    0.000000000e+00    0.000000000e+00    0.000000000e+00    0.000000000e+00
      497250000    7.799281180e-02   -1.029813766e+00   -1.359079033e-05   -1.120846719e-05    0.000000000e+00    0.000000000e+00    0.000000000e+00    0.000000000e+00
      504500000   -3.243658319e-02   -1.042916656e+00    5.370378494e-05   -1.021008939e-05    0.000000000e+00    0.000000000e+00    0.000000000e+00    0.000000000e+00
      511750000   -1.436287165e-01   -1.043824196e+00    2.638902515e-05    4.145689309e-05    0.000000000e+00    0.000000000e+00    0.000000000e+00    0.000000000e+00
      519000000   -2.549780011e-01   -1.032442451e+00    1.093465835e-05    3.327149898e-05    0.000000000e+00    0.000000000e+00    0.000000000e+00    0.000000000e+00
      526250000   -3.653949201e-01   -1.009205341e+00   -2.417154610e-05    6.563030183e-06    0.000000000e+00    0.000000000e+00    0.000000000e+00    0.000000000e+00
      533500000   -4.732449949e-01   -9.728934169e-01   -2.821348608e-05    2.725515515e-05    0.000000000e+00    0.000000000e+00    0.000000000e+00    0.000000000e+00
      540750000   -5.779978037e-01   -9.244892597e-01   -1.055933535e-05   -6.376765668e-06    0.000000000e+00    0.000000000e+00    0.000000000e+00    0.000000000e+00
      548000000   -6.768767238e-01   -8.646390438e-01   -1.852307469e-05    1.969002187e-05    0.000000000e+00    0.000000000e+00    0.000000000e+00    0.000000000e+00
      555250000   -7.684033513e-01   -7.930409908e-01   -8.595176041e-06   -1.591071486e-05    0.000000000e+00    0.000000000e+00    0.000000000e+00    0.000000000e+00
      562500000   -8.516899943e-01   -7.108439803e-01    1.788511872e-05    1.584365964e-05    0.000000000e+00    0.000000000e+00    0.000000000e+00    0.000000000e+00
      569750000   -9.242749810e-01   -6.184967160e-01   -5.512498319e-06   -8.376315236e-06    0.000000000e+00    0.000000000e+00    0.000000000e+00    0.000000000e+00
      577000000   -9.869087338e-01   -5.169438124e-01   -4.276819527e-05    1.615937799e-05    0.000000000e+00    0.000000000e+00    0.000000000e+00    0.000000000e+00
      584250000   -1.037374139e+00   -4.085647464e-01   -7.862225175e-06    3.034435213e-05    0.000000000e+00    0.000000000e+00    0.000000000e+00    0.000000000e+00
      591500000   -1.073479891e+00   -2.952536643e-01    1.463945955e-05    8.240342140e-06    0.000000000e+00    0.000000000e+00    0.000000000e+00    0.000000000e+00
      598750000   -1.095895648e+00   -1.757867634e-01    1.809466630e-05   -1.367460936e-05    0.000000000e+00    0.000000000e+00    0.000000000e+00    0.000000000e+00
      606000000   -1.103523254e+00   -5.745733157e-02   -3.495998681e-05   -2.132076770e-05    0.000000000e+00    0.000000000e+00    0.000000000e+00    0.000000000e+00
      613250000   -1.096860051e+00    6.320163608e-02   -5.513429642e-07   -2.061016858e-06    0.000000000e+00    0.000000000e+00    0.000000000e+00    0.000000000e+00
      620500000   -1.075946689e+00    1.803166717e-01    1.386459917e-05   -1.169461757e-05    0.000000000e+00    0.000000000e+00    0.000000000e+00    0.000000000e+00
      627750000   -1.040807486e+00    2.945623696e-01   -4.072673619e-05   -5.638226867e-06    0.000000000e+00    0.000000000e+00    0.000000000e+00    0.000000000e+00
      635000000   -9.921606779e-01    4.015225768e-01    3.707408905e-05    2.277083695e-06    0.000000000e+00    0.000000000e+00    0.000000000e+00    0.000000000e+00
      642250000   -9.310348034e-01    5.037055016e-01   -1.619104296e-05   -9.193085134e-06    0.000000000e+00    0.000000000e+00    0.000000000e+00    0.000000000e+00
      649500000   -8.597135544e-01    5.947176218e-01   -2.626143396e-05   -2.532266080e-06    0.000000000e+00    0.000000000e+00    0.000000000e+00    0.000000000e+00
      656750000   -7.788519859e-01    6.758655906e-01   -4.249624908e-06   -1.228693873e-05    0.000000000e+00    0.000000000e+00    0.000000000e+00    0.000000000e+00
      664000000   -6.893231869e-01    7.471528053e-01   -1.472700387e-05   -2.369284630e-05    0.000000000e+00    0.000000000e+00    0.000000000e+00    0.000000000e+00
      671250000   -5.941736698e-01    8.070571423e-01    1.551024616e-05   -1.155398786e-05    0.000000000e+00    0.000000000e+00    0.000000000e+00    0.000000000e+00
      678500000   -4.927546680e-01    8.545176983e-01   -1.632794738e-05    1.084059477e-06    0.000000000e+00    0.000000000e+00    0.000000000e+00    0.000000000e+00
      685750000   -3.883119822e-01    8.909869194e-01    3.463216126e-05    1.806207001e-05    0.000000000e+00    0.000000000e+00    0.000000000e+00    0.000000000e+00
      693000000   -2.819748223e-01    9.146363735e-01   -4.044361413e-05   -8.579343557e-06    0.000000000e+00    0.000000000e+00    0.000000000e+00    0.000000000e+00
      700250000   -1.751451343e-01    9.261066914e-01    1.747906208e-05    7.774680853e-06    0.000000000e+00    0.000000000e+00    0.000000000e+00    0.000000000e+00
      707500000   -6.930053234e-02    9.257807732e-01    4.906207323e-06   -2.036895603e-05    0.000000000e+00    0.000000000e+00    0.000000000e+00    0.000000000e+00
      714750000    3.750454262e-02    9.153567553e-01   -1.635681838e-05    8.478760719e-06    0.000000000e+00    0.000000000e+00    0.000000000e+00    0.000000000e+00
      722000000    1.374898851e-01    8.934983611e-01    1.602619886e-05   -5.198642612e-06    0.000000000e+00    0.000000000e+00    0.000000000e+00    0.000000000e+00
      729250000    2.372777760e-01    8.618299365e-01    2.062693238e-05   -1.093279570e-05    0.000000000e+00    0.000000000e+00    0.000000000e+00    0.000000000e+00
      736500000    3.301410377e-01    8.208711743e-01   -8.950009942e-07   -1.757964492e-05    0.000000000e+00    0.000000000e+00    0.000000000e+00    0.000000000e+00
      743750000    4.186727405e-01    7.715920210e-01   -2.198759466e-05   -1.035910100e-05    0.000000000e+00    0.000000000e+00    0.000000000e+00    0.000000000e+00
      751000000    5.016311407e-01    7.123005390e-01   -1.343805343e-05   -2.989545465e-06    0.000000000e+00    0.000000000e+00    0.000000000e+00    0.000000000e+00
      758250000    5.772010684e-01    6.474497318e-01   -4.288181663e-05    1.660548151e-05    0.000000000e+00    0.000000000e+00    0.000000000e+00    0.000000000e+00
      765500000    6.467661858e-01    5.743442774e-01   -3.451947123e-05    2.239830792e-05    0.000000000e+00    0.000000000e+00    0.000000000e+00    0.000000000e+00
      772750000    7.084159255e-01    4.951637387e-01    3.681425005e-05   -2.699717879e-05    0.000000000e+00    0.000000000e+00    0.000000000e+00    0.000000000e+00
      780000000    7.610993385e-01    4.117071927e-01   -7.260590792e-06   -2.125557512e-05    0.000000000e+00    0.000000000e+00    0.000000000e+00    0.000000000e+00
      787250000    8.068104386e-01    3.208105862e-01    5.546957254e-06   -5.057081580e-06    0.000000000e+00    0.000000000e+00    0.000000000e+00    0.000000000e+00
      794500000    8.435415626e-01    2.263591588e-01    1.025572419e-05    1.644622535e-05    0.000000000e+00    0.000000000e+00    0.000000000e+00    0.000000000e+00
      801750000    8.700257540e-01    1.282257140e-01    7.201917470e-06    2.065952867e-05    0.000000000e+00    0.000000000e+00    0.000000000e+00    0.000000000e+00
      809000000    8.867424726e-01    2.554520592e-02    4.526320845e-05   -1.917500049e-05    0.000000000e+00    0.000000000e+00    0.000000000e+00    0.000000000e+00
      816250000    8.930223584e-01   -7.810328901e-02   -3.431923687e-06   -5.590729415e-06    0.000000000e+00    0.000000000e+00    0.000000000e+00    0.000000000e+00
      823500000    8.886571527e-01   -1.824165285e-01   -5.991198123e-06    5.044043064e-06    0.000000000e+00    0.000000000e+00    0.000000000e+00    0.000000000e+00
      830750000    8.729667068e-01   -2.887100875e-01   -2.202484757e-05    5.370005965e-06    0.000000000e+00    0.000000000e+00    0.000000000e+00    0.000000000e+00
      838000000    8.448057771e-01   -3.921630383e-01    1.182220876e-05    1.170113683e-05    0.000000000e+00    0.000000000e+00    0.000000000e+00    0.000000000e+00
      845250000    8.059259653e-01   -4.941021502e-01   -2.306513488e-05    2.162903547e-05    0.000000000e+00    0.000000000e+00    0.000000000e+00    0.000000000e+00
      852500000    7.539935112e-01   -5.943252444e-01    3.242865205e-06   -1.416541636e-06    0.000000000e+00    0.000000000e+00    0.000000000e+00    0.000000000e+00
      859750000    6.913210154e-01   -6.865262985e-01   -2.487003803e-05   -1.558102667e-05    0.000000000e+00    0.000000000e+00    0.000000000e+00    0.000000000e+00
      867000000    6.141825914e-01   -7.744820714e-01   -1.468509436e-05   -2.990663052e-05    0.000000000e+00    0.000000000e+00    0.000000000e+00    0.000000000e+00
      874250000    5.303446054e-01   -8.520547748e-01    1.071300358e-05    4.472024739e-05    0.000000000e+00    0.000000000e+00    0.000000000e+00    0.000000000e+00
      881500000    4.298012853e-01   -9.211538434e-01    6.506219506e-06    1.241546124e-05    0.000000000e+00    0.000000000e+00    0.000000000e+00    0.000000000e+00
      888750000    3.249851465e-01   -9.753067493e-01   -6.020907313e-05   -9.967014194e-06    0.000000000e+00    0.000000000e+00    0.000000000e+00    0.000000000e+00
      896000000    2.099788338e-01   -1.018363953e+00   -3.222003579e-05   -2.938322723e-06    0.000000000e+00    0.000000000e+00    0.000000000e+00    0.000000000e+00
      903250000    9.057500958e-02   -1.044846058e+00    1.916289330e-05   -1.511815935e-05    0.000000000e+00    0.000000000e+00    0.000000000e+00    0.000000000e+00
      910500000   -3.540319949e-02   -1.055966377e+00    1.217890531e-05    3.424845636e-05    0.000000000e+00    0.000000000e+00    0.000000000e+00    0.000000000e+00
      917750000   -1.584543437e-01   -1.049828529e+00   -4.730653018e-05    4.800967872e-06    0.000000000e+00    0.000000000e+00    0.000000000e+00    0.000000000e+00
      925000000   -2.820197046e-01   -1.026120424e+00    6.525777280e-06    1.595728099e-05    0.000000000e+00    0.000000000e+00    0.000000000e+00    0.000000000e+00
      932250000   -4.025904536e-01   -9.859786034e-01    2.525933087e-05    2.327747643e-05    0.000000000e+00    0.000000000e+00    0.000000000e+00    0.000000000e+00
      939500000   -5.114896894e-01   -9.320735335e-01    1.314561814e-05   -1.002382487e-05    0.000000000e+00    0.000000000e+00    0.000000000e+00    0.000000000e+00
      946750000   -6.135798693e-01   -8.613409996e-01    8.403323591e-06    1.163966954e-05    0.000000000e+00    0.000000000e+00    0.000000000e+00    0.000000000e+00
      954000000   -7.038972378e-01   -7.804370522e-01    3.996212035e-05    2.360716462e-05    0.000000000e+00    0.000000000e+00    0.000000000e+00    0.000000000e+00
      961250000   -7.813487649e-01   -6.875651479e-01   -1.658126712e-05    1.424271613e-05    0.000000000e+00    0.000000000e+00    0.000000000e+00    0.000000000e+00
      968500000   -8.462361097e-01   -5.862315297e-01   -2.810359001e-05    4.843529314e-05    0.000000000e+00    0.000000000e+00    0.000000000e+00    0.000000000e+00
      975750000   -8.938115835e-01   -4.830871224e-01   -2.663582563e-06    9.857118130e-06    0.000000000e+00    0.000000000e+00    0.000000000e+00    0.000000000e+00
      983000000   -9.296930432e-01   -3.719820678e-01   -4.143454134e-06    1.258216798e-05    0.000000000e+00    0.000000000e+00    0.000000000e+00    0.000000000e+00
      990250000   -9.486578703e-01   -2.647796869e-01   -1.951958984e-05   -1.606531441e-05    0.000000000e+00    0.000000000e+00    0.000000000e+00    0.000000000e+00
      997500000   -9.547594786e-01   -1.564457864e-01    4.181638360e-06   -6.542541087e-06    0.000000000e+00    0.000000000e+00    0.000000000e+00    0.000000000e+00
     1004750000   -9.478731751e-01   -5.088860542e-02   -1.820083708e-05    1.432374120e-05    0.000000000e+00    0.000000000e+00    0.000000000e+00    0.000000000e+00
     1012000000   -9.294681549e-01    5.044827983e-02   -3.499165177e-05   -3.066938370e-05    0.000000000e+00    0.000000000e+00    0.000000000e+00    0.000000000e+00
     1019250000   -9.004162550e-01    1.466899067e-01   -3.648642451e-05   -2.810545266e-05    0.000000000e+00    0.000000000e+00    0.000000000e+00    0.000000000e+00
     1026500000   -8.625113368e-01    2.347376347e-01   -2.291891724e-05   -5.111098289e-06    0.000000000e+00    0.000000000e+00    0.000000000e+00    0.000000000e+00
     1033750000   -8.170717955e-01    3.183754385e-01    3.019440919e-05    2.069398761e-05    0.000000000e+00    0.000000000e+00    0.000000000e+00    0.000000000e+00
     1041000000   -7.645044327e-01    3.934797943e-01   -1.190230250e-06    2.734456211e-05    0.000000000e+00    0.000000000e+00    0.000000000e+00    0.000000000e+00
