! NanoVNA-App
! Date: 2024-06-25 16:11:24
! Start: 200MHz Stop: 6GHz Points: 801
! S-Parameter data: F S11 S21 S12 S22
# Hz S RI R 50
!     Frequency           S11_Real           S11_Imag           S21_Real           S21_Imag           S12_Real           S12_Imag           S22_Real           S22_Imag
      200000000   -9.986673594e-01   -1.184665337e-01    8.638948202e-06   -3.551784903e-05    0.000000000e+00    0.000000000e+00    0.000000000e+00    0.000000000e+00
      207250000   -1.010020256e+00   -1.931017637e-02    1.328904182e-05    1.467484981e-05    0.000000000e+00    0.000000000e+00    0.000000000e+00    0.000000000e+00
      214500000   -1.012088299e+00    8.182305843e-02   -6.664544344e-06   -2.110283822e-05    0.000000000e+00    0.000000000e+00    0.000000000e+00    0.000000000e+00
      221750000   -1.003032565e+00    1.848634779e-01   -7.464550436e-06    3.724358976e-06    0.000000000e+00    0.000000000e+00    0.000000000e+00    0.000000000e+00
      229000000   -9.827621579e-01    2.876094282e-01    5.826354027e-06    8.652918041e-06    0.000000000e+00    0.000000000e+00    0.000000000e+00    0.000000000e+00
      236250000   -9.506553411e-01    3.900972009e-01   -2.124439925e-05    3.469269723e-05    0.000000000e+00    0.000000000e+00    0.000000000e+00    0.000000000e+00
      243500000   -9.078868628e-01    4.904263318e-01    2.178270370e-05    1.334585249e-06    0.000000000e+00    0.000000000e+00    0.000000000e+00    0.000000000e+00
      250750000   -8.519014120e-01    5.869655609e-01    1.546554267e-05    6.753951311e-06    0.000000000e+00    0.000000000e+00    0.000000000e+00    0.000000000e+00
      258000000   -7.833405137e-01    6.778352261e-01    5.995854735e-06   -4.183501005e-06    0.000000000e+00    0.000000000e+00    0.000000000e+00    0.000000000e+00
      265250000   -7.043178082e-01    7.618469000e-01    5.589053035e-05    7.957220078e-06    0.000000000e+00    0.000000000e+00    0.000000000e+00    0.000000000e+00
      272500000   -6.131086946e-01    8.375869393e-01   -2.713594586e-05    8.825212717e-06    0.000000000e+00    0.000000000e+00    0.000000000e+00    0.000000000e+00
      279750000   -5.127491355e-01    9.021340013e-01   -3.445334733e-05   -1.446716487e-05    0.000000000e+00    0.000000000e+00    0.000000000e+00    0.000000000e+00
      287000000   -4.030999541e-01    9.536826015e-01   -1.790933311e-05    9.302981198e-06    0.000000000e+00    0.000000000e+00    0.000000000e+00    0.000000000e+00
      294250000   -2.858918011e-01    9.925339222e-01    2.976506948e-06    3.574509174e-05    0.000000000e+00    0.000000000e+00    0.000000000e+00    0.000000000e+00
      301500000   -1.638606489e-01    1.016551495e+00   -1.591164619e-05   -6.498768926e-06    0.000000000e+00    0.000000000e+00    0.000000000e+00    0.000000000e+00
      308750000   -3.832339123e-02    1.024384856e+00    4.036165774e-05    7.211230695e-06    0.000000000e+00    0.000000000e+00    0.000000000e+00    0.000000000e+00
      316000000    8.818400651e-02    1.015419364e+00    3.004539758e-05   -7.322989404e-06    0.000000000e+00    0.000000000e+00    0.000000000e+00    0.000000000e+00
      323250000    2.124822438e-01    9.904159904e-01    1.103151590e-05   -6.851553917e-05    0.000000000e+00    0.000000000e+00    0.000000000e+00    0.000000000e+00
      330500000    3.329105973e-01    9.499319196e-01    2.992339432e-05   -9.592622519e-06    0.000000000e+00    0.000000000e+00    0.000000000e+00    0.000000000e+00
      337750000    4.468780458e-01    8.936038017e-01   -2.397596836e-05   -1.638382673e-05    0.000000000e+00    0.000000000e+00    0.000000000e+00    0.000000000e+00
      345000000    5.519284010e-01    8.239645362e-01    1.131184399e-05   -2.212636173e-05    0.000000000e+00    0.000000000e+00    0.000000000e+00    0.000000000e+00
      352250000    6.478839517e-01    7.426845431e-01   -6.850808859e-06   -1.361500472e-05    0.000000000e+00    0.000000000e+00    0.000000000e+00    0.000000000e+00
      359500000    7.313163877e-01    6.504081488e-01   -1.067016274e-05   -2.290122211e-05    0.000000000e+00    0.000000000e+00    0.000000000e+00    0.000000000e+00
      366750000    8.029479384e-01    5.492824912e-01    5.852431059e-06    7.417052984e-06    0.000000000e+00    0.000000000e+00    0.000000000e+00    0.000000000e+00
      374000000    8.604632616e-01    4.419499934e-01   -1.145806164e-05    2.914573997e-05    0.000000000e+00    0.000000000e+00    0.000000000e+00    0.000000000e+00
      381250000    9.049708247e-01    3.284007609e-01   -2.667959780e-05    1.146644354e-05    0.000000000e+00    0.000000000e+00    0.000000000e+00    0.000000000e+00
      388500000    9.351743460e-01    2.130114287e-01   -9.423121810e-06   -3.596860915e-05    0.000000000e+00    0.000000000e+00    0.000000000e+00    0.000000000e+00
      395750000    9.514189363e-01    9.540610760e-02    1.530256122e-05   -2.832151949e-06    0.000000000e+00    0.000000000e+00    0.000000000e+00    0.000000000e+00
      403000000    9.543294311e-01   -2.200504951e-02   -4.518777132e-06   -2.118013799e-05    0.000000000e+00    0.000000000e+00    0.000000000e+00    0.000000000e+00
      410250000    9.446304440e-01   -1.368386149e-01   -3.697816283e-05    2.270285040e-05    0.000000000e+00    0.000000000e+00    0.000000000e+00    0.000000000e+00
      417500000    9.227389097e-01   -2.491172105e-01   -1.030880958e-05    1.662038267e-05    0.000000000e+00    0.000000000e+00    0.000000000e+00    0.000000000e+00
      424750000    8.891699314e-01   -3.579016626e-01    3.538466990e-05   -7.299706340e-06    0.000000000e+00    0.000000000e+00    0.000000000e+00    0.000000000e+00
      432000000    8.440622091e-01   -4.607380033e-01    9.100884199e-06   -5.111657083e-05    0.000000000e+00    0.000000000e+00    0.000000000e+00    0.000000000e+00
      439250000    7.893684506e-01   -5.578189492e-01   -5.689449608e-06    2.651382238e-05    0.000000000e+00    0.000000000e+00    0.000000000e+00    0.000000000e+00
      446500000    7.249309421e-01   -6.476347446e-01   -4.911515862e-05    3.307964653e-05    0.000000000e+00    0.000000000e+00    0.000000000e+00    0.000000000e+00
      453750000    6.520915031e-01   -7.305805087e-01    4.913005978e-05    1.489184797e-05    0.000000000e+00    0.000000000e+00    0.000000000e+00    0.000000000e+00
      461000000    5.710865855e-01   -8.044973612e-01   -3.626849502e-05   -1.321453601e-05    0.000000000e+00    0.000000000e+00    0.000000000e+00    0.000000000e+00
      468250000    4.835734963e-01   -8.688767552e-01    3.218092024e-05   -5.011446774e-06    0.000000000e+00    0.000000000e+00    0.000000000e+00    0.000000000e+00
      475500000    3.882200122e-01   -9.249043465e-01    3.367476165e-05   -3.399420530e-05    0.000000000e+00    0.000000000e+00    0.000000000e+00    0.000000000e+00
      482750000    2.891001999e-01   -9.709016085e-01   -9.537674487e-06    1.105200499e-05    0.000000000e+00    0.000000000e+00    0.000000000e+00    0.000000000e+00
      490000000    1.857842803e-01   -1.006336689e+00    1.390930265e-05    2.527795732e-05    0.000000000e+00    0.000000000e+00    0.000000000e+00    0.000000000e+00
      497250000    7.818553597e-02   -1.030348420e+00    3.195088357e-05   -4.519242793e-05    0.000000000e+00    0.000000000e+00    0.000000000e+00    0.000000000e+00
      504500000   -3.224612772e-02   -1.042483807e+00    2.569798380e-05    1.523643732e-05    0.000000000e+00    0.000000000e+00    0.000000000e+00    0.000000000e+00
      511750000   -1.429337561e-01   -1.044010758e+00   -2.724118531e-06   -1.871958375e-07    0.000000000e+00    0.000000000e+00    0.000000000e+00    0.000000000e+00
      519000000   -2.546124756e-01   -1.033051848e+00   -3.008637577e-05   -5.029141903e-07    0.000000000e+00    0.000000000e+00    0.000000000e+00    0.000000000e+00
      526250000   -3.650478125e-01   -1.009387493e+00   -5.718320608e-07   -4.791654646e-06    0.000000000e+00    0.000000000e+00    0.000000000e+00    0.000000000e+00
      533500000   -4.732080400e-01   -9.732303619e-01    4.832632840e-06    6.305053830e-07    0.000000000e+00    0.000000000e+00    0.000000000e+00    0.000000000e+00
      540750000   -5.776956677e-01   -9.249574542e-01    1.580733806e-05    1.425016671e-05    0.000000000e+00    0.000000000e+00    0.000000000e+00    0.000000000e+00
      548000000   -6.761049628e-01   -8.662712574e-01    4.165805876e-06    1.506041735e-05    0.000000000e+00    0.000000000e+00    0.000000000e+00    0.000000000e+00
      555250000   -7.681686878e-01   -7.934635282e-01   -2.982374281e-05    3.417022526e-06    0.000000000e+00    0.000000000e+00    0.000000000e+00    0.000000000e+00
      562500000   -8.516041636e-01   -7.104008794e-01   -4.482455552e-06    1.040380448e-05    0.000000000e+00    0.000000000e+00    0.000000000e+00    0.000000000e+00
      569750000   -9.241687655e-01   -6.186004877e-01    2.322159708e-05    5.159527063e-07    0.000000000e+00    0.000000000e+00    0.000000000e+00    0.000000000e+00
      577000000   -9.867125750e-01   -5.173953176e-01   -1.200754195e-05   -4.659034312e-05    0.000000000e+00    0.000000000e+00    0.000000000e+00    0.000000000e+00
      584250000   -1.036491036e+00   -4.080843031e-01   -1.270230860e-05    3.090221435e-05    0.000000000e+00    0.000000000e+00    0.000000000e+00    0.000000000e+00
      591500000   -1.073498845e+00   -2.960079908e-01    2.483278513e-05    2.412777394e-05    0.000000000e+00    0.000000000e+00    0.000000000e+00    0.000000000e+00
      598750000   -1.095822453e+00   -1.764344722e-01   -1.599453390e-05   -3.714766353e-05    0.000000000e+00    0.000000000e+00    0.000000000e+00    0.000000000e+00
      606000000   -1.103671908e+00   -5.668615177e-02   -1.011788845e-05    3.487709910e-05    0.000000000e+00    0.000000000e+00    0.000000000e+00    0.000000000e+00
      613250000   -1.097272992e+00    6.213853136e-02    2.337712795e-05   -2.253800631e-05    0.000000000e+00    0.000000000e+00    0.000000000e+00    0.000000000e+00
      620500000   -1.076261759e+00    1.804417521e-01    6.230175495e-05   -1.207925379e-05    0.000000000e+00    0.000000000e+00    0.000000000e+00    0.000000000e+00
      627750000   -1.040344715e+00    2.955710888e-01    1.161824912e-05   -2.098642290e-05    0.000000000e+00    0.000000000e+00    0.000000000e+00    0.000000000e+00
      635000000   -9.925625920e-01    4.012579620e-01   -5.457550287e-06    1.191161573e-06    0.000000000e+00    0.000000000e+00    0.000000000e+00    0.000000000e+00
      642250000   -9.315100908e-01    5.031960011e-01    2.748146653e-05   -6.927642971e-05    0.000000000e+00    0.000000000e+00    0.000000000e+00    0.000000000e+00
      649500000   -8.601171970e-01    5.945122242e-01    2.613104880e-05    1.551210880e-05    0.000000000e+00    0.000000000e+00    0.000000000e+00    0.000000000e+00
      656750000   -7.791379690e-01    6.765192747e-01    1.080613583e-05   -1.370720565e-05    0.000000000e+00    0.000000000e+00    0.000000000e+00    0.000000000e+00
      664000000   -6.895623207e-01    7.474133968e-01    1.353677362e-05   -1.611281186e-05    0.000000000e+00    0.000000000e+00    0.000000000e+00    0.000000000e+00
      671250000   -5.933683515e-01    8.073701262e-01    8.686445653e-06   -2.065580338e-05    0.000000000e+00    0.000000000e+00    0.000000000e+00    0.000000000e+00
      678500000   -4.931012094e-01    8.552875519e-01    3.440305591e-05   -1.776125282e-05    0.000000000e+00    0.000000000e+00    0.000000000e+00    0.000000000e+00
      685750000   -3.878689706e-01    8.905889988e-01    2.525281161e-05   -1.938641071e-05    0.000000000e+00    0.000000000e+00    0.000000000e+00    0.000000000e+00
      693000000   -2.821941078e-01    9.145895839e-01    1.847092062e-05    7.943250239e-06    0.000000000e+00    0.000000000e+00    0.000000000e+00    0.000000000e+00
      700250000   -1.756028086e-01    9.254219532e-01    1.201406121e-05   -4.150625318e-05    0.000000000e+00    0.000000000e+00    0.000000000e+00    0.000000000e+00
      707500000   -6.805048883e-02    9.262607098e-01    6.583519280e-06   -3.157183528e-07    0.000000000e+00    0.000000000e+00    0.000000000e+00    0.000000000e+00
      714750000    3.681656346e-02    9.144747853e-01    1.286715269e-05    1.521874219e-05    0.000000000e+00    0.000000000e+00    0.000000000e+00    0.000000000e+00
      722000000    1.378079951e-01    8.940116167e-01   -4.142615944e-05   -1.453794539e-05    0.000000000e+00    0.000000000e+00    0.000000000e+00    0.000000000e+00
      729250000    2.369532883e-01    8.620167375e-01    4.582200199e-05    3.726314753e-05    0.000000000e+00    0.000000000e+00    0.000000000e+00    0.000000000e+00
      736500000    3.300777078e-01    8.211582899e-01   -1.933332533e-05   -2.478435636e-05    0.000000000e+00    0.000000000e+00    0.000000000e+00    0.000000000e+00
      743750000    4.182510674e-01    7.711159587e-01    5.486421287e-06   -2.323463559e-05    0.000000000e+00    0.000000000e+00    0.000000000e+00    0.000000000e+00
      751000000    5.017158389e-01    7.133476734e-01   -2.284999937e-05    3.224238753e-05    0.000000000e+00    0.000000000e+00    0.000000000e+00    0.000000000e+00
      758250000    5.773180723e-01    6.473655701e-01    1.535471529e-05   -2.481415868e-05    0.000000000e+00    0.000000000e+00    0.000000000e+00    0.000000000e+00
      765500000    6.459303498e-01    5.752043724e-01   -2.583302557e-05    3.299769014e-05    0.000000000e+00    0.000000000e+00    0.000000000e+00    0.000000000e+00
      772750000    7.084200978e-01    4.952169359e-01   -1.740455627e-05    4.129391164e-05    0.000000000e+00    0.000000000e+00    0.000000000e+00    0.000000000e+00
      780000000    7.604143620e-01    4.124914706e-01   -1.976545900e-05   -9.255483747e-06    0.000000000e+00    0.000000000e+00    0.000000000e+00    0.000000000e+00
      787250000    8.072230816e-01    3.203930855e-01   -1.860409975e-05    3.625918180e-05    0.000000000e+00    0.000000000e+00    0.000000000e+00    0.000000000e+00
      794500000    8.434821963e-01    2.266051173e-01   -1.079123467e-05    4.597473890e-05    0.000000000e+00    0.000000000e+00    0.000000000e+00    0.000000000e+00
      801750000    8.697975874e-01    1.281117946e-01    1.366063952e-05    1.559592783e-05    0.000000000e+00    0.000000000e+00    0.000000000e+00    0.000000000e+00
      809000000    8.868487477e-01    2.668306231e-02   -2.226792276e-06   -3.480631858e-05    0.000000000e+00    0.000000000e+00    0.000000000e+00    0.000000000e+00
      816250000    8.929974437e-01   -7.693435997e-02    4.491861910e-05    1.049600542e-06    0.000000000e+00    0.000000000e+00    0.000000000e+00    0.000000000e+00
      823500000    8.888465166e-01   -1.828133464e-01   -5.029141903e-08   -3.055855632e-05    0.000000000e+00    0.000000000e+00    0.000000000e+00    0.000000000e+00
      830750000    8.731374145e-01   -2.889468074e-01    4.013720900e-05   -1.902133226e-05    0.000000000e+00    0.000000000e+00    0.000000000e+00    0.000000000e+00
      838000000    8.454932570e-01   -3.923398852e-01    7.672235370e-06   -1.130439341e-05    0.000000000e+00    0.000000000e+00    0.000000000e+00    0.000000000e+00
      845250000    8.059858680e-01   -4.945218861e-01   -7.988885045e-06   -6.392598152e-06    0.000000000e+00    0.000000000e+00    0.000000000e+00    0.000000000e+00
      852500000    7.546133399e-01   -5.934526324e-01   -1.843739301e-05    6.003305316e-06    0.000000000e+00    0.000000000e+00    0.000000000e+00    0.000000000e+00
      859750000    6.906337738e-01   -6.867406368e-01    2.256594598e-05    1.218076795e-05    0.000000000e+00    0.000000000e+00    0.000000000e+00    0.000000000e+00
      867000000    6.143586040e-01   -7.744256258e-01   -2.400297672e-05   -3.732275218e-05    0.000000000e+00    0.000000000e+00    0.000000000e+00    0.000000000e+00
      874250000    5.297491550e-01   -8.519138098e-01    1.246202737e-05   -2.412311733e-05    0.000000000e+00    0.000000000e+00    0.000000000e+00    0.000000000e+00
      881500000    4.304941893e-01   -9.206497669e-01    2.678856254e-05    2.295151353e-05    0.000000000e+00    0.000000000e+00    0.000000000e+00    0.000000000e+00
      888750000    3.257531822e-01   -9.755440354e-01   -3.383494914e-06   -3.945268691e-05    0.000000000e+00    0.000000000e+00    0.000000000e+00    0.000000000e+00
      896000000    2.100788802e-01   -1.018148541e+00    1.571234316e-05   -4.750024527e-05    0.000000000e+00    0.000000000e+00    0.000000000e+00    0.000000000e+00
      903250000    9.073017538e-02   -1.045383573e+00   -5.854293704e-06    1.324620098e-05    0.000000000e+00    0.000000000e+00    0.000000000e+00    0.000000000e+00
      910500000   -3.551499918e-02   -1.055983424e+00   -3.885943443e-05   -1.115072519e-05    0.000000000e+00    0.000000000e+00    0.000000000e+00    0.000000000e+00
      917750000   -1.592468172e-01   -1.049216509e+00   -1.827441156e-05    3.950111568e-05    0.000000000e+00    0.000000000e+00    0.000000000e+00    0.000000000e+00
      925000000   -2.802127898e-01   -1.027190089e+00    1.970678568e-06   -2.622604370e-05    0.000000000e+00    0.000000000e+00    0.000000000e+00    0.000000000e+00
      932250000   -4.023995399e-01   -9.860997200e-01    3.729201853e-05   -3.745686263e-05    0.000000000e+00    0.000000000e+00    0.000000000e+00    0.000000000e+00
      939500000   -5.126115084e-01   -9.311251640e-01   -3.185123205e-07    4.441477358e-06    0.000000000e+00    0.000000000e+00    0.000000000e+00    0.000000000e+00
      946750000   -6.140363216e-01   -8.616242409e-01   -1.382455230e-05    1.562014222e-05    0.000000000e+00    0.000000000e+00    0.000000000e+00    0.000000000e+00
      954000000   -7.038247585e-01   -7.793608904e-01    3.259722143e-05   -6.658956409e-07    0.000000000e+00    0.000000000e+00    0.000000000e+00    0.000000000e+00
      961250000   -7.817842960e-01   -6.880887151e-01    2.052541822e-05   -1.832749695e-05    0.000000000e+00    0.000000000e+00    0.000000000e+00    0.000000000e+00
      968500000   -8.467409611e-01   -5.860815644e-01   -3.257766366e-06    1.191906631e-05    0.000000000e+00    0.000000000e+00    0.000000000e+00    0.000000000e+00
      975750000   -8.942229152e-01   -4.826776385e-01   -6.755813956e-06    4.383269697e-05    0.000000000e+00    0.000000000e+00    0.000000000e+00    0.000000000e+00
      983000000   -9.296486974e-01   -3.725056350e-01    3.342330456e-05    1.190230250e-06    0.000000000e+00    0.000000000e+00    0.000000000e+00    0.000000000e+00
      990250000   -9.484671950e-01   -2.643361092e-01   -1.374725252e-05    3.911275417e-05    0.000000000e+00    0.000000000e+00    0.000000000e+00    0.000000000e+00
      997500000   -9.545295238e-01   -1.556817293e-01   -3.010500222e-05   -6.315298378e-06    0.000000000e+00    0.000000000e+00    0.000000000e+00    0.000000000e+00
     1004750000   -9.482718110e-01   -5.070776492e-02   -1.270603389e-05    9.491108358e-06    0.000000000e+00    0.000000000e+00    0.000000000e+00    0.000000000e+00
     1012000000   -9.295932055e-01    5.021760240e-02   -1.263339072e-05   -1.449137926e-06    0.000000000e+00    0.000000000e+00    0.000000000e+00    0.000000000e+00
     1019250000   -9.012672305e-01    1.460775882e-01    1.290626824e-05    1.777056605e-05    0.000000000e+00    0.000000000e+00    0.000000000e+00    0.000000000e+00
     1026500000   -8.627557158e-01    2.345805019e-01   -3.554951400e-05   -9.271316230e-06    0.000000000e+00    0.000000000e+00    0.000000000e+00    0.000000000e+00
     1033750000   -8.163469434e-01    3.185866773e-01   -1.638848335e-05   -4.983320832e-05    0.000000000e+00    0.000000000e+00    0.000000000e+00    0.000000000e+00
     1041000000   -7.642608285e-01    3.936680257e-01    3.444310278e-05   -9.599141777e-06    0.000000000e+00    0.000000000e+00    0.000000000e+00    0.000000000e+00
