! NanoVNA-App
! Date: 2024-06-25 16:11:27
! Start: 200MHz Stop: 6GHz Points: 801
! S-Parameter data: F S11 S21 S12 S22
# Hz S RI R 50
!     Frequency           S11_Real           S11_Imag           S21_Real           S21_Imag           S12_Real           S12_Imag           S22_Real           S22_Imag
      200000000   -9.986689091e-01   -1.180453300e-01    2.149306238e-05    2.129562199e-05    0.000000000e+00    0.000000000e+00    0.000000000e+00    0.000000000e+00
      207250000   -1.010063648e+00   -1.971735433e-02    4.895031452e-06    1.391395926e-06    0.000000000e+00    0.000000000e+00    0.000000000e+00    0.000000000e+00
      214500000   -1.011713386e+00    8.170313388e-02    2.465117723e-05   -1.064687967e-05    0.000000000e+00    0.000000000e+00    0.000000000e+00    0.000000000e+00
      221750000   -1.003362179e+00    1.845906079e-01   -1.200102270e-05   -3.165472299e-05    0.000000000e+00    0.000000000e+00    0.000000000e+00    0.000000000e+00
      229000000   -9.832534790e-01    2.877084613e-01   -1.844950020e-06   -1.597777009e-05    0.000000000e+00    0.000000000e+00    0.000000000e+00    0.000000000e+00
      236250000   -9.508544803e-01    3.898665309e-01   -4.118680954e-05   -2.907309681e-05    0.000000000e+00    0.000000000e+00    0.000000000e+00    0.000000000e+00
      243500000   -9.071441889e-01    4.902886450e-01    5.548819900e-06    2.937391400e-05    0.000000000e+00    0.000000000e+00    0.000000000e+00    0.000000000e+00
      250750000   -8.517704010e-01    5.866681933e-01    3.149732947e-06   -3.554951400e-05    0.000000000e+00    0.000000000e+00    0.000000000e+00    0.000000000e+00
      258000000   -7.841577530e-01    6.782156825e-01    1.518800855e-05   -1.219008118e-05    0.000000000e+00    0.000000000e+00    0.000000000e+00    0.000000000e+00
      265250000   -7.042481899e-01    7.617692947e-01    2.716761082e-05   -1.547858119e-05    0.000000000e+00    0.000000000e+00    0.000000000e+00    0.000000000e+00
      272500000   -6.129463315e-01    8.370110989e-01    8.251518011e-06    7.863156497e-06    0.000000000e+00    0.000000000e+00    0.000000000e+00    0.000000000e+00
      279750000   -5.131376386e-01    9.015676379e-01   -2.516433597e-06    9.479001164e-06    0.000000000e+00    0.000000000e+00    0.000000000e+00    0.000000000e+00
      287000000   -4.023707211e-01    9.542119503e-01    2.820044756e-05    3.450550139e-05    0.000000000e+00    0.000000000e+00    0.000000000e+00    0.000000000e+00
      294250000   -2.859025598e-01    9.927097559e-01   -9.302049875e-06    1.709535718e-05    0.000000000e+00    0.000000000e+00    0.000000000e+00    0.000000000e+00
      301500000   -1.633600891e-01    1.015635252e+00   -2.921000123e-05   -2.849847078e-07    0.000000000e+00    0.000000000e+00    0.000000000e+00    0.000000000e+00
      308750000   -3.809819371e-02    1.023999572e+00    1.505110413e-05   -4.094094038e-06    0.000000000e+00    0.000000000e+00    0.000000000e+00    0.000000000e+00
      316000000    8.803424984e-02    1.015431881e+00   -2.807006240e-06    2.693198621e-05    0.000000000e+00    0.000000000e+00    0.000000000e+00    0.000000000e+00
      323250000    2.124500722e-01    9.904165864e-01    1.003034413e-06   -3.561377525e-06    0.000000000e+00    0.000000000e+00    0.000000000e+00    0.000000000e+00
      330500000    3.329387009e-01    9.497281313e-01   -3.153458238e-05   -4.683993757e-05    0.000000000e+00    0.000000000e+00    0.000000000e+00    0.000000000e+00
      337750000    4.466355145e-01    8.940808773e-01    3.309920430e-06   -3.507360816e-06    0.000000000e+00    0.000000000e+00    0.000000000e+00    0.000000000e+00
      345000000    5.521480441e-01    8.243237734e-01    8.841976523e-06   -4.429370165e-05    0.000000000e+00    0.000000000e+00    0.000000000e+00    0.000000000e+00
      352250000    6.478390098e-01    7.433945537e-01   -3.282632679e-05    1.821666956e-06    0.000000000e+00    0.000000000e+00    0.000000000e+00    0.000000000e+00
      359500000    7.315295935e-01    6.501336694e-01   -3.257952631e-05    1.820083708e-05    0.000000000e+00    0.000000000e+00    0.000000000e+00    0.000000000e+00
      366750000    8.028584123e-01    5.492728353e-01   -3.652274609e-05   -4.557613283e-05    0.000000000e+00    0.000000000e+00    0.000000000e+00    0.000000000e+00
      374000000    8.603055477e-01    4.407567382e-01    5.069188774e-06   -3.683380783e-05    0.000000000e+00    0.000000000e+00    0.000000000e+00    0.000000000e+00
      381250000    9.050024748e-01    3.283241093e-01    1.266505569e-05    2.064183354e-05    0.000000000e+00    0.000000000e+00    0.000000000e+00    0.000000000e+00
      388500000    9.347538352e-01    2.127007395e-01   -2.060737461e-05   -2.296734601e-05    0.000000000e+00    0.000000000e+00    0.000000000e+00    0.000000000e+00
      395750000    9.512342215e-01    9.545861185e-02    4.135910422e-05   -1.849606633e-05    0.000000000e+00    0.000000000e+00    0.000000000e+00    0.000000000e+00
      403000000    9.546604156e-01   -2.161041647e-02   -8.345581591e-06    9.214505553e-06    0.000000000e+00    0.000000000e+00    0.000000000e+00    0.000000000e+00
      410250000    9.446169734e-01   -1.370261014e-01    1.507066190e-05    8.092261851e-06    0.000000000e+00    0.000000000e+00    0.000000000e+00    0.000000000e+00
      417500000    9.231873751e-01   -2.494597286e-01    2.212449908e-05    3.525987267e-05    0.000000000e+00    0.000000000e+00    0.000000000e+00    0.000000000e+00
      424750000    8.894235492e-01   -3.580414355e-01    8.093193173e-07    1.314748079e-05    0.000000000e+00    0.000000000e+00    0.000000000e+00    0.000000000e+00
      432000000    8.445305228e-01   -4.611902535e-01   -1.759547740e-05   -2.139247954e-05    0.000000000e+00    0.000000000e+00    0.000000000e+00    0.000000000e+00
      439250000    7.890270948e-01   -5.582295060e-01    6.428919733e-06   -5.106441677e-06    0.000000000e+00    0.000000000e+00    0.000000000e+00    0.000000000e+00
      446500000    7.249918580e-01   -6.475536227e-01    6.840564311e-06   -2.011097968e-05    0.000000000e+00    0.000000000e+00    0.000000000e+00    0.000000000e+00
      453750000    6.512686014e-01   -7.303625345e-01   -3.574416041e-06   -2.188887447e-05    0.000000000e+00    0.000000000e+00    0.000000000e+00    0.000000000e+00
      461000000    5.706444383e-01   -8.040155768e-01   -6.684195250e-05   -2.319738269e-05    0.000000000e+00    0.000000000e+00    0.000000000e+00    0.000000000e+00
      468250000    4.831379950e-01   -8.691252470e-01   -2.155918628e-05   -1.526158303e-05    0.000000000e+00    0.000000000e+00    0.000000000e+00    0.000000000e+00
      475500000    3.881307542e-01   -9.251044393e-01   -1.077167690e-05   -1.220405102e-05    0.000000000e+00    0.000000000e+00    0.000000000e+00    0.000000000e+00
      482750000    2.890988290e-01   -9.708722234e-01   -1.352280378e-06   -2.022832632e-05    0.000000000e+00    0.000000000e+00    0.000000000e+00    0.000000000e+00
      490000000    1.852047890e-01   -1.006221652e+00    4.474073648e-05   -6.585288793e-05    0.000000000e+00    0.000000000e+00    0.000000000e+00    0.000000000e+00
      497250000    7.811066508e-02   -1.030253887e+00    4.866253585e-05   -2.362392843e-05    0.000000000e+00    0.000000000e+00    0.000000000e+00    0.000000000e+00
      504500000   -3.177405149e-02   -1.042772532e+00    2.903863788e-05    2.862885594e-06    0.000000000e+00    0.000000000e+00    0.000000000e+00    0.000000000e+00
      511750000   -1.437149942e-01   -1.043655634e+00   -2.236664295e-05    2.172775567e-06    0.000000000e+00    0.000000000e+00    0.000000000e+00    0.000000000e+00
      519000000   -2.548173070e-01   -1.033195257e+00   -1.533981413e-05    1.039169729e-05    0.000000000e+00    0.000000000e+00    0.000000000e+00    0.000000000e+00
      526250000   -3.654620051e-01   -1.009326339e+00   -9.804964066e-06   -8.553266525e-06    0.000000000e+00    0.000000000e+00    0.000000000e+00    0.000000000e+00
      533500000   -4.735510349e-01   -9.728968740e-01   -7.451511919e-06   -1.257658005e-05    0.000000000e+00    0.000000000e+00    0.000000000e+00    0.000000000e+00
      540750000   -5.777255297e-01   -9.254458547e-01   -5.643814802e-06    2.595596015e-06    0.000000000e+00    0.000000000e+00    0.000000000e+00    0.000000000e+00
      548000000   -6.769680977e-01   -8.648778796e-01   -1.244805753e-05    3.571808338e-05    0.000000000e+00    0.000000000e+00    0.000000000e+00    0.000000000e+00
      555250000   -7.680498362e-01   -7.924393415e-01   -1.499895006e-05   -2.778787166e-05    0.000000000e+00    0.000000000e+00    0.000000000e+00    0.000000000e+00
      562500000   -8.507018089e-01   -7.102344632e-01    6.875954568e-06    1.650489867e-05    0.000000000e+00    0.000000000e+00    0.000000000e+00    0.000000000e+00
      569750000   -9.246578813e-01   -6.181246042e-01    1.180171967e-05   -9.330920875e-06    0.000000000e+00    0.000000000e+00    0.000000000e+00    0.000000000e+00
      577000000   -9.870552421e-01   -5.170554519e-01    1.955777407e-06   -9.138137102e-06    0.000000000e+00    0.000000000e+00    0.000000000e+00    0.000000000e+00
      584250000   -1.037315607e+00   -4.089668393e-01   -1.722667366e-05    7.871538401e-06    0.000000000e+00    0.000000000e+00    0.000000000e+00    0.000000000e+00
      591500000   -1.073240876e+00   -2.942115366e-01    5.252659321e-06   -2.505071461e-05    0.000000000e+00    0.000000000e+00    0.000000000e+00    0.000000000e+00
      598750000   -1.095319510e+00   -1.764511466e-01    8.856877685e-06   -2.544373274e-06    0.000000000e+00    0.000000000e+00    0.000000000e+00    0.000000000e+00
      606000000   -1.103724360e+00   -5.745912716e-02   -6.155110896e-06   -1.413654536e-05    0.000000000e+00    0.000000000e+00    0.000000000e+00    0.000000000e+00
      613250000   -1.097305775e+00    6.170236692e-02    3.875512630e-05   -3.345590085e-05    0.000000000e+00    0.000000000e+00    0.000000000e+00    0.000000000e+00
      620500000   -1.076186299e+00    1.811510623e-01   -3.665499389e-05    3.318302333e-06    0.000000000e+00    0.000000000e+00    0.000000000e+00    0.000000000e+00
      627750000   -1.040686965e+00    2.951272130e-01   -2.298131585e-05    3.483053297e-05    0.000000000e+00    0.000000000e+00    0.000000000e+00    0.000000000e+00
      635000000   -9.924097657e-01    4.022521377e-01   -5.816109478e-06    1.362804323e-05    0.000000000e+00    0.000000000e+00    0.000000000e+00    0.000000000e+00
      642250000   -9.319666624e-01    5.031219125e-01   -4.957057536e-05   -8.912757039e-07    0.000000000e+00    0.000000000e+00    0.000000000e+00    0.000000000e+00
      649500000   -8.601178527e-01    5.945789814e-01    9.980052710e-06    1.373607665e-05    0.000000000e+00    0.000000000e+00    0.000000000e+00    0.000000000e+00
      656750000   -7.784025073e-01    6.770676374e-01    1.112744212e-05    4.507135600e-05    0.000000000e+00    0.000000000e+00    0.000000000e+00    0.000000000e+00
      664000000   -6.897661686e-01    7.477776408e-01   -1.111254096e-05   -3.287568688e-07    0.000000000e+00    0.000000000e+00    0.000000000e+00    0.000000000e+00
      671250000   -5.935785174e-01    8.071120381e-01   -1.885555685e-05    3.428477794e-05    0.000000000e+00    0.000000000e+00    0.000000000e+00    0.000000000e+00
      678500000   -4.924859703e-01    8.548532128e-01   -2.044439316e-05    9.316951036e-06    0.000000000e+00    0.000000000e+00    0.000000000e+00    0.000000000e+00
      685750000   -3.876982629e-01    8.910493255e-01   -2.743676305e-05   -3.408268094e-05    0.000000000e+00    0.000000000e+00    0.000000000e+00    0.000000000e+00
      693000000   -2.825595140e-01    9.145435095e-01    4.412513226e-05    1.985579729e-06    0.000000000e+00    0.000000000e+00    0.000000000e+00    0.000000000e+00
      700250000   -1.746204346e-01    9.261766672e-01    7.955357432e-06   -2.243649215e-05    0.000000000e+00    0.000000000e+00    0.000000000e+00    0.000000000e+00
      707500000   -6.788084656e-02    9.265608788e-01   -4.739314318e-05    2.074893564e-05    0.000000000e+00    0.000000000e+00    0.000000000e+00    0.000000000e+00
      714750000    3.643025085e-02    9.145714045e-01   -3.323610872e-05    1.492816955e-05    0.000000000e+00    0.000000000e+00    0.000000000e+00    0.000000000e+00
      722000000    1.392418742e-01    8.930712342e-01    7.862225175e-06   -1.366529614e-05    0.000000000e+00    0.000000000e+00    0.000000000e+00    0.000000000e+00
      729250000    2.360879779e-01    8.622137308e-01   -1.218542457e-05    5.187466741e-06    0.000000000e+00    0.000000000e+00    0.000000000e+00    0.000000000e+00
      736500000    3.293753564e-01    8.216928840e-01    8.463859558e-06    1.543667167e-05    0.000000000e+00    0.000000000e+00    0.000000000e+00    0.000000000e+00
      743750000    4.179991484e-01    7.713751793e-01   -4.097726196e-05    1.937150955e-07    0.000000000e+00    0.000000000e+00    0.000000000e+00    0.000000000e+00
      751000000    5.010013580e-01    7.130156755e-01    3.133900464e-06    2.166628838e-05    0.000000000e+00    0.000000000e+00    0.000000000e+00    0.000000000e+00
      758250000    5.769393444e-01    6.472756267e-01    2.927146852e-06    1.365318894e-05    0.000000000e+00    0.000000000e+00    0.000000000e+00    0.000000000e+00
      765500000    6.464885473e-01    5.747193098e-01    1.552421600e-05   -1.125782728e-05    0.000000000e+00    0.000000000e+00    0.000000000e+00    0.000000000e+00
      772750000    7.084768414e-01    4.952494502e-01    4.453584552e-06    3.165192902e-05    0.000000000e+00    0.000000000e+00    0.000000000e+00    0.000000000e+00
      780000000    7.601278424e-01    4.121727347e-01   -8.304882795e-05   -2.783630043e-05    0.000000000e+00    0.000000000e+00    0.000000000e+00    0.000000000e+00
      787250000    8.065289855e-01    3.203834891e-01   -1.668650657e-05    4.551373422e-06    0.000000000e+00    0.000000000e+00    0.000000000e+00    0.000000000e+00
      794500000    8.437368870e-01    2.259307951e-01    1.713819802e-05   -2.150144428e-05    0.000000000e+00    0.000000000e+00    0.000000000e+00    0.000000000e+00
      801750000    8.699378371e-01    1.277916580e-01    2.252589911e-05   -3.830529749e-06    0.000000000e+00    0.000000000e+00    0.000000000e+00    0.000000000e+00
      809000000    8.866916299e-01    2.608714625e-02   -1.448579133e-05   -6.368290633e-05    0.000000000e+00    0.000000000e+00    0.000000000e+00    0.000000000e+00
      816250000    8.931987286e-01   -7.740066200e-02    1.378171146e-05   -1.043174416e-05    0.000000000e+00    0.000000000e+00    0.000000000e+00    0.000000000e+00
      823500000    8.883993030e-01   -1.835570484e-01   -2.064742148e-06    3.492459655e-07    0.000000000e+00    0.000000000e+00    0.000000000e+00    0.000000000e+00
      830750000    8.730581999e-01   -2.870612442e-01    1.794192940e-05    3.401376307e-05    0.000000000e+00    0.000000000e+00    0.000000000e+00    0.000000000e+00
      838000000    8.460654616e-01   -3.927273154e-01    1.119170338e-05    1.878198236e-05    0.000000000e+00    0.000000000e+00    0.000000000e+00    0.000000000e+00
      845250000    8.060756326e-01   -4.947115481e-01   -1.171883196e-05    4.565343261e-06    0.000000000e+00    0.000000000e+00    0.000000000e+00    0.000000000e+00
      852500000    7.538142204e-01   -5.934011936e-01   -4.469417036e-06   -1.955777407e-08    0.000000000e+00    0.000000000e+00    0.000000000e+00    0.000000000e+00
      859750000    6.907300949e-01   -6.870633364e-01   -5.157012492e-05    5.885027349e-06    0.000000000e+00    0.000000000e+00    0.000000000e+00    0.000000000e+00
      867000000    6.148133874e-01   -7.740207314e-01   -9.596347809e-06    5.449168384e-06    0.000000000e+00    0.000000000e+00    0.000000000e+00    0.000000000e+00
      874250000    5.290268660e-01   -8.514919877e-01   -2.461858094e-05    9.410083294e-06    0.000000000e+00    0.000000000e+00    0.000000000e+00    0.000000000e+00
      881500000    4.313824475e-01   -9.203550220e-01    1.615844667e-06   -8.348375559e-06    0.000000000e+00    0.000000000e+00    0.000000000e+00    0.000000000e+00
      888750000    3.242692351e-01   -9.762396216e-01   -3.055389971e-05    2.358760685e-05    0.000000000e+00    0.000000000e+00    0.000000000e+00    0.000000000e+00
      896000000    2.105212063e-01   -1.018158436e+00   -4.703644663e-05    2.904236317e-05    0.000000000e+00    0.000000000e+00    0.000000000e+00    0.000000000e+00
      903250000    8.995327353e-02   -1.045399308e+00    4.651118070e-05   -7.915310562e-06    0.000000000e+00    0.000000000e+00    0.000000000e+00    0.000000000e+00
      910500000   -3.543161228e-02   -1.055932760e+00    4.530139267e-05   -2.621486783e-05    0.000000000e+00    0.000000000e+00    0.000000000e+00    0.000000000e+00
      917750000   -1.596672237e-01   -1.048927784e+00   -1.228880137e-05    3.322958946e-05    0.000000000e+00    0.000000000e+00    0.000000000e+00    0.000000000e+00
      925000000   -2.810622454e-01   -1.027088404e+00    1.170299947e-05    4.998780787e-05    0.000000000e+00    0.000000000e+00    0.000000000e+00    0.000000000e+00
      932250000   -4.021309614e-01   -9.863830209e-01   -9.164214134e-07    3.313552588e-05    0.000000000e+00    0.000000000e+00    0.000000000e+00    0.000000000e+00
      939500000   -5.119045973e-01   -9.313521981e-01    4.499033093e-05    8.900649846e-06    0.000000000e+00    0.000000000e+00    0.000000000e+00    0.000000000e+00
      946750000   -6.148971319e-01   -8.609366417e-01   -4.198402166e-06    1.580547541e-05    0.000000000e+00    0.000000000e+00    0.000000000e+00    0.000000000e+00
      954000000   -7.036960125e-01   -7.817047238e-01   -2.018734813e-05   -4.528462887e-05    0.000000000e+00    0.000000000e+00    0.000000000e+00    0.000000000e+00
      961250000   -7.819174528e-01   -6.874297261e-01    1.171603799e-06   -1.160800457e-05    0.000000000e+00    0.000000000e+00    0.000000000e+00    0.000000000e+00
      968500000   -8.460266590e-01   -5.874042511e-01   -4.915520549e-06    2.851523459e-05    0.000000000e+00    0.000000000e+00    0.000000000e+00    0.000000000e+00
      975750000   -8.935014009e-01   -4.833655953e-01   -3.590341657e-05   -1.609884202e-05    0.000000000e+00    0.000000000e+00    0.000000000e+00    0.000000000e+00
      983000000   -9.289646149e-01   -3.735866547e-01    1.164618880e-05   -2.610031515e-05    0.000000000e+00    0.000000000e+00    0.000000000e+00    0.000000000e+00
      990250000   -9.488223791e-01   -2.647131979e-01    2.608634531e-06   -5.746074021e-05    0.000000000e+00    0.000000000e+00    0.000000000e+00    0.000000000e+00
      997500000   -9.548837543e-01   -1.559131891e-01    1.839175820e-05   -3.059860319e-05    0.000000000e+00    0.000000000e+00    0.000000000e+00    0.000000000e+00
     1004750000   -9.476591349e-01   -5.040164292e-02    3.949552774e-05    5.571171641e-06    0.000000000e+00    0.000000000e+00    0.000000000e+00    0.000000000e+00
     1012000000   -9.294617176e-01    5.065729469e-02    2.732966095e-05   -1.050904393e-05    0.000000000e+00    0.000000000e+00    0.000000000e+00    0.000000000e+00
     1019250000   -9.010152817e-01    1.459119916e-01    1.584365964e-05    1.400057226e-05    0.000000000e+00    0.000000000e+00    0.000000000e+00    0.000000000e+00
     1026500000   -8.626870513e-01    2.348838151e-01    7.450580597e-08    2.282019705e-05    0.000000000e+00    0.000000000e+00    0.000000000e+00    0.000000000e+00
     1033750000   -8.153994679e-01    3.191380501e-01   -1.767929643e-05    3.967247903e-05    0.000000000e+00    0.000000000e+00    0.000000000e+00    0.000000000e+00
     1041000000   -7.631902099e-01    3.948616982e-01   -2.007372677e-05   -1.928675920e-05    0.000000000e+00    0.000000000e+00    0.000000000e+00    0.000000000e+00
