! NanoVNA-App
! Date: 2024-06-25 16:11:32
! Start: 200MHz Stop: 6GHz Points: 801
! S-Parameter data: F S11 S21 S12 S22
# Hz S RI R 50
!     Frequency           S11_Real           S11_Imag           S21_Real           S21_Imag           S12_Real           S12_Imag           S22_Real           S22_Imag
      200000000   -9.982922077e-01   -1.184719652e-01   -5.538575351e-06   -1.170020550e-05    0.000000000e+00    0.000000000e+00    0.000000000e+00    0.000000000e+00
      207250000   -1.010108352e+00   -1.940241456e-02   -1.967512071e-05    4.605390131e-06    0.000000000e+00    0.000000000e+00    0.000000000e+00    0.000000000e+00
      214500000   -1.012200356e+00    8.176823705e-02   -1.475960016e-05   -2.966355532e-05    0.000000000e+00    0.000000000e+00    0.000000000e+00    0.000000000e+00
      221750000   -1.003186822e+00    1.846884191e-01    1.660268754e-05    1.400709152e-05    0.000000000e+00    0.000000000e+00    0.000000000e+00    0.000000000e+00
      229000000   -9.830896258e-01    2.874642909e-01    1.339334995e-05   -1.013092697e-05    0.000000000e+00    0.000000000e+00    0.000000000e+00    0.000000000e+00
      236250000   -9.515576363e-01    3.902425468e-01    1.284573227e-05   -4.289858043e-05    0.000000000e+00    0.000000000e+00    0.000000000e+00    0.000000000e+00
      243500000   -9.078364372e-01    4.901793897e-01    1.832656562e-05    1.617800444e-05    0.000000000e+00    0.000000000e+00    0.000000000e+00    0.000000000e+00
      250750000   -8.518961072e-01    5.869958401e-01    1.583620906e-05    5.168840289e-06    0.000000000e+00    0.000000000e+00    0.000000000e+00    0.000000000e+00
      258000000   -7.833783031e-01    6.779386401e-01    3.958120942e-06    4.321150482e-05    0.000000000e+00    0.000000000e+00    0.000000000e+00    0.000000000e+00
      265250000   -7.052494884e-01    7.622065544e-01    3.278162330e-05   -1.547671854e-05    0.000000000e+00    0.000000000e+00    0.000000000e+00    0.000000000e+00
      272500000   -6.138298512e-01    8.377724886e-01    2.520997077e-05   -5.803070962e-06    0.000000000e+00    0.000000000e+00    0.000000000e+00    0.000000000e+00
      279750000   -5.133106112e-01    9.023731351e-01   -1.276936382e-05    2.689380199e-05    0.000000000e+00    0.000000000e+00    0.000000000e+00    0.000000000e+00
      287000000   -4.027786553e-01    9.542113543e-01   -1.880340278e-05    1.474376768e-05    0.000000000e+00    0.000000000e+00    0.000000000e+00    0.000000000e+00
      294250000   -2.859283984e-01    9.927132130e-01    1.022312790e-05    3.122724593e-06    0.000000000e+00    0.000000000e+00    0.000000000e+00    0.000000000e+00
      301500000   -1.639057845e-01    1.016375661e+00    2.617016435e-05   -1.732911915e-05    0.000000000e+00    0.000000000e+00    0.000000000e+00    0.000000000e+00
      308750000   -3.827657923e-02    1.023933053e+00    1.832935959e-05    1.172069460e-05    0.000000000e+00    0.000000000e+00    0.000000000e+00    0.000000000e+00
      316000000    8.816232532e-02    1.015410662e+00   -8.799135685e-06    1.351442188e-05    0.000000000e+00    0.000000000e+00    0.000000000e+00    0.000000000e+00
      323250000    2.127003819e-01    9.898488522e-01    5.592312664e-05   -4.261732101e-06    0.000000000e+00    0.000000000e+00    0.000000000e+00    0.000000000e+00
      330500000    3.329182267e-01    9.499221444e-01    2.233218402e-05   -3.089103848e-05    0.000000000e+00    0.000000000e+00    0.000000000e+00    0.000000000e+00
      337750000    4.470049143e-01    8.941562772e-01   -2.578366548e-05   -1.863110811e-05    0.000000000e+00    0.000000000e+00    0.000000000e+00    0.000000000e+00
      345000000    5.524108410e-01    8.242427111e-01    9.144656360e-06   -1.903157681e-05    0.000000000e+00    0.000000000e+00    0.000000000e+00    0.000000000e+00
      352250000    6.477812529e-01    7.428305149e-01   -1.799315214e-05    1.292675734e-06    0.000000000e+00    0.000000000e+00    0.000000000e+00    0.000000000e+00
      359500000    7.313486338e-01    6.506733298e-01    2.526119351e-05    3.611575812e-05    0.000000000e+00    0.000000000e+00    0.000000000e+00    0.000000000e+00
      366750000    8.027477264e-01    5.486899018e-01   -2.424418926e-05   -7.074326277e-06    0.000000000e+00    0.000000000e+00    0.000000000e+00    0.000000000e+00
      374000000    8.606879115e-01    4.414300323e-01    2.409704030e-05    2.711080015e-05    0.000000000e+00    0.000000000e+00    0.000000000e+00    0.000000000e+00
      381250000    9.046352506e-01    3.278771937e-01    1.453794539e-05    4.832632840e-06    0.000000000e+00    0.000000000e+00    0.000000000e+00    0.000000000e+00
      388500000    9.348629713e-01    2.122885585e-01    8.392147720e-06    1.545064151e-05    0.000000000e+00    0.000000000e+00    0.000000000e+00    0.000000000e+00
      395750000    9.514641762e-01    9.586798400e-02   -1.543201506e-06   -4.696659744e-06    0.000000000e+00    0.000000000e+00    0.000000000e+00    0.000000000e+00
      403000000    9.545904994e-01   -2.159526385e-02   -3.471318632e-05   -5.295500159e-06    0.000000000e+00    0.000000000e+00    0.000000000e+00    0.000000000e+00
      410250000    9.451346397e-01   -1.370379180e-01   -2.645701170e-05    2.983957529e-06    0.000000000e+00    0.000000000e+00    0.000000000e+00    0.000000000e+00
      417500000    9.236301184e-01   -2.490144521e-01   -6.654113531e-05    4.784297198e-05    0.000000000e+00    0.000000000e+00    0.000000000e+00    0.000000000e+00
      424750000    8.882814646e-01   -3.583498001e-01   -1.916568726e-05   -2.080388367e-05    0.000000000e+00    0.000000000e+00    0.000000000e+00    0.000000000e+00
      432000000    8.432530165e-01   -4.604363143e-01    1.581385732e-06   -2.257712185e-05    0.000000000e+00    0.000000000e+00    0.000000000e+00    0.000000000e+00
      439250000    7.893123031e-01   -5.578577518e-01   -4.991982132e-05   -2.632010728e-05    0.000000000e+00    0.000000000e+00    0.000000000e+00    0.000000000e+00
      446500000    7.251369953e-01   -6.473129988e-01   -1.124385744e-05   -1.705344766e-05    0.000000000e+00    0.000000000e+00    0.000000000e+00    0.000000000e+00
      453750000    6.514651775e-01   -7.307973504e-01   -2.544932067e-05   -2.375058830e-05    0.000000000e+00    0.000000000e+00    0.000000000e+00    0.000000000e+00
      461000000    5.708774924e-01   -8.042771816e-01   -1.990795135e-05    5.946494639e-06    0.000000000e+00    0.000000000e+00    0.000000000e+00    0.000000000e+00
      468250000    4.833400249e-01   -8.691407442e-01    1.284759492e-05    1.233816147e-05    0.000000000e+00    0.000000000e+00    0.000000000e+00    0.000000000e+00
      475500000    3.882345259e-01   -9.254470468e-01   -2.523139119e-05   -1.683365554e-05    0.000000000e+00    0.000000000e+00    0.000000000e+00    0.000000000e+00
      482750000    2.889820933e-01   -9.709035158e-01   -2.582836896e-05   -3.615207970e-05    0.000000000e+00    0.000000000e+00    0.000000000e+00    0.000000000e+00
      490000000    1.855324358e-01   -1.006282449e+00    7.534399629e-06    3.041233867e-05    0.000000000e+00    0.000000000e+00    0.000000000e+00    0.000000000e+00
      497250000    7.761172950e-02   -1.030442595e+00    1.320615411e-05    7.376074791e-07    0.000000000e+00    0.000000000e+00    0.000000000e+00    0.000000000e+00
      504500000   -3.217701614e-02   -1.042545438e+00    1.191440970e-05    8.192844689e-06    0.000000000e+00    0.000000000e+00    0.000000000e+00    0.000000000e+00
      511750000   -1.433666199e-01   -1.043619752e+00    2.606026828e-05   -1.125130802e-05    0.000000000e+00    0.000000000e+00    0.000000000e+00    0.000000000e+00
      519000000   -2.549128532e-01   -1.032833457e+00    1.732259989e-06    5.225650966e-06    0.000000000e+00    0.000000000e+00    0.000000000e+00    0.000000000e+00
      526250000   -3.646890521e-01   -1.009472370e+00   -3.424473107e-06    3.974325955e-05    0.000000000e+00    0.000000000e+00    0.000000000e+00    0.000000000e+00
      533500000   -4.730099738e-01   -9.736827016e-01   -8.223578334e-07    2.031400800e-05    0.000000000e+00    0.000000000e+00    0.000000000e+00    0.000000000e+00
      540750000   -5.776782036e-01   -9.251680374e-01   -2.973526716e-05   -5.110166967e-06    0.000000000e+00    0.000000000e+00    0.000000000e+00    0.000000000e+00
      548000000   -6.767235994e-01   -8.654164672e-01   -3.780610859e-05    9.469687939e-06    0.000000000e+00    0.000000000e+00    0.000000000e+00    0.000000000e+00
      555250000   -7.678793669e-01   -7.925763726e-01    2.679135650e-05    2.883374691e-06    0.000000000e+00    0.000000000e+00    0.000000000e+00    0.000000000e+00
      562500000   -8.517131209e-01   -7.108316422e-01   -9.110197425e-06   -1.047644764e-05    0.000000000e+00    0.000000000e+00    0.000000000e+00    0.000000000e+00
      569750000   -9.244323373e-01   -6.184081435e-01   -1.146458089e-06   -6.329268217e-06    0.000000000e+00    0.000000000e+00    0.000000000e+00    0.000000000e+00
      577000000   -9.858757854e-01   -5.180008411e-01    4.959292710e-06   -1.413747668e-06    0.000000000e+00    0.000000000e+00    0.000000000e+00    0.000000000e+00
      584250000   -1.036372781e+00   -4.095174074e-01    1.900270581e-05    5.816295743e-05    0.000000000e+00    0.000000000e+00    0.000000000e+00    0.000000000e+00
      591500000   -1.072979450e+00   -2.947794497e-01    3.268942237e-06   -2.142414451e-05    0.000000000e+00    0.000000000e+00    0.000000000e+00    0.000000000e+00
      598750000   -1.095523834e+00   -1.766547561e-01    2.542231232e-05   -9.228475392e-06    0.000000000e+00    0.000000000e+00    0.000000000e+00    0.000000000e+00
      606000000   -1.103464961e+00   -5.632772297e-02    9.750947356e-06   -3.565102816e-06    0.000000000e+00    0.000000000e+00    0.000000000e+00    0.000000000e+00
      613250000   -1.096959591e+00    6.280858070e-02    1.027248800e-06   -5.028210580e-06    0.000000000e+00    0.000000000e+00    0.000000000e+00    0.000000000e+00
      620500000   -1.076105475e+00    1.797296107e-01    2.930872142e-06   -3.840588033e-05    0.000000000e+00    0.000000000e+00    0.000000000e+00    0.000000000e+00
      627750000   -1.040858626e+00    2.951979041e-01   -2.469122410e-05   -2.855155617e-05    0.000000000e+00    0.000000000e+00    0.000000000e+00    0.000000000e+00
      635000000   -9.924189448e-01    4.020077884e-01   -1.408997923e-05   -1.083035022e-05    0.000000000e+00    0.000000000e+00    0.000000000e+00    0.000000000e+00
      642250000   -9.315209389e-01    5.033501983e-01   -4.008412361e-06    1.214630902e-05    0.000000000e+00    0.000000000e+00    0.000000000e+00    0.000000000e+00
      649500000   -8.602498174e-01    5.948624015e-01    2.609752119e-05   -7.651746273e-06    0.000000000e+00    0.000000000e+00    0.000000000e+00    0.000000000e+00
      656750000   -7.785152793e-01    6.770623922e-01    3.703776747e-05    3.715977073e-06    0.000000000e+00    0.000000000e+00    0.000000000e+00    0.000000000e+00
      664000000   -6.902907491e-01    7.477356791e-01   -1.643784344e-06   -4.948768765e-05    0.000000000e+00    0.000000000e+00    0.000000000e+00    0.000000000e+00
      671250000   -5.936353803e-01    8.071919084e-01    1.268088818e-05   -1.833122224e-05    0.000000000e+00    0.000000000e+00    0.000000000e+00    0.000000000e+00
      678500000   -4.924030304e-01    8.548637033e-01    1.206155866e-05    9.857118130e-06    0.000000000e+00    0.000000000e+00    0.000000000e+00    0.000000000e+00
      685750000   -3.887641430e-01    8.904917836e-01   -1.414678991e-06    7.800757885e-06    0.000000000e+00    0.000000000e+00    0.000000000e+00    0.000000000e+00
      693000000   -2.817102373e-01    9.146114588e-01   -1.886393875e-05   -2.124626189e-05    0.000000000e+00    0.000000000e+00    0.000000000e+00    0.000000000e+00
      700250000   -1.746066958e-01    9.260728359e-01    3.388989717e-05    1.736823469e-05    0.000000000e+00    0.000000000e+00    0.000000000e+00    0.000000000e+00
      707500000   -6.922789663e-02    9.260391593e-01    6.103888154e-06   -2.948567271e-06    0.000000000e+00    0.000000000e+00    0.000000000e+00    0.000000000e+00
      714750000    3.699803725e-02    9.153362513e-01    2.406816930e-05   -2.399086952e-06    0.000000000e+00    0.000000000e+00    0.000000000e+00    0.000000000e+00
      722000000    1.373932064e-01    8.931890130e-01   -1.383479685e-05    4.517659545e-05    0.000000000e+00    0.000000000e+00    0.000000000e+00    0.000000000e+00
      729250000    2.372003198e-01    8.615365028e-01    3.339722753e-06   -3.619026393e-05    0.000000000e+00    0.000000000e+00    0.000000000e+00    0.000000000e+00
      736500000    3.293601274e-01    8.213645220e-01    4.592351615e-06    3.189127892e-05    0.000000000e+00    0.000000000e+00    0.000000000e+00    0.000000000e+00
      743750000    4.185816050e-01    7.711966038e-01    1.341570169e-05   -1.392699778e-05    0.000000000e+00    0.000000000e+00    0.000000000e+00    0.000000000e+00
      751000000    5.009843111e-01    7.131713033e-01    6.696209311e-06    2.169702202e-05    0.000000000e+00    0.000000000e+00    0.000000000e+00    0.000000000e+00
      758250000    5.773104429e-01    6.475246549e-01    2.215150744e-05    2.246815711e-05    0.000000000e+00    0.000000000e+00    0.000000000e+00    0.000000000e+00
      765500000    6.463333368e-01    5.755287409e-01    1.305062324e-05    2.872198820e-06    0.000000000e+00    0.000000000e+00    0.000000000e+00    0.000000000e+00
      772750000    7.081465721e-01    4.957186580e-01    1.278240234e-05    2.189539373e-06    0.000000000e+00    0.000000000e+00    0.000000000e+00    0.000000000e+00
      780000000    7.613612413e-01    4.116191864e-01   -1.655705273e-05   -2.099294215e-05    0.000000000e+00    0.000000000e+00    0.000000000e+00    0.000000000e+00
      787250000    8.065889478e-01    3.203445077e-01    5.380250514e-06    5.810521543e-06    0.000000000e+00    0.000000000e+00    0.000000000e+00    0.000000000e+00
      794500000    8.428826332e-01    2.264997512e-01    4.938896745e-05    3.344286233e-05    0.000000000e+00    0.000000000e+00    0.000000000e+00    0.000000000e+00
      801750000    8.698304296e-01    1.281252354e-01    7.661059499e-06    2.761837095e-05    0.000000000e+00    0.000000000e+00    0.000000000e+00    0.000000000e+00
      809000000    8.868497014e-01    2.608296648e-02   -2.016592771e-05    5.725771189e-06    0.000000000e+00    0.000000000e+00    0.000000000e+00    0.000000000e+00
      816250000    8.933631778e-01   -7.649393380e-02    1.991260797e-05   -1.087505370e-05    0.000000000e+00    0.000000000e+00    0.000000000e+00    0.000000000e+00
      823500000    8.881792426e-01   -1.834458709e-01   -6.738118827e-06    1.771282405e-05    0.000000000e+00    0.000000000e+00    0.000000000e+00    0.000000000e+00
      830750000    8.724714518e-01   -2.881140709e-01    1.021660864e-06    4.888512194e-05    0.000000000e+00    0.000000000e+00    0.000000000e+00    0.000000000e+00
      838000000    8.445054889e-01   -3.930501342e-01    1.081731170e-05    2.638343722e-05    0.000000000e+00    0.000000000e+00    0.000000000e+00    0.000000000e+00
      845250000    8.054737449e-01   -4.940879941e-01   -1.313351095e-05    2.761371434e-06    0.000000000e+00    0.000000000e+00    0.000000000e+00    0.000000000e+00
      852500000    7.539317608e-01   -5.942655206e-01    2.381578088e-05    6.230548024e-07    0.000000000e+00    0.000000000e+00    0.000000000e+00    0.000000000e+00
      859750000    6.908265948e-01   -6.866973639e-01    3.342702985e-05    2.876482904e-05    0.000000000e+00    0.000000000e+00    0.000000000e+00    0.000000000e+00
      867000000    6.144002080e-01   -7.743442655e-01   -4.709698260e-06    2.643372864e-05    0.000000000e+00    0.000000000e+00    0.000000000e+00    0.000000000e+00
      874250000    5.300219059e-01   -8.520099521e-01   -1.039635390e-05   -1.890957355e-05    0.000000000e+00    0.000000000e+00    0.000000000e+00    0.000000000e+00
      881500000    4.301286936e-01   -9.211345911e-01   -2.842769027e-05    5.393289030e-06    0.000000000e+00    0.000000000e+00    0.000000000e+00    0.000000000e+00
      888750000    3.256984651e-01   -9.757510424e-01   -1.763366163e-05   -2.721324563e-06    0.000000000e+00    0.000000000e+00    0.000000000e+00    0.000000000e+00
      896000000    2.105303258e-01   -1.018081546e+00   -9.228475392e-06    2.665072680e-05    0.000000000e+00    0.000000000e+00    0.000000000e+00    0.000000000e+00
      903250000    9.131706506e-02   -1.045192599e+00   -3.321096301e-06   -1.342128962e-05    0.000000000e+00    0.000000000e+00    0.000000000e+00    0.000000000e+00
      910500000   -3.558124229e-02   -1.055926085e+00    2.245139331e-05    4.876684397e-05    0.000000000e+00    0.000000000e+00    0.000000000e+00    0.000000000e+00
      917750000   -1.592787057e-01   -1.050017238e+00    4.086643457e-06    6.008893251e-06    0.000000000e+00    0.000000000e+00    0.000000000e+00    0.000000000e+00
      925000000   -2.808959484e-01   -1.027194500e+00    2.138689160e-05    2.324115485e-05    0.000000000e+00    0.000000000e+00    0.000000000e+00    0.000000000e+00
      932250000   -4.034218192e-01   -9.856250882e-01   -5.069747567e-05   -7.279217243e-06    0.000000000e+00    0.000000000e+00    0.000000000e+00    0.000000000e+00
      939500000   -5.122458935e-01   -9.307446480e-01    1.605693251e-05    2.472940832e-05    0.000000000e+00    0.000000000e+00    0.000000000e+00    0.000000000e+00
      946750000   -6.137394309e-01   -8.617679477e-01    2.863071859e-05    6.756745279e-06    0.000000000e+00    0.000000000e+00    0.000000000e+00    0.000000000e+00
      954000000   -7.048441172e-01   -7.798255086e-01    3.049895167e-05    1.101754606e-05    0.000000000e+00    0.000000000e+00    0.000000000e+00    0.000000000e+00
      961250000   -7.810279131e-01   -6.885430217e-01    3.247521818e-05    5.424022675e-06    0.000000000e+00    0.000000000e+00    0.000000000e+00    0.000000000e+00
      968500000   -8.461377025e-01   -5.870245099e-01    5.359109491e-05    8.630566299e-06    0.000000000e+00    0.000000000e+00    0.000000000e+00    0.000000000e+00
      975750000   -8.937067986e-01   -4.834073782e-01    1.706182957e-05    1.059286296e-05    0.000000000e+00    0.000000000e+00    0.000000000e+00    0.000000000e+00
      983000000   -9.296861887e-01   -3.725543618e-01    1.508742571e-05    1.386739314e-06    0.000000000e+00    0.000000000e+00    0.000000000e+00    0.000000000e+00
      990250000   -9.486715198e-01   -2.633057833e-01    6.561074406e-05   -1.757685095e-05    0.000000000e+00    0.000000000e+00    0.000000000e+00    0.000000000e+00
      997500000   -9.544910789e-01   -1.563044190e-01    9.587034583e-06   -2.935528755e-06    0.000000000e+00    0.000000000e+00    0.000000000e+00    0.000000000e+00
     1004750000   -9.479774237e-01   -5.129582807e-02   -1.758057624e-05    1.225154847e-05    0.000000000e+00    0.000000000e+00    0.000000000e+00    0.000000000e+00
     1012000000   -9.296150208e-01    5.034943670e-02   -2.092402428e-05   -5.120411515e-06    0.000000000e+00    0.000000000e+00    0.000000000e+00    0.000000000e+00
     1019250000   -9.005421400e-01    1.467727572e-01   -2.175662667e-05   -5.899928510e-06    0.000000000e+00    0.000000000e+00    0.000000000e+00    0.000000000e+00
     1026500000   -8.624682426e-01    2.354762554e-01   -1.517962664e-05   -2.411287278e-05    0.000000000e+00    0.000000000e+00    0.000000000e+00    0.000000000e+00
     1033750000   -8.158118725e-01    3.193392754e-01    1.260265708e-05    3.498047590e-05    0.000000000e+00    0.000000000e+00    0.000000000e+00    0.000000000e+00
     1041000000   -7.632064223e-01    3.946889937e-01   -1.521501690e-05    4.667788744e-06    0.000000000e+00    0.000000000e+00    0.000000000e+00    0.000000000e+00
