! NanoVNA-App
! Date: 2024-06-25 16:11:35
! Start: 200MHz Stop: 6GHz Points: 801
! S-Parameter data: F S11 S21 S12 S22
# Hz S RI R 50
!     Frequency           S11_Real           S11_Imag           S21_Real           S21_Imag           S12_Real           S12_Imag           S22_Real           S22_Imag
      200000000   -9.986699224e-01   -1.184004098e-01    3.673136234e-06    2.084486187e-05    0.000000000e+00    0.000000000e+00    0.000000000e+00    0.000000000e+00
      207250000   -1.010396481e+00   -1.970029809e-02   -5.885958672e-06    3.075227141e-06    0.000000000e+00    0.000000000e+00    0.000000000e+00    0.000000000e+00
      214500000   -1.012143612e+00    8.193941414e-02    1.161266118e-05   -3.294460475e-05    0.000000000e+00    0.000000000e+00    0.000000000e+00    0.000000000e+00
      221750000   -1.003125191e+00    1.843819171e-01    1.915451139e-05   -7.737427950e-06    0.000000000e+00    0.000000000e+00    0.000000000e+00    0.000000000e+00
      229000000   -9.829684496e-01    2.878715098e-01   -1.126155257e-05    2.367794514e-05    0.000000000e+00    0.000000000e+00    0.000000000e+00    0.000000000e+00
      236250000   -9.511960745e-01    3.903979361e-01    1.948792487e-05    3.352761269e-08    0.000000000e+00    0.000000000e+00    0.000000000e+00    0.000000000e+00
      243500000   -9.081336856e-01    4.899212122e-01    1.452118158e-05   -8.381903172e-07    0.000000000e+00    0.000000000e+00    0.000000000e+00    0.000000000e+00
      250750000   -8.518694043e-01    5.866028666e-01   -3.749504685e-05   -2.006907016e-05    0.000000000e+00    0.000000000e+00    0.000000000e+00    0.000000000e+00
      258000000   -7.835047245e-01    6.783279181e-01    1.620966941e-05   -2.126209438e-06    0.000000000e+00    0.000000000e+00    0.000000000e+00    0.000000000e+00
      265250000   -7.043223977e-01    7.620242834e-01   -5.494803190e-06   -3.775209188e-05    0.000000000e+00    0.000000000e+00    0.000000000e+00    0.000000000e+00
      272500000   -6.137312651e-01    8.377400041e-01    4.118308425e-06    2.734828740e-05    0.000000000e+00    0.000000000e+00    0.000000000e+00    0.000000000e+00
      279750000   -5.129220486e-01    9.022944570e-01   -1.786742359e-05   -2.910476178e-05    0.000000000e+00    0.000000000e+00    0.000000000e+00    0.000000000e+00
      287000000   -4.028455615e-01    9.537718892e-01    2.841837704e-05    1.928117126e-05    0.000000000e+00    0.000000000e+00    0.000000000e+00    0.000000000e+00
      294250000   -2.858497202e-01    9.924011230e-01   -3.183539957e-05    3.400910646e-05    0.000000000e+00    0.000000000e+00    0.000000000e+00    0.000000000e+00
      301500000   -1.636752933e-01    1.015519023e+00    1.274980605e-05   -5.423091352e-06    0.000000000e+00    0.000000000e+00    0.000000000e+00    0.000000000e+00
      308750000   -3.792305663e-02    1.023648500e+00   -2.999510616e-05   -1.678802073e-05    0.000000000e+00    0.000000000e+00    0.000000000e+00    0.000000000e+00
      316000000    8.802358061e-02    1.015235901e+00   -1.642759889e-05    3.590900451e-05    0.000000000e+00    0.000000000e+00    0.000000000e+00    0.000000000e+00
      323250000    2.126366198e-01    9.903587103e-01    1.593306661e-05   -2.708286047e-05    0.000000000e+00    0.000000000e+00    0.000000000e+00    0.000000000e+00
      330500000    3.328162432e-01    9.496504068e-01    2.773292363e-05   -3.674998879e-06    0.000000000e+00    0.000000000e+00    0.000000000e+00    0.000000000e+00
      337750000    4.474101067e-01    8.936356902e-01    4.691723734e-05   -9.545125067e-06    0.000000000e+00    0.000000000e+00    0.000000000e+00    0.000000000e+00
      345000000    5.519660115e-01    8.251935840e-01   -1.348834485e-05    1.474935561e-05    0.000000000e+00    0.000000000e+00    0.000000000e+00    0.000000000e+00
      352250000    6.477728486e-01    7.430747747e-01   -3.413204104e-05   -1.544225961e-05    0.000000000e+00    0.000000000e+00    0.000000000e+00    0.000000000e+00
      359500000    7.313008308e-01    6.504030824e-01   -4.380941391e-06   -1.468602568e-05    0.000000000e+00    0.000000000e+00    0.000000000e+00    0.000000000e+00
      366750000    8.028659225e-01    5.493345857e-01    2.643186599e-05   -1.895800233e-05    0.000000000e+00    0.000000000e+00    0.000000000e+00    0.000000000e+00
      374000000    8.603559136e-01    4.416970313e-01    1.836381853e-05    7.261522114e-06    0.000000000e+00    0.000000000e+00    0.000000000e+00    0.000000000e+00
      381250000    9.043312073e-01    3.279456198e-01   -2.698414028e-05    1.846905798e-05    0.000000000e+00    0.000000000e+00    0.000000000e+00    0.000000000e+00
      388500000    9.345132709e-01    2.123675346e-01   -3.669410944e-07    9.653158486e-06    0.000000000e+00    0.000000000e+00    0.000000000e+00    0.000000000e+00
      395750000    9.510402083e-01    9.588497877e-02   -2.896040678e-05   -1.411233097e-05    0.000000000e+00    0.000000000e+00    0.000000000e+00    0.000000000e+00
      403000000    9.546228647e-01   -2.198870853e-02   -4.766881466e-05    1.916475594e-05    0.000000000e+00    0.000000000e+00    0.000000000e+00    0.000000000e+00
      410250000    9.445810318e-01   -1.369592547e-01    1.691095531e-05    4.040729254e-05    0.000000000e+00    0.000000000e+00    0.000000000e+00    0.000000000e+00
      417500000    9.227882624e-01   -2.492582500e-01    2.033170313e-05   -2.997275442e-05    0.000000000e+00    0.000000000e+00    0.000000000e+00    0.000000000e+00
      424750000    8.882107139e-01   -3.583392799e-01    3.760680556e-06   -1.979060471e-06    0.000000000e+00    0.000000000e+00    0.000000000e+00    0.000000000e+00
      432000000    8.442055583e-01   -4.610418975e-01   -3.187824041e-05   -1.014210284e-06    0.000000000e+00    0.000000000e+00    0.000000000e+00    0.000000000e+00
      439250000    7.890871763e-01   -5.576558113e-01   -3.066845238e-06   -3.551598638e-05    0.000000000e+00    0.000000000e+00    0.000000000e+00    0.000000000e+00
      446500000    7.254153490e-01   -6.472877860e-01    3.336369991e-05    7.003545761e-06    0.000000000e+00    0.000000000e+00    0.000000000e+00    0.000000000e+00
      453750000    6.518042684e-01   -7.306188345e-01   -5.283392966e-06    1.033861190e-05    0.000000000e+00    0.000000000e+00    0.000000000e+00    0.000000000e+00
      461000000    5.705075860e-01   -8.041719198e-01   -1.115445048e-05   -2.210587263e-05    0.000000000e+00    0.000000000e+00    0.000000000e+00    0.000000000e+00
      468250000    4.839199781e-01   -8.693923950e-01    3.724917769e-05    1.278053969e-05    0.000000000e+00    0.000000000e+00    0.000000000e+00    0.000000000e+00
      475500000    3.884254098e-01   -9.253395796e-01    1.309998333e-05    4.543736577e-05    0.000000000e+00    0.000000000e+00    0.000000000e+00    0.000000000e+00
      482750000    2.892069221e-01   -9.706289768e-01    1.741945744e-05   -1.322664320e-05    0.000000000e+00    0.000000000e+00    0.000000000e+00    0.000000000e+00
      490000000    1.854172200e-01   -1.006125569e+00    2.920627594e-05   -6.557442248e-06    0.000000000e+00    0.000000000e+00    0.000000000e+00    0.000000000e+00
      497250000    7.776827365e-02   -1.030238986e+00    3.113411367e-06    2.295523882e-05    0.000000000e+00    0.000000000e+00    0.000000000e+00    0.000000000e+00
      504500000   -3.201656044e-02   -1.042559028e+00    2.481881529e-05    2.474524081e-05    0.000000000e+00    0.000000000e+00    0.000000000e+00    0.000000000e+00
      511750000   -1.436012983e-01   -1.043392897e+00    2.021901309e-06   -1.179520041e-05    0.000000000e+00    0.000000000e+00    0.000000000e+00    0.000000000e+00
      519000000   -2.551439106e-01   -1.032627702e+00    1.946836710e-05    1.566018909e-05    0.000000000e+00    0.000000000e+00    0.000000000e+00    0.000000000e+00
      526250000   -3.653280735e-01   -1.009452462e+00   -1.845415682e-05   -5.257036537e-05    0.000000000e+00    0.000000000e+00    0.000000000e+00    0.000000000e+00
      533500000   -4.732117355e-01   -9.732944965e-01    1.524761319e-05   -1.110974699e-05    0.000000000e+00    0.000000000e+00    0.000000000e+00    0.000000000e+00
      540750000   -5.770695210e-01   -9.251194000e-01    2.213567495e-05   -4.470907152e-05    0.000000000e+00    0.000000000e+00    0.000000000e+00    0.000000000e+00
      548000000   -6.761452556e-01   -8.663994670e-01   -4.491396248e-05    1.098867506e-05    0.000000000e+00    0.000000000e+00    0.000000000e+00    0.000000000e+00
      555250000   -7.684325576e-01   -7.929002047e-01    2.772081643e-05    1.867301762e-06    0.000000000e+00    0.000000000e+00    0.000000000e+00    0.000000000e+00
      562500000   -8.511805534e-01   -7.102419734e-01   -2.741347998e-05    8.228234947e-06    0.000000000e+00    0.000000000e+00    0.000000000e+00    0.000000000e+00
      569750000   -9.245731235e-01   -6.191647053e-01   -1.992192119e-05    4.980061203e-05    0.000000000e+00    0.000000000e+00    0.000000000e+00    0.000000000e+00
      577000000   -9.864822030e-01   -5.171183944e-01   -2.335757017e-05    2.395361662e-06    0.000000000e+00    0.000000000e+00    0.000000000e+00    0.000000000e+00
      584250000   -1.037104249e+00   -4.086887836e-01   -1.578871161e-05    2.856645733e-05    0.000000000e+00    0.000000000e+00    0.000000000e+00    0.000000000e+00
      591500000   -1.072666168e+00   -2.952367961e-01    1.334678382e-05   -4.385598004e-06    0.000000000e+00    0.000000000e+00    0.000000000e+00    0.000000000e+00
      598750000   -1.095839500e+00   -1.760364324e-01    6.464309990e-06    3.381352872e-05    0.000000000e+00    0.000000000e+00    0.000000000e+00    0.000000000e+00
      606000000   -1.103695273e+00   -5.788575485e-02   -2.053752542e-05    3.402587026e-05    0.000000000e+00    0.000000000e+00    0.000000000e+00    0.000000000e+00
      613250000   -1.097060442e+00    6.295611709e-02    2.522580326e-05   -1.577660441e-05    0.000000000e+00    0.000000000e+00    0.000000000e+00    0.000000000e+00
      620500000   -1.075689316e+00    1.805707663e-01   -1.162663102e-05    8.156523108e-06    0.000000000e+00    0.000000000e+00    0.000000000e+00    0.000000000e+00
      627750000   -1.039986849e+00    2.953452468e-01    2.902932465e-06   -5.739741027e-06    0.000000000e+00    0.000000000e+00    0.000000000e+00    0.000000000e+00
      635000000   -9.924255013e-01    4.017541707e-01    3.109034151e-05   -3.989785910e-06    0.000000000e+00    0.000000000e+00    0.000000000e+00    0.000000000e+00
      642250000   -9.314512014e-01    5.032391548e-01   -5.117617548e-06    7.494352758e-06    0.000000000e+00    0.000000000e+00    0.000000000e+00    0.000000000e+00
      649500000   -8.595858216e-01    5.944777131e-01   -5.811452866e-07    4.176050425e-06    0.000000000e+00    0.000000000e+00    0.000000000e+00    0.000000000e+00
      656750000   -7.792397141e-01    6.762238741e-01   -1.496728510e-05   -3.907550126e-05    0.000000000e+00    0.000000000e+00    0.000000000e+00    0.000000000e+00
      664000000   -6.894232035e-01    7.478546500e-01   -1.742411405e-05   -1.267995685e-05    0.000000000e+00    0.000000000e+00    0.000000000e+00    0.000000000e+00
      671250000   -5.941135287e-01    8.072070479e-01   -2.732872963e-05    1.853704453e-05    0.000000000e+00    0.000000000e+00    0.000000000e+00    0.000000000e+00
      678500000   -4.922600091e-01    8.547001481e-01   -1.008342952e-05    4.814937711e-06    0.000000000e+00    0.000000000e+00    0.000000000e+00    0.000000000e+00
      685750000   -3.880645931e-01    8.902871609e-01   -1.685693860e-07   -1.337844878e-05    0.000000000e+00    0.000000000e+00    0.000000000e+00    0.000000000e+00
      693000000   -2.814590633e-01    9.143060446e-01   -1.951772720e-05    7.955357432e-06    0.000000000e+00    0.000000000e+00    0.000000000e+00    0.000000000e+00
      700250000   -1.751710922e-01    9.260992408e-01   -1.717917621e-05   -5.703419447e-06    0.000000000e+00    0.000000000e+00    0.000000000e+00    0.000000000e+00
      707500000   -6.835872680e-02    9.255775213e-01   -6.389804184e-06    2.362579107e-05    0.000000000e+00    0.000000000e+00    0.000000000e+00    0.000000000e+00
      714750000    3.741991147e-02    9.152749777e-01    2.585165203e-05    3.121607006e-05    0.000000000e+00    0.000000000e+00    0.000000000e+00    0.000000000e+00
      722000000    1.374778003e-01    8.933047652e-01    2.516061068e-05    1.684948802e-05    0.000000000e+00    0.000000000e+00    0.000000000e+00    0.000000000e+00
      729250000    2.373500615e-01    8.617294431e-01   -1.247692853e-05   -1.002103090e-05    0.000000000e+00    0.000000000e+00    0.000000000e+00    0.000000000e+00
      736500000    3.302893043e-01    8.209325075e-01    5.969777703e-07    5.850568414e-06    0.000000000e+00    0.000000000e+00    0.000000000e+00    0.000000000e+00
      743750000    4.185599089e-01    7.716305256e-01    1.963227987e-06   -1.382641494e-05    0.000000000e+00    0.000000000e+00    0.000000000e+00    0.000000000e+00
      751000000    5.014496446e-01    7.136458158e-01    6.057322025e-06   -2.136826515e-05    0.000000000e+00    0.000000000e+00    0.000000000e+00    0.000000000e+00
      758250000    5.769172907e-01    6.476475000e-01    2.476386726e-06   -3.955326974e-06    0.000000000e+00    0.000000000e+00    0.000000000e+00    0.000000000e+00
      765500000    6.471287012e-01    5.741837025e-01    2.755783498e-06   -2.353824675e-05    0.000000000e+00    0.000000000e+00    0.000000000e+00    0.000000000e+00
      772750000    7.081328630e-01    4.958343506e-01   -4.919711500e-05    1.294538379e-07    0.000000000e+00    0.000000000e+00    0.000000000e+00    0.000000000e+00
      780000000    7.609820366e-01    4.113242626e-01   -1.814588904e-05    8.802860975e-06    0.000000000e+00    0.000000000e+00    0.000000000e+00    0.000000000e+00
      787250000    8.068227172e-01    3.205621541e-01    2.202671021e-05    3.625918180e-05    0.000000000e+00    0.000000000e+00    0.000000000e+00    0.000000000e+00
      794500000    8.434460759e-01    2.267843783e-01    1.038331538e-05    2.463813871e-05    0.000000000e+00    0.000000000e+00    0.000000000e+00    0.000000000e+00
      801750000    8.700408340e-01    1.279380322e-01    1.210067421e-05   -5.770474672e-06    0.000000000e+00    0.000000000e+00    0.000000000e+00    0.000000000e+00
      809000000    8.867774010e-01    2.643034980e-02   -3.506150097e-05    2.226512879e-05    0.000000000e+00    0.000000000e+00    0.000000000e+00    0.000000000e+00
      816250000    8.934202790e-01   -7.651978731e-02    4.395842552e-06    9.818933904e-06    0.000000000e+00    0.000000000e+00    0.000000000e+00    0.000000000e+00
      823500000    8.881123662e-01   -1.831757724e-01    8.634291589e-06   -2.062041312e-05    0.000000000e+00    0.000000000e+00    0.000000000e+00    0.000000000e+00
      830750000    8.734920621e-01   -2.872369289e-01   -1.064129174e-05    1.425109804e-05    0.000000000e+00    0.000000000e+00    0.000000000e+00    0.000000000e+00
      838000000    8.450198770e-01   -3.935464025e-01   -2.872850746e-05    1.065060496e-05    0.000000000e+00    0.000000000e+00    0.000000000e+00    0.000000000e+00
      845250000    8.054931760e-01   -4.947390556e-01    4.211347550e-05   -2.405885607e-05    0.000000000e+00    0.000000000e+00    0.000000000e+00    0.000000000e+00
      852500000    7.539487481e-01   -5.936495662e-01   -4.175677896e-05   -3.126356751e-05    0.000000000e+00    0.000000000e+00    0.000000000e+00    0.000000000e+00
      859750000    6.912144423e-01   -6.866514087e-01    2.334360033e-05   -1.953355968e-05    0.000000000e+00    0.000000000e+00    0.000000000e+00    0.000000000e+00
      867000000    6.153294444e-01   -7.745090723e-01    8.161179721e-06    4.098005593e-05    0.000000000e+00    0.000000000e+00    0.000000000e+00    0.000000000e+00
      874250000    5.281536579e-01   -8.518044949e-01   -4.606321454e-05   -4.394911230e-06    0.000000000e+00    0.000000000e+00    0.000000000e+00    0.000000000e+00
      881500000    4.296690226e-01   -9.205545783e-01   -3.502424806e-05   -3.431271762e-05    0.000000000e+00    0.000000000e+00    0.000000000e+00    0.000000000e+00
      888750000    3.250342011e-01   -9.759677052e-01    5.870591849e-05    2.658367157e-05    0.000000000e+00    0.000000000e+00    0.000000000e+00    0.000000000e+00
      896000000    2.107077390e-01   -1.018455505e+00   -1.518055797e-07    1.095421612e-05    0.000000000e+00    0.000000000e+00    0.000000000e+00    0.000000000e+00
      903250000    9.057086706e-02   -1.045568109e+00    1.454539597e-05   -2.739299089e-05    0.000000000e+00    0.000000000e+00    0.000000000e+00    0.000000000e+00
      910500000   -3.536139429e-02   -1.055743217e+00   -9.155832231e-06    5.827099085e-05    0.000000000e+00    0.000000000e+00    0.000000000e+00    0.000000000e+00
      917750000   -1.585126668e-01   -1.050124764e+00   -1.426134259e-05    6.541609764e-06    0.000000000e+00    0.000000000e+00    0.000000000e+00    0.000000000e+00
      925000000   -2.804774046e-01   -1.026777148e+00    2.793967724e-07   -1.363176852e-05    0.000000000e+00    0.000000000e+00    0.000000000e+00    0.000000000e+00
      932250000   -4.017224014e-01   -9.863836169e-01    3.458932042e-06   -1.409091055e-05    0.000000000e+00    0.000000000e+00    0.000000000e+00    0.000000000e+00
      939500000   -5.118635297e-01   -9.316714406e-01   -1.062080264e-05    4.206877202e-05    0.000000000e+00    0.000000000e+00    0.000000000e+00    0.000000000e+00
      946750000   -6.141125560e-01   -8.622289300e-01    3.674533218e-05   -3.194436431e-07    0.000000000e+00    0.000000000e+00    0.000000000e+00    0.000000000e+00
      954000000   -7.046086788e-01   -7.798089385e-01   -1.437589526e-05    5.841255188e-06    0.000000000e+00    0.000000000e+00    0.000000000e+00    0.000000000e+00
      961250000   -7.827693224e-01   -6.876925826e-01   -9.579584002e-06    5.196779966e-06    0.000000000e+00    0.000000000e+00    0.000000000e+00    0.000000000e+00
      968500000   -8.455233574e-01   -5.874296427e-01   -1.792330295e-05    3.149546683e-05    0.000000000e+00    0.000000000e+00    0.000000000e+00    0.000000000e+00
      975750000   -8.932496905e-01   -4.838872552e-01   -3.315787762e-05    2.239551395e-05    0.000000000e+00    0.000000000e+00    0.000000000e+00    0.000000000e+00
      983000000   -9.287723303e-01   -3.735961914e-01    4.409626126e-05    7.441267371e-07    0.000000000e+00    0.000000000e+00    0.000000000e+00    0.000000000e+00
      990250000   -9.484512806e-01   -2.632667124e-01   -2.972781658e-05   -1.440849155e-05    0.000000000e+00    0.000000000e+00    0.000000000e+00    0.000000000e+00
      997500000   -9.542265534e-01   -1.562726349e-01    1.098308712e-05   -6.563030183e-06    0.000000000e+00    0.000000000e+00    0.000000000e+00    0.000000000e+00
     1004750000   -9.475778937e-01   -5.107942596e-02    4.869885743e-06   -8.282251656e-06    0.000000000e+00    0.000000000e+00    0.000000000e+00    0.000000000e+00
     1012000000   -9.294074178e-01    5.117436126e-02   -3.242865205e-05    2.282299101e-05    0.000000000e+00    0.000000000e+00    0.000000000e+00    0.000000000e+00
     1019250000   -9.007946849e-01    1.453988105e-01   -8.229166269e-06    2.694316208e-05    0.000000000e+00    0.000000000e+00    0.000000000e+00    0.000000000e+00
     1026500000   -8.623704910e-01    2.354228199e-01    1.488253474e-06    1.202337444e-06    0.000000000e+00    0.000000000e+00    0.000000000e+00    0.000000000e+00
     1033750000   -8.165242672e-01    3.183520734e-01    4.237331450e-05   -2.766307443e-05    0.000000000e+00    0.000000000e+00    0.000000000e+00    0.000000000e+00
     1041000000   -7.636701465e-01    3.942264318e-01    8.446164429e-06   -2.142041922e-05    0.000000000e+00    0.000000000e+00    0.000000000e+00    0.000000000e+00
