! NanoVNA-App
! Date: 2024-06-25 16:11:43
! Start: 200MHz Stop: 6GHz Points: 801
! S-Parameter data: F S11 S21 S12 S22
# Hz S RI R 50
!     Frequency           S11_Real           S11_Imag           S21_Real           S21_Imag           S12_Real           S12_Imag           S22_Real           S22_Imag
      200000000   -9.980905652e-01   -1.181118414e-01   -5.356967449e-06   -1.426786184e-05    0.000000000e+00    0.000000000e+00    0.000000000e+00    0.000000000e+00
      207250000   -1.009847045e+00   -1.932761073e-02    8.688308299e-06   -1.789070666e-06    0.000000000e+00    0.000000000e+00    0.000000000e+00    0.000000000e+00
      214500000   -1.011647224e+00    8.165328205e-02    3.292970359e-05   -2.392381430e-05    0.000000000e+00    0.000000000e+00    0.000000000e+00    0.000000000e+00
      221750000   -1.002580166e+00    1.847359389e-01   -1.485273242e-05   -1.843180507e-05    0.000000000e+00    0.000000000e+00    0.000000000e+00    0.000000000e+00
      229000000   -9.829984903e-01    2.873732150e-01   -1.548789442e-05    4.382804036e-06    0.000000000e+00    0.000000000e+00    0.000000000e+00    0.000000000e+00
      236250000   -9.505037665e-01    3.901714385e-01    1.781620085e-06   -3.373064101e-05    0.000000000e+00    0.000000000e+00    0.000000000e+00    0.000000000e+00
      243500000   -9.076178670e-01    4.900024831e-01   -2.528261393e-05    6.450153887e-05    0.000000000e+00    0.000000000e+00    0.000000000e+00    0.000000000e+00
      250750000   -8.516138792e-01    5.870600343e-01   -3.117136657e-06    2.225115895e-05    0.000000000e+00    0.000000000e+00    0.000000000e+00    0.000000000e+00
      258000000   -7.844629288e-01    6.781082749e-01    1.756194979e-05   -1.243688166e-05    0.000000000e+00    0.000000000e+00    0.000000000e+00    0.000000000e+00
      265250000   -7.043420076e-01    7.618752122e-01    1.988373697e-06    2.526585013e-05    0.000000000e+00    0.000000000e+00    0.000000000e+00    0.000000000e+00
      272500000   -6.133806109e-01    8.372331858e-01   -5.762092769e-06   -2.457108349e-05    0.000000000e+00    0.000000000e+00    0.000000000e+00    0.000000000e+00
      279750000   -5.127066970e-01    9.021601677e-01   -1.221708953e-05    2.175103873e-05    0.000000000e+00    0.000000000e+00    0.000000000e+00    0.000000000e+00
      287000000   -4.023807049e-01    9.541581273e-01    1.299846917e-05   -1.329369843e-05    0.000000000e+00    0.000000000e+00    0.000000000e+00    0.000000000e+00
      294250000   -2.859532237e-01    9.925022721e-01    1.802667975e-05   -1.303479075e-05    0.000000000e+00    0.000000000e+00    0.000000000e+00    0.000000000e+00
      301500000   -1.631394178e-01    1.015425205e+00    3.029685467e-05   -9.135343134e-06    0.000000000e+00    0.000000000e+00    0.000000000e+00    0.000000000e+00
      308750000   -3.727077693e-02    1.023622632e+00   -1.255329698e-05   -2.365931869e-05    0.000000000e+00    0.000000000e+00    0.000000000e+00    0.000000000e+00
      316000000    8.832735568e-02    1.014907598e+00    3.463961184e-05   -3.937631845e-06    0.000000000e+00    0.000000000e+00    0.000000000e+00    0.000000000e+00
      323250000    2.129714489e-01    9.906283617e-01    3.456883132e-05   -1.094955951e-05    0.000000000e+00    0.000000000e+00    0.000000000e+00    0.000000000e+00
      330500000    3.327394128e-01    9.499095082e-01    3.502704203e-05   -2.672895789e-06    0.000000000e+00    0.000000000e+00    0.000000000e+00    0.000000000e+00
      337750000    4.467802942e-01    8.947442174e-01    4.351139069e-06    2.411473542e-05    0.000000000e+00    0.000000000e+00    0.000000000e+00    0.000000000e+00
      345000000    5.519456267e-01    8.252214193e-01   -1.389347017e-05    7.998198271e-06    0.000000000e+00    0.000000000e+00    0.000000000e+00    0.000000000e+00
      352250000    6.477189064e-01    7.427754998e-01    1.767650247e-06    6.088055670e-06    0.000000000e+00    0.000000000e+00    0.000000000e+00    0.000000000e+00
      359500000    7.312391996e-01    6.501675248e-01   -1.655146480e-05    1.365412027e-05    0.000000000e+00    0.000000000e+00    0.000000000e+00    0.000000000e+00
      366750000    8.028404117e-01    5.496137738e-01    1.747813076e-05   -1.873727888e-05    0.000000000e+00    0.000000000e+00    0.000000000e+00    0.000000000e+00
      374000000    8.601031899e-01    4.416306317e-01   -6.482005119e-06    1.849606633e-06    0.000000000e+00    0.000000000e+00    0.000000000e+00    0.000000000e+00
      381250000    9.053244591e-01    3.280990422e-01   -1.387670636e-07   -4.066154361e-05    0.000000000e+00    0.000000000e+00    0.000000000e+00    0.000000000e+00
      388500000    9.348809719e-01    2.125067264e-01   -4.389323294e-06    1.505296677e-05    0.000000000e+00    0.000000000e+00    0.000000000e+00    0.000000000e+00
      395750000    9.513946176e-01    9.574106336e-02    2.834107727e-05    2.334360033e-05    0.000000000e+00    0.000000000e+00    0.000000000e+00    0.000000000e+00
      403000000    9.549363256e-01   -2.162945084e-02    2.726074308e-05   -1.226551831e-06    0.000000000e+00    0.000000000e+00    0.000000000e+00    0.000000000e+00
      410250000    9.444956183e-01   -1.371151060e-01   -1.085828990e-05    1.558288932e-05    0.000000000e+00    0.000000000e+00    0.000000000e+00    0.000000000e+00
      417500000    9.229940772e-01   -2.495743483e-01    3.394763917e-05   -2.605840564e-05    0.000000000e+00    0.000000000e+00    0.000000000e+00    0.000000000e+00
      424750000    8.890656829e-01   -3.583131135e-01   -2.345070243e-06   -1.954846084e-06    0.000000000e+00    0.000000000e+00    0.000000000e+00    0.000000000e+00
      432000000    8.442575336e-01   -4.609955847e-01   -3.244355321e-05   -1.168902963e-05    0.000000000e+00    0.000000000e+00    0.000000000e+00    0.000000000e+00
      439250000    7.891920805e-01   -5.578286052e-01   -1.866929233e-05    3.488734365e-06    0.000000000e+00    0.000000000e+00    0.000000000e+00    0.000000000e+00
      446500000    7.248257995e-01   -6.476404071e-01   -3.582425416e-05    2.507399768e-05    0.000000000e+00    0.000000000e+00    0.000000000e+00    0.000000000e+00
      453750000    6.513247490e-01   -7.305464149e-01   -2.308003604e-05   -4.964880645e-06    0.000000000e+00    0.000000000e+00    0.000000000e+00    0.000000000e+00
      461000000    5.715914369e-01   -8.046717644e-01   -3.708712757e-05   -2.635084093e-05    0.000000000e+00    0.000000000e+00    0.000000000e+00    0.000000000e+00
      468250000    4.828285575e-01   -8.691385984e-01    2.550892532e-06    3.329850733e-05    0.000000000e+00    0.000000000e+00    0.000000000e+00    0.000000000e+00
      475500000    3.883604407e-01   -9.253099561e-01    5.441717803e-06    5.366280675e-06    0.000000000e+00    0.000000000e+00    0.000000000e+00    0.000000000e+00
      482750000    2.888996601e-01   -9.708784819e-01   -6.102956831e-06   -1.184642315e-05    0.000000000e+00    0.000000000e+00    0.000000000e+00    0.000000000e+00
      490000000    1.851488203e-01   -1.005674958e+00   -1.319590956e-05   -1.621339470e-05    0.000000000e+00    0.000000000e+00    0.000000000e+00    0.000000000e+00
      497250000    7.780536264e-02   -1.030150890e+00    1.672655344e-05    1.616217196e-05    0.000000000e+00    0.000000000e+00    0.000000000e+00    0.000000000e+00
      504500000   -3.193042055e-02   -1.042423129e+00   -4.447996616e-06    1.531932503e-05    0.000000000e+00    0.000000000e+00    0.000000000e+00    0.000000000e+00
      511750000   -1.434553117e-01   -1.043785810e+00    1.083593816e-05   -6.823614240e-05    0.000000000e+00    0.000000000e+00    0.000000000e+00    0.000000000e+00
      519000000   -2.554399669e-01   -1.032865047e+00   -1.330208033e-05    2.080015838e-05    0.000000000e+00    0.000000000e+00    0.000000000e+00    0.000000000e+00
      526250000   -3.651356399e-01   -1.009626031e+00    9.310431778e-06    6.822869182e-06    0.000000000e+00    0.000000000e+00    0.000000000e+00    0.000000000e+00
      533500000   -4.734504521e-01   -9.729804397e-01   -1.663900912e-05   -2.158526331e-05    0.000000000e+00    0.000000000e+00    0.000000000e+00    0.000000000e+00
      540750000   -5.771358609e-01   -9.249194860e-01   -1.544039696e-05    4.573073238e-05    0.000000000e+00    0.000000000e+00    0.000000000e+00    0.000000000e+00
      548000000   -6.758370399e-01   -8.650903702e-01    3.255251795e-05   -5.110166967e-06    0.000000000e+00    0.000000000e+00    0.000000000e+00    0.000000000e+00
      555250000   -7.677460313e-01   -7.931410074e-01    7.962808013e-06    1.134350896e-06    0.000000000e+00    0.000000000e+00    0.000000000e+00    0.000000000e+00
      562500000   -8.512468338e-01   -7.104519606e-01   -5.209818482e-06    3.831367940e-05    0.000000000e+00    0.000000000e+00    0.000000000e+00    0.000000000e+00
      569750000   -9.241397381e-01   -6.186460853e-01   -4.973635077e-05   -2.926215529e-06    0.000000000e+00    0.000000000e+00    0.000000000e+00    0.000000000e+00
      577000000   -9.864029884e-01   -5.172476172e-01    1.629907638e-05   -1.261942089e-06    0.000000000e+00    0.000000000e+00    0.000000000e+00    0.000000000e+00
      584250000   -1.036476254e+00   -4.093092084e-01    7.841736078e-06   -3.909692168e-06    0.000000000e+00    0.000000000e+00    0.000000000e+00    0.000000000e+00
      591500000   -1.072927833e+00   -2.950250208e-01    9.546987712e-06    5.399808288e-06    0.000000000e+00    0.000000000e+00    0.000000000e+00    0.000000000e+00
      598750000   -1.096174359e+00   -1.760307848e-01    1.460034400e-05    9.262934327e-06    0.000000000e+00    0.000000000e+00    0.000000000e+00    0.000000000e+00
      606000000   -1.103638291e+00   -5.711374432e-02    3.253947943e-05    1.660641283e-05    0.000000000e+00    0.000000000e+00    0.000000000e+00    0.000000000e+00
      613250000   -1.097236633e+00    6.285748631e-02    2.157874405e-05    1.734681427e-05    0.000000000e+00    0.000000000e+00    0.000000000e+00    0.000000000e+00
      620500000   -1.076280355e+00    1.806586981e-01    2.526305616e-05    5.886889994e-06    0.000000000e+00    0.000000000e+00    0.000000000e+00    0.000000000e+00
      627750000   -1.040659904e+00    2.953852415e-01   -3.346242011e-05   -3.603380173e-05    0.000000000e+00    0.000000000e+00    0.000000000e+00    0.000000000e+00
      635000000   -9.919278622e-01    4.023370147e-01    3.582611680e-05   -1.681596041e-05    0.000000000e+00    0.000000000e+00    0.000000000e+00    0.000000000e+00
      642250000   -9.321560860e-01    5.023401380e-01    2.812594175e-06   -2.096593380e-05    0.000000000e+00    0.000000000e+00    0.000000000e+00    0.000000000e+00
      649500000   -8.597882986e-01    5.948395729e-01    6.341096014e-05   -3.488641232e-05    0.000000000e+00    0.000000000e+00    0.000000000e+00    0.000000000e+00
      656750000   -7.790134549e-01    6.764231920e-01    1.115631312e-05    1.639593393e-05    0.000000000e+00    0.000000000e+00    0.000000000e+00    0.000000000e+00
      664000000   -6.891650558e-01    7.479943037e-01    3.688037395e-06    4.857778549e-06    0.000000000e+00    0.000000000e+00    0.000000000e+00    0.000000000e+00
      671250000   -5.941570997e-01    8.077571392e-01   -7.352791727e-06    2.541579306e-05    0.000000000e+00    0.000000000e+00    0.000000000e+00    0.000000000e+00
      678500000   -4.929355383e-01    8.553826809e-01   -5.399435759e-05    6.886199117e-06    0.000000000e+00    0.000000000e+00    0.000000000e+00    0.000000000e+00
      685750000   -3.886705935e-01    8.909987211e-01   -6.233341992e-06    1.440756023e-06    0.000000000e+00    0.000000000e+00    0.000000000e+00    0.000000000e+00
      693000000   -2.818006575e-01    9.139919281e-01   -2.074707299e-05   -2.852641046e-06    0.000000000e+00    0.000000000e+00    0.000000000e+00    0.000000000e+00
      700250000   -1.761704087e-01    9.262303710e-01    4.638917744e-06   -1.454725862e-05    0.000000000e+00    0.000000000e+00    0.000000000e+00    0.000000000e+00
      707500000   -6.771815568e-02    9.257492423e-01   -3.420747817e-05    2.002250403e-05    0.000000000e+00    0.000000000e+00    0.000000000e+00    0.000000000e+00
      714750000    3.770379350e-02    9.144597054e-01    1.542177051e-05   -4.275795072e-05    0.000000000e+00    0.000000000e+00    0.000000000e+00    0.000000000e+00
      722000000    1.376239657e-01    8.930786848e-01    1.940689981e-05    6.432645023e-05    0.000000000e+00    0.000000000e+00    0.000000000e+00    0.000000000e+00
      729250000    2.370026857e-01    8.622054458e-01   -4.627741873e-05    2.690404654e-05    0.000000000e+00    0.000000000e+00    0.000000000e+00    0.000000000e+00
      736500000    3.295938075e-01    8.211053014e-01    1.511909068e-05   -2.965237945e-05    0.000000000e+00    0.000000000e+00    0.000000000e+00    0.000000000e+00
      743750000    4.186950028e-01    7.713590264e-01   -2.277735621e-05   -2.955738455e-05    0.000000000e+00    0.000000000e+00    0.000000000e+00    0.000000000e+00
      751000000    5.018094182e-01    7.138885260e-01    4.116445780e-06   -9.528361261e-06    0.000000000e+00    0.000000000e+00    0.000000000e+00    0.000000000e+00
      758250000    5.767345428e-01    6.477190256e-01    1.327600330e-05   -2.883840352e-05    0.000000000e+00    0.000000000e+00    0.000000000e+00    0.000000000e+00
      765500000    6.457489133e-01    5.758056641e-01    3.800168633e-05   -1.256540418e-05    0.000000000e+00    0.000000000e+00    0.000000000e+00    0.000000000e+00
      772750000    7.083963752e-01    4.954100251e-01   -1.098494977e-05    3.878306597e-05    0.000000000e+00    0.000000000e+00    0.000000000e+00    0.000000000e+00
      780000000    7.608008981e-01    4.113275111e-01    2.309493721e-05    2.272799611e-05    0.000000000e+00    0.000000000e+00    0.000000000e+00    0.000000000e+00
      787250000    8.072013259e-01    3.210199773e-01    3.227032721e-06    2.843327820e-06    0.000000000e+00    0.000000000e+00    0.000000000e+00    0.000000000e+00
      794500000    8.434884548e-01    2.260131985e-01   -3.395602107e-05   -3.251340240e-05    0.000000000e+00    0.000000000e+00    0.000000000e+00    0.000000000e+00
      801750000    8.700233698e-01    1.283437908e-01   -1.438241452e-05   -4.069879651e-06    0.000000000e+00    0.000000000e+00    0.000000000e+00    0.000000000e+00
      809000000    8.864946961e-01    2.678368241e-02   -2.675689757e-06    1.127738506e-05    0.000000000e+00    0.000000000e+00    0.000000000e+00    0.000000000e+00
      816250000    8.931878805e-01   -7.732608169e-02    1.404993236e-05    2.058781683e-05    0.000000000e+00    0.000000000e+00    0.000000000e+00    0.000000000e+00
      823500000    8.884375691e-01   -1.828657985e-01   -1.121032983e-05    2.221018076e-05    0.000000000e+00    0.000000000e+00    0.000000000e+00    0.000000000e+00
      830750000    8.728095293e-01   -2.867749929e-01    4.567857832e-05    1.634191722e-05    0.000000000e+00    0.000000000e+00    0.000000000e+00    0.000000000e+00
      838000000    8.449968696e-01   -3.932932019e-01   -2.151355147e-07   -1.952983439e-06    0.000000000e+00    0.000000000e+00    0.000000000e+00    0.000000000e+00
      845250000    8.057122827e-01   -4.947165251e-01   -3.074202687e-05   -2.245046198e-05    0.000000000e+00    0.000000000e+00    0.000000000e+00    0.000000000e+00
      852500000    7.541968226e-01   -5.935310125e-01    1.587159932e-05   -2.599880099e-05    0.000000000e+00    0.000000000e+00    0.000000000e+00    0.000000000e+00
      859750000    6.907244325e-01   -6.867479682e-01    8.075498044e-06    2.825539559e-05    0.000000000e+00    0.000000000e+00    0.000000000e+00    0.000000000e+00
      867000000    6.148065925e-01   -7.739795446e-01   -6.121583283e-06   -1.322478056e-06    0.000000000e+00    0.000000000e+00    0.000000000e+00    0.000000000e+00
      874250000    5.286522508e-01   -8.520008326e-01    2.338085324e-05    1.408252865e-05    0.000000000e+00    0.000000000e+00    0.000000000e+00    0.000000000e+00
      881500000    4.307349920e-01   -9.210891128e-01    1.173559576e-05    2.169329673e-05    0.000000000e+00    0.000000000e+00    0.000000000e+00    0.000000000e+00
      888750000    3.236972094e-01   -9.761793613e-01    2.576969564e-06   -4.407484084e-05    0.000000000e+00    0.000000000e+00    0.000000000e+00    0.000000000e+00
      896000000    2.093504518e-01   -1.018238902e+00    6.913207471e-06    1.388695091e-05    0.000000000e+00    0.000000000e+00    0.000000000e+00    0.000000000e+00
      903250000    9.108317643e-02   -1.044810057e+00    3.501214087e-05    3.062840551e-05    0.000000000e+00    0.000000000e+00    0.000000000e+00    0.000000000e+00
      910500000   -3.554608300e-02   -1.055465341e+00   -2.594571561e-05   -4.569254816e-05    0.000000000e+00    0.000000000e+00    0.000000000e+00    0.000000000e+00
      917750000   -1.577927172e-01   -1.050138593e+00   -6.225891411e-06    1.368951052e-05    0.000000000e+00    0.000000000e+00    0.000000000e+00    0.000000000e+00
      925000000   -2.820589542e-01   -1.026128054e+00   -1.371465623e-05    1.498591155e-05    0.000000000e+00    0.000000000e+00    0.000000000e+00    0.000000000e+00
      932250000   -4.013173282e-01   -9.863156676e-01    7.823109627e-07    1.760572195e-05    0.000000000e+00    0.000000000e+00    0.000000000e+00    0.000000000e+00
      939500000   -5.124995112e-01   -9.308303595e-01    2.183765173e-05   -6.596092135e-05    0.000000000e+00    0.000000000e+00    0.000000000e+00    0.000000000e+00
      946750000   -6.142009497e-01   -8.619862199e-01   -1.073628664e-05    5.214381963e-05    0.000000000e+00    0.000000000e+00    0.000000000e+00    0.000000000e+00
      954000000   -7.042613029e-01   -7.805909514e-01   -2.210773528e-05    6.939284503e-06    0.000000000e+00    0.000000000e+00    0.000000000e+00    0.000000000e+00
      961250000   -7.824577689e-01   -6.878775358e-01    5.403067917e-05   -3.016460687e-05    0.000000000e+00    0.000000000e+00    0.000000000e+00    0.000000000e+00
      968500000   -8.460383415e-01   -5.875935555e-01    2.370309085e-05    4.471186548e-05    0.000000000e+00    0.000000000e+00    0.000000000e+00    0.000000000e+00
      975750000   -8.940773010e-01   -4.824620187e-01    1.697335392e-05    4.400499165e-05    0.000000000e+00    0.000000000e+00    0.000000000e+00    0.000000000e+00
      983000000   -9.290622473e-01   -3.727142811e-01    1.268461347e-06    1.820269972e-05    0.000000000e+00    0.000000000e+00    0.000000000e+00    0.000000000e+00
      990250000   -9.482424855e-01   -2.640126646e-01    2.707354724e-06   -3.865826875e-05    0.000000000e+00    0.000000000e+00    0.000000000e+00    0.000000000e+00
      997500000   -9.546158910e-01   -1.556506157e-01   -2.635642886e-05    6.154179573e-06    0.000000000e+00    0.000000000e+00    0.000000000e+00    0.000000000e+00
     1004750000   -9.479968548e-01   -5.189152434e-02   -2.922862768e-05   -1.419242471e-05    0.000000000e+00    0.000000000e+00    0.000000000e+00    0.000000000e+00
     1012000000   -9.294283390e-01    5.109274387e-02   -2.456363291e-05    1.660455018e-05    0.000000000e+00    0.000000000e+00    0.000000000e+00    0.000000000e+00
     1019250000   -9.007020593e-01    1.460463703e-01    2.394896001e-05    4.575122148e-05    0.000000000e+00    0.000000000e+00    0.000000000e+00    0.000000000e+00
     1026500000   -8.621765971e-01    2.354158163e-01    3.395602107e-06    7.219612598e-06    0.000000000e+00    0.000000000e+00    0.000000000e+00    0.000000000e+00
     1033750000   -8.164543509e-01    3.186151683e-01    1.053046435e-05   -6.376765668e-06    0.000000000e+00    0.000000000e+00    0.000000000e+00    0.000000000e+00
     1041000000   -7.637676597e-01    3.942032456e-01    3.905501217e-05    1.892913133e-05    0.000000000e+00    0.000000000e+00    0.000000000e+00    0.000000000e+00
