! NanoVNA-App
! Date: 2024-06-25 16:11:45
! Start: 200MHz Stop: 6GHz Points: 801
! S-Parameter data: F S11 S21 S12 S22
# Hz S RI R 50
!     Frequency           S11_Real           S11_Imag           S21_Real           S21_Imag           S12_Real           S12_Imag           S22_Real           S22_Imag
      200000000   -9.985807538e-01   -1.185645387e-01   -1.297332346e-05    2.742651850e-05    0.000000000e+00    0.000000000e+00    0.000000000e+00    0.000000000e+00
      207250000   -1.010089993e+00   -1.941752993e-02   -1.676566899e-05   -1.247972250e-05    0.000000000e+00    0.000000000e+00    0.000000000e+00    0.000000000e+00
      214500000   -1.011821747e+00    8.119676262e-02   -8.404254913e-06   -2.388563007e-05    0.000000000e+00    0.000000000e+00    0.000000000e+00    0.000000000e+00
      221750000   -1.002339602e+00    1.845729500e-01   -4.673376679e-06   -2.416782081e-05    0.000000000e+00    0.000000000e+00    0.000000000e+00    0.000000000e+00
      229000000   -9.826596975e-01    2.874736190e-01   -2.884771675e-05   -5.988404155e-06    0.000000000e+00    0.000000000e+00    0.000000000e+00    0.000000000e+00
      236250000   -9.515694380e-01    3.906806409e-01    2.920720726e-05   -1.407228410e-06    0.000000000e+00    0.000000000e+00    0.000000000e+00    0.000000000e+00
      243500000   -9.079106450e-01    4.901988804e-01   -3.832392395e-06   -2.598389983e-07    0.000000000e+00    0.000000000e+00    0.000000000e+00    0.000000000e+00
      250750000   -8.517965674e-01    5.868874192e-01   -3.781728446e-05    1.430418342e-05    0.000000000e+00    0.000000000e+00    0.000000000e+00    0.000000000e+00
      258000000   -7.842846513e-01    6.785388589e-01   -1.116096973e-05   -1.962017268e-05    0.000000000e+00    0.000000000e+00    0.000000000e+00    0.000000000e+00
      265250000   -7.051345706e-01    7.620796561e-01    8.624047041e-07   -2.160668373e-06    0.000000000e+00    0.000000000e+00    0.000000000e+00    0.000000000e+00
      272500000   -6.136475205e-01    8.375406265e-01   -2.405885607e-05    0.000000000e+00    0.000000000e+00    0.000000000e+00    0.000000000e+00    0.000000000e+00
      279750000   -5.134952068e-01    9.018981457e-01    5.910173059e-06    3.876816481e-05    0.000000000e+00    0.000000000e+00    0.000000000e+00    0.000000000e+00
      287000000   -4.024730623e-01    9.542545676e-01    1.026038080e-05    1.502130181e-05    0.000000000e+00    0.000000000e+00    0.000000000e+00    0.000000000e+00
      294250000   -2.854585648e-01    9.922869205e-01   -1.369602978e-05    3.930274397e-05    0.000000000e+00    0.000000000e+00    0.000000000e+00    0.000000000e+00
      301500000   -1.635386497e-01    1.016641855e+00   -3.525987267e-06   -1.396518201e-05    0.000000000e+00    0.000000000e+00    0.000000000e+00    0.000000000e+00
      308750000   -3.782688454e-02    1.024042606e+00   -1.203455031e-05    8.093193173e-06    0.000000000e+00    0.000000000e+00    0.000000000e+00    0.000000000e+00
      316000000    8.826435357e-02    1.014764905e+00   -2.793036401e-06   -1.395680010e-05    0.000000000e+00    0.000000000e+00    0.000000000e+00    0.000000000e+00
      323250000    2.127785981e-01    9.899209142e-01   -8.146278560e-06   -1.197215170e-05    0.000000000e+00    0.000000000e+00    0.000000000e+00    0.000000000e+00
      330500000    3.330827355e-01    9.496588707e-01    2.119690180e-05    3.204494715e-05    0.000000000e+00    0.000000000e+00    0.000000000e+00    0.000000000e+00
      337750000    4.465310872e-01    8.940063715e-01   -2.454780042e-05   -2.861116081e-05    0.000000000e+00    0.000000000e+00    0.000000000e+00    0.000000000e+00
      345000000    5.523557067e-01    8.252610564e-01    1.415889710e-05    1.834798604e-05    0.000000000e+00    0.000000000e+00    0.000000000e+00    0.000000000e+00
      352250000    6.473920345e-01    7.421031594e-01    2.237036824e-05   -1.873727888e-05    0.000000000e+00    0.000000000e+00    0.000000000e+00    0.000000000e+00
      359500000    7.316719294e-01    6.503711343e-01   -5.215406418e-08    7.268041372e-06    0.000000000e+00    0.000000000e+00    0.000000000e+00    0.000000000e+00
      366750000    8.027459383e-01    5.491375923e-01    6.586313248e-06   -9.009614587e-06    0.000000000e+00    0.000000000e+00    0.000000000e+00    0.000000000e+00
      374000000    8.602477908e-01    4.414149523e-01   -1.028645784e-05    1.104082912e-05    0.000000000e+00    0.000000000e+00    0.000000000e+00    0.000000000e+00
      381250000    9.045072794e-01    3.275888860e-01   -1.561827958e-06    4.465598613e-05    0.000000000e+00    0.000000000e+00    0.000000000e+00    0.000000000e+00
      388500000    9.347084761e-01    2.127605677e-01    1.769978553e-05   -4.109740257e-05    0.000000000e+00    0.000000000e+00    0.000000000e+00    0.000000000e+00
      395750000    9.511421919e-01    9.523685277e-02   -1.140497625e-05   -3.782380372e-05    0.000000000e+00    0.000000000e+00    0.000000000e+00    0.000000000e+00
      403000000    9.542745948e-01   -2.156719752e-02   -3.140419722e-06   -1.119822264e-05    0.000000000e+00    0.000000000e+00    0.000000000e+00    0.000000000e+00
      410250000    9.448184967e-01   -1.369957924e-01   -2.071354538e-05    4.940666258e-05    0.000000000e+00    0.000000000e+00    0.000000000e+00    0.000000000e+00
      417500000    9.226556420e-01   -2.494147271e-01   -1.672748476e-05    3.936607391e-05    0.000000000e+00    0.000000000e+00    0.000000000e+00    0.000000000e+00
      424750000    8.887445331e-01   -3.585256040e-01    1.823902130e-05   -1.425296068e-05    0.000000000e+00    0.000000000e+00    0.000000000e+00    0.000000000e+00
      432000000    8.446875215e-01   -4.609374702e-01   -2.215616405e-05    2.371892333e-05    0.000000000e+00    0.000000000e+00    0.000000000e+00    0.000000000e+00
      439250000    7.891880274e-01   -5.575849414e-01   -6.951391697e-06   -4.032626748e-06    0.000000000e+00    0.000000000e+00    0.000000000e+00    0.000000000e+00
      446500000    7.247626781e-01   -6.474767923e-01    1.160614192e-05   -1.138076186e-06    0.000000000e+00    0.000000000e+00    0.000000000e+00    0.000000000e+00
      453750000    6.515266299e-01   -7.306600213e-01    1.466926187e-05    3.134831786e-06    0.000000000e+00    0.000000000e+00    0.000000000e+00    0.000000000e+00
      461000000    5.713899136e-01   -8.040992022e-01   -7.133930922e-06    2.326071262e-05    0.000000000e+00    0.000000000e+00    0.000000000e+00    0.000000000e+00
      468250000    4.837988913e-01   -8.695675135e-01    9.800307453e-06    3.880821168e-05    0.000000000e+00    0.000000000e+00    0.000000000e+00    0.000000000e+00
      475500000    3.882462978e-01   -9.253065586e-01    2.188980579e-05   -1.876521856e-05    0.000000000e+00    0.000000000e+00    0.000000000e+00    0.000000000e+00
      482750000    2.888181508e-01   -9.705735445e-01    1.551676542e-05   -1.113023609e-05    0.000000000e+00    0.000000000e+00    0.000000000e+00    0.000000000e+00
      490000000    1.856840253e-01   -1.006119370e+00   -2.751126885e-06   -7.699243724e-06    0.000000000e+00    0.000000000e+00    0.000000000e+00    0.000000000e+00
      497250000    7.768514752e-02   -1.029915929e+00   -3.181956708e-05    2.731755376e-05    0.000000000e+00    0.000000000e+00    0.000000000e+00    0.000000000e+00
      504500000   -3.199984506e-02   -1.042470694e+00   -7.347203791e-06    2.571381629e-06    0.000000000e+00    0.000000000e+00    0.000000000e+00    0.000000000e+00
      511750000   -1.434901208e-01   -1.043393016e+00   -1.725740731e-05    2.665910870e-05    0.000000000e+00    0.000000000e+00    0.000000000e+00    0.000000000e+00
      519000000   -2.546628714e-01   -1.032959700e+00    9.814277291e-06   -2.847891301e-05    0.000000000e+00    0.000000000e+00    0.000000000e+00    0.000000000e+00
      526250000   -3.655062616e-01   -1.009021997e+00   -1.727510244e-05    1.142174006e-05    0.000000000e+00    0.000000000e+00    0.000000000e+00    0.000000000e+00
      533500000   -4.735765755e-01   -9.729389548e-01    1.514330506e-05   -2.257898450e-05    0.000000000e+00    0.000000000e+00    0.000000000e+00    0.000000000e+00
      540750000   -5.776776671e-01   -9.245550036e-01   -7.976777852e-06    1.254491508e-06    0.000000000e+00    0.000000000e+00    0.000000000e+00    0.000000000e+00
      548000000   -6.762755513e-01   -8.644635081e-01   -1.208111644e-05    3.796070814e-06    0.000000000e+00    0.000000000e+00    0.000000000e+00    0.000000000e+00
      555250000   -7.676735520e-01   -7.930067182e-01   -8.404254913e-06    1.663062721e-05    0.000000000e+00    0.000000000e+00    0.000000000e+00    0.000000000e+00
      562500000   -8.511760235e-01   -7.108881474e-01    8.831731975e-06    3.732740879e-06    0.000000000e+00    0.000000000e+00    0.000000000e+00    0.000000000e+00
      569750000   -9.246782660e-01   -6.188137531e-01    1.109205186e-05   -7.685273886e-06    0.000000000e+00    0.000000000e+00    0.000000000e+00    0.000000000e+00
      577000000   -9.867739081e-01   -5.163173079e-01   -4.918314517e-06   -1.790840179e-05    0.000000000e+00    0.000000000e+00    0.000000000e+00    0.000000000e+00
      584250000   -1.036723137e+00   -4.098949134e-01    2.244487405e-06   -8.261762559e-06    0.000000000e+00    0.000000000e+00    0.000000000e+00    0.000000000e+00
      591500000   -1.072826028e+00   -2.954460979e-01    4.532746971e-06    3.452133387e-05    0.000000000e+00    0.000000000e+00    0.000000000e+00    0.000000000e+00
      598750000   -1.095697045e+00   -1.759705245e-01    6.919726729e-07    4.313886166e-05    0.000000000e+00    0.000000000e+00    0.000000000e+00    0.000000000e+00
      606000000   -1.103921413e+00   -5.667455867e-02    1.750886440e-05    1.089554280e-05    0.000000000e+00    0.000000000e+00    0.000000000e+00    0.000000000e+00
      613250000   -1.097251654e+00    6.277732551e-02   -7.473863661e-06    2.765655518e-05    0.000000000e+00    0.000000000e+00    0.000000000e+00    0.000000000e+00
      620500000   -1.076149583e+00    1.804104149e-01    1.355540007e-05    3.262702376e-05    0.000000000e+00    0.000000000e+00    0.000000000e+00    0.000000000e+00
      627750000   -1.040833592e+00    2.948704362e-01    4.268158227e-05    1.467764378e-06    0.000000000e+00    0.000000000e+00    0.000000000e+00    0.000000000e+00
      635000000   -9.922034740e-01    4.022624493e-01   -2.796761692e-06   -2.310797572e-05    0.000000000e+00    0.000000000e+00    0.000000000e+00    0.000000000e+00
      642250000   -9.317057729e-01    5.028433800e-01    1.502782106e-05   -3.619305789e-05    0.000000000e+00    0.000000000e+00    0.000000000e+00    0.000000000e+00
      649500000   -8.595569134e-01    5.955280662e-01   -2.251192927e-05    3.434997052e-05    0.000000000e+00    0.000000000e+00    0.000000000e+00    0.000000000e+00
      656750000   -7.793380022e-01    6.761783361e-01    6.922520697e-06    6.817281246e-06    0.000000000e+00    0.000000000e+00    0.000000000e+00    0.000000000e+00
      664000000   -6.894341707e-01    7.475636601e-01   -3.949366510e-05   -4.269182682e-06    0.000000000e+00    0.000000000e+00    0.000000000e+00    0.000000000e+00
      671250000   -5.937418342e-01    8.072717786e-01    1.671351492e-05    4.246551543e-05    0.000000000e+00    0.000000000e+00    0.000000000e+00    0.000000000e+00
      678500000   -4.932994545e-01    8.546467423e-01   -1.363363117e-05    1.258123666e-05    0.000000000e+00    0.000000000e+00    0.000000000e+00    0.000000000e+00
      685750000   -3.884735405e-01    8.906722069e-01   -3.335718066e-05   -1.141056418e-05    0.000000000e+00    0.000000000e+00    0.000000000e+00    0.000000000e+00
      693000000   -2.824310064e-01    9.141213894e-01   -1.468788832e-05   -6.440095603e-06    0.000000000e+00    0.000000000e+00    0.000000000e+00    0.000000000e+00
      700250000   -1.753166318e-01    9.261414409e-01   -4.437286407e-05   -7.909722626e-06    0.000000000e+00    0.000000000e+00    0.000000000e+00    0.000000000e+00
      707500000   -6.859093159e-02    9.260196686e-01    2.763979137e-05    1.284759492e-05    0.000000000e+00    0.000000000e+00    0.000000000e+00    0.000000000e+00
      714750000    3.772391379e-02    9.143374562e-01    1.777429134e-05   -9.611248970e-06    0.000000000e+00    0.000000000e+00    0.000000000e+00    0.000000000e+00
      722000000    1.373528391e-01    8.936601877e-01    2.544838935e-05   -3.941915929e-05    0.000000000e+00    0.000000000e+00    0.000000000e+00    0.000000000e+00
      729250000    2.372668982e-01    8.620271683e-01   -9.547919035e-06   -4.043430090e-05    0.000000000e+00    0.000000000e+00    0.000000000e+00    0.000000000e+00
      736500000    3.300058842e-01    8.211895823e-01   -2.242159098e-05   -6.551854312e-06    0.000000000e+00    0.000000000e+00    0.000000000e+00    0.000000000e+00
      743750000    4.186543226e-01    7.708904743e-01    5.440786481e-06    4.487112164e-05    0.000000000e+00    0.000000000e+00    0.000000000e+00    0.000000000e+00
      751000000    5.015615821e-01    7.125067115e-01   -3.233551979e-06    1.385156065e-05    0.000000000e+00    0.000000000e+00    0.000000000e+00    0.000000000e+00
      758250000    5.769055486e-01    6.481131315e-01    1.628790051e-05   -1.820456237e-05    0.000000000e+00    0.000000000e+00    0.000000000e+00    0.000000000e+00
      765500000    6.463121176e-01    5.752348304e-01    9.716488421e-06   -4.522129893e-05    0.000000000e+00    0.000000000e+00    0.000000000e+00    0.000000000e+00
      772750000    7.086974382e-01    4.947544932e-01    1.463480294e-05    1.702085137e-05    0.000000000e+00    0.000000000e+00    0.000000000e+00    0.000000000e+00
      780000000    7.611885071e-01    4.114836752e-01    3.021210432e-06    5.923211575e-06    0.000000000e+00    0.000000000e+00    0.000000000e+00    0.000000000e+00
      787250000    8.065710664e-01    3.212117553e-01   -4.132557660e-05   -2.475269139e-05    0.000000000e+00    0.000000000e+00    0.000000000e+00    0.000000000e+00
      794500000    8.434264064e-01    2.263071537e-01   -6.060115993e-06   -1.620501280e-07    0.000000000e+00    0.000000000e+00    0.000000000e+00    0.000000000e+00
      801750000    8.699638247e-01    1.273236275e-01   -1.756660640e-05    7.329508662e-06    0.000000000e+00    0.000000000e+00    0.000000000e+00    0.000000000e+00
      809000000    8.868457079e-01    2.629741281e-02    3.202166408e-05    1.332443208e-05    0.000000000e+00    0.000000000e+00    0.000000000e+00    0.000000000e+00
      816250000    8.927884102e-01   -7.727471739e-02    1.820363104e-05    2.756714821e-06    0.000000000e+00    0.000000000e+00    0.000000000e+00    0.000000000e+00
      823500000    8.881446123e-01   -1.833181977e-01   -1.981854439e-05   -2.189632505e-05    0.000000000e+00    0.000000000e+00    0.000000000e+00    0.000000000e+00
      830750000    8.719738126e-01   -2.889325619e-01    3.717374057e-05   -4.700850695e-05    0.000000000e+00    0.000000000e+00    0.000000000e+00    0.000000000e+00
      838000000    8.459495902e-01   -3.919659257e-01    1.715961844e-05   -8.456408978e-07    0.000000000e+00    0.000000000e+00    0.000000000e+00    0.000000000e+00
      845250000    8.059367537e-01   -4.946932793e-01   -9.534880519e-06   -2.195499837e-05    0.000000000e+00    0.000000000e+00    0.000000000e+00    0.000000000e+00
      852500000    7.543427944e-01   -5.935186744e-01   -9.799376130e-06    3.293808550e-05    0.000000000e+00    0.000000000e+00    0.000000000e+00    0.000000000e+00
      859750000    6.915510297e-01   -6.863363385e-01   -2.628285438e-05   -3.306102008e-05    0.000000000e+00    0.000000000e+00    0.000000000e+00    0.000000000e+00
      867000000    6.151592731e-01   -7.742105722e-01    1.092255116e-05   -9.722076356e-06    0.000000000e+00    0.000000000e+00    0.000000000e+00    0.000000000e+00
      874250000    5.295809507e-01   -8.514306545e-01   -2.589449286e-05    3.527570516e-05    0.000000000e+00    0.000000000e+00    0.000000000e+00    0.000000000e+00
      881500000    4.300120175e-01   -9.206200838e-01   -3.552064300e-06    9.111128747e-06    0.000000000e+00    0.000000000e+00    0.000000000e+00    0.000000000e+00
      888750000    3.248960972e-01   -9.757469296e-01    8.650124073e-06    3.300793469e-05    0.000000000e+00    0.000000000e+00    0.000000000e+00    0.000000000e+00
      896000000    2.112095058e-01   -1.018592358e+00    3.787782043e-05    3.852043301e-05    0.000000000e+00    0.000000000e+00    0.000000000e+00    0.000000000e+00
      903250000    9.077168256e-02   -1.045195222e+00    1.348182559e-05    1.884531230e-05    0.000000000e+00    0.000000000e+00    0.000000000e+00    0.000000000e+00
      910500000   -3.662163392e-02   -1.055388927e+00    3.485754132e-05    5.962792784e-05    0.000000000e+00    0.000000000e+00    0.000000000e+00    0.000000000e+00
      917750000   -1.590098590e-01   -1.049327493e+00   -6.476417184e-06    4.867371172e-05    0.000000000e+00    0.000000000e+00    0.000000000e+00    0.000000000e+00
      925000000   -2.807651460e-01   -1.026952863e+00    2.177432179e-05    8.458551019e-05    0.000000000e+00    0.000000000e+00    0.000000000e+00    0.000000000e+00
      932250000   -4.014591277e-01   -9.863479137e-01    9.920448065e-06   -1.183710992e-06    0.000000000e+00    0.000000000e+00    0.000000000e+00    0.000000000e+00
      939500000   -5.121443272e-01   -9.316250682e-01    1.472700387e-05   -2.573430538e-05    0.000000000e+00    0.000000000e+00    0.000000000e+00    0.000000000e+00
      946750000   -6.147258282e-01   -8.607342243e-01   -2.234149724e-05   -3.490317613e-05    0.000000000e+00    0.000000000e+00    0.000000000e+00    0.000000000e+00
      954000000   -7.059136629e-01   -7.795358896e-01    9.711831808e-06    7.994472980e-06    0.000000000e+00    0.000000000e+00    0.000000000e+00    0.000000000e+00
      961250000   -7.816250920e-01   -6.883309484e-01   -5.912967026e-06   -4.358123988e-05    0.000000000e+00    0.000000000e+00    0.000000000e+00    0.000000000e+00
      968500000   -8.462532759e-01   -5.865049362e-01    5.641672760e-05   -1.759547740e-05    0.000000000e+00    0.000000000e+00    0.000000000e+00    0.000000000e+00
      975750000   -8.942443728e-01   -4.832618833e-01    1.229532063e-05    1.872424036e-05    0.000000000e+00    0.000000000e+00    0.000000000e+00    0.000000000e+00
      983000000   -9.288853407e-01   -3.732958138e-01    1.106783748e-05    3.961846232e-05    0.000000000e+00    0.000000000e+00    0.000000000e+00    0.000000000e+00
      990250000   -9.481506348e-01   -2.642086148e-01    1.761410385e-05    4.627741873e-06    0.000000000e+00    0.000000000e+00    0.000000000e+00    0.000000000e+00
      997500000   -9.545709491e-01   -1.563095301e-01   -2.360995859e-05   -4.111230373e-05    0.000000000e+00    0.000000000e+00    0.000000000e+00    0.000000000e+00
     1004750000   -9.480410814e-01   -5.182853341e-02   -3.414414823e-05    2.368912101e-05    0.000000000e+00    0.000000000e+00    0.000000000e+00    0.000000000e+00
     1012000000   -9.293597937e-01    5.023058504e-02    2.593826503e-05    2.278015018e-06    0.000000000e+00    0.000000000e+00    0.000000000e+00    0.000000000e+00
     1019250000   -9.010080099e-01    1.456698030e-01   -4.360731691e-05   -6.695277989e-06    0.000000000e+00    0.000000000e+00    0.000000000e+00    0.000000000e+00
     1026500000   -8.631092906e-01    2.353121042e-01    9.748153389e-06   -2.603139728e-05    0.000000000e+00    0.000000000e+00    0.000000000e+00    0.000000000e+00
     1033750000   -8.164122105e-01    3.196302652e-01   -3.034807742e-05   -1.450814307e-05    0.000000000e+00    0.000000000e+00    0.000000000e+00    0.000000000e+00
     1041000000   -7.647366524e-01    3.930220008e-01    3.312062472e-05   -4.218704998e-05    0.000000000e+00    0.000000000e+00    0.000000000e+00    0.000000000e+00
