! NanoVNA-App
! Date: 2024-06-25 16:11:48
! Start: 200MHz Stop: 6GHz Points: 801
! S-Parameter data: F S11 S21 S12 S22
# Hz S RI R 50
!     Frequency           S11_Real           S11_Imag           S21_Real           S21_Imag           S12_Real           S12_Imag           S22_Real           S22_Imag
      200000000   -9.985572100e-01   -1.185389012e-01   -4.811398685e-05    9.355135262e-06    0.000000000e+00    0.000000000e+00    0.000000000e+00    0.000000000e+00
      207250000   -1.010182023e+00   -1.951052621e-02   -1.560896635e-05   -7.163733244e-06    0.000000000e+00    0.000000000e+00    0.000000000e+00    0.000000000e+00
      214500000   -1.012054443e+00    8.170434833e-02   -1.312140375e-05   -4.540663213e-05    0.000000000e+00    0.000000000e+00    0.000000000e+00    0.000000000e+00
      221750000   -1.002209187e+00    1.846207231e-01    7.111579180e-06   -1.621246338e-05    0.000000000e+00    0.000000000e+00    0.000000000e+00    0.000000000e+00
      229000000   -9.837306738e-01    2.874912024e-01   -3.301817924e-05   -3.067404032e-05    0.000000000e+00    0.000000000e+00    0.000000000e+00    0.000000000e+00
      236250000   -9.508458376e-01    3.900173903e-01   -1.694448292e-05    2.259388566e-06    0.000000000e+00    0.000000000e+00    0.000000000e+00    0.000000000e+00
      243500000   -9.075039029e-01    4.904045165e-01   -2.576969564e-06   -1.104827970e-05    0.000000000e+00    0.000000000e+00    0.000000000e+00    0.000000000e+00
      250750000   -8.520828485e-01    5.865918994e-01   -2.012588084e-06   -1.709349453e-05    0.000000000e+00    0.000000000e+00    0.000000000e+00    0.000000000e+00
      258000000   -7.834405899e-01    6.783455014e-01    9.370036423e-06    7.394701242e-07    0.000000000e+00    0.000000000e+00    0.000000000e+00    0.000000000e+00
      265250000   -7.040988803e-01    7.618701458e-01    2.692360431e-05   -1.969747245e-05    0.000000000e+00    0.000000000e+00    0.000000000e+00    0.000000000e+00
      272500000   -6.136469841e-01    8.377071023e-01   -7.850117981e-06   -2.600066364e-05    0.000000000e+00    0.000000000e+00    0.000000000e+00    0.000000000e+00
      279750000   -5.134444237e-01    9.017562866e-01    1.826137304e-05   -4.758127034e-06    0.000000000e+00    0.000000000e+00    0.000000000e+00    0.000000000e+00
      287000000   -4.021548033e-01    9.541957378e-01    1.858174801e-05    1.509487629e-05    0.000000000e+00    0.000000000e+00    0.000000000e+00    0.000000000e+00
      294250000   -2.861436605e-01    9.925271869e-01   -3.368593752e-05   -2.552941442e-05    0.000000000e+00    0.000000000e+00    0.000000000e+00    0.000000000e+00
      301500000   -1.637902260e-01    1.015567780e+00   -1.698732376e-05    1.223478466e-05    0.000000000e+00    0.000000000e+00    0.000000000e+00    0.000000000e+00
      308750000   -3.793610260e-02    1.023576379e+00    1.237541437e-05   -3.068894148e-05    0.000000000e+00    0.000000000e+00    0.000000000e+00    0.000000000e+00
      316000000    8.801621944e-02    1.015529275e+00   -6.731599569e-06   -3.325007856e-05    0.000000000e+00    0.000000000e+00    0.000000000e+00    0.000000000e+00
      323250000    2.128528506e-01    9.905694723e-01   -2.393312752e-05   -9.341165423e-07    0.000000000e+00    0.000000000e+00    0.000000000e+00    0.000000000e+00
      330500000    3.329429626e-01    9.500835538e-01    7.599592209e-06   -5.126930773e-06    0.000000000e+00    0.000000000e+00    0.000000000e+00    0.000000000e+00
      337750000    4.471270740e-01    8.937680125e-01    1.179985702e-05    5.826354027e-06    0.000000000e+00    0.000000000e+00    0.000000000e+00    0.000000000e+00
      345000000    5.523553491e-01    8.244847059e-01    4.438962787e-05   -7.789582014e-06    0.000000000e+00    0.000000000e+00    0.000000000e+00    0.000000000e+00
      352250000    6.473660469e-01    7.423902154e-01    5.469657481e-06   -1.058261842e-05    0.000000000e+00    0.000000000e+00    0.000000000e+00    0.000000000e+00
      359500000    7.315963507e-01    6.500450373e-01    1.755449921e-05   -2.367328852e-05    0.000000000e+00    0.000000000e+00    0.000000000e+00    0.000000000e+00
      366750000    8.027646542e-01    5.494050980e-01   -1.553446054e-05    2.660695463e-05    0.000000000e+00    0.000000000e+00    0.000000000e+00    0.000000000e+00
      374000000    8.608491421e-01    4.421837628e-01   -2.372078598e-05    8.650124073e-06    0.000000000e+00    0.000000000e+00    0.000000000e+00    0.000000000e+00
      381250000    9.050785899e-01    3.280060887e-01    2.601556480e-05    3.738328815e-05    0.000000000e+00    0.000000000e+00    0.000000000e+00    0.000000000e+00
      388500000    9.343437552e-01    2.127149701e-01   -2.033170313e-05    9.141862392e-06    0.000000000e+00    0.000000000e+00    0.000000000e+00    0.000000000e+00
      395750000    9.513016939e-01    9.526659548e-02   -9.158626199e-06    1.384317875e-05    0.000000000e+00    0.000000000e+00    0.000000000e+00    0.000000000e+00
      403000000    9.544520974e-01   -2.166034281e-02    2.698414028e-05   -4.745554179e-05    0.000000000e+00    0.000000000e+00    0.000000000e+00    0.000000000e+00
      410250000    9.449304938e-01   -1.375017017e-01   -2.090819180e-06    2.637505531e-06    0.000000000e+00    0.000000000e+00    0.000000000e+00    0.000000000e+00
      417500000    9.222715497e-01   -2.496187240e-01   -1.996383071e-05    4.136003554e-06    0.000000000e+00    0.000000000e+00    0.000000000e+00    0.000000000e+00
      424750000    8.885154724e-01   -3.579834998e-01    1.927930862e-05    9.557232261e-06    0.000000000e+00    0.000000000e+00    0.000000000e+00    0.000000000e+00
      432000000    8.441277146e-01   -4.602746665e-01   -8.107163012e-06   -7.234513760e-06    0.000000000e+00    0.000000000e+00    0.000000000e+00    0.000000000e+00
      439250000    7.890771627e-01   -5.575383306e-01    9.195879102e-06    7.161870599e-06    0.000000000e+00    0.000000000e+00    0.000000000e+00    0.000000000e+00
      446500000    7.250098586e-01   -6.473050117e-01   -1.307576895e-06   -2.270750701e-05    0.000000000e+00    0.000000000e+00    0.000000000e+00    0.000000000e+00
      453750000    6.513702273e-01   -7.308034301e-01   -2.106837928e-05    1.400522888e-05    0.000000000e+00    0.000000000e+00    0.000000000e+00    0.000000000e+00
      461000000    5.704889894e-01   -8.040844202e-01    2.622045577e-05   -9.223818779e-06    0.000000000e+00    0.000000000e+00    0.000000000e+00    0.000000000e+00
      468250000    4.836071730e-01   -8.696238995e-01    1.924112439e-05   -1.420266926e-06    0.000000000e+00    0.000000000e+00    0.000000000e+00    0.000000000e+00
      475500000    3.880828917e-01   -9.253359437e-01   -2.138968557e-05   -1.378636807e-05    0.000000000e+00    0.000000000e+00    0.000000000e+00    0.000000000e+00
      482750000    2.898213565e-01   -9.710169435e-01    4.568323493e-05   -6.509944797e-07    0.000000000e+00    0.000000000e+00    0.000000000e+00    0.000000000e+00
      490000000    1.856462657e-01   -1.006394744e+00   -3.343913704e-05    1.569278538e-05    0.000000000e+00    0.000000000e+00    0.000000000e+00    0.000000000e+00
      497250000    7.795739919e-02   -1.029858589e+00    3.892928362e-07   -1.463480294e-05    0.000000000e+00    0.000000000e+00    0.000000000e+00    0.000000000e+00
      504500000   -3.246966004e-02   -1.043359280e+00    1.102685928e-05    6.619840860e-06    0.000000000e+00    0.000000000e+00    0.000000000e+00    0.000000000e+00
      511750000   -1.438007504e-01   -1.043612003e+00    1.121126115e-05    5.817972124e-05    0.000000000e+00    0.000000000e+00    0.000000000e+00    0.000000000e+00
      519000000   -2.550294101e-01   -1.033004284e+00    2.744048834e-05   -6.154179573e-06    0.000000000e+00    0.000000000e+00    0.000000000e+00    0.000000000e+00
      526250000   -3.647916019e-01   -1.009580970e+00   -5.695037544e-06   -3.602076322e-05    0.000000000e+00    0.000000000e+00    0.000000000e+00    0.000000000e+00
      533500000   -4.730709493e-01   -9.733210206e-01   -2.740230411e-05   -2.752710134e-05    0.000000000e+00    0.000000000e+00    0.000000000e+00    0.000000000e+00
      540750000   -5.774270892e-01   -9.246249795e-01    2.765189856e-05   -6.065703928e-06    0.000000000e+00    0.000000000e+00    0.000000000e+00    0.000000000e+00
      548000000   -6.766636968e-01   -8.648266196e-01    2.326257527e-05   -3.429129720e-06    0.000000000e+00    0.000000000e+00    0.000000000e+00    0.000000000e+00
      555250000   -7.679512501e-01   -7.930836678e-01    2.107210457e-05   -4.787929356e-06    0.000000000e+00    0.000000000e+00    0.000000000e+00    0.000000000e+00
      562500000   -8.514966369e-01   -7.115179300e-01   -3.499537706e-05    1.258682460e-05    0.000000000e+00    0.000000000e+00    0.000000000e+00    0.000000000e+00
      569750000   -9.246218204e-01   -6.183912158e-01    3.356486559e-06    2.820044756e-05    0.000000000e+00    0.000000000e+00    0.000000000e+00    0.000000000e+00
      577000000   -9.867087007e-01   -5.174743533e-01   -2.698600292e-05    3.351643682e-05    0.000000000e+00    0.000000000e+00    0.000000000e+00    0.000000000e+00
      584250000   -1.037309527e+00   -4.091967344e-01   -3.866478801e-05   -8.644536138e-06    0.000000000e+00    0.000000000e+00    0.000000000e+00    0.000000000e+00
      591500000   -1.072803617e+00   -2.957167029e-01    2.935808152e-05    2.812594175e-06    0.000000000e+00    0.000000000e+00    0.000000000e+00    0.000000000e+00
      598750000   -1.095921278e+00   -1.759978235e-01    5.268491805e-06    9.550713003e-06    0.000000000e+00    0.000000000e+00    0.000000000e+00    0.000000000e+00
      606000000   -1.103403687e+00   -5.657219887e-02    5.098991096e-06    3.353692591e-06    0.000000000e+00    0.000000000e+00    0.000000000e+00    0.000000000e+00
      613250000   -1.096933961e+00    6.254687905e-02   -1.139193773e-05    5.746260285e-06    0.000000000e+00    0.000000000e+00    0.000000000e+00    0.000000000e+00
      620500000   -1.075617433e+00    1.798412353e-01   -7.590278983e-06    7.517635822e-06    0.000000000e+00    0.000000000e+00    0.000000000e+00    0.000000000e+00
      627750000   -1.040364742e+00    2.956476808e-01   -1.548975706e-05   -3.386288881e-06    0.000000000e+00    0.000000000e+00    0.000000000e+00    0.000000000e+00
      635000000   -9.919106960e-01    4.017752111e-01    8.576549590e-06   -4.544854164e-06    0.000000000e+00    0.000000000e+00    0.000000000e+00    0.000000000e+00
      642250000   -9.312995672e-01    5.030307770e-01    3.212131560e-06   -3.710575402e-05    0.000000000e+00    0.000000000e+00    0.000000000e+00    0.000000000e+00
      649500000   -8.606796265e-01    5.944753289e-01    1.037959009e-05   -2.838950604e-05    0.000000000e+00    0.000000000e+00    0.000000000e+00    0.000000000e+00
      656750000   -7.790585160e-01    6.761634350e-01    2.808216959e-05    2.403743565e-05    0.000000000e+00    0.000000000e+00    0.000000000e+00    0.000000000e+00
      664000000   -6.890437603e-01    7.480586767e-01   -8.647330105e-06   -1.639965922e-05    0.000000000e+00    0.000000000e+00    0.000000000e+00    0.000000000e+00
      671250000   -5.938772559e-01    8.075315356e-01    1.117400825e-05    8.692033589e-06    0.000000000e+00    0.000000000e+00    0.000000000e+00    0.000000000e+00
      678500000   -4.923492372e-01    8.554248810e-01   -3.628525883e-05    1.763273031e-05    0.000000000e+00    0.000000000e+00    0.000000000e+00    0.000000000e+00
      685750000   -3.888402879e-01    8.906013370e-01    1.251045614e-05   -3.956072032e-05    0.000000000e+00    0.000000000e+00    0.000000000e+00    0.000000000e+00
      693000000   -2.821374238e-01    9.142159820e-01   -3.200024366e-06    1.022685319e-05    0.000000000e+00    0.000000000e+00    0.000000000e+00    0.000000000e+00
      700250000   -1.749802679e-01    9.262018204e-01    2.239271998e-05   -3.946013749e-05    0.000000000e+00    0.000000000e+00    0.000000000e+00    0.000000000e+00
      707500000   -6.850610673e-02    9.256660938e-01   -3.065913916e-06   -2.305582166e-05    0.000000000e+00    0.000000000e+00    0.000000000e+00    0.000000000e+00
      714750000    3.653102368e-02    9.154655337e-01    2.065673470e-06   -2.564676106e-05    0.000000000e+00    0.000000000e+00    0.000000000e+00    0.000000000e+00
      722000000    1.379989088e-01    8.934925199e-01    4.199799150e-05   -7.183291018e-06    0.000000000e+00    0.000000000e+00    0.000000000e+00    0.000000000e+00
      729250000    2.372011095e-01    8.618336320e-01   -1.035165042e-05    9.636394680e-06    0.000000000e+00    0.000000000e+00    0.000000000e+00    0.000000000e+00
      736500000    3.307955265e-01    8.208667636e-01   -2.239737660e-05   -1.460313797e-06    0.000000000e+00    0.000000000e+00    0.000000000e+00    0.000000000e+00
      743750000    4.181182981e-01    7.713555098e-01   -2.562999725e-05   -1.728720963e-05    0.000000000e+00    0.000000000e+00    0.000000000e+00    0.000000000e+00
      751000000    5.012524724e-01    7.126610279e-01   -1.165829599e-05   -8.592382073e-06    0.000000000e+00    0.000000000e+00    0.000000000e+00    0.000000000e+00
      758250000    5.772205591e-01    6.480873227e-01   -1.060776412e-05   -1.941155642e-05    0.000000000e+00    0.000000000e+00    0.000000000e+00    0.000000000e+00
      765500000    6.471710205e-01    5.744554996e-01    1.498963684e-05    1.177191734e-05    0.000000000e+00    0.000000000e+00    0.000000000e+00    0.000000000e+00
      772750000    7.077081800e-01    4.966419935e-01    8.117407560e-06   -2.613663673e-05    0.000000000e+00    0.000000000e+00    0.000000000e+00    0.000000000e+00
      780000000    7.610584497e-01    4.108879268e-01    1.456402242e-05    4.036352038e-06    0.000000000e+00    0.000000000e+00    0.000000000e+00    0.000000000e+00
      787250000    8.073648810e-01    3.209546506e-01    5.528330803e-06   -3.482215106e-06    0.000000000e+00    0.000000000e+00    0.000000000e+00    0.000000000e+00
      794500000    8.433648944e-01    2.263277918e-01    4.068482667e-05   -3.340188414e-05    0.000000000e+00    0.000000000e+00    0.000000000e+00    0.000000000e+00
      801750000    8.699807525e-01    1.273570955e-01    1.853983849e-05   -8.395873010e-06    0.000000000e+00    0.000000000e+00    0.000000000e+00    0.000000000e+00
      809000000    8.868710399e-01    2.644735761e-02    1.734960824e-05   -7.357448339e-06    0.000000000e+00    0.000000000e+00    0.000000000e+00    0.000000000e+00
      816250000    8.933044672e-01   -7.758632302e-02    3.385730088e-05    2.137012780e-05    0.000000000e+00    0.000000000e+00    0.000000000e+00    0.000000000e+00
      823500000    8.880726099e-01   -1.835335195e-01   -1.103524119e-05   -1.975335181e-06    0.000000000e+00    0.000000000e+00    0.000000000e+00    0.000000000e+00
      830750000    8.723840714e-01   -2.881142795e-01    1.795869321e-05   -2.960674465e-06    0.000000000e+00    0.000000000e+00    0.000000000e+00    0.000000000e+00
      838000000    8.446766138e-01   -3.925516903e-01    5.187466741e-06   -2.874713391e-05    0.000000000e+00    0.000000000e+00    0.000000000e+00    0.000000000e+00
      845250000    8.052284718e-01   -4.945939481e-01    3.173667938e-05   -2.769567072e-05    0.000000000e+00    0.000000000e+00    0.000000000e+00    0.000000000e+00
      852500000    7.539146543e-01   -5.937266946e-01   -1.388415694e-05    2.293381840e-05    0.000000000e+00    0.000000000e+00    0.000000000e+00    0.000000000e+00
      859750000    6.919028759e-01   -6.864525676e-01   -1.344271004e-05    1.866370440e-06    0.000000000e+00    0.000000000e+00    0.000000000e+00    0.000000000e+00
      867000000    6.147770882e-01   -7.748235464e-01    3.136228770e-05    7.240101695e-06    0.000000000e+00    0.000000000e+00    0.000000000e+00    0.000000000e+00
      874250000    5.289644599e-01   -8.513133526e-01   -6.435438991e-06   -2.604816109e-05    0.000000000e+00    0.000000000e+00    0.000000000e+00    0.000000000e+00
      881500000    4.295517802e-01   -9.215478897e-01   -2.367608249e-05    3.726873547e-05    0.000000000e+00    0.000000000e+00    0.000000000e+00    0.000000000e+00
      888750000    3.247736096e-01   -9.757004976e-01    2.614222467e-06   -1.120474190e-05    0.000000000e+00    0.000000000e+00    0.000000000e+00    0.000000000e+00
      896000000    2.108075023e-01   -1.018176317e+00    8.512288332e-07    9.037554264e-06    0.000000000e+00    0.000000000e+00    0.000000000e+00    0.000000000e+00
      903250000    9.106653184e-02   -1.045154214e+00    1.463107765e-06    1.206062734e-06    0.000000000e+00    0.000000000e+00    0.000000000e+00    0.000000000e+00
      910500000   -3.543385491e-02   -1.055837989e+00    3.621727228e-05    1.647043973e-05    0.000000000e+00    0.000000000e+00    0.000000000e+00    0.000000000e+00
      917750000   -1.600803882e-01   -1.049002767e+00   -1.706648618e-05   -2.528354526e-05    0.000000000e+00    0.000000000e+00    0.000000000e+00    0.000000000e+00
      925000000   -2.810737491e-01   -1.026825190e+00   -9.389594197e-06    2.523791045e-05    0.000000000e+00    0.000000000e+00    0.000000000e+00    0.000000000e+00
      932250000   -4.009279013e-01   -9.868488312e-01   -2.766307443e-05    5.284976214e-05    0.000000000e+00    0.000000000e+00    0.000000000e+00    0.000000000e+00
      939500000   -5.124891400e-01   -9.316682816e-01    2.730265260e-05   -3.065355122e-05    0.000000000e+00    0.000000000e+00    0.000000000e+00    0.000000000e+00
      946750000   -6.144434214e-01   -8.623123765e-01    1.005362719e-05   -4.163663834e-05    0.000000000e+00    0.000000000e+00    0.000000000e+00    0.000000000e+00
      954000000   -7.062199116e-01   -7.771013379e-01    3.720633686e-05    2.177432179e-05    0.000000000e+00    0.000000000e+00    0.000000000e+00    0.000000000e+00
      961250000   -7.818799615e-01   -6.879378557e-01   -1.994520426e-05   -4.160217941e-06    0.000000000e+00    0.000000000e+00    0.000000000e+00    0.000000000e+00
      968500000   -8.460029364e-01   -5.864778161e-01   -3.864616156e-05   -2.096593380e-05    0.000000000e+00    0.000000000e+00    0.000000000e+00    0.000000000e+00
      975750000   -8.942633271e-01   -4.829383790e-01   -3.674905747e-05   -2.273824066e-05    0.000000000e+00    0.000000000e+00    0.000000000e+00    0.000000000e+00
      983000000   -9.287558794e-01   -3.739896715e-01    5.448237062e-07    3.527477384e-05    0.000000000e+00    0.000000000e+00    0.000000000e+00    0.000000000e+00
      990250000   -9.487027526e-01   -2.652240098e-01    3.264285624e-06    3.236345947e-06    0.000000000e+00    0.000000000e+00    0.000000000e+00    0.000000000e+00
      997500000   -9.544056058e-01   -1.561262906e-01   -2.807751298e-05   -1.339241862e-06    0.000000000e+00    0.000000000e+00    0.000000000e+00    0.000000000e+00
     1004750000   -9.471237063e-01   -5.006382242e-02    1.975800842e-05   -3.220513463e-06    0.000000000e+00    0.000000000e+00    0.000000000e+00    0.000000000e+00
     1012000000   -9.292131066e-01    5.014057830e-02    1.192092896e-07   -2.305582166e-05    0.000000000e+00    0.000000000e+00    0.000000000e+00    0.000000000e+00
     1019250000   -9.007282853e-01    1.458814144e-01   -4.220474511e-05   -3.937166184e-05    0.000000000e+00    0.000000000e+00    0.000000000e+00    0.000000000e+00
     1026500000   -8.622591496e-01    2.356540710e-01    6.199814379e-06    1.197494566e-05    0.000000000e+00    0.000000000e+00    0.000000000e+00    0.000000000e+00
     1033750000   -8.163810372e-01    3.188765049e-01    3.231968731e-05    2.086162567e-06    0.000000000e+00    0.000000000e+00    0.000000000e+00    0.000000000e+00
     1041000000   -7.642217278e-01    3.941357136e-01   -2.585630864e-05   -1.897010952e-05    0.000000000e+00    0.000000000e+00    0.000000000e+00    0.000000000e+00
