! NanoVNA-App
! Date: 2024-06-25 16:10:39
! Start: 200MHz Stop: 6GHz Points: 801
! S-Parameter data: F S11 S21 S12 S22
# Hz S RI R 50
!     Frequency           S11_Real           S11_Imag           S21_Real           S21_Imag           S12_Real           S12_Imag           S22_Real           S22_Imag
      200000000   -9.983012676e-01   -1.182527021e-01   -8.416362107e-06   -5.285255611e-06    0.000000000e+00    0.000000000e+00    0.000000000e+00    0.000000000e+00
      207250000   -1.010042667e+00   -1.903439313e-02   -4.954636097e-06   -1.062825322e-05    0.000000000e+00    0.000000000e+00    0.000000000e+00    0.000000000e+00
      214500000   -1.011249661e+00    8.156707138e-02   -1.901108772e-05    2.739671618e-05    0.000000000e+00    0.000000000e+00    0.000000000e+00    0.000000000e+00
      221750000   -1.002251506e+00    1.847511977e-01   -6.995163858e-06   -2.519227564e-06    0.000000000e+00    0.000000000e+00    0.000000000e+00    0.000000000e+00
      229000000   -9.823738337e-01    2.875339687e-01   -1.075584441e-05   -8.075498044e-06    0.000000000e+00    0.000000000e+00    0.000000000e+00    0.000000000e+00
      236250000   -9.504969716e-01    3.903342485e-01   -2.058129758e-05   -6.661750376e-06    0.000000000e+00    0.000000000e+00    0.000000000e+00    0.000000000e+00
      243500000   -9.079443216e-01    4.902463257e-01    2.005603164e-05   -1.129414886e-05    0.000000000e+00    0.000000000e+00    0.000000000e+00    0.000000000e+00
      250750000   -8.522229791e-01    5.867977142e-01    3.718771040e-05    6.525777280e-06    0.000000000e+00    0.000000000e+00    0.000000000e+00    0.000000000e+00
      258000000   -7.838722467e-01    6.783199310e-01    3.873463720e-05   -2.463907003e-05    0.000000000e+00    0.000000000e+00    0.000000000e+00    0.000000000e+00
      265250000   -7.044528127e-01    7.617781758e-01   -1.523736864e-05   -2.687703818e-05    0.000000000e+00    0.000000000e+00    0.000000000e+00    0.000000000e+00
      272500000   -6.131026149e-01    8.372790813e-01   -2.596899867e-05    3.017112613e-05    0.000000000e+00    0.000000000e+00    0.000000000e+00    0.000000000e+00
      279750000   -5.125055909e-01    9.018304348e-01    2.201180905e-05    1.403409988e-05    0.000000000e+00    0.000000000e+00    0.000000000e+00    0.000000000e+00
      287000000   -4.027441144e-01    9.542654753e-01    2.576038241e-06   -4.806555808e-06    0.000000000e+00    0.000000000e+00    0.000000000e+00    0.000000000e+00
      294250000   -2.859669030e-01    9.924171567e-01    1.513399184e-06   -1.003965735e-05    0.000000000e+00    0.000000000e+00    0.000000000e+00    0.000000000e+00
      301500000   -1.636554450e-01    1.015999794e+00   -9.235925972e-06   -1.386366785e-05    0.000000000e+00    0.000000000e+00    0.000000000e+00    0.000000000e+00
      308750000   -3.806186095e-02    1.023963332e+00    1.809652895e-05   -6.461516023e-06    0.000000000e+00    0.000000000e+00    0.000000000e+00    0.000000000e+00
      316000000    8.798759431e-02    1.015421748e+00   -9.617768228e-06   -8.516944945e-06    0.000000000e+00    0.000000000e+00    0.000000000e+00    0.000000000e+00
      323250000    2.129522413e-01    9.903535247e-01   -1.452490687e-05    8.244998753e-06    0.000000000e+00    0.000000000e+00    0.000000000e+00    0.000000000e+00
      330500000    3.333356678e-01    9.493355751e-01    3.098882735e-05   -1.253280789e-05    0.000000000e+00    0.000000000e+00    0.000000000e+00    0.000000000e+00
      337750000    4.465046227e-01    8.938296437e-01   -3.016460687e-05    2.083554864e-05    0.000000000e+00    0.000000000e+00    0.000000000e+00    0.000000000e+00
      345000000    5.521559119e-01    8.243940473e-01    1.980923116e-06   -9.741634130e-07    0.000000000e+00    0.000000000e+00    0.000000000e+00    0.000000000e+00
      352250000    6.477417350e-01    7.427225709e-01   -5.825422704e-06    8.591450751e-06    0.000000000e+00    0.000000000e+00    0.000000000e+00    0.000000000e+00
      359500000    7.312107086e-01    6.502080560e-01   -2.286396921e-06    2.467911690e-05    0.000000000e+00    0.000000000e+00    0.000000000e+00    0.000000000e+00
      366750000    8.027864695e-01    5.491535068e-01   -1.710001379e-05    6.025657058e-07    0.000000000e+00    0.000000000e+00    0.000000000e+00    0.000000000e+00
      374000000    8.602195978e-01    4.417007864e-01    8.028000593e-07    2.989545465e-06    0.000000000e+00    0.000000000e+00    0.000000000e+00    0.000000000e+00
      381250000    9.043110609e-01    3.276221156e-01   -1.893378794e-06   -2.828519791e-05    0.000000000e+00    0.000000000e+00    0.000000000e+00    0.000000000e+00
      388500000    9.342063069e-01    2.129691988e-01   -5.666166544e-06   -2.501532435e-05    0.000000000e+00    0.000000000e+00    0.000000000e+00    0.000000000e+00
      395750000    9.514524341e-01    9.496751428e-02   -4.485435784e-05    2.983864397e-05    0.000000000e+00    0.000000000e+00    0.000000000e+00    0.000000000e+00
      403000000    9.544228911e-01   -2.161400206e-02    1.505855471e-05   -2.487748861e-05    0.000000000e+00    0.000000000e+00    0.000000000e+00    0.000000000e+00
      410250000    9.447237849e-01   -1.367166787e-01   -3.139488399e-06    4.017073661e-05    0.000000000e+00    0.000000000e+00    0.000000000e+00    0.000000000e+00
      417500000    9.230800271e-01   -2.491927445e-01    5.407165736e-05    2.404954284e-05    0.000000000e+00    0.000000000e+00    0.000000000e+00    0.000000000e+00
      424750000    8.886906505e-01   -3.583385944e-01    1.037493348e-05   -4.287716001e-05    0.000000000e+00    0.000000000e+00    0.000000000e+00    0.000000000e+00
      432000000    8.432271481e-01   -4.611533582e-01    3.474764526e-06   -1.503154635e-05    0.000000000e+00    0.000000000e+00    0.000000000e+00    0.000000000e+00
      439250000    7.889178395e-01   -5.583310127e-01   -1.518242061e-05   -2.345070243e-05    0.000000000e+00    0.000000000e+00    0.000000000e+00    0.000000000e+00
      446500000    7.249256968e-01   -6.477401257e-01    3.754161298e-06    4.483386874e-06    0.000000000e+00    0.000000000e+00    0.000000000e+00    0.000000000e+00
      453750000    6.514093280e-01   -7.303611040e-01    2.634618431e-05   -4.818290472e-05    0.000000000e+00    0.000000000e+00    0.000000000e+00    0.000000000e+00
      461000000    5.702888966e-01   -8.039654493e-01    8.315779269e-06   -1.347530633e-05    0.000000000e+00    0.000000000e+00    0.000000000e+00    0.000000000e+00
      468250000    4.829402864e-01   -8.691307306e-01    2.442393452e-05   -1.693610102e-05    0.000000000e+00    0.000000000e+00    0.000000000e+00    0.000000000e+00
      475500000    3.879633546e-01   -9.253178835e-01   -4.044454545e-05    7.911585271e-06    0.000000000e+00    0.000000000e+00    0.000000000e+00    0.000000000e+00
      482750000    2.893437147e-01   -9.706002474e-01    2.355594188e-05    2.698041499e-06    0.000000000e+00    0.000000000e+00    0.000000000e+00    0.000000000e+00
      490000000    1.851539612e-01   -1.005576611e+00   -7.505528629e-06    3.774650395e-06    0.000000000e+00    0.000000000e+00    0.000000000e+00    0.000000000e+00
      497250000    7.837639749e-02   -1.030125499e+00   -2.279412001e-05    5.325302482e-06    0.000000000e+00    0.000000000e+00    0.000000000e+00    0.000000000e+00
      504500000   -3.231328353e-02   -1.042487025e+00   -5.500949919e-05    7.297843695e-06    0.000000000e+00    0.000000000e+00    0.000000000e+00    0.000000000e+00
      511750000   -1.437062770e-01   -1.043334842e+00    9.436160326e-06    5.770474672e-06    0.000000000e+00    0.000000000e+00    0.000000000e+00    0.000000000e+00
      519000000   -2.549666166e-01   -1.032924056e+00    5.187466741e-06    4.642829299e-05    0.000000000e+00    0.000000000e+00    0.000000000e+00    0.000000000e+00
      526250000   -3.653744757e-01   -1.009665608e+00    1.466087997e-05    2.657994628e-05    0.000000000e+00    0.000000000e+00    0.000000000e+00    0.000000000e+00
      533500000   -4.734747708e-01   -9.736763239e-01   -9.818933904e-06    1.997873187e-05    0.000000000e+00    0.000000000e+00    0.000000000e+00    0.000000000e+00
      540750000   -5.778865218e-01   -9.255302548e-01   -3.505311906e-05   -7.452443242e-06    0.000000000e+00    0.000000000e+00    0.000000000e+00    0.000000000e+00
      548000000   -6.764962077e-01   -8.650893569e-01   -5.348585546e-05   -1.287925988e-05    0.000000000e+00    0.000000000e+00    0.000000000e+00    0.000000000e+00
      555250000   -7.675623894e-01   -7.925363779e-01   -1.115538180e-05    1.755543053e-06    0.000000000e+00    0.000000000e+00    0.000000000e+00    0.000000000e+00
      562500000   -8.515178561e-01   -7.096608877e-01    1.723505557e-05    1.385435462e-05    0.000000000e+00    0.000000000e+00    0.000000000e+00    0.000000000e+00
      569750000   -9.242384434e-01   -6.181772947e-01   -4.481244832e-05   -1.737847924e-06    0.000000000e+00    0.000000000e+00    0.000000000e+00    0.000000000e+00
      577000000   -9.868012071e-01   -5.171436071e-01   -2.027396113e-05   -1.022685319e-05    0.000000000e+00    0.000000000e+00    0.000000000e+00    0.000000000e+00
      584250000   -1.036778331e+00   -4.095893502e-01   -5.401112139e-05   -2.291798592e-05    0.000000000e+00    0.000000000e+00    0.000000000e+00    0.000000000e+00
      591500000   -1.072772741e+00   -2.940583527e-01   -2.066884190e-05    2.293847501e-05    0.000000000e+00    0.000000000e+00    0.000000000e+00    0.000000000e+00
      598750000   -1.095302105e+00   -1.765463352e-01   -4.600733519e-07    7.755123079e-06    0.000000000e+00    0.000000000e+00    0.000000000e+00    0.000000000e+00
      606000000   -1.103556871e+00   -5.638369545e-02    3.685615957e-05    4.804413766e-05    0.000000000e+00    0.000000000e+00    0.000000000e+00    0.000000000e+00
      613250000   -1.097239137e+00    6.284328550e-02   -1.973100007e-05   -6.051734090e-05    0.000000000e+00    0.000000000e+00    0.000000000e+00    0.000000000e+00
      620500000   -1.076388121e+00    1.801512092e-01    3.501772881e-06   -3.029499203e-05    0.000000000e+00    0.000000000e+00    0.000000000e+00    0.000000000e+00
      627750000   -1.040190816e+00    2.948588133e-01   -1.383107156e-05   -3.355462104e-05    0.000000000e+00    0.000000000e+00    0.000000000e+00    0.000000000e+00
      635000000   -9.931310415e-01    4.014905691e-01    1.853518188e-05   -4.608929157e-05    0.000000000e+00    0.000000000e+00    0.000000000e+00    0.000000000e+00
      642250000   -9.316133261e-01    5.035076141e-01    4.678964615e-06    1.410208642e-05    0.000000000e+00    0.000000000e+00    0.000000000e+00    0.000000000e+00
      649500000   -8.599912524e-01    5.941952467e-01   -7.949769497e-06   -1.095328480e-05    0.000000000e+00    0.000000000e+00    0.000000000e+00    0.000000000e+00
      656750000   -7.788525224e-01    6.764147878e-01   -2.939347178e-05    1.558102667e-05    0.000000000e+00    0.000000000e+00    0.000000000e+00    0.000000000e+00
      664000000   -6.894745231e-01    7.469738126e-01    2.708379179e-05   -1.526530832e-05    0.000000000e+00    0.000000000e+00    0.000000000e+00    0.000000000e+00
      671250000   -5.938940048e-01    8.071576357e-01    2.233404666e-05   -2.393033355e-05    0.000000000e+00    0.000000000e+00    0.000000000e+00    0.000000000e+00
      678500000   -4.921846390e-01    8.548867702e-01   -1.984275877e-05   -5.890335888e-05    0.000000000e+00    0.000000000e+00    0.000000000e+00    0.000000000e+00
      685750000   -3.888154626e-01    8.904142976e-01    2.196338028e-05   -1.165084541e-05    0.000000000e+00    0.000000000e+00    0.000000000e+00    0.000000000e+00
      693000000   -2.823298573e-01    9.140352607e-01    2.010818571e-05   -1.485552639e-05    0.000000000e+00    0.000000000e+00    0.000000000e+00    0.000000000e+00
      700250000   -1.749649942e-01    9.259116650e-01   -1.737289131e-05   -1.718197018e-05    0.000000000e+00    0.000000000e+00    0.000000000e+00    0.000000000e+00
      707500000   -6.776581705e-02    9.255228639e-01    2.268329263e-05   -3.566965461e-07    0.000000000e+00    0.000000000e+00    0.000000000e+00    0.000000000e+00
      714750000    3.859346732e-02    9.150589108e-01   -9.839423001e-06    4.964880645e-06    0.000000000e+00    0.000000000e+00    0.000000000e+00    0.000000000e+00
      722000000    1.371486485e-01    8.934828639e-01    1.099798828e-05   -6.244145334e-05    0.000000000e+00    0.000000000e+00    0.000000000e+00    0.000000000e+00
      729250000    2.368038595e-01    8.618183732e-01   -2.803094685e-05   -4.123523831e-05    0.000000000e+00    0.000000000e+00    0.000000000e+00    0.000000000e+00
      736500000    3.297461569e-01    8.212380409e-01    1.537613571e-05   -2.804212272e-05    0.000000000e+00    0.000000000e+00    0.000000000e+00    0.000000000e+00
      743750000    4.187477231e-01    7.714540958e-01   -2.571661025e-05    1.175329089e-05    0.000000000e+00    0.000000000e+00    0.000000000e+00    0.000000000e+00
      751000000    5.013962388e-01    7.128623128e-01   -3.000162542e-05    2.690870315e-05    0.000000000e+00    0.000000000e+00    0.000000000e+00    0.000000000e+00
      758250000    5.772168040e-01    6.480172276e-01    1.707114279e-06   -1.606531441e-05    0.000000000e+00    0.000000000e+00    0.000000000e+00    0.000000000e+00
      765500000    6.465701461e-01    5.742856860e-01   -7.100403309e-06    9.156763554e-06    0.000000000e+00    0.000000000e+00    0.000000000e+00    0.000000000e+00
      772750000    7.081531286e-01    4.956706166e-01    1.558754593e-05    1.625344157e-05    0.000000000e+00    0.000000000e+00    0.000000000e+00    0.000000000e+00
      780000000    7.609061003e-01    4.116158783e-01   -4.734843969e-05   -2.992618829e-05    0.000000000e+00    0.000000000e+00    0.000000000e+00    0.000000000e+00
      787250000    8.073357344e-01    3.201645911e-01   -3.786385059e-05   -5.858018994e-05    0.000000000e+00    0.000000000e+00    0.000000000e+00    0.000000000e+00
      794500000    8.432680368e-01    2.268265933e-01   -3.067683429e-05    2.605188638e-05    0.000000000e+00    0.000000000e+00    0.000000000e+00    0.000000000e+00
      801750000    8.699141145e-01    1.275637001e-01   -2.330169082e-05   -4.473235458e-05    0.000000000e+00    0.000000000e+00    0.000000000e+00    0.000000000e+00
      809000000    8.871096969e-01    2.645657957e-02   -1.493189484e-05    1.139007509e-06    0.000000000e+00    0.000000000e+00    0.000000000e+00    0.000000000e+00
      816250000    8.929908276e-01   -7.687788457e-02   -1.008994877e-05    5.764979869e-05    0.000000000e+00    0.000000000e+00    0.000000000e+00    0.000000000e+00
      823500000    8.883922100e-01   -1.837752312e-01    2.273265272e-05    2.238713205e-05    0.000000000e+00    0.000000000e+00    0.000000000e+00    0.000000000e+00
      830750000    8.719839454e-01   -2.888500094e-01   -6.820075214e-06   -2.237036824e-06    0.000000000e+00    0.000000000e+00    0.000000000e+00    0.000000000e+00
      838000000    8.455045223e-01   -3.927319646e-01   -3.849994391e-05   -1.680850983e-05    0.000000000e+00    0.000000000e+00    0.000000000e+00    0.000000000e+00
      845250000    8.060595393e-01   -4.946236908e-01    2.866610885e-05    4.430767149e-05    0.000000000e+00    0.000000000e+00    0.000000000e+00    0.000000000e+00
      852500000    7.540928721e-01   -5.940247774e-01   -2.200249583e-05    3.795139492e-06    0.000000000e+00    0.000000000e+00    0.000000000e+00    0.000000000e+00
      859750000    6.917600036e-01   -6.867693067e-01   -2.263113856e-06    5.099829286e-05    0.000000000e+00    0.000000000e+00    0.000000000e+00    0.000000000e+00
      867000000    6.146273613e-01   -7.742620707e-01   -1.727789640e-05   -7.235445082e-06    0.000000000e+00    0.000000000e+00    0.000000000e+00    0.000000000e+00
      874250000    5.290733576e-01   -8.516322970e-01    1.452025026e-05   -4.163011909e-07    0.000000000e+00    0.000000000e+00    0.000000000e+00    0.000000000e+00
      881500000    4.301860034e-01   -9.210323691e-01   -1.143198460e-05    2.365931869e-05    0.000000000e+00    0.000000000e+00    0.000000000e+00    0.000000000e+00
      888750000    3.248342276e-01   -9.757280946e-01    6.838701665e-06   -1.466646791e-05    0.000000000e+00    0.000000000e+00    0.000000000e+00    0.000000000e+00
      896000000    2.095636725e-01   -1.018789411e+00   -3.565102816e-06    3.036204726e-05    0.000000000e+00    0.000000000e+00    0.000000000e+00    0.000000000e+00
      903250000    9.011530876e-02   -1.045346498e+00    2.874806523e-05    5.029141903e-07    0.000000000e+00    0.000000000e+00    0.000000000e+00    0.000000000e+00
      910500000   -3.541958332e-02   -1.055077314e+00   -2.369936556e-05   -5.638226867e-06    0.000000000e+00    0.000000000e+00    0.000000000e+00    0.000000000e+00
      917750000   -1.589875072e-01   -1.049770594e+00    2.291984856e-05   -4.813075066e-06    0.000000000e+00    0.000000000e+00    0.000000000e+00    0.000000000e+00
      925000000   -2.818759084e-01   -1.026758671e+00    2.055894583e-05    3.288779408e-05    0.000000000e+00    0.000000000e+00    0.000000000e+00    0.000000000e+00
      932250000   -4.018060267e-01   -9.861915708e-01   -1.985300332e-05   -4.704110324e-06    0.000000000e+00    0.000000000e+00    0.000000000e+00    0.000000000e+00
      939500000   -5.118492842e-01   -9.314560294e-01   -2.081971616e-05   -5.228351802e-05    0.000000000e+00    0.000000000e+00    0.000000000e+00    0.000000000e+00
      946750000   -6.139737964e-01   -8.612785339e-01    1.628696918e-05   -1.023989171e-05    0.000000000e+00    0.000000000e+00    0.000000000e+00    0.000000000e+00
      954000000   -7.049470544e-01   -7.799659371e-01    3.173295408e-05   -1.715961844e-05    0.000000000e+00    0.000000000e+00    0.000000000e+00    0.000000000e+00
      961250000   -7.814748287e-01   -6.878539324e-01    1.142639667e-05    4.734750837e-05    0.000000000e+00    0.000000000e+00    0.000000000e+00    0.000000000e+00
      968500000   -8.461733460e-01   -5.871653557e-01    6.628222764e-06    1.692119986e-05    0.000000000e+00    0.000000000e+00    0.000000000e+00    0.000000000e+00
      975750000   -8.945391774e-01   -4.822188318e-01   -2.514384687e-05   -1.005921513e-05    0.000000000e+00    0.000000000e+00    0.000000000e+00    0.000000000e+00
      983000000   -9.286096096e-01   -3.729934692e-01    1.997128129e-05   -4.860572517e-06    0.000000000e+00    0.000000000e+00    0.000000000e+00    0.000000000e+00
      990250000   -9.484742284e-01   -2.649300396e-01   -1.763179898e-05    1.399312168e-05    0.000000000e+00    0.000000000e+00    0.000000000e+00    0.000000000e+00
      997500000   -9.543181658e-01   -1.553602964e-01   -1.529231668e-06    1.484341919e-05    0.000000000e+00    0.000000000e+00    0.000000000e+00    0.000000000e+00
     1004750000   -9.480683804e-01   -5.049607530e-02    2.930127084e-05    2.698041499e-05    0.000000000e+00    0.000000000e+00    0.000000000e+00    0.000000000e+00
     1012000000   -9.294874668e-01    5.123492330e-02    1.142825931e-05    2.083182335e-05    0.000000000e+00    0.000000000e+00    0.000000000e+00    0.000000000e+00
     1019250000   -9.002320766e-01    1.462203711e-01    2.365652472e-05    1.396704465e-05    0.000000000e+00    0.000000000e+00    0.000000000e+00    0.000000000e+00
     1026500000   -8.625634313e-01    2.355181873e-01   -2.425909042e-05   -3.141164780e-05    0.000000000e+00    0.000000000e+00    0.000000000e+00    0.000000000e+00
     1033750000   -8.158208728e-01    3.186291754e-01   -1.274980605e-06    2.860743552e-05    0.000000000e+00    0.000000000e+00    0.000000000e+00    0.000000000e+00
     1041000000   -7.638788223e-01    3.941666484e-01   -2.053845674e-05   -5.764886737e-06    0.000000000e+00    0.000000000e+00    0.000000000e+00    0.000000000e+00
