! NanoVNA-App
! Date: 2024-06-25 16:11:51
! Start: 200MHz Stop: 6GHz Points: 801
! S-Parameter data: F S11 S21 S12 S22
# Hz S RI R 50
!     Frequency           S11_Real           S11_Imag           S21_Real           S21_Imag           S12_Real           S12_Imag           S22_Real           S22_Imag
      200000000   -9.986282587e-01   -1.185533702e-01    8.752569556e-06   -4.903413355e-06    0.000000000e+00    0.000000000e+00    0.000000000e+00    0.000000000e+00
      207250000   -1.010154724e+00   -1.899505965e-02   -2.123974264e-05    3.342609853e-05    0.000000000e+00    0.000000000e+00    0.000000000e+00    0.000000000e+00
      214500000   -1.011843681e+00    8.172801137e-02    8.161179721e-06   -3.151316196e-05    0.000000000e+00    0.000000000e+00    0.000000000e+00    0.000000000e+00
      221750000   -1.002585649e+00    1.847144365e-01    9.606592357e-06    3.539118916e-05    0.000000000e+00    0.000000000e+00    0.000000000e+00    0.000000000e+00
      229000000   -9.826683402e-01    2.873460054e-01    2.558343112e-06    2.135988325e-05    0.000000000e+00    0.000000000e+00    0.000000000e+00    0.000000000e+00
      236250000   -9.509118199e-01    3.903298974e-01   -1.570396125e-05    6.125308573e-06    0.000000000e+00    0.000000000e+00    0.000000000e+00    0.000000000e+00
      243500000   -9.078257680e-01    4.898897111e-01    8.854083717e-06   -1.679174602e-06    0.000000000e+00    0.000000000e+00    0.000000000e+00    0.000000000e+00
      250750000   -8.519753218e-01    5.867171884e-01   -6.444379687e-05    1.087598503e-05    0.000000000e+00    0.000000000e+00    0.000000000e+00    0.000000000e+00
      258000000   -7.837138772e-01    6.781184673e-01    5.905143917e-05    1.419987530e-05    0.000000000e+00    0.000000000e+00    0.000000000e+00    0.000000000e+00
      265250000   -7.042522430e-01    7.616193295e-01   -3.148242831e-05   -8.197501302e-06    0.000000000e+00    0.000000000e+00    0.000000000e+00    0.000000000e+00
      272500000   -6.132030487e-01    8.371993899e-01   -3.711320460e-06   -1.441594213e-05    0.000000000e+00    0.000000000e+00    0.000000000e+00    0.000000000e+00
      279750000   -5.126441717e-01    9.016718864e-01   -1.638662070e-05   -1.790374517e-05    0.000000000e+00    0.000000000e+00    0.000000000e+00    0.000000000e+00
      287000000   -4.030299783e-01    9.537697434e-01   -4.023686051e-05   -2.684071660e-06    0.000000000e+00    0.000000000e+00    0.000000000e+00    0.000000000e+00
      294250000   -2.854797542e-01    9.922938943e-01    2.797693014e-06   -2.757739276e-05    0.000000000e+00    0.000000000e+00    0.000000000e+00    0.000000000e+00
      301500000   -1.637866944e-01    1.016580343e+00    2.025067806e-05   -9.496696293e-06    0.000000000e+00    0.000000000e+00    0.000000000e+00    0.000000000e+00
      308750000   -3.848562390e-02    1.023897767e+00   -8.270144463e-06   -4.527159035e-06    0.000000000e+00    0.000000000e+00    0.000000000e+00    0.000000000e+00
      316000000    8.821058273e-02    1.014841676e+00   -1.568999141e-05   -9.696930647e-06    0.000000000e+00    0.000000000e+00    0.000000000e+00    0.000000000e+00
      323250000    2.128244042e-01    9.905235767e-01   -1.771375537e-06   -3.939121962e-05    0.000000000e+00    0.000000000e+00    0.000000000e+00    0.000000000e+00
      330500000    3.330555856e-01    9.499797225e-01    2.844352275e-05   -3.415998071e-05    0.000000000e+00    0.000000000e+00    0.000000000e+00    0.000000000e+00
      337750000    4.467824697e-01    8.939762115e-01    3.761146218e-05    1.228414476e-06    0.000000000e+00    0.000000000e+00    0.000000000e+00    0.000000000e+00
      345000000    5.524961352e-01    8.238496184e-01    8.076429367e-06    7.576309144e-06    0.000000000e+00    0.000000000e+00    0.000000000e+00    0.000000000e+00
      352250000    6.475799680e-01    7.428551316e-01   -9.280629456e-06    7.634982467e-06    0.000000000e+00    0.000000000e+00    0.000000000e+00    0.000000000e+00
      359500000    7.311240435e-01    6.505677104e-01    3.164075315e-05   -5.247071385e-05    0.000000000e+00    0.000000000e+00    0.000000000e+00    0.000000000e+00
      366750000    8.028836250e-01    5.490313768e-01   -2.232380211e-05   -6.193295121e-07    0.000000000e+00    0.000000000e+00    0.000000000e+00    0.000000000e+00
      374000000    8.600988388e-01    4.413871467e-01   -4.170648754e-05   -2.232939005e-05    0.000000000e+00    0.000000000e+00    0.000000000e+00    0.000000000e+00
      381250000    9.043680429e-01    3.277333975e-01    3.309454769e-05   -1.950096339e-05    0.000000000e+00    0.000000000e+00    0.000000000e+00    0.000000000e+00
      388500000    9.349137545e-01    2.126865238e-01   -1.573935151e-07    3.009475768e-05    0.000000000e+00    0.000000000e+00    0.000000000e+00    0.000000000e+00
      395750000    9.513627887e-01    9.564112127e-02   -1.005362719e-05   -2.064649016e-05    0.000000000e+00    0.000000000e+00    0.000000000e+00    0.000000000e+00
      403000000    9.545847774e-01   -2.150335349e-02    2.963468432e-05    9.075738490e-06    0.000000000e+00    0.000000000e+00    0.000000000e+00    0.000000000e+00
      410250000    9.444161057e-01   -1.373642087e-01   -6.513018161e-05   -1.185573637e-05    0.000000000e+00    0.000000000e+00    0.000000000e+00    0.000000000e+00
      417500000    9.225080609e-01   -2.494100481e-01    1.463666558e-05   -3.043469042e-05    0.000000000e+00    0.000000000e+00    0.000000000e+00    0.000000000e+00
      424750000    8.891329169e-01   -3.579231501e-01    2.362113446e-05   -2.201646566e-06    0.000000000e+00    0.000000000e+00    0.000000000e+00    0.000000000e+00
      432000000    8.433042765e-01   -4.607743323e-01    2.278015018e-05    2.314802259e-05    0.000000000e+00    0.000000000e+00    0.000000000e+00    0.000000000e+00
      439250000    7.891043425e-01   -5.581731796e-01   -3.360211849e-06   -4.668906331e-05    0.000000000e+00    0.000000000e+00    0.000000000e+00    0.000000000e+00
      446500000    7.250150442e-01   -6.472017169e-01   -2.242717892e-05    5.828589201e-05    0.000000000e+00    0.000000000e+00    0.000000000e+00    0.000000000e+00
      453750000    6.518289447e-01   -7.307219505e-01    2.457667142e-05   -7.549300790e-06    0.000000000e+00    0.000000000e+00    0.000000000e+00    0.000000000e+00
      461000000    5.707592368e-01   -8.045721054e-01   -1.974962652e-05   -7.975846529e-06    0.000000000e+00    0.000000000e+00    0.000000000e+00    0.000000000e+00
      468250000    4.833178818e-01   -8.691949844e-01   -9.785406291e-06   -3.141444176e-05    0.000000000e+00    0.000000000e+00    0.000000000e+00    0.000000000e+00
      475500000    3.882583678e-01   -9.252188802e-01    4.994496703e-05   -6.132759154e-06    0.000000000e+00    0.000000000e+00    0.000000000e+00    0.000000000e+00
      482750000    2.892296612e-01   -9.711146355e-01    1.086574048e-05   -3.750063479e-05    0.000000000e+00    0.000000000e+00    0.000000000e+00    0.000000000e+00
      490000000    1.850197911e-01   -1.005881429e+00    1.614727080e-05    7.661990821e-06    0.000000000e+00    0.000000000e+00    0.000000000e+00    0.000000000e+00
      497250000    7.786586136e-02   -1.030552983e+00    9.957700968e-06   -1.171883196e-05    0.000000000e+00    0.000000000e+00    0.000000000e+00    0.000000000e+00
      504500000   -3.204590827e-02   -1.043222070e+00   -5.193054676e-06    2.249609679e-05    0.000000000e+00    0.000000000e+00    0.000000000e+00    0.000000000e+00
      511750000   -1.431892216e-01   -1.044580221e+00    3.970041871e-05   -5.039386451e-06    0.000000000e+00    0.000000000e+00    0.000000000e+00    0.000000000e+00
      519000000   -2.544794679e-01   -1.032780528e+00   -2.099201083e-06   -3.123003989e-05    0.000000000e+00    0.000000000e+00    0.000000000e+00    0.000000000e+00
      526250000   -3.653944135e-01   -1.009063840e+00    2.114567906e-05   -1.388136297e-05    0.000000000e+00    0.000000000e+00    0.000000000e+00    0.000000000e+00
      533500000   -4.731734097e-01   -9.731721878e-01   -7.176771760e-06    4.053674638e-05    0.000000000e+00    0.000000000e+00    0.000000000e+00    0.000000000e+00
      540750000   -5.770878196e-01   -9.255850315e-01    2.900324762e-05    2.344138920e-05    0.000000000e+00    0.000000000e+00    0.000000000e+00    0.000000000e+00
      548000000   -6.765904427e-01   -8.644592166e-01   -3.256741911e-05    2.084486187e-05    0.000000000e+00    0.000000000e+00    0.000000000e+00    0.000000000e+00
      555250000   -7.684455514e-01   -7.931733131e-01   -3.907736391e-05    2.272427082e-07    0.000000000e+00    0.000000000e+00    0.000000000e+00    0.000000000e+00
      562500000   -8.518297076e-01   -7.098506689e-01   -4.422850907e-06   -2.516061068e-05    0.000000000e+00    0.000000000e+00    0.000000000e+00    0.000000000e+00
      569750000   -9.242514968e-01   -6.196141243e-01   -2.697203308e-05   -1.174770296e-05    0.000000000e+00    0.000000000e+00    0.000000000e+00    0.000000000e+00
      577000000   -9.868203402e-01   -5.176145434e-01    8.460134268e-06   -8.866190910e-06    0.000000000e+00    0.000000000e+00    0.000000000e+00    0.000000000e+00
      584250000   -1.036664963e+00   -4.083737731e-01    3.013946116e-05   -2.916902304e-05    0.000000000e+00    0.000000000e+00    0.000000000e+00    0.000000000e+00
      591500000   -1.073518753e+00   -2.954270542e-01   -1.919176430e-05   -3.034621477e-05    0.000000000e+00    0.000000000e+00    0.000000000e+00    0.000000000e+00
      598750000   -1.096178651e+00   -1.767271608e-01   -7.729977369e-07    3.597140312e-05    0.000000000e+00    0.000000000e+00    0.000000000e+00    0.000000000e+00
      606000000   -1.103842854e+00   -5.677914247e-02    1.314468682e-05    3.113970160e-05    0.000000000e+00    0.000000000e+00    0.000000000e+00    0.000000000e+00
      613250000   -1.096763730e+00    6.245389581e-02   -8.195638657e-07    2.547260374e-05    0.000000000e+00    0.000000000e+00    0.000000000e+00    0.000000000e+00
      620500000   -1.075965285e+00    1.806204915e-01    1.876428723e-05   -3.058742732e-05    0.000000000e+00    0.000000000e+00    0.000000000e+00    0.000000000e+00
      627750000   -1.040661454e+00    2.949239314e-01    1.774076372e-05    8.809380233e-06    0.000000000e+00    0.000000000e+00    0.000000000e+00    0.000000000e+00
      635000000   -9.919080138e-01    4.023599625e-01   -8.856877685e-06   -3.413576633e-05    0.000000000e+00    0.000000000e+00    0.000000000e+00    0.000000000e+00
      642250000   -9.315201640e-01    5.034831762e-01    1.743808389e-05    1.985393465e-05    0.000000000e+00    0.000000000e+00    0.000000000e+00    0.000000000e+00
      649500000   -8.604993224e-01    5.945698023e-01    9.345822036e-06    1.604668796e-06    0.000000000e+00    0.000000000e+00    0.000000000e+00    0.000000000e+00
      656750000   -7.784677744e-01    6.770731807e-01    1.553446054e-06    2.374500036e-05    0.000000000e+00    0.000000000e+00    0.000000000e+00    0.000000000e+00
      664000000   -6.893016696e-01    7.473654747e-01    3.781169653e-07    1.176912338e-05    0.000000000e+00    0.000000000e+00    0.000000000e+00    0.000000000e+00
      671250000   -5.931869149e-01    8.075008988e-01   -2.319738269e-05   -8.082948625e-06    0.000000000e+00    0.000000000e+00    0.000000000e+00    0.000000000e+00
      678500000   -4.928445518e-01    8.554441929e-01   -5.364231765e-05    1.298915595e-05    0.000000000e+00    0.000000000e+00    0.000000000e+00    0.000000000e+00
      685750000   -3.874299824e-01    8.907653689e-01    1.209788024e-05   -5.945563316e-06    0.000000000e+00    0.000000000e+00    0.000000000e+00    0.000000000e+00
      693000000   -2.817251384e-01    9.141550064e-01   -1.885648817e-05    1.375470310e-05    0.000000000e+00    0.000000000e+00    0.000000000e+00    0.000000000e+00
      700250000   -1.759377420e-01    9.254347086e-01    3.953929991e-05    9.307637811e-06    0.000000000e+00    0.000000000e+00    0.000000000e+00    0.000000000e+00
      707500000   -6.825496256e-02    9.262667894e-01   -3.241933882e-06   -3.182329237e-05    0.000000000e+00    0.000000000e+00    0.000000000e+00    0.000000000e+00
      714750000    3.721439466e-02    9.153574109e-01   -1.952331513e-05   -1.267995685e-05    0.000000000e+00    0.000000000e+00    0.000000000e+00    0.000000000e+00
      722000000    1.374091953e-01    8.933110833e-01    2.319552004e-05    1.473911107e-05    0.000000000e+00    0.000000000e+00    0.000000000e+00    0.000000000e+00
      729250000    2.365079820e-01    8.623124361e-01   -1.842807978e-05   -2.907309681e-05    0.000000000e+00    0.000000000e+00    0.000000000e+00    0.000000000e+00
      736500000    3.303294480e-01    8.213866949e-01    1.524109393e-05   -2.720858902e-05    0.000000000e+00    0.000000000e+00    0.000000000e+00    0.000000000e+00
      743750000    4.181095362e-01    7.712448835e-01   -2.525094897e-05    4.224572331e-05    0.000000000e+00    0.000000000e+00    0.000000000e+00    0.000000000e+00
      751000000    5.015669465e-01    7.136867642e-01   -1.073814929e-05   -1.626089215e-05    0.000000000e+00    0.000000000e+00    0.000000000e+00    0.000000000e+00
      758250000    5.772458315e-01    6.468159556e-01    2.185069025e-05   -2.417154610e-05    0.000000000e+00    0.000000000e+00    0.000000000e+00    0.000000000e+00
      765500000    6.459643841e-01    5.757403970e-01    3.939494491e-07   -2.626515925e-05    0.000000000e+00    0.000000000e+00    0.000000000e+00    0.000000000e+00
      772750000    7.086717486e-01    4.949828982e-01   -2.121552825e-05    1.486390829e-06    0.000000000e+00    0.000000000e+00    0.000000000e+00    0.000000000e+00
      780000000    7.603926659e-01    4.120241404e-01   -3.168359399e-05    5.441624671e-05    0.000000000e+00    0.000000000e+00    0.000000000e+00    0.000000000e+00
      787250000    8.076142669e-01    3.214217722e-01   -2.412125468e-07    7.131509483e-05    0.000000000e+00    0.000000000e+00    0.000000000e+00    0.000000000e+00
      794500000    8.431235552e-01    2.261766195e-01   -2.981442958e-05    7.284805179e-06    0.000000000e+00    0.000000000e+00    0.000000000e+00    0.000000000e+00
      801750000    8.701094985e-01    1.279323995e-01   -8.286908269e-06   -6.834510714e-05    0.000000000e+00    0.000000000e+00    0.000000000e+00    0.000000000e+00
      809000000    8.865066767e-01    2.619870007e-02    2.355501056e-05    1.207459718e-05    0.000000000e+00    0.000000000e+00    0.000000000e+00    0.000000000e+00
      816250000    8.934304118e-01   -7.729039341e-02   -1.457240433e-05   -4.065223038e-06    0.000000000e+00    0.000000000e+00    0.000000000e+00    0.000000000e+00
      823500000    8.882352710e-01   -1.838137805e-01   -6.899237633e-06    1.605134457e-05    0.000000000e+00    0.000000000e+00    0.000000000e+00    0.000000000e+00
      830750000    8.723509908e-01   -2.880560160e-01   -2.654269338e-05   -3.593787551e-05    0.000000000e+00    0.000000000e+00    0.000000000e+00    0.000000000e+00
      838000000    8.453656435e-01   -3.939190507e-01    1.640245318e-05   -3.872346133e-05    0.000000000e+00    0.000000000e+00    0.000000000e+00    0.000000000e+00
      845250000    8.055807352e-01   -4.945947528e-01   -9.674578905e-06   -1.380965114e-05    0.000000000e+00    0.000000000e+00    0.000000000e+00    0.000000000e+00
      852500000    7.538085580e-01   -5.938107371e-01    2.094637603e-05    1.697987318e-05    0.000000000e+00    0.000000000e+00    0.000000000e+00    0.000000000e+00
      859750000    6.911976933e-01   -6.863822937e-01   -2.591963857e-05   -1.335982233e-05    0.000000000e+00    0.000000000e+00    0.000000000e+00    0.000000000e+00
      867000000    6.141418815e-01   -7.744472027e-01    3.560446203e-06   -3.919936717e-06    0.000000000e+00    0.000000000e+00    0.000000000e+00    0.000000000e+00
      874250000    5.287847519e-01   -8.515548110e-01    2.095662057e-05   -1.313816756e-05    0.000000000e+00    0.000000000e+00    0.000000000e+00    0.000000000e+00
      881500000    4.301435351e-01   -9.209405184e-01    2.526026219e-05   -3.587547690e-05    0.000000000e+00    0.000000000e+00    0.000000000e+00    0.000000000e+00
      888750000    3.248813152e-01   -9.759320617e-01   -9.719282389e-06    2.116989344e-05    0.000000000e+00    0.000000000e+00    0.000000000e+00    0.000000000e+00
      896000000    2.096362561e-01   -1.018261194e+00   -4.189182073e-05    2.187676728e-06    0.000000000e+00    0.000000000e+00    0.000000000e+00    0.000000000e+00
      903250000    9.103891253e-02   -1.045707464e+00   -6.899237633e-06    1.130625606e-05    0.000000000e+00    0.000000000e+00    0.000000000e+00    0.000000000e+00
      910500000   -3.597639129e-02   -1.055114746e+00   -5.527399480e-06    3.441143781e-05    0.000000000e+00    0.000000000e+00    0.000000000e+00    0.000000000e+00
      917750000   -1.590634137e-01   -1.049056768e+00    2.982094884e-06    8.501112461e-06    0.000000000e+00    0.000000000e+00    0.000000000e+00    0.000000000e+00
      925000000   -2.804455757e-01   -1.027135134e+00    1.636985689e-05    1.954007894e-05    0.000000000e+00    0.000000000e+00    0.000000000e+00    0.000000000e+00
      932250000   -4.016309381e-01   -9.863992929e-01   -1.446343958e-05    5.242414773e-06    0.000000000e+00    0.000000000e+00    0.000000000e+00    0.000000000e+00
      939500000   -5.126593709e-01   -9.310551882e-01    1.918338239e-05   -1.145061105e-05    0.000000000e+00    0.000000000e+00    0.000000000e+00    0.000000000e+00
      946750000   -6.143848896e-01   -8.609996438e-01    2.204999328e-05    1.094862819e-05    0.000000000e+00    0.000000000e+00    0.000000000e+00    0.000000000e+00
      954000000   -7.043994665e-01   -7.804569006e-01    9.351409972e-06    3.030523658e-06    0.000000000e+00    0.000000000e+00    0.000000000e+00    0.000000000e+00
      961250000   -7.815794945e-01   -6.882538795e-01    1.779105514e-05   -5.404464900e-06    0.000000000e+00    0.000000000e+00    0.000000000e+00    0.000000000e+00
      968500000   -8.459487557e-01   -5.876536965e-01    3.608968109e-05   -2.502463758e-05    0.000000000e+00    0.000000000e+00    0.000000000e+00    0.000000000e+00
      975750000   -8.945719004e-01   -4.827678800e-01    8.806586266e-06   -3.531854600e-05    0.000000000e+00    0.000000000e+00    0.000000000e+00    0.000000000e+00
      983000000   -9.293155670e-01   -3.738623261e-01   -2.775434405e-05    1.368764788e-05    0.000000000e+00    0.000000000e+00    0.000000000e+00    0.000000000e+00
      990250000   -9.486747384e-01   -2.657250464e-01    2.902001143e-05   -1.280382276e-05    0.000000000e+00    0.000000000e+00    0.000000000e+00    0.000000000e+00
      997500000   -9.546626210e-01   -1.573835611e-01   -1.386459917e-05   -3.167148679e-05    0.000000000e+00    0.000000000e+00    0.000000000e+00    0.000000000e+00
     1004750000   -9.476487637e-01   -4.987349734e-02    5.263835192e-06    2.489518374e-05    0.000000000e+00    0.000000000e+00    0.000000000e+00    0.000000000e+00
     1012000000   -9.297870994e-01    5.055159703e-02   -3.651995212e-05    3.218837082e-05    0.000000000e+00    0.000000000e+00    0.000000000e+00    0.000000000e+00
     1019250000   -9.006661773e-01    1.459703892e-01    1.319311559e-05    9.289942682e-06    0.000000000e+00    0.000000000e+00    0.000000000e+00    0.000000000e+00
     1026500000   -8.621146679e-01    2.356264591e-01    3.838539124e-05    2.424605191e-05    0.000000000e+00    0.000000000e+00    0.000000000e+00    0.000000000e+00
     1033750000   -8.163799644e-01    3.194408417e-01    4.039146006e-06   -1.587904990e-05    0.000000000e+00    0.000000000e+00    0.000000000e+00    0.000000000e+00
     1041000000   -7.641195655e-01    3.940084875e-01    2.565607429e-05   -2.883188426e-05    0.000000000e+00    0.000000000e+00    0.000000000e+00    0.000000000e+00
