! NanoVNA-App
! Date: 2024-06-25 16:11:53
! Start: 200MHz Stop: 6GHz Points: 801
! S-Parameter data: F S11 S21 S12 S22
# Hz S RI R 50
!     Frequency           S11_Real           S11_Imag           S21_Real           S21_Imag           S12_Real           S12_Imag           S22_Real           S22_Imag
      200000000   -9.981377721e-01   -1.181377992e-01    2.148654312e-05    3.066938370e-05    0.000000000e+00    0.000000000e+00    0.000000000e+00    0.000000000e+00
      207250000   -1.009907603e+00   -1.933394745e-02    1.446343958e-05   -7.923692465e-06    0.000000000e+00    0.000000000e+00    0.000000000e+00    0.000000000e+00
      214500000   -1.011908770e+00    8.181172609e-02    1.941621304e-05   -7.531605661e-06    0.000000000e+00    0.000000000e+00    0.000000000e+00    0.000000000e+00
      221750000   -1.003142238e+00    1.846953928e-01   -4.156492651e-06    1.563411206e-05    0.000000000e+00    0.000000000e+00    0.000000000e+00    0.000000000e+00
      229000000   -9.830855131e-01    2.872284651e-01   -4.557892680e-06   -2.063065767e-05    0.000000000e+00    0.000000000e+00    0.000000000e+00    0.000000000e+00
      236250000   -9.507678151e-01    3.903790712e-01    3.130175173e-05   -2.151355147e-06    0.000000000e+00    0.000000000e+00    0.000000000e+00    0.000000000e+00
      243500000   -9.077188373e-01    4.905922413e-01   -6.960704923e-06   -1.219101250e-05    0.000000000e+00    0.000000000e+00    0.000000000e+00    0.000000000e+00
      250750000   -8.520879745e-01    5.871070027e-01   -2.098269761e-06   -3.268942237e-06    0.000000000e+00    0.000000000e+00    0.000000000e+00    0.000000000e+00
      258000000   -7.838456631e-01    6.778736711e-01    1.911167055e-05    2.929475158e-05    0.000000000e+00    0.000000000e+00    0.000000000e+00    0.000000000e+00
      265250000   -7.041682005e-01    7.617403269e-01   -5.965121090e-06   -1.180451363e-05    0.000000000e+00    0.000000000e+00    0.000000000e+00    0.000000000e+00
      272500000   -6.129602194e-01    8.375548720e-01   -2.506654710e-05   -6.412155926e-06    0.000000000e+00    0.000000000e+00    0.000000000e+00    0.000000000e+00
      279750000   -5.127793550e-01    9.013704658e-01    1.966953278e-06   -1.737475395e-05    0.000000000e+00    0.000000000e+00    0.000000000e+00    0.000000000e+00
      287000000   -4.021392167e-01    9.542108774e-01   -5.526468158e-06   -9.030103683e-06    0.000000000e+00    0.000000000e+00    0.000000000e+00    0.000000000e+00
      294250000   -2.854929864e-01    9.922105670e-01   -2.524442971e-05    2.583395690e-05    0.000000000e+00    0.000000000e+00    0.000000000e+00    0.000000000e+00
      301500000   -1.639226079e-01    1.015856862e+00    2.917647362e-05   -5.576759577e-06    0.000000000e+00    0.000000000e+00    0.000000000e+00    0.000000000e+00
      308750000   -3.748055547e-02    1.023109078e+00   -4.338100553e-06   -8.698552847e-07    0.000000000e+00    0.000000000e+00    0.000000000e+00    0.000000000e+00
      316000000    8.806367964e-02    1.014744997e+00   -2.225954086e-05   -7.259659469e-06    0.000000000e+00    0.000000000e+00    0.000000000e+00    0.000000000e+00
      323250000    2.128304988e-01    9.902442098e-01    8.742325008e-06    1.674890518e-05    0.000000000e+00    0.000000000e+00    0.000000000e+00    0.000000000e+00
      330500000    3.327560723e-01    9.495958090e-01    9.303912520e-07   -3.159046173e-06    0.000000000e+00    0.000000000e+00    0.000000000e+00    0.000000000e+00
      337750000    4.461598992e-01    8.948462009e-01   -1.218169928e-06   -9.937211871e-07    0.000000000e+00    0.000000000e+00    0.000000000e+00    0.000000000e+00
      345000000    5.518463254e-01    8.241846561e-01    1.553446054e-05    5.521811545e-06    0.000000000e+00    0.000000000e+00    0.000000000e+00    0.000000000e+00
      352250000    6.477465034e-01    7.419228554e-01   -1.186504960e-06   -1.011975110e-05    0.000000000e+00    0.000000000e+00    0.000000000e+00    0.000000000e+00
      359500000    7.314981818e-01    6.505012512e-01   -9.845010936e-06    2.065394074e-05    0.000000000e+00    0.000000000e+00    0.000000000e+00    0.000000000e+00
      366750000    8.024070263e-01    5.496935844e-01   -4.824250937e-06    1.827161759e-05    0.000000000e+00    0.000000000e+00    0.000000000e+00    0.000000000e+00
      374000000    8.600548506e-01    4.413972199e-01   -4.613120109e-05   -1.314003021e-05    0.000000000e+00    0.000000000e+00    0.000000000e+00    0.000000000e+00
      381250000    9.051582217e-01    3.282699287e-01   -2.443697304e-05   -1.477077603e-06    0.000000000e+00    0.000000000e+00    0.000000000e+00    0.000000000e+00
      388500000    9.345417023e-01    2.126035988e-01   -2.207234502e-07    5.126930773e-06    0.000000000e+00    0.000000000e+00    0.000000000e+00    0.000000000e+00
      395750000    9.516817331e-01    9.494886547e-02    4.223454744e-05   -2.706423402e-06    0.000000000e+00    0.000000000e+00    0.000000000e+00    0.000000000e+00
      403000000    9.546684623e-01   -2.171293274e-02   -1.972168684e-05    4.081055522e-06    0.000000000e+00    0.000000000e+00    0.000000000e+00    0.000000000e+00
      410250000    9.446685910e-01   -1.372565776e-01   -4.462897778e-06    1.115817577e-05    0.000000000e+00    0.000000000e+00    0.000000000e+00    0.000000000e+00
      417500000    9.224082232e-01   -2.496145070e-01   -2.012029290e-05    2.133008093e-05    0.000000000e+00    0.000000000e+00    0.000000000e+00    0.000000000e+00
      424750000    8.885623217e-01   -3.582619429e-01    3.662332892e-05   -2.563372254e-05    0.000000000e+00    0.000000000e+00    0.000000000e+00    0.000000000e+00
      432000000    8.432791233e-01   -4.608064592e-01   -7.716380060e-05   -1.748092473e-05    0.000000000e+00    0.000000000e+00    0.000000000e+00    0.000000000e+00
      439250000    7.891605496e-01   -5.576312542e-01   -2.033077180e-06   -6.721355021e-06    0.000000000e+00    0.000000000e+00    0.000000000e+00    0.000000000e+00
      446500000    7.248714566e-01   -6.476463079e-01   -4.202406853e-05   -1.736357808e-05    0.000000000e+00    0.000000000e+00    0.000000000e+00    0.000000000e+00
      453750000    6.507682800e-01   -7.305236459e-01   -3.079045564e-05   -7.849186659e-06    0.000000000e+00    0.000000000e+00    0.000000000e+00    0.000000000e+00
      461000000    5.708428025e-01   -8.042994738e-01   -2.213194966e-05    2.202577889e-05    0.000000000e+00    0.000000000e+00    0.000000000e+00    0.000000000e+00
      468250000    4.833461046e-01   -8.689507246e-01    2.505257726e-07   -1.365318894e-06    0.000000000e+00    0.000000000e+00    0.000000000e+00    0.000000000e+00
      475500000    3.879295886e-01   -9.248756170e-01   -2.497807145e-05   -1.453328878e-05    0.000000000e+00    0.000000000e+00    0.000000000e+00    0.000000000e+00
      482750000    2.898052931e-01   -9.708052278e-01   -4.132278264e-06   -3.521982580e-05    0.000000000e+00    0.000000000e+00    0.000000000e+00    0.000000000e+00
      490000000    1.851299554e-01   -1.006401062e+00   -3.308430314e-05   -5.691125989e-05    0.000000000e+00    0.000000000e+00    0.000000000e+00    0.000000000e+00
      497250000    7.771290094e-02   -1.030812144e+00    2.241227776e-05   -5.531124771e-06    0.000000000e+00    0.000000000e+00    0.000000000e+00    0.000000000e+00
      504500000   -3.184547275e-02   -1.042806268e+00    2.458691597e-07   -1.573935151e-05    0.000000000e+00    0.000000000e+00    0.000000000e+00    0.000000000e+00
      511750000   -1.431403011e-01   -1.044397950e+00   -2.752803266e-05   -4.584435374e-05    0.000000000e+00    0.000000000e+00    0.000000000e+00    0.000000000e+00
      519000000   -2.551379800e-01   -1.032866478e+00    9.313225746e-10    9.285286069e-07    0.000000000e+00    0.000000000e+00    0.000000000e+00    0.000000000e+00
      526250000   -3.651370406e-01   -1.009724736e+00    2.638902515e-05    1.338589936e-05    0.000000000e+00    0.000000000e+00    0.000000000e+00    0.000000000e+00
      533500000   -4.738897979e-01   -9.731290936e-01    3.418792039e-05   -5.430541933e-06    0.000000000e+00    0.000000000e+00    0.000000000e+00    0.000000000e+00
      540750000   -5.778343678e-01   -9.253770709e-01    5.579553545e-06    4.721432924e-05    0.000000000e+00    0.000000000e+00    0.000000000e+00    0.000000000e+00
      548000000   -6.765006781e-01   -8.653637171e-01   -1.155678183e-05   -3.078021109e-06    0.000000000e+00    0.000000000e+00    0.000000000e+00    0.000000000e+00
      555250000   -7.676144838e-01   -7.927289009e-01   -1.719314605e-05    1.664739102e-05    0.000000000e+00    0.000000000e+00    0.000000000e+00    0.000000000e+00
      562500000   -8.518379331e-01   -7.112965584e-01   -1.008249819e-05   -4.558824003e-06    0.000000000e+00    0.000000000e+00    0.000000000e+00    0.000000000e+00
      569750000   -9.236223698e-01   -6.198106408e-01    1.965835690e-05    3.793090582e-05    0.000000000e+00    0.000000000e+00    0.000000000e+00    0.000000000e+00
      577000000   -9.866622090e-01   -5.169742703e-01    2.477969974e-05   -1.419242471e-05    0.000000000e+00    0.000000000e+00    0.000000000e+00    0.000000000e+00
      584250000   -1.036160231e+00   -4.088747501e-01    4.017911851e-05    6.677582860e-07    0.000000000e+00    0.000000000e+00    0.000000000e+00    0.000000000e+00
      591500000   -1.073711872e+00   -2.949709594e-01   -4.563480616e-06    3.913417459e-06    0.000000000e+00    0.000000000e+00    0.000000000e+00    0.000000000e+00
      598750000   -1.096104026e+00   -1.761310697e-01    2.843327820e-06   -2.596899867e-05    0.000000000e+00    0.000000000e+00    0.000000000e+00    0.000000000e+00
      606000000   -1.103597999e+00   -5.702880025e-02    9.026378393e-06    1.058075577e-05    0.000000000e+00    0.000000000e+00    0.000000000e+00    0.000000000e+00
      613250000   -1.096694827e+00    6.419041753e-02    2.890173346e-05   -3.162678331e-05    0.000000000e+00    0.000000000e+00    0.000000000e+00    0.000000000e+00
      620500000   -1.076151967e+00    1.799179018e-01    1.168157905e-05    2.884306014e-06    0.000000000e+00    0.000000000e+00    0.000000000e+00    0.000000000e+00
      627750000   -1.040771961e+00    2.947607934e-01    5.575828254e-06    2.679042518e-05    0.000000000e+00    0.000000000e+00    0.000000000e+00    0.000000000e+00
      635000000   -9.933823943e-01    4.013078511e-01   -1.210533082e-05    1.806952059e-05    0.000000000e+00    0.000000000e+00    0.000000000e+00    0.000000000e+00
      642250000   -9.310425520e-01    5.040314794e-01   -2.104509622e-05   -6.614252925e-06    0.000000000e+00    0.000000000e+00    0.000000000e+00    0.000000000e+00
      649500000   -8.596235514e-01    5.945718884e-01    8.500181139e-06   -1.153722405e-05    0.000000000e+00    0.000000000e+00    0.000000000e+00    0.000000000e+00
      656750000   -7.785136104e-01    6.770361066e-01    1.859851182e-06    1.072138548e-05    0.000000000e+00    0.000000000e+00    0.000000000e+00    0.000000000e+00
      664000000   -6.889891624e-01    7.476714253e-01   -1.543946564e-05   -1.365784556e-05    0.000000000e+00    0.000000000e+00    0.000000000e+00    0.000000000e+00
      671250000   -5.935053229e-01    8.074130416e-01   -2.617482096e-05    2.383068204e-05    0.000000000e+00    0.000000000e+00    0.000000000e+00    0.000000000e+00
      678500000   -4.935093820e-01    8.542245626e-01   -4.230067134e-06   -8.793547750e-06    0.000000000e+00    0.000000000e+00    0.000000000e+00    0.000000000e+00
      685750000   -3.883568048e-01    8.910638690e-01   -8.838251233e-06   -1.163221896e-06    0.000000000e+00    0.000000000e+00    0.000000000e+00    0.000000000e+00
      693000000   -2.817684114e-01    9.143516421e-01    7.294118404e-06   -6.367452443e-06    0.000000000e+00    0.000000000e+00    0.000000000e+00    0.000000000e+00
      700250000   -1.753283590e-01    9.255766869e-01   -1.229066402e-05    1.695845276e-05    0.000000000e+00    0.000000000e+00    0.000000000e+00    0.000000000e+00
      707500000   -6.841542572e-02    9.264571667e-01   -6.826594472e-06    2.646446228e-05    0.000000000e+00    0.000000000e+00    0.000000000e+00    0.000000000e+00
      714750000    3.728694469e-02    9.146522284e-01    2.025067806e-05    1.500081271e-05    0.000000000e+00    0.000000000e+00    0.000000000e+00    0.000000000e+00
      722000000    1.380823553e-01    8.935138583e-01   -2.465210855e-06   -2.973247319e-05    0.000000000e+00    0.000000000e+00    0.000000000e+00    0.000000000e+00
      729250000    2.368961275e-01    8.617753983e-01   -1.328345388e-05    6.207264960e-06    0.000000000e+00    0.000000000e+00    0.000000000e+00    0.000000000e+00
      736500000    3.296871483e-01    8.212073445e-01   -2.767797559e-05    1.162942499e-05    0.000000000e+00    0.000000000e+00    0.000000000e+00    0.000000000e+00
      743750000    4.181016088e-01    7.716549039e-01   -2.384185791e-07   -1.124106348e-05    0.000000000e+00    0.000000000e+00    0.000000000e+00    0.000000000e+00
      751000000    5.015471578e-01    7.137563825e-01   -3.441143781e-05   -5.042180419e-06    0.000000000e+00    0.000000000e+00    0.000000000e+00    0.000000000e+00
      758250000    5.772839785e-01    6.480256319e-01   -5.164183676e-06    2.271402627e-05    0.000000000e+00    0.000000000e+00    0.000000000e+00    0.000000000e+00
      765500000    6.462674737e-01    5.753441453e-01   -4.687346518e-05    5.480833352e-06    0.000000000e+00    0.000000000e+00    0.000000000e+00    0.000000000e+00
      772750000    7.082066536e-01    4.958870411e-01   -1.302547753e-05    1.545622945e-05    0.000000000e+00    0.000000000e+00    0.000000000e+00    0.000000000e+00
      780000000    7.615450025e-01    4.109069407e-01   -3.765057772e-05    3.135949373e-05    0.000000000e+00    0.000000000e+00    0.000000000e+00    0.000000000e+00
      787250000    8.073659539e-01    3.210573196e-01    1.989491284e-05   -6.388872862e-06    0.000000000e+00    0.000000000e+00    0.000000000e+00    0.000000000e+00
      794500000    8.431117535e-01    2.263989300e-01   -1.784320921e-05    5.616806448e-06    0.000000000e+00    0.000000000e+00    0.000000000e+00    0.000000000e+00
      801750000    8.698613644e-01    1.273838878e-01    4.970189184e-05   -7.561407983e-06    0.000000000e+00    0.000000000e+00    0.000000000e+00    0.000000000e+00
      809000000    8.869585991e-01    2.662830614e-02    1.989305019e-06   -2.978369594e-06    0.000000000e+00    0.000000000e+00    0.000000000e+00    0.000000000e+00
      816250000    8.934169412e-01   -7.645764202e-02   -2.202764153e-05   -4.090368748e-06    0.000000000e+00    0.000000000e+00    0.000000000e+00    0.000000000e+00
      823500000    8.880332112e-01   -1.839424670e-01   -2.038385719e-05   -1.708976924e-06    0.000000000e+00    0.000000000e+00    0.000000000e+00    0.000000000e+00
      830750000    8.724445105e-01   -2.883855104e-01   -8.552335203e-06    2.666562796e-05    0.000000000e+00    0.000000000e+00    0.000000000e+00    0.000000000e+00
      838000000    8.450882435e-01   -3.925257325e-01   -1.939851791e-05   -2.275221050e-05    0.000000000e+00    0.000000000e+00    0.000000000e+00    0.000000000e+00
      845250000    8.060539961e-01   -4.946244359e-01    1.562666148e-05    6.387103349e-05    0.000000000e+00    0.000000000e+00    0.000000000e+00    0.000000000e+00
      852500000    7.544640899e-01   -5.938303471e-01    8.156523108e-06   -3.480352461e-06    0.000000000e+00    0.000000000e+00    0.000000000e+00    0.000000000e+00
      859750000    6.911533475e-01   -6.865280867e-01   -7.607974112e-06    1.131836325e-05    0.000000000e+00    0.000000000e+00    0.000000000e+00    0.000000000e+00
      867000000    6.150122881e-01   -7.741134167e-01   -4.257075489e-06   -4.651956260e-06    0.000000000e+00    0.000000000e+00    0.000000000e+00    0.000000000e+00
      874250000    5.292876959e-01   -8.514313698e-01   -1.223571599e-05    2.402625978e-05    0.000000000e+00    0.000000000e+00    0.000000000e+00    0.000000000e+00
      881500000    4.299500287e-01   -9.205815792e-01   -7.863156497e-06    2.057012171e-05    0.000000000e+00    0.000000000e+00    0.000000000e+00    0.000000000e+00
      888750000    3.235276043e-01   -9.762606025e-01   -4.140567034e-05   -1.112464815e-05    0.000000000e+00    0.000000000e+00    0.000000000e+00    0.000000000e+00
      896000000    2.103230059e-01   -1.018596530e+00    1.453794539e-05    5.018897355e-06    0.000000000e+00    0.000000000e+00    0.000000000e+00    0.000000000e+00
      903250000    9.103606641e-02   -1.045437694e+00   -3.143027425e-05    3.009196371e-05    0.000000000e+00    0.000000000e+00    0.000000000e+00    0.000000000e+00
      910500000   -3.579035401e-02   -1.055574417e+00    1.057051122e-05    2.384930849e-05    0.000000000e+00    0.000000000e+00    0.000000000e+00    0.000000000e+00
      917750000   -1.588944197e-01   -1.049231768e+00   -8.444301784e-06    8.530914783e-06    0.000000000e+00    0.000000000e+00    0.000000000e+00    0.000000000e+00
      925000000   -2.805124521e-01   -1.027453184e+00    5.772337317e-06    2.838857472e-05    0.000000000e+00    0.000000000e+00    0.000000000e+00    0.000000000e+00
      932250000   -4.019193649e-01   -9.864362478e-01   -1.058261842e-05   -1.675914973e-05    0.000000000e+00    0.000000000e+00    0.000000000e+00    0.000000000e+00
      939500000   -5.123673081e-01   -9.314655066e-01   -1.255515963e-05    1.884531230e-05    0.000000000e+00    0.000000000e+00    0.000000000e+00    0.000000000e+00
      946750000   -6.144266725e-01   -8.616382480e-01    1.048389822e-05   -1.788232476e-05    0.000000000e+00    0.000000000e+00    0.000000000e+00    0.000000000e+00
      954000000   -7.043175697e-01   -7.803190947e-01   -4.395842552e-07   -1.177098602e-05    0.000000000e+00    0.000000000e+00    0.000000000e+00    0.000000000e+00
      961250000   -7.813764811e-01   -6.877520084e-01    4.267692566e-05    9.178183973e-06    0.000000000e+00    0.000000000e+00    0.000000000e+00    0.000000000e+00
      968500000   -8.461263776e-01   -5.873213410e-01   -3.055576235e-05    2.256687731e-05    0.000000000e+00    0.000000000e+00    0.000000000e+00    0.000000000e+00
      975750000   -8.936025500e-01   -4.839154482e-01    5.533546209e-05    1.241266727e-05    0.000000000e+00    0.000000000e+00    0.000000000e+00    0.000000000e+00
      983000000   -9.293560386e-01   -3.731752038e-01    1.564063132e-05   -1.273863018e-05    0.000000000e+00    0.000000000e+00    0.000000000e+00    0.000000000e+00
      990250000   -9.486095309e-01   -2.657143772e-01    1.722481102e-05    1.092813909e-05    0.000000000e+00    0.000000000e+00    0.000000000e+00    0.000000000e+00
      997500000   -9.547184110e-01   -1.561752111e-01    4.775077105e-05    2.465769649e-05    0.000000000e+00    0.000000000e+00    0.000000000e+00    0.000000000e+00
     1004750000   -9.478229880e-01   -4.901805893e-02   -2.684071660e-05   -8.615665138e-06    0.000000000e+00    0.000000000e+00    0.000000000e+00    0.000000000e+00
     1012000000   -9.295417070e-01    5.079603568e-02   -1.167040318e-05    1.574493945e-05    0.000000000e+00    0.000000000e+00    0.000000000e+00    0.000000000e+00
     1019250000   -9.001468420e-01    1.466708034e-01   -2.413615584e-05    3.039557487e-05    0.000000000e+00    0.000000000e+00    0.000000000e+00    0.000000000e+00
     1026500000   -8.623128533e-01    2.355638891e-01    1.235213131e-05    1.987908036e-05    0.000000000e+00    0.000000000e+00    0.000000000e+00    0.000000000e+00
     1033750000   -8.169379830e-01    3.184255660e-01    4.008971155e-05   -4.009529948e-05    0.000000000e+00    0.000000000e+00    0.000000000e+00    0.000000000e+00
     1041000000   -7.633312941e-01    3.944434822e-01   -5.392357707e-07    3.102980554e-05    0.000000000e+00    0.000000000e+00    0.000000000e+00    0.000000000e+00
