! NanoVNA-App
! Date: 2024-06-25 16:11:56
! Start: 200MHz Stop: 6GHz Points: 801
! S-Parameter data: F S11 S21 S12 S22
# Hz S RI R 50
!     Frequency           S11_Real           S11_Imag           S21_Real           S21_Imag           S12_Real           S12_Imag           S22_Real           S22_Imag
      200000000   -9.981901646e-01   -1.182649285e-01    2.739019692e-06    1.301430166e-05    0.000000000e+00    0.000000000e+00    0.000000000e+00    0.000000000e+00
      207250000   -1.009863973e+00   -1.939033158e-02    1.572538167e-05    2.003274858e-05    0.000000000e+00    0.000000000e+00    0.000000000e+00    0.000000000e+00
      214500000   -1.011559010e+00    8.175270259e-02    1.246109605e-05    2.931151539e-05    0.000000000e+00    0.000000000e+00    0.000000000e+00    0.000000000e+00
      221750000   -1.002587557e+00    1.845839024e-01   -9.025447071e-06    7.244758308e-06    0.000000000e+00    0.000000000e+00    0.000000000e+00    0.000000000e+00
      229000000   -9.826303720e-01    2.876681685e-01    9.872950613e-06   -2.414081246e-05    0.000000000e+00    0.000000000e+00    0.000000000e+00    0.000000000e+00
      236250000   -9.513832927e-01    3.902822733e-01    9.885057807e-06    4.810281098e-06    0.000000000e+00    0.000000000e+00    0.000000000e+00    0.000000000e+00
      243500000   -9.074985385e-01    4.902251661e-01    3.703590482e-05   -1.969188452e-05    0.000000000e+00    0.000000000e+00    0.000000000e+00    0.000000000e+00
      250750000   -8.516902924e-01    5.870063901e-01    2.403743565e-05    1.175887883e-05    0.000000000e+00    0.000000000e+00    0.000000000e+00    0.000000000e+00
      258000000   -7.842611670e-01    6.783558726e-01   -2.111028880e-05    6.785616279e-06    0.000000000e+00    0.000000000e+00    0.000000000e+00    0.000000000e+00
      265250000   -7.040200830e-01    7.619386315e-01   -2.079922706e-05   -1.727603376e-06    0.000000000e+00    0.000000000e+00    0.000000000e+00    0.000000000e+00
      272500000   -6.138042808e-01    8.371424675e-01   -3.308057785e-06    2.402067184e-05    0.000000000e+00    0.000000000e+00    0.000000000e+00    0.000000000e+00
      279750000   -5.131789446e-01    9.018778801e-01    4.936009645e-08    8.055940270e-06    0.000000000e+00    0.000000000e+00    0.000000000e+00    0.000000000e+00
      287000000   -4.026859105e-01    9.543037415e-01   -3.543309867e-05   -5.122274160e-08    0.000000000e+00    0.000000000e+00    0.000000000e+00    0.000000000e+00
      294250000   -2.861815393e-01    9.924053550e-01   -1.379661262e-05   -1.215282828e-05    0.000000000e+00    0.000000000e+00    0.000000000e+00    0.000000000e+00
      301500000   -1.634954065e-01    1.015867114e+00   -1.406762749e-05    3.797933459e-06    0.000000000e+00    0.000000000e+00    0.000000000e+00    0.000000000e+00
      308750000   -3.809110820e-02    1.023305774e+00   -4.548579454e-05    4.932284355e-06    0.000000000e+00    0.000000000e+00    0.000000000e+00    0.000000000e+00
      316000000    8.832032979e-02    1.015455484e+00   -9.911134839e-06   -1.801736653e-05    0.000000000e+00    0.000000000e+00    0.000000000e+00    0.000000000e+00
      323250000    2.129328251e-01    9.905802011e-01   -3.433413804e-05   -3.565009683e-05    0.000000000e+00    0.000000000e+00    0.000000000e+00    0.000000000e+00
      330500000    3.328851759e-01    9.498699307e-01    3.256089985e-05   -1.333374530e-05    0.000000000e+00    0.000000000e+00    0.000000000e+00    0.000000000e+00
      337750000    4.466065764e-01    8.940861821e-01   -3.216881305e-05   -9.112991393e-06    0.000000000e+00    0.000000000e+00    0.000000000e+00    0.000000000e+00
      345000000    5.521034002e-01    8.240936399e-01    4.494749010e-05    1.983530819e-05    0.000000000e+00    0.000000000e+00    0.000000000e+00    0.000000000e+00
      352250000    6.478343606e-01    7.428864837e-01    6.158836186e-06    1.540314406e-05    0.000000000e+00    0.000000000e+00    0.000000000e+00    0.000000000e+00
      359500000    7.315557003e-01    6.503510475e-01   -1.597218215e-06    1.487601548e-05    0.000000000e+00    0.000000000e+00    0.000000000e+00    0.000000000e+00
      366750000    8.024853468e-01    5.493683219e-01    5.625188351e-07   -7.901340723e-06    0.000000000e+00    0.000000000e+00    0.000000000e+00    0.000000000e+00
      374000000    8.602654338e-01    4.410426319e-01    1.390464604e-06   -1.379288733e-06    0.000000000e+00    0.000000000e+00    0.000000000e+00    0.000000000e+00
      381250000    9.041489363e-01    3.282355964e-01    5.112588406e-05   -5.611218512e-06    0.000000000e+00    0.000000000e+00    0.000000000e+00    0.000000000e+00
      388500000    9.352923632e-01    2.127520591e-01    5.470402539e-05    1.459941268e-05    0.000000000e+00    0.000000000e+00    0.000000000e+00    0.000000000e+00
      395750000    9.513014555e-01    9.558308870e-02   -1.711677760e-05    2.890825272e-05    0.000000000e+00    0.000000000e+00    0.000000000e+00    0.000000000e+00
      403000000    9.545944333e-01   -2.183648944e-02    1.303758472e-05    1.217238605e-06    0.000000000e+00    0.000000000e+00    0.000000000e+00    0.000000000e+00
      410250000    9.447610378e-01   -1.368644238e-01   -7.420778275e-06    1.299381256e-05    0.000000000e+00    0.000000000e+00    0.000000000e+00    0.000000000e+00
      417500000    9.230460525e-01   -2.491180003e-01   -4.537496716e-05    1.142174006e-05    0.000000000e+00    0.000000000e+00    0.000000000e+00    0.000000000e+00
      424750000    8.884099722e-01   -3.583810031e-01   -2.111401409e-05    1.416634768e-05    0.000000000e+00    0.000000000e+00    0.000000000e+00    0.000000000e+00
      432000000    8.436990976e-01   -4.609058797e-01    2.743862569e-05   -3.300327808e-05    0.000000000e+00    0.000000000e+00    0.000000000e+00    0.000000000e+00
      439250000    7.891674042e-01   -5.579425693e-01   -2.357177436e-05    5.852524191e-05    0.000000000e+00    0.000000000e+00    0.000000000e+00    0.000000000e+00
      446500000    7.247250676e-01   -6.473758817e-01    1.086201519e-05   -7.250346243e-06    0.000000000e+00    0.000000000e+00    0.000000000e+00    0.000000000e+00
      453750000    6.512497663e-01   -7.300843596e-01    3.978610039e-06    2.866610885e-06    0.000000000e+00    0.000000000e+00    0.000000000e+00    0.000000000e+00
      461000000    5.706950426e-01   -8.037324548e-01    1.000612974e-05   -2.895481884e-06    0.000000000e+00    0.000000000e+00    0.000000000e+00    0.000000000e+00
      468250000    4.841083884e-01   -8.693404198e-01   -1.191720366e-05   -3.142002970e-05    0.000000000e+00    0.000000000e+00    0.000000000e+00    0.000000000e+00
      475500000    3.880084455e-01   -9.251127243e-01    2.413056791e-06   -2.872757614e-05    0.000000000e+00    0.000000000e+00    0.000000000e+00    0.000000000e+00
      482750000    2.888686955e-01   -9.705732465e-01   -2.808682621e-05    3.037042916e-05    0.000000000e+00    0.000000000e+00    0.000000000e+00    0.000000000e+00
      490000000    1.850674599e-01   -1.005754352e+00    1.977290958e-05    2.291705459e-05    0.000000000e+00    0.000000000e+00    0.000000000e+00    0.000000000e+00
      497250000    7.775209844e-02   -1.030237198e+00   -3.496091813e-05    1.346319914e-05    0.000000000e+00    0.000000000e+00    0.000000000e+00    0.000000000e+00
      504500000   -3.183348104e-02   -1.043027997e+00   -9.407289326e-06   -2.381764352e-05    0.000000000e+00    0.000000000e+00    0.000000000e+00    0.000000000e+00
      511750000   -1.436672211e-01   -1.043489575e+00   -6.970949471e-06    1.131184399e-05    0.000000000e+00    0.000000000e+00    0.000000000e+00    0.000000000e+00
      519000000   -2.548141778e-01   -1.033164382e+00    1.602806151e-06   -1.981388777e-05    0.000000000e+00    0.000000000e+00    0.000000000e+00    0.000000000e+00
      526250000   -3.654622138e-01   -1.008917212e+00    1.679919660e-05    1.977756619e-05    0.000000000e+00    0.000000000e+00    0.000000000e+00    0.000000000e+00
      533500000   -4.734418392e-01   -9.736657143e-01   -2.958253026e-05   -4.876405001e-05    0.000000000e+00    0.000000000e+00    0.000000000e+00    0.000000000e+00
      540750000   -5.773698092e-01   -9.255130887e-01    2.804212272e-06    4.079286009e-05    0.000000000e+00    0.000000000e+00    0.000000000e+00    0.000000000e+00
      548000000   -6.765736938e-01   -8.659856319e-01   -4.532374442e-05    1.525226980e-05    0.000000000e+00    0.000000000e+00    0.000000000e+00    0.000000000e+00
      555250000   -7.673968077e-01   -7.930173874e-01    2.016313374e-06    9.174458683e-06    0.000000000e+00    0.000000000e+00    0.000000000e+00    0.000000000e+00
      562500000   -8.513392806e-01   -7.104701996e-01    3.986060619e-06   -1.314375550e-05    0.000000000e+00    0.000000000e+00    0.000000000e+00    0.000000000e+00
      569750000   -9.246929884e-01   -6.187081337e-01   -1.408904791e-05    5.713663995e-06    0.000000000e+00    0.000000000e+00    0.000000000e+00    0.000000000e+00
      577000000   -9.863372445e-01   -5.169771314e-01   -1.836754382e-05    1.407228410e-06    0.000000000e+00    0.000000000e+00    0.000000000e+00    0.000000000e+00
      584250000   -1.036630273e+00   -4.081244171e-01    6.104353815e-05    2.429820597e-06    0.000000000e+00    0.000000000e+00    0.000000000e+00    0.000000000e+00
      591500000   -1.073011398e+00   -2.943110764e-01    5.364697427e-05   -3.106147051e-05    0.000000000e+00    0.000000000e+00    0.000000000e+00    0.000000000e+00
      598750000   -1.095960855e+00   -1.757654101e-01   -2.364255488e-05    1.975335181e-05    0.000000000e+00    0.000000000e+00    0.000000000e+00    0.000000000e+00
      606000000   -1.103700399e+00   -5.729290098e-02    1.269392669e-05   -2.239365131e-05    0.000000000e+00    0.000000000e+00    0.000000000e+00    0.000000000e+00
      613250000   -1.097391725e+00    6.307807565e-02    1.201778650e-05   -5.740672350e-06    0.000000000e+00    0.000000000e+00    0.000000000e+00    0.000000000e+00
      620500000   -1.075502872e+00    1.807554513e-01    2.576783299e-05    2.477504313e-05    0.000000000e+00    0.000000000e+00    0.000000000e+00    0.000000000e+00
      627750000   -1.040916324e+00    2.947804034e-01    3.855209798e-05    7.815659046e-06    0.000000000e+00    0.000000000e+00    0.000000000e+00    0.000000000e+00
      635000000   -9.933078885e-01    4.013144672e-01    2.611801028e-05    4.228204489e-06    0.000000000e+00    0.000000000e+00    0.000000000e+00    0.000000000e+00
      642250000   -9.312280416e-01    5.033338666e-01    8.331611753e-06   -2.119876444e-05    0.000000000e+00    0.000000000e+00    0.000000000e+00    0.000000000e+00
      649500000   -8.598988652e-01    5.951577425e-01    2.654269338e-07    9.082257748e-06    0.000000000e+00    0.000000000e+00    0.000000000e+00    0.000000000e+00
      656750000   -7.789665461e-01    6.762226224e-01   -1.195538789e-05   -1.798477024e-05    0.000000000e+00    0.000000000e+00    0.000000000e+00    0.000000000e+00
      664000000   -6.896793842e-01    7.477782369e-01   -3.291200846e-05    1.469254494e-05    0.000000000e+00    0.000000000e+00    0.000000000e+00    0.000000000e+00
      671250000   -5.931435823e-01    8.072543144e-01   -3.316812217e-05    8.389353752e-06    0.000000000e+00    0.000000000e+00    0.000000000e+00    0.000000000e+00
      678500000   -4.928466380e-01    8.554759622e-01    8.465722203e-07    1.179426908e-05    0.000000000e+00    0.000000000e+00    0.000000000e+00    0.000000000e+00
      685750000   -3.879983723e-01    8.907834291e-01   -1.614261419e-05    9.221956134e-06    0.000000000e+00    0.000000000e+00    0.000000000e+00    0.000000000e+00
      693000000   -2.821179926e-01    9.140431881e-01   -7.537193596e-06    5.449168384e-06    0.000000000e+00    0.000000000e+00    0.000000000e+00    0.000000000e+00
      700250000   -1.749441028e-01    9.259396195e-01   -6.884802133e-05   -1.531094313e-06    0.000000000e+00    0.000000000e+00    0.000000000e+00    0.000000000e+00
      707500000   -6.813893467e-02    9.264608622e-01   -4.743784666e-05    1.304410398e-05    0.000000000e+00    0.000000000e+00    0.000000000e+00    0.000000000e+00
      714750000    3.672146052e-02    9.150217772e-01    2.669822425e-05    9.777955711e-06    0.000000000e+00    0.000000000e+00    0.000000000e+00    0.000000000e+00
      722000000    1.395255625e-01    8.934474587e-01    5.759298801e-06   -5.263835192e-06    0.000000000e+00    0.000000000e+00    0.000000000e+00    0.000000000e+00
      729250000    2.360111922e-01    8.618096709e-01   -3.463588655e-06    5.564279854e-05    0.000000000e+00    0.000000000e+00    0.000000000e+00    0.000000000e+00
      736500000    3.301134408e-01    8.211173415e-01   -9.742565453e-06   -2.835877240e-05    0.000000000e+00    0.000000000e+00    0.000000000e+00    0.000000000e+00
      743750000    4.186728299e-01    7.714573145e-01   -5.457550287e-07    2.616923302e-05    0.000000000e+00    0.000000000e+00    0.000000000e+00    0.000000000e+00
      751000000    5.015757084e-01    7.135227323e-01   -1.697521657e-05    7.029622793e-06    0.000000000e+00    0.000000000e+00    0.000000000e+00    0.000000000e+00
      758250000    5.772308707e-01    6.473206282e-01   -1.711770892e-05    2.635363489e-05    0.000000000e+00    0.000000000e+00    0.000000000e+00    0.000000000e+00
      765500000    6.462790370e-01    5.754603744e-01    3.782194108e-05    3.369525075e-05    0.000000000e+00    0.000000000e+00    0.000000000e+00    0.000000000e+00
      772750000    7.085567117e-01    4.950950146e-01   -1.589953899e-05    1.435168087e-06    0.000000000e+00    0.000000000e+00    0.000000000e+00    0.000000000e+00
      780000000    7.610405087e-01    4.117996395e-01    1.403409988e-05    1.810491085e-05    0.000000000e+00    0.000000000e+00    0.000000000e+00    0.000000000e+00
      787250000    8.060773015e-01    3.211846054e-01   -5.252845585e-05   -4.370510578e-05    0.000000000e+00    0.000000000e+00    0.000000000e+00    0.000000000e+00
      794500000    8.429503441e-01    2.263519317e-01   -1.389533281e-06    1.613888890e-05    0.000000000e+00    0.000000000e+00    0.000000000e+00    0.000000000e+00
      801750000    8.699091673e-01    1.277900636e-01    2.848636359e-05   -2.235919237e-05    0.000000000e+00    0.000000000e+00    0.000000000e+00    0.000000000e+00
      809000000    8.869271874e-01    2.620752342e-02   -2.200528979e-05   -9.209848940e-06    0.000000000e+00    0.000000000e+00    0.000000000e+00    0.000000000e+00
      816250000    8.933403492e-01   -7.719410211e-02    1.726765186e-05    2.543441951e-05    0.000000000e+00    0.000000000e+00    0.000000000e+00    0.000000000e+00
      823500000    8.887354732e-01   -1.834203452e-01   -2.238899469e-06    3.364123404e-05    0.000000000e+00    0.000000000e+00    0.000000000e+00    0.000000000e+00
      830750000    8.728786111e-01   -2.875235677e-01   -1.226924360e-05    6.999820471e-06    0.000000000e+00    0.000000000e+00    0.000000000e+00    0.000000000e+00
      838000000    8.446367979e-01   -3.930134773e-01   -9.112991393e-06    3.160815686e-05    0.000000000e+00    0.000000000e+00    0.000000000e+00    0.000000000e+00
      845250000    8.056502938e-01   -4.953014255e-01    1.262873411e-06   -7.616635412e-05    0.000000000e+00    0.000000000e+00    0.000000000e+00    0.000000000e+00
      852500000    7.541282773e-01   -5.938000679e-01   -3.870576620e-06   -2.153310925e-05    0.000000000e+00    0.000000000e+00    0.000000000e+00    0.000000000e+00
      859750000    6.907454729e-01   -6.867836118e-01    5.853362381e-06    1.090764999e-05    0.000000000e+00    0.000000000e+00    0.000000000e+00    0.000000000e+00
      867000000    6.137062311e-01   -7.754784226e-01   -1.248810440e-05    5.188398063e-06    0.000000000e+00    0.000000000e+00    0.000000000e+00    0.000000000e+00
      874250000    5.299118161e-01   -8.519744873e-01    1.573935151e-05   -3.684218973e-05    0.000000000e+00    0.000000000e+00    0.000000000e+00    0.000000000e+00
      881500000    4.297972918e-01   -9.210868478e-01   -1.186970621e-05   -5.076639354e-06    0.000000000e+00    0.000000000e+00    0.000000000e+00    0.000000000e+00
      888750000    3.256587386e-01   -9.755313993e-01    2.570450306e-07   -2.613104880e-05    0.000000000e+00    0.000000000e+00    0.000000000e+00    0.000000000e+00
      896000000    2.111192793e-01   -1.018479943e+00   -3.903824836e-05   -4.297588021e-05    0.000000000e+00    0.000000000e+00    0.000000000e+00    0.000000000e+00
      903250000    9.023262560e-02   -1.045141935e+00   -2.186745405e-06    9.250827134e-06    0.000000000e+00    0.000000000e+00    0.000000000e+00    0.000000000e+00
      910500000   -3.417734429e-02   -1.056414366e+00   -3.292877227e-05    1.549161971e-05    0.000000000e+00    0.000000000e+00    0.000000000e+00    0.000000000e+00
      917750000   -1.586558670e-01   -1.049413919e+00   -6.060674787e-05    4.043150693e-05    0.000000000e+00    0.000000000e+00    0.000000000e+00    0.000000000e+00
      925000000   -2.818170786e-01   -1.026501060e+00    5.066394806e-06   -1.692585647e-05    0.000000000e+00    0.000000000e+00    0.000000000e+00    0.000000000e+00
      932250000   -4.014366865e-01   -9.864635468e-01    6.122514606e-06   -4.838220775e-06    0.000000000e+00    0.000000000e+00    0.000000000e+00    0.000000000e+00
      939500000   -5.116769075e-01   -9.311028123e-01    1.437775791e-05    3.001838923e-05    0.000000000e+00    0.000000000e+00    0.000000000e+00    0.000000000e+00
      946750000   -6.148239374e-01   -8.609095216e-01    2.987124026e-05    1.938547939e-05    0.000000000e+00    0.000000000e+00    0.000000000e+00    0.000000000e+00
      954000000   -7.044570446e-01   -7.792932987e-01    3.974884748e-06   -3.293156624e-06    0.000000000e+00    0.000000000e+00    0.000000000e+00    0.000000000e+00
      961250000   -7.824060321e-01   -6.876909137e-01   -1.970026642e-05    4.389416426e-05    0.000000000e+00    0.000000000e+00    0.000000000e+00    0.000000000e+00
      968500000   -8.453271985e-01   -5.883276463e-01    2.445466816e-05    1.349207014e-05    0.000000000e+00    0.000000000e+00    0.000000000e+00    0.000000000e+00
      975750000   -8.933717012e-01   -4.835308790e-01    1.149345189e-05   -1.042522490e-05    0.000000000e+00    0.000000000e+00    0.000000000e+00    0.000000000e+00
      983000000   -9.295728207e-01   -3.716952801e-01    2.197828144e-05   -2.263486385e-05    0.000000000e+00    0.000000000e+00    0.000000000e+00    0.000000000e+00
      990250000   -9.488527775e-01   -2.643002570e-01   -5.661509931e-06    1.695752144e-05    0.000000000e+00    0.000000000e+00    0.000000000e+00    0.000000000e+00
      997500000   -9.541524053e-01   -1.554005444e-01   -9.461306036e-06   -5.206931382e-05    0.000000000e+00    0.000000000e+00    0.000000000e+00    0.000000000e+00
     1004750000   -9.477214217e-01   -5.079132318e-02   -1.342035830e-05   -3.606732935e-05    0.000000000e+00    0.000000000e+00    0.000000000e+00    0.000000000e+00
     1012000000   -9.292507768e-01    5.129622295e-02    2.473220229e-05   -2.665910870e-05    0.000000000e+00    0.000000000e+00    0.000000000e+00    0.000000000e+00
     1019250000   -9.011089206e-01    1.461656243e-01    4.405155778e-07    2.190191299e-05    0.000000000e+00    0.000000000e+00    0.000000000e+00    0.000000000e+00
     1026500000   -8.624171615e-01    2.350017726e-01   -4.428997636e-05   -1.359265298e-05    0.000000000e+00    0.000000000e+00    0.000000000e+00    0.000000000e+00
     1033750000   -8.156328201e-01    3.196958601e-01    2.302601933e-05   -1.042895019e-05    0.000000000e+00    0.000000000e+00    0.000000000e+00    0.000000000e+00
     1041000000   -7.634035349e-01    3.942863941e-01    6.914138794e-06    1.898035407e-06    0.000000000e+00    0.000000000e+00    0.000000000e+00    0.000000000e+00
