! NanoVNA-App
! Date: 2024-06-25 16:10:47
! Start: 200MHz Stop: 6GHz Points: 801
! S-Parameter data: F S11 S21 S12 S22
# Hz S RI R 50
!     Frequency           S11_Real           S11_Imag           S21_Real           S21_Imag           S12_Real           S12_Imag           S22_Real           S22_Imag
      200000000   -9.982583523e-01   -1.184146106e-01   -2.400856465e-05   -1.202337444e-06    0.000000000e+00    0.000000000e+00    0.000000000e+00    0.000000000e+00
      207250000   -1.009903789e+00   -1.905089058e-02   -2.804305404e-05   -1.131743193e-05    0.000000000e+00    0.000000000e+00    0.000000000e+00    0.000000000e+00
      214500000   -1.011316061e+00    8.184281737e-02   -4.284083843e-08   -1.169927418e-05    0.000000000e+00    0.000000000e+00    0.000000000e+00    0.000000000e+00
      221750000   -1.003132582e+00    1.846172810e-01   -1.403223723e-05    3.235414624e-06    0.000000000e+00    0.000000000e+00    0.000000000e+00    0.000000000e+00
      229000000   -9.830973148e-01    2.880249619e-01    2.278853208e-05    5.867332220e-08    0.000000000e+00    0.000000000e+00    0.000000000e+00    0.000000000e+00
      236250000   -9.503570199e-01    3.904644549e-01   -4.408694804e-05   -3.337580711e-05    0.000000000e+00    0.000000000e+00    0.000000000e+00    0.000000000e+00
      243500000   -9.080302119e-01    4.900411665e-01    1.082010567e-05   -2.806074917e-06    0.000000000e+00    0.000000000e+00    0.000000000e+00    0.000000000e+00
      250750000   -8.517727256e-01    5.867430568e-01   -1.501850784e-05    3.305263817e-06    0.000000000e+00    0.000000000e+00    0.000000000e+00    0.000000000e+00
      258000000   -7.840503454e-01    6.781733632e-01   -5.616806448e-06   -2.660602331e-05    0.000000000e+00    0.000000000e+00    0.000000000e+00    0.000000000e+00
      265250000   -7.050581574e-01    7.619279623e-01   -1.171138138e-05   -3.873370588e-06    0.000000000e+00    0.000000000e+00    0.000000000e+00    0.000000000e+00
      272500000   -6.136236191e-01    8.375098705e-01   -2.675503492e-05   -3.741122782e-06    0.000000000e+00    0.000000000e+00    0.000000000e+00    0.000000000e+00
      279750000   -5.130236745e-01    9.019932747e-01   -8.467584848e-06    2.294220030e-05    0.000000000e+00    0.000000000e+00    0.000000000e+00    0.000000000e+00
      287000000   -4.026375115e-01    9.541602731e-01   -3.713183105e-06   -1.786183566e-05    0.000000000e+00    0.000000000e+00    0.000000000e+00    0.000000000e+00
      294250000   -2.858433425e-01    9.928089380e-01   -6.114784628e-05   -2.052634954e-05    0.000000000e+00    0.000000000e+00    0.000000000e+00    0.000000000e+00
      301500000   -1.634348929e-01    1.015723467e+00    2.236105502e-05   -1.752935350e-05    0.000000000e+00    0.000000000e+00    0.000000000e+00    0.000000000e+00
      308750000   -3.736758232e-02    1.023035169e+00    3.921799362e-06   -9.697861969e-06    0.000000000e+00    0.000000000e+00    0.000000000e+00    0.000000000e+00
      316000000    8.814198524e-02    1.014824033e+00   -1.193862408e-05    1.458358020e-05    0.000000000e+00    0.000000000e+00    0.000000000e+00    0.000000000e+00
      323250000    2.122841477e-01    9.898667932e-01    1.613702625e-05    2.019107342e-06    0.000000000e+00    0.000000000e+00    0.000000000e+00    0.000000000e+00
      330500000    3.332069814e-01    9.496116042e-01    4.286319017e-05    1.937150955e-07    0.000000000e+00    0.000000000e+00    0.000000000e+00    0.000000000e+00
      337750000    4.470123649e-01    8.947242498e-01   -4.451535642e-05    2.008862793e-06    0.000000000e+00    0.000000000e+00    0.000000000e+00    0.000000000e+00
      345000000    5.521498322e-01    8.253167272e-01    2.926215529e-05   -9.750947356e-06    0.000000000e+00    0.000000000e+00    0.000000000e+00    0.000000000e+00
      352250000    6.475070715e-01    7.432493567e-01   -1.400709152e-05   -2.423487604e-05    0.000000000e+00    0.000000000e+00    0.000000000e+00    0.000000000e+00
      359500000    7.314148545e-01    6.503776908e-01   -5.034729838e-06    2.376362681e-05    0.000000000e+00    0.000000000e+00    0.000000000e+00    0.000000000e+00
      366750000    8.028752804e-01    5.493303537e-01    2.077035606e-05   -1.715123653e-05    0.000000000e+00    0.000000000e+00    0.000000000e+00    0.000000000e+00
      374000000    8.598207831e-01    4.419763386e-01    2.378597856e-06   -7.132068276e-06    0.000000000e+00    0.000000000e+00    0.000000000e+00    0.000000000e+00
      381250000    9.047794938e-01    3.276261091e-01   -2.053380013e-05   -2.777203918e-06    0.000000000e+00    0.000000000e+00    0.000000000e+00    0.000000000e+00
      388500000    9.345292449e-01    2.122920752e-01   -1.988280565e-05    1.240614802e-05    0.000000000e+00    0.000000000e+00    0.000000000e+00    0.000000000e+00
      395750000    9.511764646e-01    9.540393949e-02   -3.041792661e-05    8.299946785e-06    0.000000000e+00    0.000000000e+00    0.000000000e+00    0.000000000e+00
      403000000    9.546079636e-01   -2.135911956e-02    7.953494787e-06   -8.475966752e-06    0.000000000e+00    0.000000000e+00    0.000000000e+00    0.000000000e+00
      410250000    9.449521303e-01   -1.370935142e-01   -2.978555858e-05   -1.108180732e-05    0.000000000e+00    0.000000000e+00    0.000000000e+00    0.000000000e+00
      417500000    9.222400188e-01   -2.501523793e-01    2.815201879e-05    2.246536314e-05    0.000000000e+00    0.000000000e+00    0.000000000e+00    0.000000000e+00
      424750000    8.895311952e-01   -3.574791849e-01   -4.568509758e-05    3.518071026e-05    0.000000000e+00    0.000000000e+00    0.000000000e+00    0.000000000e+00
      432000000    8.441089392e-01   -4.611499310e-01    8.335337043e-07    1.148693264e-05    0.000000000e+00    0.000000000e+00    0.000000000e+00    0.000000000e+00
      439250000    7.892720103e-01   -5.576360226e-01    2.578273416e-05    2.189911902e-05    0.000000000e+00    0.000000000e+00    0.000000000e+00    0.000000000e+00
      446500000    7.253187299e-01   -6.470180154e-01    1.246109605e-06   -2.588238567e-05    0.000000000e+00    0.000000000e+00    0.000000000e+00    0.000000000e+00
      453750000    6.517618895e-01   -7.302961946e-01    1.173838973e-05   -3.010965884e-06    0.000000000e+00    0.000000000e+00    0.000000000e+00    0.000000000e+00
      461000000    5.714038610e-01   -8.047495484e-01    2.961233258e-05    7.365830243e-06    0.000000000e+00    0.000000000e+00    0.000000000e+00    0.000000000e+00
      468250000    4.828793705e-01   -8.694961667e-01   -3.930181265e-06   -3.648921847e-06    0.000000000e+00    0.000000000e+00    0.000000000e+00    0.000000000e+00
      475500000    3.883267641e-01   -9.254680872e-01   -5.010515451e-06    7.878057659e-06    0.000000000e+00    0.000000000e+00    0.000000000e+00    0.000000000e+00
      482750000    2.890908122e-01   -9.706216455e-01   -9.434297681e-07    6.229616702e-06    0.000000000e+00    0.000000000e+00    0.000000000e+00    0.000000000e+00
      490000000    1.854023933e-01   -1.005702853e+00    3.529153764e-05   -1.825485379e-05    0.000000000e+00    0.000000000e+00    0.000000000e+00    0.000000000e+00
      497250000    7.767549157e-02   -1.030344963e+00    1.373048872e-05   -1.654215157e-05    0.000000000e+00    0.000000000e+00    0.000000000e+00    0.000000000e+00
      504500000   -3.135456145e-02   -1.042891979e+00    2.918206155e-05    1.480802894e-05    0.000000000e+00    0.000000000e+00    0.000000000e+00    0.000000000e+00
      511750000   -1.435153484e-01   -1.043913007e+00   -4.636310041e-05    3.554858267e-06    0.000000000e+00    0.000000000e+00    0.000000000e+00    0.000000000e+00
      519000000   -2.548567057e-01   -1.032348394e+00   -1.665577292e-05   -4.702433944e-05    0.000000000e+00    0.000000000e+00    0.000000000e+00    0.000000000e+00
      526250000   -3.654893339e-01   -1.009579659e+00    1.339148730e-05    6.611458957e-06    0.000000000e+00    0.000000000e+00    0.000000000e+00    0.000000000e+00
      533500000   -4.737768471e-01   -9.729058146e-01    1.581478864e-05   -3.044772893e-05    0.000000000e+00    0.000000000e+00    0.000000000e+00    0.000000000e+00
      540750000   -5.776545405e-01   -9.256350398e-01    2.531986684e-05   -2.240762115e-05    0.000000000e+00    0.000000000e+00    0.000000000e+00    0.000000000e+00
      548000000   -6.763399243e-01   -8.644997478e-01   -8.016824722e-06    5.908310413e-06    0.000000000e+00    0.000000000e+00    0.000000000e+00    0.000000000e+00
      555250000   -7.680516839e-01   -7.935285568e-01    4.782341421e-06   -3.098510206e-05    0.000000000e+00    0.000000000e+00    0.000000000e+00    0.000000000e+00
      562500000   -8.516187668e-01   -7.095041275e-01   -1.026690006e-05   -2.134125680e-05    0.000000000e+00    0.000000000e+00    0.000000000e+00    0.000000000e+00
      569750000   -9.243838191e-01   -6.191585064e-01    1.653097570e-06   -2.789031714e-05    0.000000000e+00    0.000000000e+00    0.000000000e+00    0.000000000e+00
      577000000   -9.863439202e-01   -5.173034668e-01   -4.298891872e-05    2.948287874e-05    0.000000000e+00    0.000000000e+00    0.000000000e+00    0.000000000e+00
      584250000   -1.036836863e+00   -4.096686244e-01    9.289011359e-06   -1.883879304e-05    0.000000000e+00    0.000000000e+00    0.000000000e+00    0.000000000e+00
      591500000   -1.072835684e+00   -2.939421237e-01   -1.851376146e-05   -1.483596861e-06    0.000000000e+00    0.000000000e+00    0.000000000e+00    0.000000000e+00
      598750000   -1.095773339e+00   -1.755220443e-01   -3.297813237e-06    1.073721796e-05    0.000000000e+00    0.000000000e+00    0.000000000e+00    0.000000000e+00
      606000000   -1.103457570e+00   -5.689226091e-02    2.605654299e-05    3.829039633e-05    0.000000000e+00    0.000000000e+00    0.000000000e+00    0.000000000e+00
      613250000   -1.097215652e+00    6.325877458e-02    2.896413207e-07    2.651475370e-06    0.000000000e+00    0.000000000e+00    0.000000000e+00    0.000000000e+00
      620500000   -1.075612903e+00    1.800568551e-01   -1.080054790e-05    8.260831237e-07    0.000000000e+00    0.000000000e+00    0.000000000e+00    0.000000000e+00
      627750000   -1.040994287e+00    2.945347130e-01    1.351349056e-05    4.064757377e-05    0.000000000e+00    0.000000000e+00    0.000000000e+00    0.000000000e+00
      635000000   -9.917793870e-01    4.024440050e-01    1.759827137e-05    2.565141767e-05    0.000000000e+00    0.000000000e+00    0.000000000e+00    0.000000000e+00
      642250000   -9.309770465e-01    5.033748150e-01   -3.877189010e-05    2.470705658e-05    0.000000000e+00    0.000000000e+00    0.000000000e+00    0.000000000e+00
      649500000   -8.599227667e-01    5.948518515e-01   -7.437542081e-06    3.291200846e-05    0.000000000e+00    0.000000000e+00    0.000000000e+00    0.000000000e+00
      656750000   -7.790452242e-01    6.761337519e-01    3.483146429e-07   -2.032052726e-05    0.000000000e+00    0.000000000e+00    0.000000000e+00    0.000000000e+00
      664000000   -6.886674166e-01    7.473351955e-01    4.157517105e-05    1.573935151e-05    0.000000000e+00    0.000000000e+00    0.000000000e+00    0.000000000e+00
      671250000   -5.934057236e-01    8.064719439e-01    1.141522080e-05   -1.710932702e-05    0.000000000e+00    0.000000000e+00    0.000000000e+00    0.000000000e+00
      678500000   -4.923104942e-01    8.549194336e-01   -1.381523907e-05   -2.455152571e-05    0.000000000e+00    0.000000000e+00    0.000000000e+00    0.000000000e+00
      685750000   -3.880415559e-01    8.909063935e-01    3.939587623e-05   -3.925524652e-06    0.000000000e+00    0.000000000e+00    0.000000000e+00    0.000000000e+00
      693000000   -2.822083235e-01    9.140981436e-01    4.095304757e-05   -5.679205060e-06    0.000000000e+00    0.000000000e+00    0.000000000e+00    0.000000000e+00
      700250000   -1.755511463e-01    9.259842634e-01   -3.689341247e-05   -9.356997907e-06    0.000000000e+00    0.000000000e+00    0.000000000e+00    0.000000000e+00
      707500000   -6.881979853e-02    9.258437157e-01    4.743225873e-06   -1.392234117e-05    0.000000000e+00    0.000000000e+00    0.000000000e+00    0.000000000e+00
      714750000    3.707918897e-02    9.151381254e-01    4.845019430e-05    2.830009907e-05    0.000000000e+00    0.000000000e+00    0.000000000e+00    0.000000000e+00
      722000000    1.378015280e-01    8.937863708e-01   -2.576969564e-06   -1.370627433e-05    0.000000000e+00    0.000000000e+00    0.000000000e+00    0.000000000e+00
      729250000    2.371262759e-01    8.619232178e-01    3.278348595e-05   -2.423021942e-05    0.000000000e+00    0.000000000e+00    0.000000000e+00    0.000000000e+00
      736500000    3.303968012e-01    8.211663961e-01    1.124199480e-05   -6.901100278e-07    0.000000000e+00    0.000000000e+00    0.000000000e+00    0.000000000e+00
      743750000    4.186566770e-01    7.713174224e-01    1.167878509e-06   -1.390930265e-05    0.000000000e+00    0.000000000e+00    0.000000000e+00    0.000000000e+00
      751000000    5.015711784e-01    7.135704160e-01   -5.061924458e-05   -6.542541087e-06    0.000000000e+00    0.000000000e+00    0.000000000e+00    0.000000000e+00
      758250000    5.767124891e-01    6.476052403e-01   -3.439467400e-05   -3.391504288e-05    0.000000000e+00    0.000000000e+00    0.000000000e+00    0.000000000e+00
      765500000    6.461552382e-01    5.749421120e-01   -1.133047044e-05   -2.963375300e-05    0.000000000e+00    0.000000000e+00    0.000000000e+00    0.000000000e+00
      772750000    7.082325220e-01    4.952750802e-01    1.821760088e-05   -6.003398448e-05    0.000000000e+00    0.000000000e+00    0.000000000e+00    0.000000000e+00
      780000000    7.617065310e-01    4.115918279e-01   -2.587866038e-05   -1.113023609e-05    0.000000000e+00    0.000000000e+00    0.000000000e+00    0.000000000e+00
      787250000    8.069251180e-01    3.215321898e-01    3.515742719e-05   -1.896359026e-05    0.000000000e+00    0.000000000e+00    0.000000000e+00    0.000000000e+00
      794500000    8.435053825e-01    2.254305482e-01   -5.139037967e-06    1.789536327e-05    0.000000000e+00    0.000000000e+00    0.000000000e+00    0.000000000e+00
      801750000    8.699228764e-01    1.273917407e-01    2.787355334e-05   -7.693655789e-06    0.000000000e+00    0.000000000e+00    0.000000000e+00    0.000000000e+00
      809000000    8.866714239e-01    2.593869902e-02   -3.707315773e-05   -1.964438707e-05    0.000000000e+00    0.000000000e+00    0.000000000e+00    0.000000000e+00
      816250000    8.931501508e-01   -7.695763558e-02    7.184222341e-06    1.083873212e-05    0.000000000e+00    0.000000000e+00    0.000000000e+00    0.000000000e+00
      823500000    8.882980347e-01   -1.837825924e-01   -7.872469723e-06    3.999844193e-05    0.000000000e+00    0.000000000e+00    0.000000000e+00    0.000000000e+00
      830750000    8.726837039e-01   -2.878789902e-01   -2.129562199e-05    2.924911678e-05    0.000000000e+00    0.000000000e+00    0.000000000e+00    0.000000000e+00
      838000000    8.450089097e-01   -3.931635618e-01   -1.228693873e-05   -5.168840289e-07    0.000000000e+00    0.000000000e+00    0.000000000e+00    0.000000000e+00
      845250000    8.056583405e-01   -4.951494932e-01   -1.016352326e-05    9.844079614e-06    0.000000000e+00    0.000000000e+00    0.000000000e+00    0.000000000e+00
      852500000    7.538931370e-01   -5.932227969e-01   -6.387010217e-06    1.037027687e-05    0.000000000e+00    0.000000000e+00    0.000000000e+00    0.000000000e+00
      859750000    6.913915873e-01   -6.868335605e-01    5.153007805e-06   -1.902505755e-05    0.000000000e+00    0.000000000e+00    0.000000000e+00    0.000000000e+00
      867000000    6.147064567e-01   -7.742095590e-01   -5.186535418e-06    8.431263268e-06    0.000000000e+00    0.000000000e+00    0.000000000e+00    0.000000000e+00
      874250000    5.296108127e-01   -8.509380817e-01    3.590062261e-05    3.325380385e-05    0.000000000e+00    0.000000000e+00    0.000000000e+00    0.000000000e+00
      881500000    4.294633865e-01   -9.210208058e-01    2.016685903e-05   -3.836769611e-05    0.000000000e+00    0.000000000e+00    0.000000000e+00    0.000000000e+00
      888750000    3.247854114e-01   -9.759511352e-01   -2.461299300e-05    6.272830069e-05    0.000000000e+00    0.000000000e+00    0.000000000e+00    0.000000000e+00
      896000000    2.102160007e-01   -1.018153310e+00   -2.183672041e-05    2.834759653e-05    0.000000000e+00    0.000000000e+00    0.000000000e+00    0.000000000e+00
      903250000    9.074265510e-02   -1.044805884e+00   -3.196299076e-05   -1.572072506e-05    0.000000000e+00    0.000000000e+00    0.000000000e+00    0.000000000e+00
      910500000   -3.514721990e-02   -1.055615664e+00   -3.214273602e-05   -2.965983003e-05    0.000000000e+00    0.000000000e+00    0.000000000e+00    0.000000000e+00
      917750000   -1.596937031e-01   -1.048720121e+00   -7.938593626e-06    4.900526255e-05    0.000000000e+00    0.000000000e+00    0.000000000e+00    0.000000000e+00
      925000000   -2.813405693e-01   -1.026945233e+00   -2.059713006e-05   -1.321267337e-05    0.000000000e+00    0.000000000e+00    0.000000000e+00    0.000000000e+00
      932250000   -4.016871452e-01   -9.860454798e-01   -1.439824700e-06    3.580003977e-06    0.000000000e+00    0.000000000e+00    0.000000000e+00    0.000000000e+00
      939500000   -5.121166110e-01   -9.312785268e-01   -1.241452992e-05    1.670606434e-05    0.000000000e+00    0.000000000e+00    0.000000000e+00    0.000000000e+00
      946750000   -6.139218807e-01   -8.615267277e-01    4.166737199e-06   -3.027170897e-05    0.000000000e+00    0.000000000e+00    0.000000000e+00    0.000000000e+00
      954000000   -7.058029771e-01   -7.783209682e-01   -5.181878805e-06    4.350766540e-05    0.000000000e+00    0.000000000e+00    0.000000000e+00    0.000000000e+00
      961250000   -7.816606164e-01   -6.876957417e-01   -8.293427527e-06    6.301887333e-05    0.000000000e+00    0.000000000e+00    0.000000000e+00    0.000000000e+00
      968500000   -8.462556601e-01   -5.860459805e-01   -1.513864845e-05    6.321445107e-05    0.000000000e+00    0.000000000e+00    0.000000000e+00    0.000000000e+00
      975750000   -8.943487406e-01   -4.827699065e-01    1.375563443e-05   -2.381671220e-05    0.000000000e+00    0.000000000e+00    0.000000000e+00    0.000000000e+00
      983000000   -9.289754629e-01   -3.739012480e-01   -3.232154995e-05   -4.469417036e-06    0.000000000e+00    0.000000000e+00    0.000000000e+00    0.000000000e+00
      990250000   -9.488306046e-01   -2.635417283e-01   -1.863576472e-06   -2.586375922e-05    0.000000000e+00    0.000000000e+00    0.000000000e+00    0.000000000e+00
      997500000   -9.540386200e-01   -1.553551555e-01    1.730490476e-05   -2.107396722e-05    0.000000000e+00    0.000000000e+00    0.000000000e+00    0.000000000e+00
     1004750000   -9.477305412e-01   -5.010822415e-02    1.504831016e-05    1.206994057e-06    0.000000000e+00    0.000000000e+00    0.000000000e+00    0.000000000e+00
     1012000000   -9.293792248e-01    5.074629933e-02    9.234994650e-06    1.016259193e-05    0.000000000e+00    0.000000000e+00    0.000000000e+00    0.000000000e+00
     1019250000   -9.005692005e-01    1.460948288e-01   -8.344650269e-07   -1.099053770e-05    0.000000000e+00    0.000000000e+00    0.000000000e+00    0.000000000e+00
     1026500000   -8.624681234e-01    2.348417491e-01    2.732500434e-05    7.266178727e-06    0.000000000e+00    0.000000000e+00    0.000000000e+00    0.000000000e+00
     1033750000   -8.159001470e-01    3.190678656e-01   -1.985486597e-05   -2.466328442e-05    0.000000000e+00    0.000000000e+00    0.000000000e+00    0.000000000e+00
     1041000000   -7.631871700e-01    3.943816423e-01   -2.092495561e-05   -9.957700968e-06    0.000000000e+00    0.000000000e+00    0.000000000e+00    0.000000000e+00
