! NanoVNA-App
! Date: 2024-06-25 16:10:50
! Start: 200MHz Stop: 6GHz Points: 801
! S-Parameter data: F S11 S21 S12 S22
# Hz S RI R 50
!     Frequency           S11_Real           S11_Imag           S21_Real           S21_Imag           S12_Real           S12_Imag           S22_Real           S22_Imag
      200000000   -9.986904263e-01   -1.184170544e-01    1.535099000e-05   -7.933005691e-06    0.000000000e+00    0.000000000e+00    0.000000000e+00    0.000000000e+00
      207250000   -1.010176778e+00   -1.941352524e-02    1.141056418e-05   -4.047993571e-05    0.000000000e+00    0.000000000e+00    0.000000000e+00    0.000000000e+00
      214500000   -1.012123704e+00    8.156115562e-02    2.988614142e-06   -3.814604133e-05    0.000000000e+00    0.000000000e+00    0.000000000e+00    0.000000000e+00
      221750000   -1.002264500e+00    1.847560406e-01    3.715045750e-06    2.075172961e-05    0.000000000e+00    0.000000000e+00    0.000000000e+00    0.000000000e+00
      229000000   -9.829638600e-01    2.873260081e-01   -3.449246287e-05   -1.341849566e-05    0.000000000e+00    0.000000000e+00    0.000000000e+00    0.000000000e+00
      236250000   -9.507248998e-01    3.902434409e-01    2.060551196e-05    1.984834671e-05    0.000000000e+00    0.000000000e+00    0.000000000e+00    0.000000000e+00
      243500000   -9.075665474e-01    4.902848303e-01    9.261071682e-06    2.417340875e-05    0.000000000e+00    0.000000000e+00    0.000000000e+00    0.000000000e+00
      250750000   -8.520643711e-01    5.871019959e-01   -2.969987690e-06   -1.259148121e-06    0.000000000e+00    0.000000000e+00    0.000000000e+00    0.000000000e+00
      258000000   -7.840263844e-01    6.782758832e-01   -9.825453162e-06   -1.383014023e-05    0.000000000e+00    0.000000000e+00    0.000000000e+00    0.000000000e+00
      265250000   -7.042914033e-01    7.619209290e-01    3.231689334e-06   -8.607283235e-06    0.000000000e+00    0.000000000e+00    0.000000000e+00    0.000000000e+00
      272500000   -6.138197184e-01    8.377319574e-01    1.382641494e-05   -1.816172153e-05    0.000000000e+00    0.000000000e+00    0.000000000e+00    0.000000000e+00
      279750000   -5.131193399e-01    9.019581079e-01    2.268422395e-05   -1.983903348e-05    0.000000000e+00    0.000000000e+00    0.000000000e+00    0.000000000e+00
      287000000   -4.022707045e-01    9.539595842e-01   -1.235213131e-05   -1.394655555e-05    0.000000000e+00    0.000000000e+00    0.000000000e+00    0.000000000e+00
      294250000   -2.856561840e-01    9.924995899e-01   -1.273583621e-05   -2.611987293e-05    0.000000000e+00    0.000000000e+00    0.000000000e+00    0.000000000e+00
      301500000   -1.634587198e-01    1.015333891e+00    2.399273217e-05   -3.401003778e-05    0.000000000e+00    0.000000000e+00    0.000000000e+00    0.000000000e+00
      308750000   -3.824055567e-02    1.024100661e+00    8.890405297e-06    2.383813262e-05    0.000000000e+00    0.000000000e+00    0.000000000e+00    0.000000000e+00
      316000000    8.824681491e-02    1.015293241e+00   -9.827315807e-06   -2.083368599e-05    0.000000000e+00    0.000000000e+00    0.000000000e+00    0.000000000e+00
      323250000    2.124556005e-01    9.904512167e-01    1.975614578e-05    1.463387161e-05    0.000000000e+00    0.000000000e+00    0.000000000e+00    0.000000000e+00
      330500000    3.333536088e-01    9.496616721e-01   -5.123205483e-06   -6.381422281e-06    0.000000000e+00    0.000000000e+00    0.000000000e+00    0.000000000e+00
      337750000    4.470955729e-01    8.939196467e-01    2.908334136e-05   -3.363378346e-05    0.000000000e+00    0.000000000e+00    0.000000000e+00    0.000000000e+00
      345000000    5.519786477e-01    8.240014315e-01    1.076515764e-05   -2.165976912e-05    0.000000000e+00    0.000000000e+00    0.000000000e+00    0.000000000e+00
      352250000    6.475594640e-01    7.432618737e-01    1.729466021e-06   -1.364760101e-05    0.000000000e+00    0.000000000e+00    0.000000000e+00    0.000000000e+00
      359500000    7.312286496e-01    6.499496698e-01   -5.960464478e-08    2.274103463e-05    0.000000000e+00    0.000000000e+00    0.000000000e+00    0.000000000e+00
      366750000    8.026182055e-01    5.496487617e-01   -1.371558756e-05   -2.211611718e-05    0.000000000e+00    0.000000000e+00    0.000000000e+00    0.000000000e+00
      374000000    8.604180217e-01    4.411049783e-01    1.780781895e-05   -1.570023596e-05    0.000000000e+00    0.000000000e+00    0.000000000e+00    0.000000000e+00
      381250000    9.045351744e-01    3.281305134e-01    1.210812479e-05    7.978640497e-06    0.000000000e+00    0.000000000e+00    0.000000000e+00    0.000000000e+00
      388500000    9.355247021e-01    2.129161656e-01    2.771429718e-05   -3.846641630e-05    0.000000000e+00    0.000000000e+00    0.000000000e+00    0.000000000e+00
      395750000    9.516403079e-01    9.608754516e-02   -1.641921699e-06   -3.684777766e-05    0.000000000e+00    0.000000000e+00    0.000000000e+00    0.000000000e+00
      403000000    9.546942115e-01   -2.163961530e-02    3.592018038e-05    3.366917372e-05    0.000000000e+00    0.000000000e+00    0.000000000e+00    0.000000000e+00
      410250000    9.442521334e-01   -1.371815503e-01   -1.856125891e-05   -1.978687942e-05    0.000000000e+00    0.000000000e+00    0.000000000e+00    0.000000000e+00
      417500000    9.232690334e-01   -2.488851398e-01   -2.779811621e-05    1.264549792e-05    0.000000000e+00    0.000000000e+00    0.000000000e+00    0.000000000e+00
      424750000    8.887346983e-01   -3.581676781e-01    1.313909888e-05    2.647377551e-05    0.000000000e+00    0.000000000e+00    0.000000000e+00    0.000000000e+00
      432000000    8.438267112e-01   -4.613381624e-01    6.675720215e-06   -2.027954906e-05    0.000000000e+00    0.000000000e+00    0.000000000e+00    0.000000000e+00
      439250000    7.891192436e-01   -5.574920774e-01   -4.489906132e-06    1.399777830e-05    0.000000000e+00    0.000000000e+00    0.000000000e+00    0.000000000e+00
      446500000    7.245858908e-01   -6.475133300e-01    5.021039397e-05    1.988373697e-06    0.000000000e+00    0.000000000e+00    0.000000000e+00    0.000000000e+00
      453750000    6.508705020e-01   -7.306898832e-01   -1.999177039e-05   -1.162290573e-06    0.000000000e+00    0.000000000e+00    0.000000000e+00    0.000000000e+00
      461000000    5.711464882e-01   -8.049023151e-01   -6.077811122e-06    1.620501280e-06    0.000000000e+00    0.000000000e+00    0.000000000e+00    0.000000000e+00
      468250000    4.830435216e-01   -8.695393801e-01   -4.052184522e-06   -7.051695138e-05    0.000000000e+00    0.000000000e+00    0.000000000e+00    0.000000000e+00
      475500000    3.887183964e-01   -9.251805544e-01   -1.767370850e-05    1.071114093e-05    0.000000000e+00    0.000000000e+00    0.000000000e+00    0.000000000e+00
      482750000    2.895436287e-01   -9.709635973e-01   -2.019573003e-05    3.705453128e-05    0.000000000e+00    0.000000000e+00    0.000000000e+00    0.000000000e+00
      490000000    1.851111650e-01   -1.005532026e+00   -7.266178727e-06   -2.698320895e-05    0.000000000e+00    0.000000000e+00    0.000000000e+00    0.000000000e+00
      497250000    7.795647532e-02   -1.029786468e+00   -9.732320905e-06   -1.050066203e-05    0.000000000e+00    0.000000000e+00    0.000000000e+00    0.000000000e+00
      504500000   -3.224464878e-02   -1.042427301e+00    2.102181315e-05   -1.305714250e-06    0.000000000e+00    0.000000000e+00    0.000000000e+00    0.000000000e+00
      511750000   -1.436831504e-01   -1.043201089e+00   -2.083461732e-05    1.181848347e-05    0.000000000e+00    0.000000000e+00    0.000000000e+00    0.000000000e+00
      519000000   -2.549447715e-01   -1.032655120e+00    2.794526517e-05    4.142522812e-06    0.000000000e+00    0.000000000e+00    0.000000000e+00    0.000000000e+00
      526250000   -3.651857674e-01   -1.009037137e+00    9.573996067e-06    1.644156873e-05    0.000000000e+00    0.000000000e+00    0.000000000e+00    0.000000000e+00
      533500000   -4.731951058e-01   -9.729346037e-01   -2.100318670e-05   -1.633074135e-05    0.000000000e+00    0.000000000e+00    0.000000000e+00    0.000000000e+00
      540750000   -5.776471496e-01   -9.243316054e-01   -2.202577889e-05    2.066604793e-06    0.000000000e+00    0.000000000e+00    0.000000000e+00    0.000000000e+00
      548000000   -6.760983467e-01   -8.651819229e-01   -1.656077802e-05   -1.880154014e-05    0.000000000e+00    0.000000000e+00    0.000000000e+00    0.000000000e+00
      555250000   -7.679635882e-01   -7.938376665e-01   -1.957453787e-05    1.379195601e-05    0.000000000e+00    0.000000000e+00    0.000000000e+00    0.000000000e+00
      562500000   -8.517633080e-01   -7.113900781e-01   -1.722387969e-05    1.044850796e-05    0.000000000e+00    0.000000000e+00    0.000000000e+00    0.000000000e+00
      569750000   -9.242706895e-01   -6.180410385e-01    3.781169653e-06    1.861061901e-05    0.000000000e+00    0.000000000e+00    0.000000000e+00    0.000000000e+00
      577000000   -9.868976474e-01   -5.181697607e-01   -9.778887033e-06   -1.453049481e-05    0.000000000e+00    0.000000000e+00    0.000000000e+00    0.000000000e+00
      584250000   -1.036448717e+00   -4.078963101e-01   -1.896079630e-05   -2.122763544e-05    0.000000000e+00    0.000000000e+00    0.000000000e+00    0.000000000e+00
      591500000   -1.073283553e+00   -2.954918742e-01    1.381337643e-05   -1.691468060e-05    0.000000000e+00    0.000000000e+00    0.000000000e+00    0.000000000e+00
      598750000   -1.095978618e+00   -1.759302169e-01    2.309586853e-05    1.775380224e-05    0.000000000e+00    0.000000000e+00    0.000000000e+00    0.000000000e+00
      606000000   -1.103439331e+00   -5.626254901e-02    2.398155630e-06   -1.681223512e-05    0.000000000e+00    0.000000000e+00    0.000000000e+00    0.000000000e+00
      613250000   -1.096906424e+00    6.201117486e-02    4.305317998e-05   -1.956243068e-05    0.000000000e+00    0.000000000e+00    0.000000000e+00    0.000000000e+00
      620500000   -1.075247169e+00    1.808156818e-01    3.483146429e-07    6.332993507e-08    0.000000000e+00    0.000000000e+00    0.000000000e+00    0.000000000e+00
      627750000   -1.040944815e+00    2.955756187e-01   -4.081986845e-06   -1.302920282e-06    0.000000000e+00    0.000000000e+00    0.000000000e+00    0.000000000e+00
      635000000   -9.927179217e-01    4.014171064e-01   -9.807758033e-06    4.205107689e-05    0.000000000e+00    0.000000000e+00    0.000000000e+00    0.000000000e+00
      642250000   -9.313717484e-01    5.032378435e-01   -1.422502100e-05   -7.606111467e-06    0.000000000e+00    0.000000000e+00    0.000000000e+00    0.000000000e+00
      649500000   -8.599376082e-01    5.942581892e-01   -6.075017154e-06    3.524124622e-05    0.000000000e+00    0.000000000e+00    0.000000000e+00    0.000000000e+00
      656750000   -7.784838080e-01    6.768996119e-01   -2.207513899e-05    4.461035132e-06    0.000000000e+00    0.000000000e+00    0.000000000e+00    0.000000000e+00
      664000000   -6.890443563e-01    7.479848266e-01    3.391504288e-05    2.900697291e-05    0.000000000e+00    0.000000000e+00    0.000000000e+00    0.000000000e+00
      671250000   -5.934920311e-01    8.071966767e-01   -4.562549293e-06    3.280118108e-06    0.000000000e+00    0.000000000e+00    0.000000000e+00    0.000000000e+00
      678500000   -4.922624230e-01    8.548792601e-01    2.306886017e-05    1.729838550e-05    0.000000000e+00    0.000000000e+00    0.000000000e+00    0.000000000e+00
      685750000   -3.884864151e-01    8.910672069e-01   -2.085417509e-05    7.309950888e-06    0.000000000e+00    0.000000000e+00    0.000000000e+00    0.000000000e+00
      693000000   -2.829114199e-01    9.144098163e-01    2.116430551e-05    2.572406083e-05    0.000000000e+00    0.000000000e+00    0.000000000e+00    0.000000000e+00
      700250000   -1.750315875e-01    9.256804585e-01    1.060310751e-05    1.627020538e-05    0.000000000e+00    0.000000000e+00    0.000000000e+00    0.000000000e+00
      707500000   -6.833303720e-02    9.263977408e-01    1.703947783e-05    3.554578871e-05    0.000000000e+00    0.000000000e+00    0.000000000e+00    0.000000000e+00
      714750000    3.713342547e-02    9.152732491e-01    2.979021519e-05   -6.409361959e-06    0.000000000e+00    0.000000000e+00    0.000000000e+00    0.000000000e+00
      722000000    1.376929879e-01    8.932784796e-01    1.266598701e-07   -2.904422581e-05    0.000000000e+00    0.000000000e+00    0.000000000e+00    0.000000000e+00
      729250000    2.373550385e-01    8.618504405e-01   -6.482005119e-07   -1.402292401e-05    0.000000000e+00    0.000000000e+00    0.000000000e+00    0.000000000e+00
      736500000    3.300136030e-01    8.212216496e-01    1.887604594e-05    1.058261842e-05    0.000000000e+00    0.000000000e+00    0.000000000e+00    0.000000000e+00
      743750000    4.185469747e-01    7.716463804e-01   -3.201607615e-05   -1.738779247e-06    0.000000000e+00    0.000000000e+00    0.000000000e+00    0.000000000e+00
      751000000    5.008839965e-01    7.132979631e-01   -3.908388317e-05    2.077501267e-05    0.000000000e+00    0.000000000e+00    0.000000000e+00    0.000000000e+00
      758250000    5.772818327e-01    6.475227475e-01   -8.770264685e-06    1.901574433e-05    0.000000000e+00    0.000000000e+00    0.000000000e+00    0.000000000e+00
      765500000    6.464968920e-01    5.751917362e-01   -8.190982044e-06    3.499910235e-06    0.000000000e+00    0.000000000e+00    0.000000000e+00    0.000000000e+00
      772750000    7.083576918e-01    4.949966669e-01    1.357775182e-05   -5.480833352e-06    0.000000000e+00    0.000000000e+00    0.000000000e+00    0.000000000e+00
      780000000    7.615875006e-01    4.119197726e-01    2.965703607e-05   -1.195352525e-05    0.000000000e+00    0.000000000e+00    0.000000000e+00    0.000000000e+00
      787250000    8.068300486e-01    3.208721280e-01   -2.092309296e-05   -1.713912934e-05    0.000000000e+00    0.000000000e+00    0.000000000e+00    0.000000000e+00
      794500000    8.435634971e-01    2.262773365e-01    9.267590940e-06   -1.833681017e-05    0.000000000e+00    0.000000000e+00    0.000000000e+00    0.000000000e+00
      801750000    8.698270917e-01    1.274712235e-01    2.190843225e-05   -2.806819975e-05    0.000000000e+00    0.000000000e+00    0.000000000e+00    0.000000000e+00
      809000000    8.867748976e-01    2.551730908e-02   -2.034567297e-05   -2.487935126e-05    0.000000000e+00    0.000000000e+00    0.000000000e+00    0.000000000e+00
      816250000    8.932715058e-01   -7.845353335e-02   -6.704591215e-06    1.020729542e-06    0.000000000e+00    0.000000000e+00    0.000000000e+00    0.000000000e+00
      823500000    8.882680535e-01   -1.828922629e-01    1.953914762e-06    3.218650818e-05    0.000000000e+00    0.000000000e+00    0.000000000e+00    0.000000000e+00
      830750000    8.727765679e-01   -2.875339687e-01    1.340173185e-05   -1.613330096e-05    0.000000000e+00    0.000000000e+00    0.000000000e+00    0.000000000e+00
      838000000    8.448017836e-01   -3.935950100e-01   -5.028210580e-06    4.085153341e-05    0.000000000e+00    0.000000000e+00    0.000000000e+00    0.000000000e+00
      845250000    8.061810732e-01   -4.948012531e-01    2.295523882e-05   -4.529021680e-06    0.000000000e+00    0.000000000e+00    0.000000000e+00    0.000000000e+00
      852500000    7.545380592e-01   -5.932025313e-01    1.230556518e-05    2.796575427e-05    0.000000000e+00    0.000000000e+00    0.000000000e+00    0.000000000e+00
      859750000    6.910566688e-01   -6.863834858e-01   -8.562579751e-06    4.060380161e-05    0.000000000e+00    0.000000000e+00    0.000000000e+00    0.000000000e+00
      867000000    6.144486070e-01   -7.746057510e-01   -6.007030606e-07    6.488524377e-06    0.000000000e+00    0.000000000e+00    0.000000000e+00    0.000000000e+00
      874250000    5.285788774e-01   -8.517745137e-01   -8.639879525e-06    1.446995884e-05    0.000000000e+00    0.000000000e+00    0.000000000e+00    0.000000000e+00
      881500000    4.304204583e-01   -9.205979705e-01    1.292489469e-05    2.015475184e-05    0.000000000e+00    0.000000000e+00    0.000000000e+00    0.000000000e+00
      888750000    3.254458904e-01   -9.756960869e-01   -1.236703247e-05    1.964531839e-05    0.000000000e+00    0.000000000e+00    0.000000000e+00    0.000000000e+00
      896000000    2.101384848e-01   -1.017593265e+00   -1.236144453e-05   -1.583248377e-05    0.000000000e+00    0.000000000e+00    0.000000000e+00    0.000000000e+00
      903250000    9.023053944e-02   -1.045520425e+00   -2.839602530e-05    1.378357410e-07    0.000000000e+00    0.000000000e+00    0.000000000e+00    0.000000000e+00
      910500000   -3.552147001e-02   -1.055413604e+00    1.393351704e-05   -1.360382885e-05    0.000000000e+00    0.000000000e+00    0.000000000e+00    0.000000000e+00
      917750000   -1.585693061e-01   -1.049108863e+00   -5.866400898e-06    1.037772745e-05    0.000000000e+00    0.000000000e+00    0.000000000e+00    0.000000000e+00
      925000000   -2.815946639e-01   -1.026620984e+00    5.602836609e-06    3.131106496e-06    0.000000000e+00    0.000000000e+00    0.000000000e+00    0.000000000e+00
      932250000   -4.012799561e-01   -9.863240719e-01    5.140621215e-05   -1.641176641e-05    0.000000000e+00    0.000000000e+00    0.000000000e+00    0.000000000e+00
      939500000   -5.117848516e-01   -9.315662980e-01    1.318380237e-05   -1.777987927e-05    0.000000000e+00    0.000000000e+00    0.000000000e+00    0.000000000e+00
      946750000   -6.147157550e-01   -8.604872227e-01    3.628153354e-05    7.514096797e-05    0.000000000e+00    0.000000000e+00    0.000000000e+00    0.000000000e+00
      954000000   -7.039527297e-01   -7.787225246e-01    7.296912372e-06   -9.450130165e-06    0.000000000e+00    0.000000000e+00    0.000000000e+00    0.000000000e+00
      961250000   -7.811548114e-01   -6.889972091e-01    1.968163997e-05    3.280118108e-06    0.000000000e+00    0.000000000e+00    0.000000000e+00    0.000000000e+00
      968500000   -8.457847238e-01   -5.867526531e-01   -8.847564459e-06    4.549510777e-06    0.000000000e+00    0.000000000e+00    0.000000000e+00    0.000000000e+00
      975750000   -8.938645720e-01   -4.831396341e-01    4.070531577e-05   -7.784925401e-06    0.000000000e+00    0.000000000e+00    0.000000000e+00    0.000000000e+00
      983000000   -9.296076894e-01   -3.722562194e-01   -2.130679786e-05    2.627354115e-05    0.000000000e+00    0.000000000e+00    0.000000000e+00    0.000000000e+00
      990250000   -9.478937387e-01   -2.640784085e-01   -3.468897194e-05    2.383720130e-05    0.000000000e+00    0.000000000e+00    0.000000000e+00    0.000000000e+00
      997500000   -9.542993307e-01   -1.569135934e-01    1.815333962e-05    2.302043140e-05    0.000000000e+00    0.000000000e+00    0.000000000e+00    0.000000000e+00
     1004750000   -9.476757050e-01   -5.031514913e-02    2.504512668e-05    1.807324588e-05    0.000000000e+00    0.000000000e+00    0.000000000e+00    0.000000000e+00
     1012000000   -9.295234084e-01    5.111186206e-02   -1.691281796e-06   -2.038571984e-05    0.000000000e+00    0.000000000e+00    0.000000000e+00    0.000000000e+00
     1019250000   -9.000547528e-01    1.467564851e-01   -3.264471889e-05   -2.148654312e-05    0.000000000e+00    0.000000000e+00    0.000000000e+00    0.000000000e+00
     1026500000   -8.624084592e-01    2.352426648e-01    2.412218601e-05    5.782395601e-05    0.000000000e+00    0.000000000e+00    0.000000000e+00    0.000000000e+00
     1033750000   -8.164649606e-01    3.196338415e-01   -1.356098801e-05   -3.288686275e-05    0.000000000e+00    0.000000000e+00    0.000000000e+00    0.000000000e+00
     1041000000   -7.647050023e-01    3.932288289e-01    1.480802894e-07    4.028901458e-06    0.000000000e+00    0.000000000e+00    0.000000000e+00    0.000000000e+00
