! NanoVNA-App
! Date: 2024-06-25 16:10:53
! Start: 200MHz Stop: 6GHz Points: 801
! S-Parameter data: F S11 S21 S12 S22
# Hz S RI R 50
!     Frequency           S11_Real           S11_Imag           S21_Real           S21_Imag           S12_Real           S12_Imag           S22_Real           S22_Imag
      200000000   -9.982081056e-01   -1.180635840e-01    3.196392208e-05   -7.093884051e-06    0.000000000e+00    0.000000000e+00    0.000000000e+00    0.000000000e+00
      207250000   -1.010158062e+00   -1.900622249e-02   -9.414739907e-06    3.622006625e-05    0.000000000e+00    0.000000000e+00    0.000000000e+00    0.000000000e+00
      214500000   -1.011826754e+00    8.148713410e-02    3.992579877e-06   -1.736916602e-06    0.000000000e+00    0.000000000e+00    0.000000000e+00    0.000000000e+00
      221750000   -1.002160668e+00    1.848402470e-01    3.501772881e-06   -2.932734787e-06    0.000000000e+00    0.000000000e+00    0.000000000e+00    0.000000000e+00
      229000000   -9.833019972e-01    2.878568172e-01   -3.394857049e-05   -2.264883369e-05    0.000000000e+00    0.000000000e+00    0.000000000e+00    0.000000000e+00
      236250000   -9.504158497e-01    3.900108039e-01    3.371573985e-05   -3.293156624e-06    0.000000000e+00    0.000000000e+00    0.000000000e+00    0.000000000e+00
      243500000   -9.074407220e-01    4.901004136e-01   -1.493562013e-05   -1.562666148e-05    0.000000000e+00    0.000000000e+00    0.000000000e+00    0.000000000e+00
      250750000   -8.520045280e-01    5.868549943e-01   -1.782272011e-05    1.528207213e-05    0.000000000e+00    0.000000000e+00    0.000000000e+00    0.000000000e+00
      258000000   -7.841094732e-01    6.782243252e-01    4.505738616e-06   -5.235895514e-06    0.000000000e+00    0.000000000e+00    0.000000000e+00    0.000000000e+00
      265250000   -7.044714093e-01    7.623704076e-01    1.596286893e-05    3.759190440e-05    0.000000000e+00    0.000000000e+00    0.000000000e+00    0.000000000e+00
      272500000   -6.130207777e-01    8.371434212e-01    3.213807940e-05   -1.925509423e-05    0.000000000e+00    0.000000000e+00    0.000000000e+00    0.000000000e+00
      279750000   -5.126889944e-01    9.014452100e-01    5.869008601e-05    2.938508987e-05    0.000000000e+00    0.000000000e+00    0.000000000e+00    0.000000000e+00
      287000000   -4.021674395e-01    9.541875124e-01    1.956708729e-05   -1.875683665e-06    0.000000000e+00    0.000000000e+00    0.000000000e+00    0.000000000e+00
      294250000   -2.860116363e-01    9.927650690e-01    9.315088391e-06    1.661758870e-05    0.000000000e+00    0.000000000e+00    0.000000000e+00    0.000000000e+00
      301500000   -1.636832803e-01    1.016125679e+00   -1.938082278e-06    1.384504139e-05    0.000000000e+00    0.000000000e+00    0.000000000e+00    0.000000000e+00
      308750000   -3.794628009e-02    1.023890853e+00    9.318813682e-06    8.237548172e-06    0.000000000e+00    0.000000000e+00    0.000000000e+00    0.000000000e+00
      316000000    8.829239011e-02    1.015164852e+00   -1.002289355e-05   -9.292736650e-06    0.000000000e+00    0.000000000e+00    0.000000000e+00    0.000000000e+00
      323250000    2.128218561e-01    9.901955724e-01    5.219131708e-06   -5.794689059e-06    0.000000000e+00    0.000000000e+00    0.000000000e+00    0.000000000e+00
      330500000    3.329373598e-01    9.496196508e-01    5.462858826e-05    2.570915967e-05    0.000000000e+00    0.000000000e+00    0.000000000e+00    0.000000000e+00
      337750000    4.468061626e-01    8.944978714e-01   -2.241227776e-05    9.460374713e-06    0.000000000e+00    0.000000000e+00    0.000000000e+00    0.000000000e+00
      345000000    5.522073507e-01    8.250905871e-01    6.662681699e-06    1.513585448e-05    0.000000000e+00    0.000000000e+00    0.000000000e+00    0.000000000e+00
      352250000    6.476328969e-01    7.431411147e-01    4.226248711e-05   -6.573274732e-06    0.000000000e+00    0.000000000e+00    0.000000000e+00    0.000000000e+00
      359500000    7.313265204e-01    6.503429413e-01    3.456883132e-05   -1.217890531e-05    0.000000000e+00    0.000000000e+00    0.000000000e+00    0.000000000e+00
      366750000    8.028366566e-01    5.491213799e-01   -7.297843695e-06   -1.752842218e-05    0.000000000e+00    0.000000000e+00    0.000000000e+00    0.000000000e+00
      374000000    8.607763648e-01    4.417323470e-01   -2.546235919e-05    5.066394806e-07    0.000000000e+00    0.000000000e+00    0.000000000e+00    0.000000000e+00
      381250000    9.047785997e-01    3.281585574e-01    1.293607056e-06   -2.527423203e-05    0.000000000e+00    0.000000000e+00    0.000000000e+00    0.000000000e+00
      388500000    9.354558587e-01    2.129146606e-01    1.783948392e-05    7.472932339e-06    0.000000000e+00    0.000000000e+00    0.000000000e+00    0.000000000e+00
      395750000    9.512714744e-01    9.542406350e-02   -1.993309706e-05    5.234032869e-07    0.000000000e+00    0.000000000e+00    0.000000000e+00    0.000000000e+00
      403000000    9.544754028e-01   -2.194525860e-02    9.169802070e-06    4.899315536e-05    0.000000000e+00    0.000000000e+00    0.000000000e+00    0.000000000e+00
      410250000    9.445933700e-01   -1.372933239e-01    3.811623901e-05    5.174428225e-06    0.000000000e+00    0.000000000e+00    0.000000000e+00    0.000000000e+00
      417500000    9.231618047e-01   -2.493939996e-01   -7.609836757e-06   -1.193396747e-05    0.000000000e+00    0.000000000e+00    0.000000000e+00    0.000000000e+00
      424750000    8.883472085e-01   -3.582520187e-01    1.377426088e-05    3.466941416e-05    0.000000000e+00    0.000000000e+00    0.000000000e+00    0.000000000e+00
      432000000    8.434031606e-01   -4.608730674e-01    2.700835466e-06   -1.448858529e-05    0.000000000e+00    0.000000000e+00    0.000000000e+00    0.000000000e+00
      439250000    7.890484929e-01   -5.581497550e-01   -2.142228186e-05   -1.274421811e-05    0.000000000e+00    0.000000000e+00    0.000000000e+00    0.000000000e+00
      446500000    7.249414921e-01   -6.474075913e-01    2.657156438e-05    1.102313399e-05    0.000000000e+00    0.000000000e+00    0.000000000e+00    0.000000000e+00
      453750000    6.516417265e-01   -7.306060195e-01    3.864057362e-06    2.902653068e-05    0.000000000e+00    0.000000000e+00    0.000000000e+00    0.000000000e+00
      461000000    5.708058476e-01   -8.042681217e-01    2.953223884e-06    1.661479473e-06    0.000000000e+00    0.000000000e+00    0.000000000e+00    0.000000000e+00
      468250000    4.834781885e-01   -8.693309426e-01   -2.506561577e-05    3.333669156e-05    0.000000000e+00    0.000000000e+00    0.000000000e+00    0.000000000e+00
      475500000    3.882966936e-01   -9.251797795e-01   -3.178138286e-05    2.219248563e-05    0.000000000e+00    0.000000000e+00    0.000000000e+00    0.000000000e+00
      482750000    2.891932130e-01   -9.708865285e-01   -4.102196544e-05   -1.485459507e-06    0.000000000e+00    0.000000000e+00    0.000000000e+00    0.000000000e+00
      490000000    1.849326044e-01   -1.006157041e+00   -1.492910087e-06    1.932773739e-05    0.000000000e+00    0.000000000e+00    0.000000000e+00    0.000000000e+00
      497250000    7.770851254e-02   -1.029922247e+00    2.271961421e-05   -5.646608770e-06    0.000000000e+00    0.000000000e+00    0.000000000e+00    0.000000000e+00
      504500000   -3.179544955e-02   -1.043343306e+00    2.204068005e-05    2.030283213e-07    0.000000000e+00    0.000000000e+00    0.000000000e+00    0.000000000e+00
      511750000   -1.433860660e-01   -1.044175029e+00    8.107163012e-06   -1.418963075e-05    0.000000000e+00    0.000000000e+00    0.000000000e+00    0.000000000e+00
      519000000   -2.546195090e-01   -1.033345699e+00   -2.159737051e-06    1.642573625e-05    0.000000000e+00    0.000000000e+00    0.000000000e+00    0.000000000e+00
      526250000   -3.655467331e-01   -1.008966208e+00   -1.081172377e-05    4.733167589e-05    0.000000000e+00    0.000000000e+00    0.000000000e+00    0.000000000e+00
      533500000   -4.733270705e-01   -9.729787111e-01   -8.904375136e-06   -3.477651626e-05    0.000000000e+00    0.000000000e+00    0.000000000e+00    0.000000000e+00
      540750000   -5.777063966e-01   -9.246971607e-01   -1.097470522e-05   -3.547407687e-06    0.000000000e+00    0.000000000e+00    0.000000000e+00    0.000000000e+00
      548000000   -6.765065789e-01   -8.649616241e-01    4.151184112e-05   -1.669675112e-05    0.000000000e+00    0.000000000e+00    0.000000000e+00    0.000000000e+00
      555250000   -7.678548098e-01   -7.938870788e-01    1.113303006e-05    1.404434443e-06    0.000000000e+00    0.000000000e+00    0.000000000e+00    0.000000000e+00
      562500000   -8.512696624e-01   -7.105267644e-01   -2.526305616e-05    1.335330307e-05    0.000000000e+00    0.000000000e+00    0.000000000e+00    0.000000000e+00
      569750000   -9.239224792e-01   -6.190848351e-01   -3.114808351e-05    2.896413207e-07    0.000000000e+00    0.000000000e+00    0.000000000e+00    0.000000000e+00
      577000000   -9.869133234e-01   -5.171278715e-01   -4.027038813e-06    1.357961446e-05    0.000000000e+00    0.000000000e+00    0.000000000e+00    0.000000000e+00
      584250000   -1.037201047e+00   -4.087454081e-01   -2.775341272e-07    2.900138497e-06    0.000000000e+00    0.000000000e+00    0.000000000e+00    0.000000000e+00
      591500000   -1.072927237e+00   -2.960619926e-01   -1.664552838e-05    8.111819625e-07    0.000000000e+00    0.000000000e+00    0.000000000e+00    0.000000000e+00
      598750000   -1.095743060e+00   -1.760414839e-01    2.604164183e-05    1.449137926e-05    0.000000000e+00    0.000000000e+00    0.000000000e+00    0.000000000e+00
      606000000   -1.103774071e+00   -5.688214302e-02    3.429781646e-05   -1.582782716e-05    0.000000000e+00    0.000000000e+00    0.000000000e+00    0.000000000e+00
      613250000   -1.097167730e+00    6.254207343e-02    2.225954086e-05    2.902001143e-05    0.000000000e+00    0.000000000e+00    0.000000000e+00    0.000000000e+00
      620500000   -1.076118112e+00    1.805562675e-01    3.535207361e-05    8.489936590e-06    0.000000000e+00    0.000000000e+00    0.000000000e+00    0.000000000e+00
      627750000   -1.040408373e+00    2.951408625e-01   -1.856591552e-05    1.205690205e-05    0.000000000e+00    0.000000000e+00    0.000000000e+00    0.000000000e+00
      635000000   -9.927495122e-01    4.022237957e-01    2.668052912e-05    1.092441380e-06    0.000000000e+00    0.000000000e+00    0.000000000e+00    0.000000000e+00
      642250000   -9.315925241e-01    5.030608177e-01    1.291371882e-05   -3.053061664e-05    0.000000000e+00    0.000000000e+00    0.000000000e+00    0.000000000e+00
      649500000   -8.599829674e-01    5.948320031e-01    1.739896834e-05   -1.160986722e-05    0.000000000e+00    0.000000000e+00    0.000000000e+00    0.000000000e+00
      656750000   -7.784355879e-01    6.766790748e-01    3.975816071e-06    3.298930824e-05    0.000000000e+00    0.000000000e+00    0.000000000e+00    0.000000000e+00
      664000000   -6.899405718e-01    7.474840283e-01   -2.969056368e-06   -2.980232239e-08    0.000000000e+00    0.000000000e+00    0.000000000e+00    0.000000000e+00
      671250000   -5.935430527e-01    8.074008822e-01   -7.615424693e-06   -5.752686411e-05    0.000000000e+00    0.000000000e+00    0.000000000e+00    0.000000000e+00
      678500000   -4.929717183e-01    8.549863696e-01    3.926269710e-05   -4.041939974e-07    0.000000000e+00    0.000000000e+00    0.000000000e+00    0.000000000e+00
      685750000   -3.880979717e-01    8.906394243e-01   -2.331193537e-05   -3.921892494e-05    0.000000000e+00    0.000000000e+00    0.000000000e+00    0.000000000e+00
      693000000   -2.825959027e-01    9.141759276e-01   -1.108273864e-05   -2.686493099e-05    0.000000000e+00    0.000000000e+00    0.000000000e+00    0.000000000e+00
      700250000   -1.748818010e-01    9.260737300e-01   -1.299381256e-05    2.234429121e-05    0.000000000e+00    0.000000000e+00    0.000000000e+00    0.000000000e+00
      707500000   -6.844785064e-02    9.260894060e-01   -2.719368786e-05   -3.277603537e-05    0.000000000e+00    0.000000000e+00    0.000000000e+00    0.000000000e+00
      714750000    3.729564697e-02    9.151117206e-01   -3.573298454e-05   -3.975071013e-05    0.000000000e+00    0.000000000e+00    0.000000000e+00    0.000000000e+00
      722000000    1.375638694e-01    8.932005763e-01    6.807968020e-07   -6.349757314e-06    0.000000000e+00    0.000000000e+00    0.000000000e+00    0.000000000e+00
      729250000    2.368220389e-01    8.618286252e-01    1.727137715e-05    2.295430750e-05    0.000000000e+00    0.000000000e+00    0.000000000e+00    0.000000000e+00
      736500000    3.302202523e-01    8.210104704e-01    3.666523844e-05    6.929971278e-06    0.000000000e+00    0.000000000e+00    0.000000000e+00    0.000000000e+00
      743750000    4.187588692e-01    7.714711428e-01   -1.691747457e-05    2.468004823e-06    0.000000000e+00    0.000000000e+00    0.000000000e+00    0.000000000e+00
      751000000    5.017647743e-01    7.132475376e-01   -1.676660031e-05   -4.950072616e-05    0.000000000e+00    0.000000000e+00    0.000000000e+00    0.000000000e+00
      758250000    5.772043467e-01    6.481397748e-01   -9.102746844e-06   -2.419203520e-05    0.000000000e+00    0.000000000e+00    0.000000000e+00    0.000000000e+00
      765500000    6.460741162e-01    5.753941536e-01    1.600943506e-06   -2.255756408e-05    0.000000000e+00    0.000000000e+00    0.000000000e+00    0.000000000e+00
      772750000    7.083614469e-01    4.949568212e-01    3.288965672e-05    2.699252218e-05    0.000000000e+00    0.000000000e+00    0.000000000e+00    0.000000000e+00
      780000000    7.615079880e-01    4.117152691e-01   -1.904275268e-05    1.881364733e-05    0.000000000e+00    0.000000000e+00    0.000000000e+00    0.000000000e+00
      787250000    8.076806068e-01    3.208448589e-01    1.877173781e-05    2.872571349e-05    0.000000000e+00    0.000000000e+00    0.000000000e+00    0.000000000e+00
      794500000    8.432201147e-01    2.268109471e-01    3.226660192e-05    1.233350486e-05    0.000000000e+00    0.000000000e+00    0.000000000e+00    0.000000000e+00
      801750000    8.698980212e-01    1.279976368e-01    5.057081580e-06   -3.551226109e-05    0.000000000e+00    0.000000000e+00    0.000000000e+00    0.000000000e+00
      809000000    8.869018555e-01    2.629435621e-02    6.563030183e-06   -4.753842950e-05    0.000000000e+00    0.000000000e+00    0.000000000e+00    0.000000000e+00
      816250000    8.933538795e-01   -7.705024630e-02    1.894310117e-06    3.267265856e-05    0.000000000e+00    0.000000000e+00    0.000000000e+00    0.000000000e+00
      823500000    8.886126280e-01   -1.833169609e-01   -2.546235919e-06   -1.965835690e-05    0.000000000e+00    0.000000000e+00    0.000000000e+00    0.000000000e+00
      830750000    8.733226657e-01   -2.883918881e-01   -6.940215826e-06    1.729559153e-05    0.000000000e+00    0.000000000e+00    0.000000000e+00    0.000000000e+00
      838000000    8.445320725e-01   -3.928890824e-01    1.840945333e-05   -2.776179463e-05    0.000000000e+00    0.000000000e+00    0.000000000e+00    0.000000000e+00
      845250000    8.063582778e-01   -4.945125282e-01    4.978850484e-06   -1.838896424e-05    0.000000000e+00    0.000000000e+00    0.000000000e+00    0.000000000e+00
      852500000    7.539744973e-01   -5.940853953e-01   -1.203268766e-05   -2.980511636e-05    0.000000000e+00    0.000000000e+00    0.000000000e+00    0.000000000e+00
      859750000    6.919525862e-01   -6.863034368e-01   -2.726912498e-05    1.009833068e-05    0.000000000e+00    0.000000000e+00    0.000000000e+00    0.000000000e+00
      867000000    6.140620708e-01   -7.740585804e-01   -2.812221646e-05    1.877732575e-05    0.000000000e+00    0.000000000e+00    0.000000000e+00    0.000000000e+00
      874250000    5.276799798e-01   -8.520072103e-01    4.497356713e-06   -2.296268940e-05    0.000000000e+00    0.000000000e+00    0.000000000e+00    0.000000000e+00
      881500000    4.294101894e-01   -9.212135077e-01   -1.482758671e-05    9.738840163e-06    0.000000000e+00    0.000000000e+00    0.000000000e+00    0.000000000e+00
      888750000    3.241901100e-01   -9.758092761e-01    1.843273640e-05   -1.014117151e-05    0.000000000e+00    0.000000000e+00    0.000000000e+00    0.000000000e+00
      896000000    2.101968825e-01   -1.018017888e+00    3.889482468e-05    2.561602741e-05    0.000000000e+00    0.000000000e+00    0.000000000e+00    0.000000000e+00
      903250000    9.095085412e-02   -1.045341730e+00    2.319086343e-05    4.984438419e-06    0.000000000e+00    0.000000000e+00    0.000000000e+00    0.000000000e+00
      910500000   -3.558693454e-02   -1.055449605e+00    1.465808600e-05    1.114327461e-05    0.000000000e+00    0.000000000e+00    0.000000000e+00    0.000000000e+00
      917750000   -1.594159603e-01   -1.049157858e+00   -7.576309144e-06   -1.027248800e-05    0.000000000e+00    0.000000000e+00    0.000000000e+00    0.000000000e+00
      925000000   -2.810243368e-01   -1.027103066e+00    6.620772183e-06    9.845942259e-06    0.000000000e+00    0.000000000e+00    0.000000000e+00    0.000000000e+00
      932250000   -4.015339315e-01   -9.863107800e-01   -3.013946116e-05   -7.756985724e-06    0.000000000e+00    0.000000000e+00    0.000000000e+00    0.000000000e+00
      939500000   -5.123366714e-01   -9.311039448e-01   -1.224689186e-06   -2.040434629e-05    0.000000000e+00    0.000000000e+00    0.000000000e+00    0.000000000e+00
      946750000   -6.142067909e-01   -8.610128760e-01    1.815520227e-05   -1.192092896e-06    0.000000000e+00    0.000000000e+00    0.000000000e+00    0.000000000e+00
      954000000   -7.051814795e-01   -7.789308429e-01   -6.431713700e-06    1.762993634e-06    0.000000000e+00    0.000000000e+00    0.000000000e+00    0.000000000e+00
      961250000   -7.820885181e-01   -6.873331070e-01   -1.353211701e-05    6.609596312e-06    0.000000000e+00    0.000000000e+00    0.000000000e+00    0.000000000e+00
      968500000   -8.456840515e-01   -5.872231126e-01    4.954729229e-05    2.296548337e-05    0.000000000e+00    0.000000000e+00    0.000000000e+00    0.000000000e+00
      975750000   -8.946517110e-01   -4.815890789e-01    1.285877079e-05   -7.171183825e-08    0.000000000e+00    0.000000000e+00    0.000000000e+00    0.000000000e+00
      983000000   -9.294595122e-01   -3.731185198e-01    4.239380360e-06    1.459568739e-05    0.000000000e+00    0.000000000e+00    0.000000000e+00    0.000000000e+00
      990250000   -9.486497641e-01   -2.631856799e-01    2.505257726e-06    3.327615559e-06    0.000000000e+00    0.000000000e+00    0.000000000e+00    0.000000000e+00
      997500000   -9.540609121e-01   -1.559970975e-01   -3.216322511e-05   -3.920029849e-05    0.000000000e+00    0.000000000e+00    0.000000000e+00    0.000000000e+00
     1004750000   -9.477823973e-01   -5.006995425e-02   -2.099759877e-05    5.487352610e-06    0.000000000e+00    0.000000000e+00    0.000000000e+00    0.000000000e+00
     1012000000   -9.292955995e-01    5.101804808e-02   -1.169275492e-05    1.676380634e-07    0.000000000e+00    0.000000000e+00    0.000000000e+00    0.000000000e+00
     1019250000   -9.005485177e-01    1.466194838e-01   -1.191161573e-06    2.962350845e-05    0.000000000e+00    0.000000000e+00    0.000000000e+00    0.000000000e+00
     1026500000   -8.628488779e-01    2.356765270e-01   -1.708418131e-05   -3.844499588e-06    0.000000000e+00    0.000000000e+00    0.000000000e+00    0.000000000e+00
     1033750000   -8.162264228e-01    3.192188144e-01   -5.801208317e-05   -1.104455441e-05    0.000000000e+00    0.000000000e+00    0.000000000e+00    0.000000000e+00
     1041000000   -7.641949058e-01    3.942484856e-01   -1.317076385e-05    5.749985576e-06    0.000000000e+00    0.000000000e+00    0.000000000e+00    0.000000000e+00
