! NanoVNA-App
! Date: 2024-06-25 16:10:55
! Start: 200MHz Stop: 6GHz Points: 801
! S-Parameter data: F S11 S21 S12 S22
# Hz S RI R 50
!     Frequency           S11_Real           S11_Imag           S21_Real           S21_Imag           S12_Real           S12_Imag           S22_Real           S22_Imag
      200000000   -9.980899096e-01   -1.181018427e-01   -4.518218338e-05   -3.345869482e-05    0.000000000e+00    0.000000000e+00    0.000000000e+00    0.000000000e+00
      207250000   -1.010039091e+00   -1.913179457e-02    1.489464194e-05    2.483837306e-06    0.000000000e+00    0.000000000e+00    0.000000000e+00    0.000000000e+00
      214500000   -1.011558652e+00    8.174940944e-02   -1.528952271e-05    2.516712993e-05    0.000000000e+00    0.000000000e+00    0.000000000e+00    0.000000000e+00
      221750000   -1.003116965e+00    1.846498847e-01    2.095755190e-05   -3.220140934e-05    0.000000000e+00    0.000000000e+00    0.000000000e+00    0.000000000e+00
      229000000   -9.824808836e-01    2.876633704e-01   -1.523550600e-05   -1.306179911e-05    0.000000000e+00    0.000000000e+00    0.000000000e+00    0.000000000e+00
      236250000   -9.507537484e-01    3.900493681e-01    1.497473568e-05    1.556240022e-06    0.000000000e+00    0.000000000e+00    0.000000000e+00    0.000000000e+00
      243500000   -9.074401259e-01    4.900136590e-01   -1.756753772e-05   -3.601424396e-06    0.000000000e+00    0.000000000e+00    0.000000000e+00    0.000000000e+00
      250750000   -8.519256711e-01    5.869946480e-01    2.438854426e-05   -5.123205483e-06    0.000000000e+00    0.000000000e+00    0.000000000e+00    0.000000000e+00
      258000000   -7.833674550e-01    6.781744957e-01    2.724211663e-05   -2.188142389e-05    0.000000000e+00    0.000000000e+00    0.000000000e+00    0.000000000e+00
      265250000   -7.047203183e-01    7.623953223e-01    4.226248711e-05    3.256835043e-05    0.000000000e+00    0.000000000e+00    0.000000000e+00    0.000000000e+00
      272500000   -6.136595011e-01    8.372535110e-01    9.716488421e-06   -5.040317774e-06    0.000000000e+00    0.000000000e+00    0.000000000e+00    0.000000000e+00
      279750000   -5.129670501e-01    9.023234248e-01    2.869032323e-05    3.296323121e-05    0.000000000e+00    0.000000000e+00    0.000000000e+00    0.000000000e+00
      287000000   -4.025717676e-01    9.536892176e-01   -2.159364522e-05   -3.021396697e-05    0.000000000e+00    0.000000000e+00    0.000000000e+00    0.000000000e+00
      294250000   -2.858918607e-01    9.926382899e-01   -1.563690603e-06    5.745328963e-06    0.000000000e+00    0.000000000e+00    0.000000000e+00    0.000000000e+00
      301500000   -1.634352952e-01    1.015536904e+00   -2.746004611e-05   -1.452025026e-05    0.000000000e+00    0.000000000e+00    0.000000000e+00    0.000000000e+00
      308750000   -3.811180964e-02    1.024185419e+00   -7.484108210e-06   -1.244805753e-05    0.000000000e+00    0.000000000e+00    0.000000000e+00    0.000000000e+00
      316000000    8.811200410e-02    1.015649080e+00    8.018687367e-06   -3.975164145e-05    0.000000000e+00    0.000000000e+00    0.000000000e+00    0.000000000e+00
      323250000    2.126345187e-01    9.902934432e-01   -5.658715963e-06   -3.173295408e-05    0.000000000e+00    0.000000000e+00    0.000000000e+00    0.000000000e+00
      330500000    3.330933750e-01    9.496938586e-01   -3.492459655e-06    1.762248576e-05    0.000000000e+00    0.000000000e+00    0.000000000e+00    0.000000000e+00
      337750000    4.466774762e-01    8.939261436e-01   -6.015598774e-05   -7.631257176e-06    0.000000000e+00    0.000000000e+00    0.000000000e+00    0.000000000e+00
      345000000    5.523334742e-01    8.249665499e-01    1.564342529e-05   -1.782644540e-05    0.000000000e+00    0.000000000e+00    0.000000000e+00    0.000000000e+00
      352250000    6.477124095e-01    7.430593967e-01    1.243688166e-05    5.386769772e-06    0.000000000e+00    0.000000000e+00    0.000000000e+00    0.000000000e+00
      359500000    7.317551970e-01    6.504138112e-01    1.357588917e-05   -3.052596003e-05    0.000000000e+00    0.000000000e+00    0.000000000e+00    0.000000000e+00
      366750000    8.026112914e-01    5.492608547e-01   -3.909692168e-06    3.078952432e-05    0.000000000e+00    0.000000000e+00    0.000000000e+00    0.000000000e+00
      374000000    8.598663211e-01    4.417324662e-01   -2.696178854e-06   -1.751631498e-05    0.000000000e+00    0.000000000e+00    0.000000000e+00    0.000000000e+00
      381250000    9.051869512e-01    3.280638158e-01   -2.341717482e-05    2.759508789e-06    0.000000000e+00    0.000000000e+00    0.000000000e+00    0.000000000e+00
      388500000    9.349093437e-01    2.131330520e-01    8.441507816e-06   -1.061242074e-05    0.000000000e+00    0.000000000e+00    0.000000000e+00    0.000000000e+00
      395750000    9.513739347e-01    9.547082335e-02   -2.166535705e-05    3.776885569e-05    0.000000000e+00    0.000000000e+00    0.000000000e+00    0.000000000e+00
      403000000    9.545394182e-01   -2.171895467e-02   -1.955311745e-05   -3.960169852e-05    0.000000000e+00    0.000000000e+00    0.000000000e+00    0.000000000e+00
      410250000    9.452245831e-01   -1.368357390e-01    3.647990525e-06   -7.521361113e-06    0.000000000e+00    0.000000000e+00    0.000000000e+00    0.000000000e+00
      417500000    9.222953916e-01   -2.497030199e-01    1.942180097e-05    3.240816295e-05    0.000000000e+00    0.000000000e+00    0.000000000e+00    0.000000000e+00
      424750000    8.888514042e-01   -3.577296138e-01   -5.020108074e-05    1.729466021e-05    0.000000000e+00    0.000000000e+00    0.000000000e+00    0.000000000e+00
      432000000    8.444249034e-01   -4.612044990e-01    3.573484719e-06    2.955645323e-05    0.000000000e+00    0.000000000e+00    0.000000000e+00    0.000000000e+00
      439250000    7.889459729e-01   -5.576898456e-01    6.407499313e-06    3.318954259e-05    0.000000000e+00    0.000000000e+00    0.000000000e+00    0.000000000e+00
      446500000    7.247163057e-01   -6.479814053e-01    4.876870662e-05   -2.507399768e-05    0.000000000e+00    0.000000000e+00    0.000000000e+00    0.000000000e+00
      453750000    6.513716578e-01   -7.305963039e-01    4.740431905e-07    1.004524529e-05    0.000000000e+00    0.000000000e+00    0.000000000e+00    0.000000000e+00
      461000000    5.699285269e-01   -8.044632673e-01    4.905182868e-05   -5.041249096e-06    0.000000000e+00    0.000000000e+00    0.000000000e+00    0.000000000e+00
      468250000    4.832227230e-01   -8.697748780e-01   -6.465241313e-06    5.281530321e-06    0.000000000e+00    0.000000000e+00    0.000000000e+00    0.000000000e+00
      475500000    3.879116178e-01   -9.252075553e-01   -4.791468382e-05   -2.030376345e-05    0.000000000e+00    0.000000000e+00    0.000000000e+00    0.000000000e+00
      482750000    2.896258533e-01   -9.706090093e-01    3.421865404e-05    8.297152817e-06    0.000000000e+00    0.000000000e+00    0.000000000e+00    0.000000000e+00
      490000000    1.856421232e-01   -1.005966902e+00    2.827402204e-05    3.735534847e-06    0.000000000e+00    0.000000000e+00    0.000000000e+00    0.000000000e+00
      497250000    7.853514701e-02   -1.030679345e+00   -1.687929034e-05   -6.263144314e-06    0.000000000e+00    0.000000000e+00    0.000000000e+00    0.000000000e+00
      504500000   -3.181329370e-02   -1.042639852e+00   -2.588517964e-05    4.872679710e-06    0.000000000e+00    0.000000000e+00    0.000000000e+00    0.000000000e+00
      511750000   -1.435543001e-01   -1.044142246e+00    5.390495062e-06    2.676248550e-05    0.000000000e+00    0.000000000e+00    0.000000000e+00    0.000000000e+00
      519000000   -2.546564937e-01   -1.033305645e+00   -8.198432624e-06   -3.410503268e-06    0.000000000e+00    0.000000000e+00    0.000000000e+00    0.000000000e+00
      526250000   -3.653571010e-01   -1.009554982e+00   -1.258403063e-05    2.945214510e-05    0.000000000e+00    0.000000000e+00    0.000000000e+00    0.000000000e+00
      533500000   -4.740238786e-01   -9.731957316e-01   -9.681098163e-06    9.624287486e-06    0.000000000e+00    0.000000000e+00    0.000000000e+00    0.000000000e+00
      540750000   -5.779089332e-01   -9.241437912e-01   -4.472211003e-06    6.686896086e-06    0.000000000e+00    0.000000000e+00    0.000000000e+00    0.000000000e+00
      548000000   -6.762875319e-01   -8.653696179e-01   -2.199783921e-06   -1.653097570e-06    0.000000000e+00    0.000000000e+00    0.000000000e+00    0.000000000e+00
      555250000   -7.685087919e-01   -7.931528091e-01    3.000535071e-05   -4.093162715e-06    0.000000000e+00    0.000000000e+00    0.000000000e+00    0.000000000e+00
      562500000   -8.510681391e-01   -7.098958492e-01    2.210028470e-06    5.508773029e-06    0.000000000e+00    0.000000000e+00    0.000000000e+00    0.000000000e+00
      569750000   -9.242961407e-01   -6.185633540e-01   -2.646818757e-05    1.253560185e-05    0.000000000e+00    0.000000000e+00    0.000000000e+00    0.000000000e+00
      577000000   -9.866541624e-01   -5.176431537e-01   -5.046837032e-05   -2.970546484e-05    0.000000000e+00    0.000000000e+00    0.000000000e+00    0.000000000e+00
      584250000   -1.036626697e+00   -4.083259702e-01    5.104579031e-06   -8.587725461e-06    0.000000000e+00    0.000000000e+00    0.000000000e+00    0.000000000e+00
      591500000   -1.073089361e+00   -2.957948744e-01    7.374212146e-06   -1.260451972e-05    0.000000000e+00    0.000000000e+00    0.000000000e+00    0.000000000e+00
      598750000   -1.095914602e+00   -1.759430170e-01    2.090912312e-05   -1.936126500e-05    0.000000000e+00    0.000000000e+00    0.000000000e+00    0.000000000e+00
      606000000   -1.103866339e+00   -5.698627979e-02   -1.014117151e-05   -4.893075675e-05    0.000000000e+00    0.000000000e+00    0.000000000e+00    0.000000000e+00
      613250000   -1.097157955e+00    6.336037070e-02    3.133993596e-05    8.819624782e-07    0.000000000e+00    0.000000000e+00    0.000000000e+00    0.000000000e+00
      620500000   -1.076048732e+00    1.806101203e-01    2.307817340e-06   -2.713035792e-05    0.000000000e+00    0.000000000e+00    0.000000000e+00    0.000000000e+00
      627750000   -1.040030479e+00    2.950662971e-01    1.630373299e-05    2.325512469e-05    0.000000000e+00    0.000000000e+00    0.000000000e+00    0.000000000e+00
      635000000   -9.922429323e-01    4.014684856e-01    3.227964044e-06    5.689449608e-06    0.000000000e+00    0.000000000e+00    0.000000000e+00    0.000000000e+00
      642250000   -9.312019944e-01    5.032483339e-01    1.660827547e-05    2.302136272e-05    0.000000000e+00    0.000000000e+00    0.000000000e+00    0.000000000e+00
      649500000   -8.599874973e-01    5.946350098e-01    2.987589687e-05   -5.989335477e-06    0.000000000e+00    0.000000000e+00    0.000000000e+00    0.000000000e+00
      656750000   -7.787733078e-01    6.768653393e-01   -4.634261131e-06    2.965517342e-05    0.000000000e+00    0.000000000e+00    0.000000000e+00    0.000000000e+00
      664000000   -6.895529628e-01    7.475358844e-01   -1.903809607e-05    1.013278961e-05    0.000000000e+00    0.000000000e+00    0.000000000e+00    0.000000000e+00
      671250000   -5.940042734e-01    8.067392111e-01    2.777576447e-05    2.858228981e-06    0.000000000e+00    0.000000000e+00    0.000000000e+00    0.000000000e+00
      678500000   -4.922090173e-01    8.545225859e-01   -4.575401545e-05    4.697591066e-05    0.000000000e+00    0.000000000e+00    0.000000000e+00    0.000000000e+00
      685750000   -3.884743750e-01    8.905496001e-01    1.313816756e-05   -6.238929927e-06    0.000000000e+00    0.000000000e+00    0.000000000e+00    0.000000000e+00
      693000000   -2.821356654e-01    9.145149589e-01   -5.579553545e-06   -1.639965922e-05    0.000000000e+00    0.000000000e+00    0.000000000e+00    0.000000000e+00
      700250000   -1.744353920e-01    9.257912040e-01   -2.214219421e-05   -3.118719906e-05    0.000000000e+00    0.000000000e+00    0.000000000e+00    0.000000000e+00
      707500000   -6.840796024e-02    9.260720015e-01   -7.226131856e-06   -8.376315236e-06    0.000000000e+00    0.000000000e+00    0.000000000e+00    0.000000000e+00
      714750000    3.727650642e-02    9.154272079e-01   -4.278495908e-06    6.051734090e-06    0.000000000e+00    0.000000000e+00    0.000000000e+00    0.000000000e+00
      722000000    1.366198510e-01    8.935640454e-01    2.817995846e-05   -1.131650060e-05    0.000000000e+00    0.000000000e+00    0.000000000e+00    0.000000000e+00
      729250000    2.364117056e-01    8.620331287e-01   -2.558529377e-05   -9.370967746e-06    0.000000000e+00    0.000000000e+00    0.000000000e+00    0.000000000e+00
      736500000    3.304203749e-01    8.208383918e-01    4.103407264e-05   -1.312233508e-05    0.000000000e+00    0.000000000e+00    0.000000000e+00    0.000000000e+00
      743750000    4.180601239e-01    7.717857361e-01   -4.046596587e-06   -3.628619015e-05    0.000000000e+00    0.000000000e+00    0.000000000e+00    0.000000000e+00
      751000000    5.017568469e-01    7.134464979e-01    3.384146839e-05    1.788232476e-05    0.000000000e+00    0.000000000e+00    0.000000000e+00    0.000000000e+00
      758250000    5.770114064e-01    6.470000148e-01    4.145875573e-05   -1.120846719e-05    0.000000000e+00    0.000000000e+00    0.000000000e+00    0.000000000e+00
      765500000    6.458839178e-01    5.749780536e-01   -3.640539944e-05    4.768371582e-06    0.000000000e+00    0.000000000e+00    0.000000000e+00    0.000000000e+00
      772750000    7.083648443e-01    4.952876270e-01   -1.658592373e-05   -1.530069858e-05    0.000000000e+00    0.000000000e+00    0.000000000e+00    0.000000000e+00
      780000000    7.606655955e-01    4.119096994e-01    1.363735646e-05   -3.275927156e-05    0.000000000e+00    0.000000000e+00    0.000000000e+00    0.000000000e+00
      787250000    8.074350357e-01    3.210459948e-01   -1.505948603e-05   -2.498645335e-05    0.000000000e+00    0.000000000e+00    0.000000000e+00    0.000000000e+00
      794500000    8.431329727e-01    2.259184569e-01   -4.936195910e-05   -2.244580537e-05    0.000000000e+00    0.000000000e+00    0.000000000e+00    0.000000000e+00
      801750000    8.698079586e-01    1.274726987e-01   -4.142057151e-05   -5.482509732e-05    0.000000000e+00    0.000000000e+00    0.000000000e+00    0.000000000e+00
      809000000    8.864926696e-01    2.564742975e-02   -2.095382661e-05    2.172309905e-05    0.000000000e+00    0.000000000e+00    0.000000000e+00    0.000000000e+00
      816250000    8.932746053e-01   -7.653004676e-02   -2.069491893e-05   -2.151262015e-05    0.000000000e+00    0.000000000e+00    0.000000000e+00    0.000000000e+00
      823500000    8.886803389e-01   -1.835455596e-01    1.474190503e-05    1.795589924e-06    0.000000000e+00    0.000000000e+00    0.000000000e+00    0.000000000e+00
      830750000    8.726239204e-01   -2.872945070e-01    3.753695637e-05   -3.281049430e-06    0.000000000e+00    0.000000000e+00    0.000000000e+00    0.000000000e+00
      838000000    8.451930285e-01   -3.928982913e-01   -9.578652680e-06   -4.291534424e-06    0.000000000e+00    0.000000000e+00    0.000000000e+00    0.000000000e+00
      845250000    8.052915335e-01   -4.954984784e-01    2.813059837e-05    9.220093489e-07    0.000000000e+00    0.000000000e+00    0.000000000e+00    0.000000000e+00
      852500000    7.542815208e-01   -5.932168961e-01   -5.333684385e-06   -1.913122833e-05    0.000000000e+00    0.000000000e+00    0.000000000e+00    0.000000000e+00
      859750000    6.909297705e-01   -6.869567633e-01    6.380490959e-06    2.873130143e-06    0.000000000e+00    0.000000000e+00    0.000000000e+00    0.000000000e+00
      867000000    6.135055423e-01   -7.745900750e-01   -3.615487367e-05   -8.852221072e-06    0.000000000e+00    0.000000000e+00    0.000000000e+00    0.000000000e+00
      874250000    5.289851427e-01   -8.516346812e-01   -7.696449757e-06    8.048489690e-06    0.000000000e+00    0.000000000e+00    0.000000000e+00    0.000000000e+00
      881500000    4.297300279e-01   -9.208794832e-01    1.996755600e-05   -1.757033169e-05    0.000000000e+00    0.000000000e+00    0.000000000e+00    0.000000000e+00
      888750000    3.250393271e-01   -9.759588242e-01    5.437061191e-06   -2.839509398e-05    0.000000000e+00    0.000000000e+00    0.000000000e+00    0.000000000e+00
      896000000    2.105127573e-01   -1.018004298e+00   -1.169834286e-05    1.282803714e-05    0.000000000e+00    0.000000000e+00    0.000000000e+00    0.000000000e+00
      903250000    9.128587693e-02   -1.045544982e+00    6.240792572e-06   -2.206582576e-05    0.000000000e+00    0.000000000e+00    0.000000000e+00    0.000000000e+00
      910500000   -3.501163051e-02   -1.055404067e+00    2.840533853e-06    4.760827869e-05    0.000000000e+00    0.000000000e+00    0.000000000e+00    0.000000000e+00
      917750000   -1.595900506e-01   -1.049752116e+00   -7.448717952e-06    4.052836448e-05    0.000000000e+00    0.000000000e+00    0.000000000e+00    0.000000000e+00
      925000000   -2.810747027e-01   -1.026445746e+00   -1.742504537e-05    1.679919660e-05    0.000000000e+00    0.000000000e+00    0.000000000e+00    0.000000000e+00
      932250000   -4.015943706e-01   -9.860151410e-01   -2.677459270e-05    2.948753536e-05    0.000000000e+00    0.000000000e+00    0.000000000e+00    0.000000000e+00
      939500000   -5.129266381e-01   -9.306948781e-01   -9.969808161e-06    1.753866673e-05    0.000000000e+00    0.000000000e+00    0.000000000e+00    0.000000000e+00
      946750000   -6.150872707e-01   -8.604348898e-01    3.064982593e-06    1.589674503e-05    0.000000000e+00    0.000000000e+00    0.000000000e+00    0.000000000e+00
      954000000   -7.046958208e-01   -7.795225978e-01   -1.407507807e-05    2.411473542e-05    0.000000000e+00    0.000000000e+00    0.000000000e+00    0.000000000e+00
      961250000   -7.812919617e-01   -6.884551644e-01   -4.032906145e-05    3.522820771e-05    0.000000000e+00    0.000000000e+00    0.000000000e+00    0.000000000e+00
      968500000   -8.453550339e-01   -5.868187547e-01    2.945307642e-05    1.147110015e-05    0.000000000e+00    0.000000000e+00    0.000000000e+00    0.000000000e+00
      975750000   -8.944624662e-01   -4.819691479e-01   -1.531001180e-05    1.283921301e-05    0.000000000e+00    0.000000000e+00    0.000000000e+00    0.000000000e+00
      983000000   -9.287005663e-01   -3.726050854e-01    2.509728074e-05   -6.258487701e-06    0.000000000e+00    0.000000000e+00    0.000000000e+00    0.000000000e+00
      990250000   -9.485828876e-01   -2.646006942e-01   -1.913867891e-06   -1.814123243e-05    0.000000000e+00    0.000000000e+00    0.000000000e+00    0.000000000e+00
      997500000   -9.545916915e-01   -1.554542631e-01   -9.037554264e-06   -1.339055598e-05    0.000000000e+00    0.000000000e+00    0.000000000e+00    0.000000000e+00
     1004750000   -9.476497173e-01   -5.091113970e-02    1.472234726e-05    1.827348024e-05    0.000000000e+00    0.000000000e+00    0.000000000e+00    0.000000000e+00
     1012000000   -9.290667176e-01    5.081043020e-02   -1.045409590e-05   -6.712973118e-06    0.000000000e+00    0.000000000e+00    0.000000000e+00    0.000000000e+00
     1019250000   -9.001993537e-01    1.461557597e-01   -1.414772123e-05   -4.809349775e-06    0.000000000e+00    0.000000000e+00    0.000000000e+00    0.000000000e+00
     1026500000   -8.624795675e-01    2.361792773e-01    4.591513425e-05   -1.028086990e-05    0.000000000e+00    0.000000000e+00    0.000000000e+00    0.000000000e+00
     1033750000   -8.165178299e-01    3.188726604e-01   -1.141335815e-05    4.873611033e-06    0.000000000e+00    0.000000000e+00    0.000000000e+00    0.000000000e+00
     1041000000   -7.648616433e-01    3.927176893e-01    9.182840586e-06   -2.682209015e-06    0.000000000e+00    0.000000000e+00    0.000000000e+00    0.000000000e+00
