! NanoVNA-App by OneOfEleven et al v1.1.209 (+OD15) 
! Date: 2024-07-30 15:14:03
! Start: 200MHz Stop: 6GHz Points: 801
! S-Parameter data: F S11 S21 S12 S22
# Hz S RI R 50
!     Frequency           S11_Real           S11_Imag           S21_Real           S21_Imag           S12_Real           S12_Imag           S22_Real           S22_Imag
      200000000   -9.990228415e-01   -1.221371144e-01   -3.061629832e-05    2.701766789e-06    0.000000000e+00    0.000000000e+00    0.000000000e+00    0.000000000e+00
      207250000   -1.010750175e+00   -2.279741690e-02    2.007838339e-05    4.220753908e-06    0.000000000e+00    0.000000000e+00    0.000000000e+00    0.000000000e+00
      214500000   -1.012724757e+00    7.786264271e-02    3.203749657e-07   -2.281088382e-05    0.000000000e+00    0.000000000e+00    0.000000000e+00    0.000000000e+00
      221750000   -1.003761768e+00    1.811222732e-01   -1.484155655e-05   -1.784227788e-05    0.000000000e+00    0.000000000e+00    0.000000000e+00    0.000000000e+00
      229000000   -9.844664335e-01    2.846964598e-01   -4.659406841e-06   -4.380941391e-06    0.000000000e+00    0.000000000e+00    0.000000000e+00    0.000000000e+00
      236250000   -9.537549615e-01    3.867885172e-01   -2.132821828e-05    5.011446774e-06    0.000000000e+00    0.000000000e+00    0.000000000e+00    0.000000000e+00
      243500000   -9.104005098e-01    4.871375263e-01    6.608664989e-06   -1.516379416e-05    0.000000000e+00    0.000000000e+00    0.000000000e+00    0.000000000e+00
      250750000   -8.554483056e-01    5.838875175e-01    4.416331649e-06    1.039914787e-05    0.000000000e+00    0.000000000e+00    0.000000000e+00    0.000000000e+00
      258000000   -7.881663442e-01    6.753907800e-01    2.688914537e-05   -2.130866051e-05    0.000000000e+00    0.000000000e+00    0.000000000e+00    0.000000000e+00
      265250000   -7.091341019e-01    7.599408627e-01   -7.348135114e-06    4.450045526e-05    0.000000000e+00    0.000000000e+00    0.000000000e+00    0.000000000e+00
      272500000   -6.180967093e-01    8.357704282e-01   -4.785135388e-06   -1.059938222e-05    0.000000000e+00    0.000000000e+00    0.000000000e+00    0.000000000e+00
      279750000   -5.180993676e-01    9.011968374e-01   -2.735853195e-05   -2.018734813e-05    0.000000000e+00    0.000000000e+00    0.000000000e+00    0.000000000e+00
      287000000   -4.084424973e-01    9.535881281e-01    2.583302557e-05   -2.005137503e-06    0.000000000e+00    0.000000000e+00    0.000000000e+00    0.000000000e+00
      294250000   -2.908723056e-01    9.926636219e-01   -4.334375262e-06   -2.248957753e-05    0.000000000e+00    0.000000000e+00    0.000000000e+00    0.000000000e+00
      301500000   -1.690480858e-01    1.016658187e+00   -3.347732127e-05   -9.699724615e-06    0.000000000e+00    0.000000000e+00    0.000000000e+00    0.000000000e+00
      308750000   -4.278660193e-02    1.024917006e+00    1.924112439e-06   -8.849427104e-06    0.000000000e+00    0.000000000e+00    0.000000000e+00    0.000000000e+00
      316000000    8.325757086e-02    1.017210841e+00   -2.146698534e-05    2.579949796e-05    0.000000000e+00    0.000000000e+00    0.000000000e+00    0.000000000e+00
      323250000    2.078645676e-01    9.932856560e-01   -3.475695848e-06   -2.674292773e-05    0.000000000e+00    0.000000000e+00    0.000000000e+00    0.000000000e+00
      330500000    3.285784125e-01    9.531340003e-01   -3.334414214e-05   -1.816451550e-05    0.000000000e+00    0.000000000e+00    0.000000000e+00    0.000000000e+00
      337750000    4.428424537e-01    8.977881074e-01   -3.640633076e-05    8.800067008e-06    0.000000000e+00    0.000000000e+00    0.000000000e+00    0.000000000e+00
      345000000    5.489665270e-01    8.291213512e-01   -8.660368621e-06   -4.260800779e-06    0.000000000e+00    0.000000000e+00    0.000000000e+00    0.000000000e+00
      352250000    6.448046565e-01    7.471519709e-01   -1.587439328e-05   -1.191347837e-05    0.000000000e+00    0.000000000e+00    0.000000000e+00    0.000000000e+00
      359500000    7.294291854e-01    6.552106738e-01   -1.138262451e-05    2.071913332e-05    0.000000000e+00    0.000000000e+00    0.000000000e+00    0.000000000e+00
      366750000    8.012134433e-01    5.540238023e-01    2.411752939e-05   -3.607012331e-06    0.000000000e+00    0.000000000e+00    0.000000000e+00    0.000000000e+00
      374000000    8.600821495e-01    4.471335709e-01    3.351829946e-06    5.177222192e-06    0.000000000e+00    0.000000000e+00    0.000000000e+00    0.000000000e+00
      381250000    9.042828083e-01    3.332692981e-01   -1.324899495e-05    1.475587487e-05    0.000000000e+00    0.000000000e+00    0.000000000e+00    0.000000000e+00
      388500000    9.351972342e-01    2.178220749e-01    2.428609878e-05    5.431845784e-05    0.000000000e+00    0.000000000e+00    0.000000000e+00    0.000000000e+00
      395750000    9.524364471e-01    1.003674269e-01   -2.898555249e-05    4.478730261e-06    0.000000000e+00    0.000000000e+00    0.000000000e+00    0.000000000e+00
      403000000    9.564318657e-01   -1.668697968e-02    4.167668521e-06    2.184882760e-06    0.000000000e+00    0.000000000e+00    0.000000000e+00    0.000000000e+00
      410250000    9.470282197e-01   -1.322770715e-01   -8.257105947e-06    2.017151564e-05    0.000000000e+00    0.000000000e+00    0.000000000e+00    0.000000000e+00
      417500000    9.255504608e-01   -2.447225451e-01    4.691071808e-06    1.654028893e-06    0.000000000e+00    0.000000000e+00    0.000000000e+00    0.000000000e+00
      424750000    8.925349116e-01   -3.538944423e-01   -2.879463136e-05   -1.296401024e-06    0.000000000e+00    0.000000000e+00    0.000000000e+00    0.000000000e+00
      432000000    8.475571871e-01   -4.565609396e-01    1.746322960e-05    5.375035107e-05    0.000000000e+00    0.000000000e+00    0.000000000e+00    0.000000000e+00
      439250000    7.937632799e-01   -5.544198751e-01   -1.496449113e-05    3.954954445e-05    0.000000000e+00    0.000000000e+00    0.000000000e+00    0.000000000e+00
      446500000    7.296991944e-01   -6.440264583e-01   -4.847161472e-05    6.486661732e-06    0.000000000e+00    0.000000000e+00    0.000000000e+00    0.000000000e+00
      453750000    6.565665603e-01   -7.283698320e-01   -1.379940659e-05    1.629441977e-05    0.000000000e+00    0.000000000e+00    0.000000000e+00    0.000000000e+00
      461000000    5.767347217e-01   -8.028227687e-01   -3.140419722e-06   -2.492778003e-05    0.000000000e+00    0.000000000e+00    0.000000000e+00    0.000000000e+00
      468250000    4.888499677e-01   -8.681235313e-01   -1.640152186e-05   -2.509914339e-05    0.000000000e+00    0.000000000e+00    0.000000000e+00    0.000000000e+00
      475500000    3.947958946e-01   -9.245405197e-01    4.327576607e-05    2.083647996e-05    0.000000000e+00    0.000000000e+00    0.000000000e+00    0.000000000e+00
      482750000    2.957603037e-01   -9.708708525e-01    2.505071461e-05    5.259178579e-06    0.000000000e+00    0.000000000e+00    0.000000000e+00    0.000000000e+00
      490000000    1.918253005e-01   -1.006575704e+00    6.286147982e-05    5.482695997e-06    0.000000000e+00    0.000000000e+00    0.000000000e+00    0.000000000e+00
      497250000    8.496326953e-02   -1.031519651e+00   -1.973100007e-05    2.205371857e-05    0.000000000e+00    0.000000000e+00    0.000000000e+00    0.000000000e+00
      504500000   -2.519968525e-02   -1.045871019e+00   -4.017725587e-06    3.224331886e-05    0.000000000e+00    0.000000000e+00    0.000000000e+00    0.000000000e+00
      511750000   -1.367447972e-01   -1.046693921e+00   -3.021117300e-05   -5.486421287e-05    0.000000000e+00    0.000000000e+00    0.000000000e+00    0.000000000e+00
      519000000   -2.485251129e-01   -1.037167668e+00   -1.102313399e-05   -1.327134669e-06    0.000000000e+00    0.000000000e+00    0.000000000e+00    0.000000000e+00
      526250000   -3.598798513e-01   -1.013564229e+00    9.630806744e-06    3.048032522e-05    0.000000000e+00    0.000000000e+00    0.000000000e+00    0.000000000e+00
      533500000   -4.680295587e-01   -9.785610437e-01   -2.363882959e-05   -5.341693759e-05    0.000000000e+00    0.000000000e+00    0.000000000e+00    0.000000000e+00
      540750000   -5.726826787e-01   -9.310712218e-01    1.240242273e-05   -5.988404155e-06    0.000000000e+00    0.000000000e+00    0.000000000e+00    0.000000000e+00
      548000000   -6.721317768e-01   -8.715435863e-01   -4.543177783e-05    1.645553857e-05    0.000000000e+00    0.000000000e+00    0.000000000e+00    0.000000000e+00
      555250000   -7.647338510e-01   -8.004176617e-01    1.081358641e-05    5.234032869e-07    0.000000000e+00    0.000000000e+00    0.000000000e+00    0.000000000e+00
      562500000   -8.493419290e-01   -7.187228799e-01   -1.202430576e-05   -2.533476800e-05    0.000000000e+00    0.000000000e+00    0.000000000e+00    0.000000000e+00
      569750000   -9.229883552e-01   -6.270174980e-01    5.586072803e-06    1.505669206e-05    0.000000000e+00    0.000000000e+00    0.000000000e+00    0.000000000e+00
      577000000   -9.868984222e-01   -5.262251496e-01    2.006813884e-05   -1.566857100e-05    0.000000000e+00    0.000000000e+00    0.000000000e+00    0.000000000e+00
      584250000   -1.037244439e+00   -4.189737141e-01   -5.836598575e-06   -4.505738616e-06    0.000000000e+00    0.000000000e+00    0.000000000e+00    0.000000000e+00
      591500000   -1.075894237e+00   -3.032166660e-01   -4.287157208e-05   -3.747642040e-06    0.000000000e+00    0.000000000e+00    0.000000000e+00    0.000000000e+00
      598750000   -1.099050999e+00   -1.850178838e-01   -9.461306036e-06   -3.349035978e-05    0.000000000e+00    0.000000000e+00    0.000000000e+00    0.000000000e+00
      606000000   -1.107938766e+00   -6.510761380e-02    1.469627023e-06   -2.838764340e-05    0.000000000e+00    0.000000000e+00    0.000000000e+00    0.000000000e+00
      613250000   -1.102564931e+00    5.371516198e-02    2.858974040e-05   -1.095235348e-05    0.000000000e+00    0.000000000e+00    0.000000000e+00    0.000000000e+00
      620500000   -1.081764340e+00    1.737432480e-01    2.689845860e-05   -1.148320735e-06    0.000000000e+00    0.000000000e+00    0.000000000e+00    0.000000000e+00
      627750000   -1.048141718e+00    2.885788381e-01   -8.369795978e-06   -3.622658551e-05    0.000000000e+00    0.000000000e+00    0.000000000e+00    0.000000000e+00
      635000000   -1.000380397e+00    3.962400854e-01   -1.058913767e-05    5.388818681e-05    0.000000000e+00    0.000000000e+00    0.000000000e+00    0.000000000e+00
      642250000   -9.394964576e-01    4.983745515e-01    1.092161983e-05   -1.695565879e-05    0.000000000e+00    0.000000000e+00    0.000000000e+00    0.000000000e+00
      649500000   -8.690944910e-01    5.899366736e-01    2.704095095e-05    2.774409950e-06    0.000000000e+00    0.000000000e+00    0.000000000e+00    0.000000000e+00
      656750000   -7.876198292e-01    6.741200686e-01   -3.075506538e-05    4.421360791e-05    0.000000000e+00    0.000000000e+00    0.000000000e+00    0.000000000e+00
      664000000   -6.986048222e-01    7.465264797e-01   -5.531124771e-06    6.143935025e-06    0.000000000e+00    0.000000000e+00    0.000000000e+00    0.000000000e+00
      671250000   -6.027392745e-01    8.067734838e-01   -5.286186934e-06   -8.341856301e-06    0.000000000e+00    0.000000000e+00    0.000000000e+00    0.000000000e+00
      678500000   -5.016044378e-01    8.552001715e-01    1.333467662e-05    5.507841706e-06    0.000000000e+00    0.000000000e+00    0.000000000e+00    0.000000000e+00
      685750000   -3.970423639e-01    8.925527334e-01    6.715767086e-06   -3.082398325e-05    0.000000000e+00    0.000000000e+00    0.000000000e+00    0.000000000e+00
      693000000   -2.907855809e-01    9.167587757e-01    2.925563604e-05    3.460142761e-05    0.000000000e+00    0.000000000e+00    0.000000000e+00    0.000000000e+00
      700250000   -1.827483177e-01    9.293350577e-01    4.567857832e-05   -3.932788968e-05    0.000000000e+00    0.000000000e+00    0.000000000e+00    0.000000000e+00
      707500000   -7.597317547e-02    9.312427044e-01   -1.822598279e-06    4.977919161e-06    0.000000000e+00    0.000000000e+00    0.000000000e+00    0.000000000e+00
      714750000    3.081099689e-02    9.202293754e-01    1.177005470e-05    5.160272121e-05    0.000000000e+00    0.000000000e+00    0.000000000e+00    0.000000000e+00
      722000000    1.311698258e-01    8.998456001e-01   -1.281965524e-05   -1.350324601e-05    0.000000000e+00    0.000000000e+00    0.000000000e+00    0.000000000e+00
      729250000    2.320979387e-01    8.685161471e-01   -1.796521246e-05   -8.203089237e-06    0.000000000e+00    0.000000000e+00    0.000000000e+00    0.000000000e+00
      736500000    3.267163038e-01    8.277137876e-01   -8.060596883e-06    4.857871681e-05    0.000000000e+00    0.000000000e+00    0.000000000e+00    0.000000000e+00
      743750000    4.156531692e-01    7.779933810e-01   -9.384006262e-06   -1.730583608e-05    0.000000000e+00    0.000000000e+00    0.000000000e+00    0.000000000e+00
      751000000    4.982874393e-01    7.203977108e-01    5.260109901e-06    8.326955140e-06    0.000000000e+00    0.000000000e+00    0.000000000e+00    0.000000000e+00
      758250000    5.754491091e-01    6.550765634e-01   -5.139037967e-06   -1.057051122e-06    0.000000000e+00    0.000000000e+00    0.000000000e+00    0.000000000e+00
      765500000    6.453607082e-01    5.818539262e-01    2.159457654e-05    1.163873821e-05    0.000000000e+00    0.000000000e+00    0.000000000e+00    0.000000000e+00
      772750000    7.077640295e-01    5.036768913e-01   -8.947215974e-06    6.972812116e-06    0.000000000e+00    0.000000000e+00    0.000000000e+00    0.000000000e+00
      780000000    7.608966827e-01    4.191110730e-01    2.814177424e-05    1.069344580e-05    0.000000000e+00    0.000000000e+00    0.000000000e+00    0.000000000e+00
      787250000    8.082862496e-01    3.279667497e-01   -2.030842006e-05   -3.358349204e-06    0.000000000e+00    0.000000000e+00    0.000000000e+00    0.000000000e+00
      794500000    8.455098867e-01    2.334303260e-01   -2.680253237e-05    6.540678442e-06    0.000000000e+00    0.000000000e+00    0.000000000e+00    0.000000000e+00
      801750000    8.728640676e-01    1.352080256e-01    7.656402886e-06    9.276904166e-06    0.000000000e+00    0.000000000e+00    0.000000000e+00    0.000000000e+00
      809000000    8.903149366e-01    3.360100836e-02   -9.628012776e-06   -3.044959158e-05    0.000000000e+00    0.000000000e+00    0.000000000e+00    0.000000000e+00
      816250000    8.967982531e-01   -7.178606838e-02   -1.823250204e-05    5.455687642e-06    0.000000000e+00    0.000000000e+00    0.000000000e+00    0.000000000e+00
      823500000    8.936333060e-01   -1.759385616e-01    2.653989941e-05    7.241126150e-05    0.000000000e+00    0.000000000e+00    0.000000000e+00    0.000000000e+00
      830750000    8.782715201e-01   -2.822333574e-01    2.956110984e-05   -1.076050103e-05    0.000000000e+00    0.000000000e+00    0.000000000e+00    0.000000000e+00
      838000000    8.520691395e-01   -3.870560825e-01    2.320855856e-05    1.258403063e-05    0.000000000e+00    0.000000000e+00    0.000000000e+00    0.000000000e+00
      845250000    8.137395382e-01   -4.898228943e-01   -1.082383096e-05   -5.082320422e-05    0.000000000e+00    0.000000000e+00    0.000000000e+00    0.000000000e+00
      852500000    7.616733313e-01   -5.901967883e-01   -8.475966752e-06   -5.854293704e-06    0.000000000e+00    0.000000000e+00    0.000000000e+00    0.000000000e+00
      859750000    7.007412314e-01   -6.831042171e-01   -1.744274050e-05    9.605661035e-06    0.000000000e+00    0.000000000e+00    0.000000000e+00    0.000000000e+00
      867000000    6.241819263e-01   -7.729359865e-01   -7.120892406e-06   -1.595914364e-05    0.000000000e+00    0.000000000e+00    0.000000000e+00    0.000000000e+00
      874250000    5.391122699e-01   -8.512188196e-01   -1.035723835e-05   -8.544884622e-06    0.000000000e+00    0.000000000e+00    0.000000000e+00    0.000000000e+00
      881500000    4.406463802e-01   -9.207870364e-01   -2.214964479e-05    4.563014954e-05    0.000000000e+00    0.000000000e+00    0.000000000e+00    0.000000000e+00
      888750000    3.344478607e-01   -9.777803421e-01    3.127846867e-05    3.220513463e-05    0.000000000e+00    0.000000000e+00    0.000000000e+00    0.000000000e+00
      896000000    2.212443948e-01   -1.021715879e+00    3.067776561e-06    1.617800444e-05    0.000000000e+00    0.000000000e+00    0.000000000e+00    0.000000000e+00
      903250000    1.021051854e-01   -1.050384045e+00    1.252442598e-05    1.359730959e-06    0.000000000e+00    0.000000000e+00    0.000000000e+00    0.000000000e+00
      910500000   -2.545624413e-02   -1.062104225e+00    2.833176404e-05   -8.828006685e-06    0.000000000e+00    0.000000000e+00    0.000000000e+00    0.000000000e+00
      917750000   -1.496257931e-01   -1.057430983e+00   -1.281313598e-05   -8.341856301e-06    0.000000000e+00    0.000000000e+00    0.000000000e+00    0.000000000e+00
      925000000   -2.746306658e-01   -1.035615325e+00   -8.136034012e-06    3.451481462e-06    0.000000000e+00    0.000000000e+00    0.000000000e+00    0.000000000e+00
      932250000   -3.944735825e-01   -9.968135357e-01   -2.992339432e-06   -1.508742571e-06    0.000000000e+00    0.000000000e+00    0.000000000e+00    0.000000000e+00
      939500000   -5.071187019e-01   -9.420316815e-01    5.256384611e-06   -2.939626575e-05    0.000000000e+00    0.000000000e+00    0.000000000e+00    0.000000000e+00
      946750000   -6.110836864e-01   -8.730720878e-01   -1.397822052e-05    2.865679562e-06    0.000000000e+00    0.000000000e+00    0.000000000e+00    0.000000000e+00
      954000000   -7.028121352e-01   -7.920322418e-01   -1.464504749e-05    3.074668348e-05    0.000000000e+00    0.000000000e+00    0.000000000e+00    0.000000000e+00
      961250000   -7.817956209e-01   -6.999709010e-01    3.708526492e-06   -3.532972187e-05    0.000000000e+00    0.000000000e+00    0.000000000e+00    0.000000000e+00
      968500000   -8.474559188e-01   -5.982345343e-01   -4.013348371e-05   -1.493748277e-05    0.000000000e+00    0.000000000e+00    0.000000000e+00    0.000000000e+00
      975750000   -8.973262310e-01   -4.945468605e-01    4.948116839e-06   -2.724863589e-05    0.000000000e+00    0.000000000e+00    0.000000000e+00    0.000000000e+00
      983000000   -9.328312874e-01   -3.858072162e-01    1.652725041e-05    3.448221833e-05    0.000000000e+00    0.000000000e+00    0.000000000e+00    0.000000000e+00
      990250000   -9.540744424e-01   -2.746052146e-01   -1.637637615e-05   -1.123268157e-05    0.000000000e+00    0.000000000e+00    0.000000000e+00    0.000000000e+00
      997500000   -9.611503482e-01   -1.652723700e-01   -9.871087968e-06   -8.721835911e-06    0.000000000e+00    0.000000000e+00    0.000000000e+00    0.000000000e+00
     1004750000   -9.549619555e-01   -5.966395140e-02   -1.273676753e-05   -2.627260983e-05    0.000000000e+00    0.000000000e+00    0.000000000e+00    0.000000000e+00
     1012000000   -9.380977154e-01    4.261739925e-02   -4.172883928e-05    3.903731704e-05    0.000000000e+00    0.000000000e+00    0.000000000e+00    0.000000000e+00
     1019250000   -9.098908305e-01    1.399847865e-01    3.118626773e-05    2.015195787e-05    0.000000000e+00    0.000000000e+00    0.000000000e+00    0.000000000e+00
     1026500000   -8.717778921e-01    2.319605947e-01    2.421438694e-07    4.002638161e-05    0.000000000e+00    0.000000000e+00    0.000000000e+00    0.000000000e+00
     1033750000   -8.266803026e-01    3.152484596e-01    6.396323442e-06   -5.208887160e-06    0.000000000e+00    0.000000000e+00    0.000000000e+00    0.000000000e+00
     1041000000   -7.736349702e-01    3.918810785e-01   -1.560337842e-05    1.462176442e-05    0.000000000e+00    0.000000000e+00    0.000000000e+00    0.000000000e+00
