# GHZ S RI R 50.000000000000
0.300000000000 0.956989500968 -0.270188713116
0.302850000000 0.957125637285 -0.272757056118
0.305700000000 0.957327156044 -0.276139780621
0.308550000000 0.955827715960 -0.279870168777
0.311400000000 0.956566055897 -0.281483177657
0.314250000000 0.955950325750 -0.284867751624
0.317100000000 0.954827228579 -0.287254697102
0.319950000000 0.954383330017 -0.289567812854
0.322800000000 0.953574822692 -0.292451232147
0.325650000000 0.952868746602 -0.294464746803
0.328500000000 0.952057304374 -0.297335047487
0.331350000000 0.951445225220 -0.299296416510
0.334200000000 0.950391846937 -0.301702293696
0.337050000000 0.949453678959 -0.304267325914
0.339900000000 0.948828328005 -0.306265825607
0.342750000000 0.947184512916 -0.310009728417
0.345600000000 0.947100066515 -0.311447558844
0.348450000000 0.946167589524 -0.314070642267
0.351300000000 0.945408557414 -0.316841788469
0.354150000000 0.944770684529 -0.319245073001
0.357000000000 0.943473108246 -0.321560834981
0.359850000000 0.942556266641 -0.324018915834
0.362700000000 0.940955710710 -0.326641029048
0.365550000000 0.940613027797 -0.328628353330
0.368400000000 0.939304834424 -0.330461443546
0.371250000000 0.937707792939 -0.333501339395
0.374100000000 0.937406032936 -0.335842974036
0.376950000000 0.936606257972 -0.337824372342
0.379800000000 0.935044183618 -0.340926337341
0.382650000000 0.934739323066 -0.344643314574
0.385500000000 0.932896622677 -0.345858410953
0.388350000000 0.932422112411 -0.348061030511
0.391200000000 0.931088711723 -0.350584414339
0.394050000000 0.929887841391 -0.353020701942
0.396900000000 0.928731646880 -0.356149545042
0.399750000000 0.927861007196 -0.357857149282
0.402600000000 0.926736581978 -0.360239496935
0.405450000000 0.925574101211 -0.362049496424
0.408300000000 0.924215945477 -0.364705897442
0.411150000000 0.923186080449 -0.367412233890
0.414000000000 0.921515163077 -0.369835417997
0.416850000000 0.921034879858 -0.372549718387
0.419700000000 0.918453476479 -0.373955201814
0.422550000000 0.918344708140 -0.376499941880
0.425400000000 0.917289343374 -0.378704945264
0.428250000000 0.916006750027 -0.381456863084
0.431100000000 0.914797489000 -0.383494653645
0.433950000000 0.913862901712 -0.385245978776
0.436800000000 0.913013031654 -0.387950920225
0.439650000000 0.912163944876 -0.390365030559
0.442500000000 0.911110401933 -0.392268172015
0.445350000000 0.909709082988 -0.394440682105
0.448200000000 0.908721814531 -0.397021854432
0.451050000000 0.907383237536 -0.399485880003
0.453900000000 0.906418111431 -0.402076515558
0.456750000000 0.906093425050 -0.403993866940
0.459600000000 0.904252288925 -0.405898665549
0.462450000000 0.903627968010 -0.407300116725
0.465300000000 0.902643874666 -0.409716086897
0.468150000000 0.901832549358 -0.412805691925
0.471000000000 0.900229429489 -0.414333490209
0.473850000000 0.898827535666 -0.416470661762
0.476700000000 0.898526551375 -0.419054363123
0.479550000000 0.897186100091 -0.420943458999
0.482400000000 0.895647970362 -0.423112284303
0.485250000000 0.894863872017 -0.425191278899
0.488100000000 0.893441094515 -0.427728212597
0.490950000000 0.892492437739 -0.429098812549
0.493800000000 0.891449467611 -0.431479218199
0.496650000000 0.890972506591 -0.434124966789
0.499500000000 0.890152767440 -0.436968961449
0.502350000000 0.889212551408 -0.438277364424
0.505200000000 0.887439969811 -0.440858514306
0.508050000000 0.886343700494 -0.442906391197
0.510900000000 0.884924442680 -0.445057226995
0.513750000000 0.883610075581 -0.448100208338
0.516600000000 0.882326905907 -0.449631834363
0.519450000000 0.881324153261 -0.451352654846
0.522300000000 0.880253116676 -0.453542197895
0.525150000000 0.878481169326 -0.463112706869
0.528000000000 0.877759245391 -0.457595594853
0.530850000000 0.878462179666 -0.459746346835
0.533700000000 0.874965309228 -0.462169640408
0.536550000000 0.874014109911 -0.464748688414
0.539400000000 0.872392769737 -0.466780988180
0.542250000000 0.869840962371 -0.468068957428
0.545100000000 0.870293785690 -0.470524635872
0.547950000000 0.868416761780 -0.472841489829
0.550800000000 0.867003703030 -0.475353323909
0.553650000000 0.865170438528 -0.476881058619
0.556500000000 0.862645461023 -0.479649888284
0.559350000000 0.862804525074 -0.481182322801
0.562200000000 0.860778833029 -0.483409860160
0.565050000000 0.860939498985 -0.485560862069
0.567900000000 0.863017106825 -0.495974812778
0.570750000000 0.856207593918 -0.489429921400
0.573600000000 0.854907000084 -0.492670746027
0.576450000000 0.853822285081 -0.493509011532
0.579300000000 0.852033415922 -0.496283422783
0.582150000000 0.850622298908 -0.497956697896
0.585000000000 0.850027413463 -0.500438426716
0.587850000000 0.847798795918 -0.502655917721
0.590700000000 0.846722676540 -0.504253637176
0.593550000000 0.845251923803 -0.506332271930
0.596400000000 0.843823227590 -0.508578035067
0.599250000000 0.842204443046 -0.510770133810
0.602100000000 0.841004899838 -0.512388569868
0.604950000000 0.839130167558 -0.511092572108
0.607800000000 0.838158274221 -0.516290512559
0.610650000000 0.836575514661 -0.518701229109
0.613500000000 0.834986119068 -0.520044826520
0.616350000000 0.833764477613 -0.522331542591
0.619200000000 0.832179427922 -0.524449208485
0.622050000000 0.831163634039 -0.526311752726
0.624900000000 0.829999246832 -0.527468017824
0.627750000000 0.828722640801 -0.529366632566
0.630600000000 0.826900810157 -0.532488327899
0.633450000000 0.825657421280 -0.534132102517
0.636300000000 0.824028936252 -0.537170391807
0.639150000000 0.822519017605 -0.537879649025
0.642000000000 0.820016101780 -0.544029179756
0.644850000000 0.820039870081 -0.542339074987
0.647700000000 0.819238307425 -0.543854204504
0.650550000000 0.818035524118 -0.545956914955
0.653400000000 0.816601383086 -0.547847613628
0.656250000000 0.815326123062 -0.550137040048
0.659100000000 0.814159030215 -0.552059669572
0.661950000000 0.812440866963 -0.553525314435
0.664800000000 0.810741288726 -0.554813617789
0.667650000000 0.809646683211 -0.556718442811
0.670500000000 0.808934305778 -0.558511311080
0.673350000000 0.807005730600 -0.560300530860
0.676200000000 0.805689548224 -0.561889640511
0.679050000000 0.804280434359 -0.563443630809
0.681900000000 0.803015820775 -0.565193768836
0.684750000000 0.801750764728 -0.567572458990
0.687600000000 0.800036116843 -0.569758450254
0.690450000000 0.798675827442 -0.571341975999
0.693300000000 0.797208112404 -0.573623872108
0.696150000000 0.795949739038 -0.575109083796
0.699000000000 0.794642357593 -0.577168309822
0.701850000000 0.793228679829 -0.579171254899
0.704700000000 0.791222603170 -0.580018251998
0.707550000000 0.789477366040 -0.582368989986
0.710400000000 0.788257379999 -0.584406033555
0.713250000000 0.786639893738 -0.585970735233
0.716100000000 0.786664391836 -0.588297441458
0.718950000000 0.783703938062 -0.588920781949
0.721800000000 0.781891375139 -0.591595518453
0.724650000000 0.779957171105 -0.591408967612
0.727500000000 0.777548483287 -0.594746989544
0.730350000000 0.776836215397 -0.596494624603
0.733200000000 0.775188568953 -0.598779003760
0.736050000000 0.772520501691 -0.598759105780
0.738900000000 0.771209708082 -0.602190312725
0.741750000000 0.768198068049 -0.605181255157
0.744600000000 0.767283270564 -0.605579652132
0.747450000000 0.766054025446 -0.606630039907
0.750300000000 0.765152388012 -0.610457787810
0.753150000000 0.765304037313 -0.613975651693
0.756000000000 0.760618947082 -0.612266845037
0.758850000000 0.759818775279 -0.614522990773
0.761700000000 0.757647299820 -0.615880715123
0.764550000000 0.756002196499 -0.616810097771
0.767400000000 0.754284196857 -0.618846044066
0.770250000000 0.752949384471 -0.620144229659
0.773100000000 0.750669014704 -0.623364743817
0.775950000000 0.748665538289 -0.624922430716
0.778800000000 0.747247428010 -0.626137112812
0.781650000000 0.745866846297 -0.627632640352
0.784500000000 0.744032177564 -0.629764421776
0.787350000000 0.742206323770 -0.631010409930
0.790200000000 0.737194325427 -0.643839683847
0.793050000000 0.739641223010 -0.634212395185
0.795900000000 0.738485589513 -0.635911693555
0.798750000000 0.735155645092 -0.636925356505
0.801600000000 0.734576014021 -0.639187161543
0.804450000000 0.732647037652 -0.640315522649
0.807300000000 0.730416558863 -0.643430772034
0.810150000000 0.729970319850 -0.644324284244
0.813000000000 0.727708486064 -0.646011834462
0.815850000000 0.726410584077 -0.648288073040
0.818700000000 0.724597986918 -0.648284200728
0.821550000000 0.722339634098 -0.649892027059
0.824400000000 0.721769950014 -0.652680542801
0.827250000000 0.724548602217 -0.657552845763
0.830100000000 0.717802244936 -0.655185295463
0.832950000000 0.716498471398 -0.658261413278
0.835800000000 0.716157881248 -0.658020884711
0.838650000000 0.714297672068 -0.659582317738
0.841500000000 0.713625957317 -0.661194003632
0.844350000000 0.710589618438 -0.662968971461
0.847200000000 0.709942987909 -0.665236325649
0.850050000000 0.708563675679 -0.666974229455
0.852900000000 0.706148141371 -0.668299196950
0.855750000000 0.705281985161 -0.669134152512
0.858600000000 0.703641032785 -0.670530390121
0.861450000000 0.702047664650 -0.672155473018
0.864300000000 0.699857040622 -0.674622634028
0.867150000000 0.698738293666 -0.675483442042
0.870000000000 0.697614929301 -0.676633922612
0.872850000000 0.695733516699 -0.678103536399
0.875700000000 0.694506790755 -0.679959611344
0.878550000000 0.692578010202 -0.681216156419
0.881400000000 0.690720302504 -0.682738980610
0.884250000000 0.688384325316 -0.684008867250
0.887100000000 0.687448396339 -0.685966441700
0.889950000000 0.685388598192 -0.686538742941
0.892800000000 0.683575363453 -0.688827726310
0.895650000000 0.682279751931 -0.690196207172
0.898500000000 0.682063742148 -0.692358110987
0.901350000000 0.679821216493 -0.693018435868
0.904200000000 0.676305112085 -0.693932895892
0.907050000000 0.675528499750 -0.695960721041
0.909900000000 0.673594146920 -0.696820540476
0.912750000000 0.672390639519 -0.698338152107
0.915600000000 0.670085512569 -0.699025843550
0.918450000000 0.668752018971 -0.701729895143
0.921300000000 0.666349163593 -0.701988026493
0.924150000000 0.663412813673 -0.703051923016
0.927000000000 0.661684822749 -0.705299286156
0.929850000000 0.660328632440 -0.707256066944
0.932700000000 0.657498702979 -0.707922329324
0.935550000000 0.656089887927 -0.708688093009
0.938400000000 0.653874110654 -0.711179621164
0.941250000000 0.652218783359 -0.712238846306
0.944100000000 0.650460673974 -0.711827712928
0.946950000000 0.648345343140 -0.715340965299
0.949800000000 0.646174704978 -0.716545750272
0.952650000000 0.644278323806 -0.717533813957
0.955500000000 0.642309222226 -0.718803498116
0.958350000000 0.640918052159 -0.720177101682
0.961200000000 0.638779842540 -0.721690994249
0.964050000000 0.637421093837 -0.722937154641
0.966900000000 0.634892544851 -0.724161535035
0.969750000000 0.633123588239 -0.726963216005
0.972600000000 0.631760354121 -0.726621743013
0.975450000000 0.628633490745 -0.728249808384
0.978300000000 0.627469119976 -0.729838997050
0.981150000000 0.626168744508 -0.730234323637
0.984000000000 0.624100964714 -0.731944546497
0.986850000000 0.623401993456 -0.732648491961
0.989700000000 0.621355819896 -0.733968812930
0.992550000000 0.618708225011 -0.736384633350
0.995400000000 0.617962976391 -0.738006754604
0.998250000000 0.615158333176 -0.739644814351
1.001100000000 0.613502444047 -0.740192865506
1.003950000000 0.612945735391 -0.740540763179
1.006800000000 0.611638794528 -0.742205474287
1.009650000000 0.609355890539 -0.743092443009
1.012500000000 0.607276382150 -0.745303119957
1.015350000000 0.605552488630 -0.746664326468
1.018200000000 0.605554483391 -0.747035329599
1.021050000000 0.603677482535 -0.748299796363
1.023900000000 0.602133641350 -0.750046323200
1.026750000000 0.599779369180 -0.750425329550
1.029600000000 0.598298988449 -0.752294273768
1.032450000000 0.596762877291 -0.753014852138
1.035300000000 0.595096234315 -0.754241931548
1.038150000000 0.593574153762 -0.755258081518
1.041000000000 0.592223553339 -0.756416981398
1.043850000000 0.589586853286 -0.757931823363
1.046700000000 0.588120163036 -0.758381625459
1.049550000000 0.586482651125 -0.759760952210
1.052400000000 0.584963361469 -0.760986926013
1.055250000000 0.585003004766 -0.764558927717
1.058100000000 0.581540643466 -0.763905444409
1.060950000000 0.579583398552 -0.765038656730
1.063800000000 0.578108924142 -0.764772957089
1.066650000000 0.577433919775 -0.767450221797
1.069500000000 0.576383054878 -0.770877728278
1.072350000000 0.573768158461 -0.769387088689
1.075200000000 0.570681298261 -0.769831702687
1.078050000000 0.568426145441 -0.771823752966
1.080900000000 0.568029707727 -0.771859295616
1.083750000000 0.566166776642 -0.773672622414
1.086600000000 0.563999286648 -0.773833867069
1.089450000000 0.560605601530 -0.773583379505
1.092300000000 0.559256537531 -0.776841313887
1.095150000000 0.558036576098 -0.778360399672
1.098000000000 0.556155668753 -0.777281324099
1.100850000000 0.552574640337 -0.778861279023
1.103700000000 0.554159871876 -0.778677407532
1.106550000000 0.549730274118 -0.779997123160
1.109400000000 0.548703424845 -0.781865302161
1.112250000000 0.547289219698 -0.782445736600
1.115100000000 0.543224675274 -0.781649172219
1.117950000000 0.542640091481 -0.784617051239
1.120800000000 0.541257816808 -0.785060216831
1.123650000000 0.538773397324 -0.786065025509
1.126500000000 0.533865736363 -0.788025822503
1.129350000000 0.534109085796 -0.788253748284
1.132200000000 0.532481920494 -0.789747938750
1.135050000000 0.530687093256 -0.790722504170
1.137900000000 0.528785570540 -0.792235036756
1.140750000000 0.525953224896 -0.792793099162
1.143600000000 0.524741964171 -0.793655822450
1.146450000000 0.523239098753 -0.794908441744
1.149300000000 0.521309232223 -0.793394345223
1.152150000000 0.520608189633 -0.794465807635
1.155000000000 0.517525075715 -0.796881290033
1.157850000000 0.514383761395 -0.798354389508
1.160700000000 0.511641783890 -0.797480021241
1.163550000000 0.511930070982 -0.799638276046
1.166400000000 0.510213557288 -0.800440546341
1.169250000000 0.508221809254 -0.801334622750
1.172100000000 0.508390157327 -0.804251102637
1.174950000000 0.505275669274 -0.802630141025
1.177800000000 0.502969400026 -0.804008952663
1.180650000000 0.500300427842 -0.806383954766
1.183500000000 0.497593130108 -0.803701826733
1.186350000000 0.497917605444 -0.806918158055
1.189200000000 0.495927729824 -0.808026713056
1.192050000000 0.494128054003 -0.810424933620
1.194900000000 0.492122879915 -0.811984806189
1.197750000000 0.489714175125 -0.811782746599
1.200600000000 0.488953068899 -0.812544529942
1.203450000000 0.487750567288 -0.812936953338
1.206300000000 0.486936350872 -0.813869929889
1.209150000000 0.483681124986 -0.814504721630
1.212000000000 0.482705435673 -0.815360780733
1.214850000000 0.481239099784 -0.815802809989
1.217700000000 0.479882101977 -0.816638954249
1.220550000000 0.478395615356 -0.817363918607
1.223400000000 0.476941465851 -0.818105693045
1.226250000000 0.475746880088 -0.818758518995
1.229100000000 0.473264664039 -0.820933527058
1.231950000000 0.471192056062 -0.820115006383
1.234800000000 0.469358966977 -0.821219173968
1.237650000000 0.467946821444 -0.821647817014
1.240500000000 0.463644141343 -0.815005803368
1.243350000000 0.465188153354 -0.822745788298
1.246200000000 0.462826857034 -0.823508373062
1.249050000000 0.461542330380 -0.825093453516
1.251900000000 0.459856757503 -0.825316075054
1.254750000000 0.457367814909 -0.826422787114
1.257600000000 0.456952335565 -0.826475070429
1.260450000000 0.454520367741 -0.827105317809
1.263300000000 0.453247704377 -0.827761186916
1.266150000000 0.452520657396 -0.828432687586
1.269000000000 0.449095610164 -0.829695974275
1.271850000000 0.446849625913 -0.828265109970
1.274700000000 0.449547359161 -0.830605058860
1.277550000000 0.445237471453 -0.831434230729
1.280400000000 0.443036234614 -0.832419965355
1.283250000000 0.441340221269 -0.829777255917
1.286100000000 0.437701726345 -0.833139555161
1.288950000000 0.438992536389 -0.834718950412
1.291800000000 0.435256177114 -0.833949011260
1.294650000000 0.432949242062 -0.835574220914
1.297500000000 0.433314690196 -0.837052316814
1.300350000000 0.429116583831 -0.837096932223
1.303200000000 0.426875956519 -0.837519016417
1.306050000000 0.425767230425 -0.838418538549
1.308900000000 0.423978457140 -0.837903526273
1.311750000000 0.421482110194 -0.839635836452
1.314600000000 0.419868418530 -0.840219616797
1.317450000000 0.418116194151 -0.841013357286
1.320300000000 0.415952594075 -0.841448197468
1.323150000000 0.414598535350 -0.842355334191
1.326000000000 0.412639216137 -0.842902320699
1.328850000000 0.410599596532 -0.844067807168
1.331700000000 0.408450674289 -0.844404071805
1.334550000000 0.406605638301 -0.844236442353
1.337400000000 0.403229641000 -0.846979878728
1.340250000000 0.403166319362 -0.847316691131
1.343100000000 0.400998881249 -0.847304239536
1.345950000000 0.400277960468 -0.847146079893
1.348800000000 0.398336868492 -0.848921856068
1.351650000000 0.396565687953 -0.848865448632
1.354500000000 0.394224066637 -0.850057528227
1.357350000000 0.392471799551 -0.850086952358
1.360200000000 0.391371009112 -0.851561466184
1.363050000000 0.388735312757 -0.852263183856
1.365900000000 0.386312359321 -0.852024023600
1.368750000000 0.385513215562 -0.853854528661
1.371600000000 0.383773754318 -0.854562222023
1.374450000000 0.381853754817 -0.854465057093
1.377300000000 0.380950105820 -0.855129941122
1.380150000000 0.378986099249 -0.856484432914
1.383000000000 0.377363661944 -0.856594855998
1.385850000000 0.375542310233 -0.857832350172
1.388700000000 0.373977101984 -0.858366799075
1.391550000000 0.372392904593 -0.858999957114
1.394400000000 0.370261623120 -0.859715347786
1.397250000000 0.368445451797 -0.861261123807
1.400100000000 0.366415603192 -0.861680730535
1.402950000000 0.364590101387 -0.861815113647
1.405800000000 0.363358733741 -0.862198040334
1.408650000000 0.362478862131 -0.862361285736
1.411500000000 0.361131744702 -0.867962934924
1.414350000000 0.358369957477 -0.862261678135
1.417200000000 0.358393470526 -0.863281691986
1.420050000000 0.353095606549 -0.863561782841
1.422900000000 0.354098795437 -0.865236411523
1.425750000000 0.349893090314 -0.863186543548
1.428600000000 0.350946874399 -0.866119210449
1.431450000000 0.348823528700 -0.865022377090
1.434300000000 0.346857840839 -0.866514081343
1.437150000000 0.345949506279 -0.867341044900
1.440000000000 0.343747854817 -0.869421648828
1.442850000000 0.344161402781 -0.867453912898
1.445700000000 0.341347309598 -0.868199940979
1.448550000000 0.338594523401 -0.868571322750
1.451400000000 0.333760011018 -0.871143260467
1.454250000000 0.332794795442 -0.868968590866
1.457100000000 0.332122087721 -0.870644651819
1.459950000000 0.330538992337 -0.870691537934
1.462800000000 0.328630871858 -0.870518829902
1.465650000000 0.328637510893 -0.871239740632
1.468500000000 0.324804034950 -0.872742710351
1.471350000000 0.322999503654 -0.871834992049
1.474200000000 0.321520845783 -0.872333426112
1.477050000000 0.320288390718 -0.873274699965
1.479900000000 0.318166069748 -0.873210385071
1.482750000000 0.316050381644 -0.873292257230
1.485600000000 0.314784839156 -0.873363973165
1.488450000000 0.312615491767 -0.873607653229
1.491300000000 0.311117638443 -0.874684803660
1.494150000000 0.308121669195 -0.875159504914
1.497000000000 0.306558276545 -0.874604156137
1.499850000000 0.304236563467 -0.874595553173
1.502700000000 0.299239797676 -0.875570014469
1.505550000000 0.300095401663 -0.876437738734
1.508400000000 0.298506915750 -0.875742984006
1.511250000000 0.299137393247 -0.875711651244
1.514100000000 0.295219360526 -0.876069805505
1.516950000000 0.293347041538 -0.878037076859
1.519800000000 0.292632655972 -0.877884975308
1.522650000000 0.290069561833 -0.877243247357
1.525500000000 0.288858673567 -0.878291812988
1.528350000000 0.287302478711 -0.877531983045
1.531200000000 0.284881278699 -0.878770396188
1.534050000000 0.282692076923 -0.879561649531
