# GHZ S RI R 50.000000000000
0.300000000000 0.954275733467 -0.269853124355
0.302850000000 0.954812744321 -0.273070308916
0.305700000000 0.954848003272 -0.275790879579
0.308550000000 0.953767823830 -0.278972343810
0.311400000000 0.953830376668 -0.281225840649
0.314250000000 0.953290724659 -0.284552555456
0.317100000000 0.952100214074 -0.287186940595
0.319950000000 0.951240465571 -0.289669697930
0.322800000000 0.950299027597 -0.292030657668
0.325650000000 0.950112753731 -0.294476651004
0.328500000000 0.949201141231 -0.296730314730
0.331350000000 0.948080490578 -0.298778780000
0.334200000000 0.947220579534 -0.301479509372
0.337050000000 0.946386894387 -0.303914221546
0.339900000000 0.945565660492 -0.305578072214
0.342750000000 0.944614095221 -0.309248781097
0.345600000000 0.944022341482 -0.310951437804
0.348450000000 0.943197446141 -0.313391218126
0.351300000000 0.942128752332 -0.316016766010
0.354150000000 0.941215706422 -0.318637171984
0.357000000000 0.940234472720 -0.321061393631
0.359850000000 0.939407053383 -0.323446705088
0.362700000000 0.935695849476 -0.325598366861
0.365550000000 0.937019512724 -0.328127101264
0.368400000000 0.936313515458 -0.330618820815
0.371250000000 0.934829390250 -0.332417518101
0.374100000000 0.934134091651 -0.335386722909
0.376950000000 0.933781463196 -0.337141498651
0.379800000000 0.932347177732 -0.339890015453
0.382650000000 0.932476584239 -0.343218271167
0.385500000000 0.930311516015 -0.345070060301
0.388350000000 0.930200110884 -0.347011525145
0.391200000000 0.928842612493 -0.349553508368
0.394050000000 0.927969086645 -0.352146430557
0.396900000000 0.926917160080 -0.355127345079
0.399750000000 0.926437449715 -0.356270948230
0.402600000000 0.925232152717 -0.359009933273
0.405450000000 0.924033255532 -0.360876654754
0.408300000000 0.922866962651 -0.363570625013
0.411150000000 0.922083078904 -0.365491406082
0.414000000000 0.920134426465 -0.368287173396
0.416850000000 0.919661400095 -0.371128152761
0.419700000000 0.917819380823 -0.373614761610
0.422550000000 0.917402447172 -0.375492575032
0.425400000000 0.916439220181 -0.377384921519
0.428250000000 0.915126937876 -0.380260336838
0.431100000000 0.914130670072 -0.382041661061
0.433950000000 0.913226335870 -0.383662463569
0.436800000000 0.912367732659 -0.386734396237
0.439650000000 0.911025682585 -0.389367285131
0.442500000000 0.909924626729 -0.391701537221
0.445350000000 0.908783038496 -0.393810975106
0.448200000000 0.907838329198 -0.395762319469
0.451050000000 0.906382634347 -0.398620918172
0.453900000000 0.905312616391 -0.400559394745
0.456750000000 0.904616688589 -0.402528637408
0.459600000000 0.902877737959 -0.404984890856
0.462450000000 0.901732793931 -0.407317495885
0.465300000000 0.901061192363 -0.409219261369
0.468150000000 0.900739931408 -0.411787540228
0.471000000000 0.898649748016 -0.414041235900
0.473850000000 0.897754901864 -0.416422016152
0.476700000000 0.896136096650 -0.418548382798
0.479550000000 0.894684329090 -0.420732665452
0.482400000000 0.893341659222 -0.422852621123
0.485250000000 0.892783764773 -0.425227666598
0.488100000000 0.891238453431 -0.427295768790
0.490950000000 0.889724994730 -0.429645971915
0.493800000000 0.887959032165 -0.431842801723
0.496650000000 0.887585334610 -0.434793897245
0.499500000000 0.887009090928 -0.436787019133
0.502350000000 0.886169725242 -0.438337182617
0.505200000000 0.884111749309 -0.440929053913
0.508050000000 0.882808120619 -0.442782193210
0.510900000000 0.881796691407 -0.444729119331
0.513750000000 0.880766496177 -0.447198974553
0.516600000000 0.879079084229 -0.449430111535
0.519450000000 0.878010103935 -0.451265848346
0.522300000000 0.876632485040 -0.453575066982
0.525150000000 0.873984378198 -0.461238111989
0.528000000000 0.874201027600 -0.457587762760
0.530850000000 0.873822290623 -0.458328928997
0.533700000000 0.871657889339 -0.461802794319
0.536550000000 0.870460995490 -0.464125490277
0.539400000000 0.869109018535 -0.466169627291
0.542250000000 0.867201465527 -0.467791204445
0.545100000000 0.866864219667 -0.470239022940
0.547950000000 0.865447503711 -0.472424439666
0.550800000000 0.864344310115 -0.475271297482
0.553650000000 0.863402072579 -0.478312178151
0.556500000000 0.860003943820 -0.478190096939
0.559350000000 0.860283865108 -0.480026973450
0.562200000000 0.858760360927 -0.482470705414
0.565050000000 0.858091528197 -0.485176844558
0.567900000000 0.853981684676 -0.488015631804
0.570750000000 0.856474935925 -0.489784219121
0.573600000000 0.853606240680 -0.491222256781
0.576450000000 0.852223638264 -0.492080108122
0.579300000000 0.850573131678 -0.494889236431
0.582150000000 0.849353225937 -0.496865333941
0.585000000000 0.848673226766 -0.499045082060
0.587850000000 0.847308362566 -0.501166696513
0.590700000000 0.845733001277 -0.503301036681
0.593550000000 0.844565257003 -0.505343516946
0.596400000000 0.842990350391 -0.507479084452
0.599250000000 0.841608134530 -0.509762298222
0.602100000000 0.840448322406 -0.511501995600
0.604950000000 0.825805841155 -0.508084177744
0.607800000000 0.837821743605 -0.515645229797
0.610650000000 0.835844150469 -0.517573937008
0.613500000000 0.834792139003 -0.518927133115
0.616350000000 0.832871606913 -0.521362891656
0.619200000000 0.831240617251 -0.523513332449
0.622050000000 0.829745476302 -0.525854604334
0.624900000000 0.828920386580 -0.526804474173
0.627750000000 0.827582179818 -0.528362492555
0.630600000000 0.825806990756 -0.531532834015
0.633450000000 0.824769957552 -0.533176125752
0.636300000000 0.822663270122 -0.536480442513
0.639150000000 0.820956561381 -0.537389392377
0.642000000000 0.818814456601 -0.539693561896
0.644850000000 0.818298165406 -0.541373772893
0.647700000000 0.817846902054 -0.543954997605
0.650550000000 0.815530615164 -0.545742822848
0.653400000000 0.814478358875 -0.547980412183
0.656250000000 0.813604787721 -0.549619892481
0.659100000000 0.811215560622 -0.551216779992
0.661950000000 0.809651771499 -0.552508858549
0.664800000000 0.807783856816 -0.554254788166
0.667650000000 0.806520961418 -0.556258681483
0.670500000000 0.804868367986 -0.558923360454
0.673350000000 0.803383683577 -0.559702453300
0.676200000000 0.802050708150 -0.562129407743
0.679050000000 0.801265737803 -0.563371510330
0.681900000000 0.799387309569 -0.564861642996
0.684750000000 0.798159934491 -0.566540173633
0.687600000000 0.796455089562 -0.569402234819
0.690450000000 0.795144326507 -0.570943221207
0.693300000000 0.793610605823 -0.573162152071
0.696150000000 0.792224024063 -0.574819620403
0.699000000000 0.790606644730 -0.576470042681
0.701850000000 0.789003822060 -0.577934617286
0.704700000000 0.787190257575 -0.579808052151
0.707550000000 0.785882121894 -0.581566712420
0.710400000000 0.783673027684 -0.583916316087
0.713250000000 0.783280761517 -0.587670638294
0.716100000000 0.782851973635 -0.586982355517
0.718950000000 0.779795635779 -0.587938824422
0.721800000000 0.777269105968 -0.590825120503
0.724650000000 0.775595360978 -0.592184820844
0.727500000000 0.775142491956 -0.594505780410
0.730350000000 0.772182472736 -0.596230323368
0.733200000000 0.771974467570 -0.597308165507
0.736050000000 0.770124573221 -0.597209115268
0.738900000000 0.769450630909 -0.601763693375
0.741750000000 0.766905992219 -0.603606811413
0.744600000000 0.765001786265 -0.605456072738
0.747450000000 0.762935328155 -0.605547900915
0.750300000000 0.761876357490 -0.610244087879
0.753150000000 0.762475160389 -0.608394156284
0.756000000000 0.758966946106 -0.611158679331
0.758850000000 0.758225122967 -0.613496277537
0.761700000000 0.755641270019 -0.614980541836
0.764550000000 0.754575167072 -0.616203607295
0.767400000000 0.752731261448 -0.618605516417
0.770250000000 0.751128249204 -0.619878252510
0.773100000000 0.748701934725 -0.623006987005
0.775950000000 0.747946820036 -0.624099100223
0.778800000000 0.746768602892 -0.625112300932
0.781650000000 0.744929060528 -0.627018361485
0.784500000000 0.743179484725 -0.628838370772
0.787350000000 0.741368961108 -0.630391706390
0.790200000000 0.733723812993 -0.626645961113
0.793050000000 0.738910360863 -0.633736008604
0.795900000000 0.736690347591 -0.634608793673
0.798750000000 0.735495647438 -0.636784784238
0.801600000000 0.733293186180 -0.638649162799
0.804450000000 0.731588912460 -0.640323362777
0.807300000000 0.730645171083 -0.641492134269
0.810150000000 0.730273831669 -0.642587516435
0.813000000000 0.726738354446 -0.645175274036
0.815850000000 0.725495221687 -0.646396078170
0.818700000000 0.723425583396 -0.647532207645
0.821550000000 0.722634791497 -0.648809247034
0.824400000000 0.719740454706 -0.651144245198
0.827250000000 0.722958006647 -0.650879141900
0.830100000000 0.717138148148 -0.653934257060
0.832950000000 0.714698015338 -0.656495373859
0.835800000000 0.713362062657 -0.657126475638
0.838650000000 0.712349672809 -0.658070134361
0.841500000000 0.710998461557 -0.660223103434
0.844350000000 0.707846375067 -0.661846275355
0.847200000000 0.706841316986 -0.663824805453
0.850050000000 0.705519856096 -0.665371694778
0.852900000000 0.702985992278 -0.667269868409
0.855750000000 0.701366860827 -0.668323403324
0.858600000000 0.700010254881 -0.669655108679
0.861450000000 0.697984579745 -0.671282735262
0.864300000000 0.695674510104 -0.673648865528
0.867150000000 0.694571738628 -0.674345058432
0.870000000000 0.693073775220 -0.676237083514
0.872850000000 0.690955997612 -0.677641160933
0.875700000000 0.689464163665 -0.679009136221
0.878550000000 0.688566236717 -0.679866590404
0.881400000000 0.686523375028 -0.681164638321
0.884250000000 0.685780641520 -0.683163972631
0.887100000000 0.682196438662 -0.685472698921
0.889950000000 0.680508877082 -0.685675330504
0.892800000000 0.679779807339 -0.687620977681
0.895650000000 0.678474100606 -0.689368526288
0.898500000000 0.677726856466 -0.692144633336
0.901350000000 0.675477210157 -0.692181830268
0.904200000000 0.673004119910 -0.692769500352
0.907050000000 0.671406533406 -0.694611719164
0.909900000000 0.670129981940 -0.694789294746
0.912750000000 0.666883315249 -0.697589325010
0.915600000000 0.667424799605 -0.697649627865
0.918450000000 0.665858624256 -0.700390468564
0.921300000000 0.663207962877 -0.703029186344
0.924150000000 0.660990566074 -0.701791403665
0.927000000000 0.658851077610 -0.704531593206
0.929850000000 0.657833326867 -0.706223239775
0.932700000000 0.656136095735 -0.706603400683
0.935550000000 0.654466904333 -0.708229958260
0.938400000000 0.652332299832 -0.709638495201
0.941250000000 0.651261408032 -0.711215112221
0.944100000000 0.649743161737 -0.711312713862
0.946950000000 0.647440268139 -0.714310292596
0.949800000000 0.645254347968 -0.715249423379
0.952650000000 0.643511067109 -0.716455157471
0.955500000000 0.641802100502 -0.717365274538
0.958350000000 0.640124728955 -0.718815979887
0.961200000000 0.638159233740 -0.720658732377
0.964050000000 0.636862340354 -0.721681760110
0.966900000000 0.634573000538 -0.722356326779
0.969750000000 0.633065599492 -0.724266748715
0.972600000000 0.631282931929 -0.725554785287
0.975450000000 0.629055945709 -0.727424509538
0.978300000000 0.628515440828 -0.729177836478
0.981150000000 0.626207460628 -0.729499793353
0.984000000000 0.623984380622 -0.730976787398
0.986850000000 0.623364164249 -0.730936250711
0.989700000000 0.620586245255 -0.733035967378
0.992550000000 0.620323046535 -0.734690325792
0.995400000000 0.617130519870 -0.735902793295
0.998250000000 0.615852018103 -0.735715242852
1.001100000000 0.613625794530 -0.737749789900
1.003950000000 0.611738070710 -0.739290046302
1.006800000000 0.610766703423 -0.740977721862
1.009650000000 0.608101989192 -0.742085781662
1.012500000000 0.605354565952 -0.743892826902
1.015350000000 0.604289596359 -0.744857703142
1.018200000000 0.603215632253 -0.745437068941
1.021050000000 0.601106909327 -0.747317253482
1.023900000000 0.599816867941 -0.747936108436
1.026750000000 0.597314481820 -0.749003450690
1.029600000000 0.595902619772 -0.750483216234
1.032450000000 0.593856304515 -0.751404796032
1.035300000000 0.592202766899 -0.752559395154
1.038150000000 0.590061809592 -0.753846110083
1.041000000000 0.588352541357 -0.755089893726
1.043850000000 0.586585979217 -0.756325370940
1.046700000000 0.584875383198 -0.756972894685
1.049550000000 0.583153086630 -0.757590572265
1.052400000000 0.580402802663 -0.759378130592
1.055250000000 0.581549253713 -0.759923415763
1.058100000000 0.577885502055 -0.764503577007
1.060950000000 0.574070623482 -0.763922942817
1.063800000000 0.574960924733 -0.762943138765
1.066650000000 0.572122403693 -0.764946886872
1.069500000000 0.574062339939 -0.770183158112
1.072350000000 0.569538358215 -0.766771269614
1.075200000000 0.565668713797 -0.768135143942
1.078050000000 0.564470565230 -0.768144812435
1.080900000000 0.562448284992 -0.769833462029
1.083750000000 0.561052716953 -0.771458253157
1.086600000000 0.559531311755 -0.772669374806
1.089450000000 0.556864912155 -0.771991853553
1.092300000000 0.554234017308 -0.774098274980
1.095150000000 0.553420139915 -0.776955243789
1.098000000000 0.552235895552 -0.776791081995
1.100850000000 0.549702229143 -0.778159100594
1.103700000000 0.551108240876 -0.778227408990
1.106550000000 0.545855286126 -0.780656010750
1.109400000000 0.544962541846 -0.780434401243
1.112250000000 0.543995460838 -0.779431582952
1.115100000000 0.540999039793 -0.780870458155
1.117950000000 0.540101653406 -0.784171994324
1.120800000000 0.538527944796 -0.784116338194
1.123650000000 0.536263120219 -0.785446013295
1.126500000000 0.532894466395 -0.787139653735
1.129350000000 0.532235282992 -0.787525597883
1.132200000000 0.530506117019 -0.788406052995
1.135050000000 0.528852346121 -0.789408826539
1.137900000000 0.526946362785 -0.790802249469
1.140750000000 0.524643933494 -0.791579306061
1.143600000000 0.523119562176 -0.792764370429
1.146450000000 0.520933120802 -0.793758466047
1.149300000000 0.521913013903 -0.792658676517
1.152150000000 0.518340101757 -0.794368397326
1.155000000000 0.516434631271 -0.795632501063
1.157850000000 0.514331911615 -0.797349820034
1.160700000000 0.513713764418 -0.798364030300
1.163550000000 0.510609187135 -0.797577572165
1.166400000000 0.508954245236 -0.799031774071
1.169250000000 0.505117666285 -0.799419395860
1.172100000000 0.505745315013 -0.801468282888
1.174950000000 0.503924723976 -0.801423279674
1.177800000000 0.501532058431 -0.802460487707
1.180650000000 0.499094759896 -0.804029122781
1.183500000000 0.499455565044 -0.803245205776
1.186350000000 0.496453825887 -0.804643731948
1.189200000000 0.494513863463 -0.805616335859
1.192050000000 0.492731816439 -0.806365440150
1.194900000000 0.490738811654 -0.808541863905
1.197750000000 0.487919899225 -0.809301410808
1.200600000000 0.486827225725 -0.810104085250
1.203450000000 0.485494314795 -0.810077009582
1.206300000000 0.484400617132 -0.810978636354
1.209150000000 0.481578196382 -0.811776959403
1.212000000000 0.480268101155 -0.812592517218
1.214850000000 0.478252503906 -0.813265289299
1.217700000000 0.476852860402 -0.813990342095
1.220550000000 0.475343635448 -0.814295375183
1.223400000000 0.473328917515 -0.815367559765
1.226250000000 0.471463420603 -0.815567394637
1.229100000000 0.468771854919 -0.817947657048
1.231950000000 0.466900686281 -0.817892437511
1.234800000000 0.465217153050 -0.818168161901
1.237650000000 0.464176252749 -0.819063623415
1.240500000000 0.460614847547 -0.811822659912
1.243350000000 0.461036072356 -0.820188836505
1.246200000000 0.458208983161 -0.821883338120
1.249050000000 0.456611712119 -0.821756487335
1.251900000000 0.455859937502 -0.823343471082
1.254750000000 0.454323442627 -0.823437426554
1.257600000000 0.451724029599 -0.824793485632
1.260450000000 0.450842647405 -0.824719335000
1.263300000000 0.448695029810 -0.827178699182
1.266150000000 0.448037284715 -0.826712252243
1.269000000000 0.445313099269 -0.827702665575
1.271850000000 0.443705597773 -0.826305611084
1.274700000000 0.445213188371 -0.829328646569
1.277550000000 0.440847420025 -0.830971091669
1.280400000000 0.438791255554 -0.830069949320
1.283250000000 0.434954360985 -0.830294632566
1.286100000000 0.433914026994 -0.831345657291
1.288950000000 0.434766804187 -0.832479176431
1.291800000000 0.431868871048 -0.832221046620
1.294650000000 0.430017283503 -0.832717467234
1.297500000000 0.430365103256 -0.835323001509
1.300350000000 0.426710962500 -0.835103227108
1.303200000000 0.425259245758 -0.835207921805
1.306050000000 0.423570207939 -0.835904079331
1.308900000000 0.422264329750 -0.835979054576
1.311750000000 0.419786136496 -0.837685650573
1.314600000000 0.418308484382 -0.838425830675
1.317450000000 0.416440027194 -0.838916116676
1.320300000000 0.414716348721 -0.840088973054
1.323150000000 0.412975131736 -0.840485552148
1.326000000000 0.411757933884 -0.841222607691
1.328850000000 0.410723740038 -0.841603505981
1.331700000000 0.408272379891 -0.842320608880
1.334550000000 0.407084520925 -0.842567617143
1.337400000000 0.403888773272 -0.843850307116
1.340250000000 0.403383742486 -0.844627656774
1.343100000000 0.401586870231 -0.845550954470
1.345950000000 0.401073611773 -0.845628861382
1.348800000000 0.398874590035 -0.846653671551
1.351650000000 0.396874781016 -0.847469459782
1.354500000000 0.394903613780 -0.847073758571
1.357350000000 0.393435366822 -0.847745764575
1.360200000000 0.392309576881 -0.849359882487
1.363050000000 0.390096042099 -0.850133522791
1.365900000000 0.387027673346 -0.850510038634
1.368750000000 0.385406000864 -0.851289329449
1.371600000000 0.384329063840 -0.851879244798
1.374450000000 0.382601728794 -0.852496654443
1.377300000000 0.380974690606 -0.853076492516
1.380150000000 0.379623433884 -0.853897837474
1.383000000000 0.377356604438 -0.854916129135
1.385850000000 0.375549529731 -0.855536325979
1.388700000000 0.373921964762 -0.856192483021
1.391550000000 0.372435364814 -0.856777496835
1.394400000000 0.369868190447 -0.857556620430
1.397250000000 0.367774503516 -0.857974681599
1.400100000000 0.365746521598 -0.859726941601
1.402950000000 0.364218272612 -0.859620801290
1.405800000000 0.362251115397 -0.860152127232
1.408650000000 0.361961825490 -0.860176600600
1.411500000000 0.357817569120 -0.863295950394
1.414350000000 0.357220387517 -0.861117545310
1.417200000000 0.356423080468 -0.861793616153
1.420050000000 0.353973383777 -0.861328222438
1.422900000000 0.351298424255 -0.862781494695
1.425750000000 0.346301278053 -0.864108885212
1.428600000000 0.347803744958 -0.864443104168
1.431450000000 0.344919836310 -0.864495738282
1.434300000000 0.344426572271 -0.865272656125
1.437150000000 0.342629045388 -0.868805498990
1.440000000000 0.340799463863 -0.867238775079
1.442850000000 0.338292616640 -0.866071243570
1.445700000000 0.338682705693 -0.868605265554
1.448550000000 0.333696614999 -0.867966240336
1.451400000000 0.331280697506 -0.869921057507
1.454250000000 0.331534143584 -0.869168506571
1.457100000000 0.330251686196 -0.867894650989
1.459950000000 0.327004967825 -0.870066271327
1.462800000000 0.325887450794 -0.870389424029
1.465650000000 0.326469610808 -0.869857583670
1.468500000000 0.321528782676 -0.871243009556
1.471350000000 0.321931872795 -0.872367451893
1.474200000000 0.319720838478 -0.871795668982
1.477050000000 0.318656723582 -0.872498298963
1.479900000000 0.316303676921 -0.872335802518
1.482750000000 0.314572431758 -0.873321651699
1.485600000000 0.312908435840 -0.873004715642
1.488450000000 0.311085283346 -0.873393410193
1.491300000000 0.309292171141 -0.874386471887
1.494150000000 0.306983757464 -0.875182109564
1.497000000000 0.305305830503 -0.874630251397
1.499850000000 0.302835482173 -0.874745479020
1.502700000000 0.300211593360 -0.876548889180
1.505550000000 0.299768569982 -0.877335215859
1.508400000000 0.298317636536 -0.876350071388
1.511250000000 0.296728073415 -0.877042111777
1.514100000000 0.295687355215 -0.875341717136
1.516950000000 0.292376019234 -0.876829062564
1.519800000000 0.291225636042 -0.878111914631
1.522650000000 0.287922821383 -0.878232129823
1.525500000000 0.287713604935 -0.877444677445
1.528350000000 0.285481436758 -0.878383313403
1.531200000000 0.284476570308 -0.878401032577
1.534050000000 0.282788648957 -0.880266907821
