# GHZ S RI R 50.000000000000
0.300000000000 0.956342493221 -0.270911061277
0.302850000000 0.956958645619 -0.273600214665
0.305700000000 0.957271712751 -0.276735968379
0.308550000000 0.956142664468 -0.279786776399
0.311400000000 0.956349268765 -0.282678634162
0.314250000000 0.956033584608 -0.285628602836
0.317100000000 0.954832999745 -0.287395137935
0.319950000000 0.954391736032 -0.290123123966
0.322800000000 0.953850190268 -0.292738337308
0.325650000000 0.952980190734 -0.294830864365
0.328500000000 0.952361336927 -0.297681595549
0.331350000000 0.951274916280 -0.300258858729
0.334200000000 0.950438661365 -0.302394558818
0.337050000000 0.949499091575 -0.305068585004
0.339900000000 0.948263326993 -0.306527522716
0.342750000000 0.947940212005 -0.309983935477
0.345600000000 0.947438173549 -0.312085116924
0.348450000000 0.946247282096 -0.314238056607
0.351300000000 0.945448951616 -0.316879992587
0.354150000000 0.944568830868 -0.319488494347
0.357000000000 0.943497126248 -0.322041231440
0.359850000000 0.942589690446 -0.324870875316
0.362700000000 0.940935547633 -0.326351972747
0.365550000000 0.940061066888 -0.329422207771
0.368400000000 0.938912300865 -0.331533651622
0.371250000000 0.937498193580 -0.333954649041
0.374100000000 0.937641800589 -0.336136562127
0.376950000000 0.936331016810 -0.338528639375
0.379800000000 0.934920046164 -0.341229424130
0.382650000000 0.934418304526 -0.344121686675
0.385500000000 0.932772302013 -0.346712157688
0.388350000000 0.932537417895 -0.348268740466
0.391200000000 0.930639325481 -0.351294284223
0.394050000000 0.929772091167 -0.353592110245
0.396900000000 0.928964290605 -0.356267871996
0.399750000000 0.927920122976 -0.357567791428
0.402600000000 0.926694605190 -0.360471740701
0.405450000000 0.925641421807 -0.362542208100
0.408300000000 0.924128836381 -0.365002866712
0.411150000000 0.922670743493 -0.367211238754
0.414000000000 0.921784348495 -0.369540927557
0.416850000000 0.920688858703 -0.372648489929
0.419700000000 0.919214411397 -0.375106077582
0.422550000000 0.918523409706 -0.376642425860
0.425400000000 0.917438939340 -0.378843093847
0.428250000000 0.915952132344 -0.381477468241
0.431100000000 0.914853114869 -0.383732129570
0.433950000000 0.913872008628 -0.385881049223
0.436800000000 0.912950045067 -0.388290288956
0.439650000000 0.912286834269 -0.390614508282
0.442500000000 0.911027951725 -0.392590340690
0.445350000000 0.909561788509 -0.395555614526
0.448200000000 0.908783633968 -0.397319031141
0.451050000000 0.907576893185 -0.400127273086
0.453900000000 0.906670290426 -0.401886514846
0.456750000000 0.905410570431 -0.403717305259
0.459600000000 0.904336652152 -0.406104892814
0.462450000000 0.902889573359 -0.408522931496
0.465300000000 0.902407419778 -0.409621876288
0.468150000000 0.901220982470 -0.412266399402
0.471000000000 0.900304326446 -0.414988894082
0.473850000000 0.898771297239 -0.416428929889
0.476700000000 0.898384323885 -0.419078190596
0.479550000000 0.897189207664 -0.421330156197
0.482400000000 0.896152475836 -0.423091975439
0.485250000000 0.895331558973 -0.426170180389
0.488100000000 0.893803432974 -0.427881689761
0.490950000000 0.892877000070 -0.430084972384
0.493800000000 0.891559308019 -0.431604069774
0.496650000000 0.891249965601 -0.434233855040
0.499500000000 0.889964719678 -0.436701236548
0.502350000000 0.889425702148 -0.438809233408
0.505200000000 0.887271424613 -0.441509838818
0.508050000000 0.886183864191 -0.443296779465
0.510900000000 0.884975371864 -0.445456098402
0.513750000000 0.884068937889 -0.447338030634
0.516600000000 0.882572990288 -0.449635268889
0.519450000000 0.881349389402 -0.451372070301
0.522300000000 0.880002695479 -0.453568113948
0.525150000000 0.877537512183 -0.461402292492
0.528000000000 0.877961219462 -0.457726964252
0.530850000000 0.877313091756 -0.461050264604
0.533700000000 0.875193519876 -0.462067131738
0.536550000000 0.874194420585 -0.464272303126
0.539400000000 0.872158847078 -0.466459448156
0.542250000000 0.870757157312 -0.469027390855
0.545100000000 0.870712226927 -0.470707036589
0.547950000000 0.869004028658 -0.473786170075
0.550800000000 0.866837219411 -0.475216512777
0.553650000000 0.866290186742 -0.477650127845
0.556500000000 0.863811285695 -0.480033075290
0.559350000000 0.863487322119 -0.481078944401
0.562200000000 0.860717205593 -0.483711304066
0.565050000000 0.859446906889 -0.485084351290
0.567900000000 0.857473725860 -0.495157404824
0.570750000000 0.857123013803 -0.490726754859
0.573600000000 0.854953629605 -0.492360227700
0.576450000000 0.853944378555 -0.494120057949
0.579300000000 0.852071435269 -0.496245335531
0.582150000000 0.851308247761 -0.498060426447
0.585000000000 0.849988128380 -0.500175772979
0.587850000000 0.848011335989 -0.503373281397
0.590700000000 0.847063196030 -0.504345610676
0.593550000000 0.845359020888 -0.506684581399
0.596400000000 0.843746218543 -0.508581704263
0.599250000000 0.842128214649 -0.510492435843
0.602100000000 0.840927360708 -0.512191141637
0.604950000000 0.838362612349 -0.508892625454
0.607800000000 0.837854312446 -0.516481906563
0.610650000000 0.836447570446 -0.518750280648
0.613500000000 0.835445397935 -0.520339444949
0.616350000000 0.833769707949 -0.522112390298
0.619200000000 0.832581659346 -0.523901196978
0.622050000000 0.831093434627 -0.526120823220
0.624900000000 0.830268244342 -0.527018292783
0.627750000000 0.828648962630 -0.529428207449
0.630600000000 0.826699531146 -0.531944749006
0.633450000000 0.825635288660 -0.534202634744
0.636300000000 0.823939040757 -0.536727218676
0.639150000000 0.822374570550 -0.538014246106
0.642000000000 0.822860917802 -0.541458597765
0.644850000000 0.820242503615 -0.542258081241
0.647700000000 0.820216745628 -0.544091324080
0.650550000000 0.818425637727 -0.545693203562
0.653400000000 0.816653499058 -0.548534170995
0.656250000000 0.815857545536 -0.549757913152
0.659100000000 0.813960595595 -0.551390164154
0.661950000000 0.812360676893 -0.553561506798
0.664800000000 0.810783604503 -0.554846991166
0.667650000000 0.809530798636 -0.557012365640
0.670500000000 0.808724390600 -0.559176784136
0.673350000000 0.806754981362 -0.560645801882
0.676200000000 0.805541188834 -0.562195372912
0.679050000000 0.802816553153 -0.565341142473
0.681900000000 0.803088741595 -0.565538823093
0.684750000000 0.801383239171 -0.567517351943
0.687600000000 0.799995550537 -0.569857242106
0.690450000000 0.798722622797 -0.571530310071
0.693300000000 0.797190868907 -0.573762501319
0.696150000000 0.795717379998 -0.575241315234
0.699000000000 0.794587197684 -0.577028762946
0.701850000000 0.793521885351 -0.578479801558
0.704700000000 0.791213396966 -0.580237535087
0.707550000000 0.789513555169 -0.583358968781
0.710400000000 0.787761406957 -0.585387005442
0.713250000000 0.787230086022 -0.586956414116
0.716100000000 0.785658351924 -0.587776335583
0.718950000000 0.782416811340 -0.589536167970
0.721800000000 0.780992977221 -0.591975794347
0.724650000000 0.778315284664 -0.592077070099
0.727500000000 0.776952271283 -0.596047422991
0.730350000000 0.777358426921 -0.598836258571
0.733200000000 0.774698326650 -0.599191778558
0.736050000000 0.773488209156 -0.598619018562
0.738900000000 0.771223218734 -0.602758810357
0.741750000000 0.769469764845 -0.604592317223
0.744600000000 0.767514548224 -0.606041587269
0.747450000000 0.766049886408 -0.606473524402
0.750300000000 0.762400868154 -0.610593253499
0.753150000000 0.762677630765 -0.613704046362
0.756000000000 0.760509505646 -0.612182507392
0.758850000000 0.759355791809 -0.615116842847
0.761700000000 0.757318501998 -0.616071051609
0.764550000000 0.755626001174 -0.616918371754
0.767400000000 0.753864055222 -0.619303568456
0.770250000000 0.752010495781 -0.619362659008
0.773100000000 0.750077413056 -0.623236511552
0.775950000000 0.748478490676 -0.624924520850
0.778800000000 0.747211683657 -0.626409622912
0.781650000000 0.745609964864 -0.628132831617
0.784500000000 0.744001601541 -0.629752724470
0.787350000000 0.742223522675 -0.631227283534
0.790200000000 0.729526443431 -0.632236560856
0.793050000000 0.739126750867 -0.634690800264
0.795900000000 0.738308316500 -0.635467930429
0.798750000000 0.736272763515 -0.637182489434
0.801600000000 0.734394395282 -0.639864695398
0.804450000000 0.732231784736 -0.640876623020
0.807300000000 0.731255264047 -0.642789369127
0.810150000000 0.729948734349 -0.643095200987
0.813000000000 0.728170172144 -0.646765956416
0.815850000000 0.726672847239 -0.648245089453
0.818700000000 0.724501241368 -0.648197864878
0.821550000000 0.723164399699 -0.649907829405
0.824400000000 0.721182464699 -0.652104199753
0.827250000000 0.720578518231 -0.651305069488
0.830100000000 0.718357611471 -0.656287280521
0.832950000000 0.716113060689 -0.657949390356
0.835800000000 0.715773942976 -0.657999220043
0.838650000000 0.715111943317 -0.659203617282
0.841500000000 0.713354145835 -0.662460848596
0.844350000000 0.711412039020 -0.662644502771
0.847200000000 0.710193080707 -0.665426792952
0.850050000000 0.708456109151 -0.666708949619
0.852900000000 0.706265573049 -0.668325698450
0.855750000000 0.704623748635 -0.669380384100
0.858600000000 0.703564381634 -0.670690553778
0.861450000000 0.701951799539 -0.672411543146
0.864300000000 0.699547760600 -0.673803043693
0.867150000000 0.698716495784 -0.675564529038
0.870000000000 0.697337814638 -0.677154525874
0.872850000000 0.695049880251 -0.678843847914
0.875700000000 0.693601026449 -0.680641868392
0.878550000000 0.692565269094 -0.681655692269
0.881400000000 0.690668436705 -0.682704011186
0.884250000000 0.689324190967 -0.685178018016
0.887100000000 0.687089036327 -0.686250191697
0.889950000000 0.684749376256 -0.687264538598
0.892800000000 0.683684986290 -0.689104631925
0.895650000000 0.682183092421 -0.691086094561
0.898500000000 0.680988744626 -0.692267675794
0.901350000000 0.678321101653 -0.693866625855
0.904200000000 0.676576640282 -0.694853541907
0.907050000000 0.673672614533 -0.695919928058
0.909900000000 0.672869238893 -0.697113441887
0.912750000000 0.671406809383 -0.698838769338
0.915600000000 0.669997784823 -0.699080084870
0.918450000000 0.667713649365 -0.702364795353
0.921300000000 0.665480807304 -0.704171940177
0.924150000000 0.663967104514 -0.703893840101
0.927000000000 0.661898209920 -0.704802875223
0.929850000000 0.659926932557 -0.707126227258
0.932700000000 0.658536605236 -0.708326991550
0.935550000000 0.656181446735 -0.708293091070
0.938400000000 0.653694716602 -0.711019969599
0.941250000000 0.652230947686 -0.712121635929
0.944100000000 0.650264834701 -0.712453210163
0.946950000000 0.648200104068 -0.714618057871
0.949800000000 0.646207727111 -0.716355551913
0.952650000000 0.644520399509 -0.717471218570
0.955500000000 0.642092790406 -0.718656056066
0.958350000000 0.640798696015 -0.720172363209
0.961200000000 0.639202583576 -0.721424487421
0.964050000000 0.637843674490 -0.722315980387
0.966900000000 0.635003469562 -0.723310395193
0.969750000000 0.633561397725 -0.726921359925
0.972600000000 0.632010340522 -0.726497107597
0.975450000000 0.630279061160 -0.728176335501
0.978300000000 0.628567423353 -0.729259677957
0.981150000000 0.626676670454 -0.730660417214
0.984000000000 0.624910695725 -0.731956055511
0.986850000000 0.623737472163 -0.732900480601
0.989700000000 0.620069741255 -0.734386082874
0.992550000000 0.619536549199 -0.736447783212
0.995400000000 0.618180839779 -0.737459697407
0.998250000000 0.614400437473 -0.738238129329
1.001100000000 0.613877627338 -0.739501410645
1.003950000000 0.613024141481 -0.740950734049
1.006800000000 0.611951325246 -0.742283297866
1.009650000000 0.610316515846 -0.742840343284
1.012500000000 0.606924083401 -0.746357749897
1.015350000000 0.606264137615 -0.746609276501
1.018200000000 0.604906271372 -0.747460957847
1.021050000000 0.603656221210 -0.748948822856
1.023900000000 0.601858206279 -0.749639509774
1.026750000000 0.599634741284 -0.750389701292
1.029600000000 0.598625275939 -0.752293153303
1.032450000000 0.596947458454 -0.753276162643
1.035300000000 0.595224110798 -0.754410357499
1.038150000000 0.593361472949 -0.755822214498
1.041000000000 0.591927073987 -0.756815079400
1.043850000000 0.589805195604 -0.758457846090
1.046700000000 0.589005428900 -0.759048863623
1.049550000000 0.587107921542 -0.759350459977
1.052400000000 0.584733444289 -0.761158858803
1.055250000000 0.583894668667 -0.762426774593
1.058100000000 0.580339686357 -0.764849792914
1.060950000000 0.579753230446 -0.764410466024
1.063800000000 0.578983669284 -0.764897375299
1.066650000000 0.576360524063 -0.767015504289
1.069500000000 0.574212180838 -0.776570060456
1.072350000000 0.572793990002 -0.766678412122
1.075200000000 0.570544006172 -0.769622834926
1.078050000000 0.568434178453 -0.769882024168
1.080900000000 0.567389862353 -0.771054355899
1.083750000000 0.565838970747 -0.772974430395
1.086600000000 0.564514229473 -0.774212239858
1.089450000000 0.562930928826 -0.773108483026
1.092300000000 0.559020989266 -0.777533621636
1.095150000000 0.556689330748 -0.777248406763
1.098000000000 0.556229199230 -0.777160728639
1.100850000000 0.554597814300 -0.779364466922
1.103700000000 0.554700434958 -0.777695580750
1.106550000000 0.550098504787 -0.780704535780
1.109400000000 0.549156555380 -0.781413043487
1.112250000000 0.547043255062 -0.781726142928
1.115100000000 0.544922873287 -0.781589177152
1.117950000000 0.543994632770 -0.784236374532
1.120800000000 0.541224338790 -0.785231052529
1.123650000000 0.538824310296 -0.785708950021
1.126500000000 0.536324602316 -0.787872564722
1.129350000000 0.534259974255 -0.788839735627
1.132200000000 0.532432497290 -0.789759429817
1.135050000000 0.530349874478 -0.790852370284
1.137900000000 0.528545782261 -0.792102983502
1.140750000000 0.526517823134 -0.792818073026
1.143600000000 0.524767406505 -0.794252475204
1.146450000000 0.522810878775 -0.794747631202
1.149300000000 0.521279621086 -0.794116382923
1.152150000000 0.519458098003 -0.796393500314
1.155000000000 0.517447984956 -0.797271654664
1.157850000000 0.515141147362 -0.798129221710
1.160700000000 0.512660504716 -0.799719234406
1.163550000000 0.511327715598 -0.800168600134
1.166400000000 0.510425578486 -0.800806829014
1.169250000000 0.506783983279 -0.799780627920
1.172100000000 0.508408957661 -0.805279999314
1.174950000000 0.504259414972 -0.802970570968
1.177800000000 0.502950687990 -0.803959132587
1.180650000000 0.500365455214 -0.806348042906
1.183500000000 0.497559216984 -0.805008049518
1.186350000000 0.498017930668 -0.806703181163
1.189200000000 0.496680378200 -0.807728060989
1.192050000000 0.494447955689 -0.809043805771
1.194900000000 0.491805176261 -0.810428479478
1.197750000000 0.489781910751 -0.811809977494
1.200600000000 0.489538974919 -0.812348758428
1.203450000000 0.487742792406 -0.812885251039
1.206300000000 0.486227482121 -0.814356762958
1.209150000000 0.484050506403 -0.814459664119
1.212000000000 0.483016489895 -0.815357359267
1.214850000000 0.480913377731 -0.816139164554
1.217700000000 0.480525118711 -0.816589446560
1.220550000000 0.478648282144 -0.817392715739
1.223400000000 0.477099303712 -0.818166644314
1.226250000000 0.476134190944 -0.818376310473
1.229100000000 0.472755314971 -0.819147723563
1.231950000000 0.471267152764 -0.820227699727
1.234800000000 0.469036635567 -0.821284803822
1.237650000000 0.468804921654 -0.821415188406
1.240500000000 0.464683422754 -0.812991605034
1.243350000000 0.465344388973 -0.823033702193
1.246200000000 0.462964445457 -0.823894853004
1.249050000000 0.462443485446 -0.824197392662
1.251900000000 0.459991044094 -0.825422356988
1.254750000000 0.459559726070 -0.825835500041
1.257600000000 0.457330187425 -0.826528109253
1.260450000000 0.455637817270 -0.826918609191
1.263300000000 0.453612812175 -0.826511360388
1.266150000000 0.451825043415 -0.829916201979
1.269000000000 0.449061295488 -0.831015298516
1.271850000000 0.449315453995 -0.828028479386
1.274700000000 0.450759161280 -0.830219408701
1.277550000000 0.446554110668 -0.832155129599
1.280400000000 0.443189562755 -0.832717986176
1.283250000000 0.441773173645 -0.832286164428
1.286100000000 0.438315021103 -0.832604347521
1.288950000000 0.438503404907 -0.833488140283
1.291800000000 0.435152549367 -0.833763906676
1.294650000000 0.434215262283 -0.835193138765
1.297500000000 0.431769868180 -0.836592464640
1.300350000000 0.430196829098 -0.836900824039
1.303200000000 0.428033248052 -0.837158540460
1.306050000000 0.426666711386 -0.837718452230
1.308900000000 0.424566546524 -0.837530910504
1.311750000000 0.422163440559 -0.839604269844
1.314600000000 0.420359990279 -0.840099603436
1.317450000000 0.417944684445 -0.841328559371
1.320300000000 0.416510668196 -0.841449714966
1.323150000000 0.414602896079 -0.842242581422
1.326000000000 0.412757608352 -0.842876694050
1.328850000000 0.411128332154 -0.843262396434
1.331700000000 0.410211764515 -0.844897864515
1.334550000000 0.407839444244 -0.844414266487
1.337400000000 0.402231521319 -0.847146832126
1.340250000000 0.403150416244 -0.847604325651
1.343100000000 0.401308758796 -0.847477914124
1.345950000000 0.399836962316 -0.847688322556
1.348800000000 0.398464674975 -0.848991226016
1.351650000000 0.396087894660 -0.849901357316
1.354500000000 0.394489297695 -0.849700166680
1.357350000000 0.391805723088 -0.850630687146
1.360200000000 0.391001554627 -0.851745251750
1.363050000000 0.389280423167 -0.852231314160
1.365900000000 0.386490068684 -0.852318241413
1.368750000000 0.385015970749 -0.853575777663
1.371600000000 0.383761096438 -0.854148236343
1.374450000000 0.382433306472 -0.854456172146
1.377300000000 0.380551397090 -0.854891821252
1.380150000000 0.379417818403 -0.856242435272
1.383000000000 0.377250846718 -0.857030553065
1.385850000000 0.375859908336 -0.857892531686
1.388700000000 0.374307045235 -0.858384082147
1.391550000000 0.372443420372 -0.859113126547
1.394400000000 0.370576518311 -0.860050103667
1.397250000000 0.367624845318 -0.860530408730
1.400100000000 0.366526812138 -0.861154930781
1.402950000000 0.365326181728 -0.861860528454
1.405800000000 0.364057480681 -0.862490539896
1.408650000000 0.363324345648 -0.864219410347
1.411500000000 0.361544984995 -0.867630214653
1.414350000000 0.359267772105 -0.863918204364
1.417200000000 0.358041049227 -0.864687563677
1.420050000000 0.355065630242 -0.864446978552
1.422900000000 0.353957640030 -0.865352263382
1.425750000000 0.350027104612 -0.863818957832
1.428600000000 0.350671704083 -0.866428249904
1.431450000000 0.348261988284 -0.866602443250
1.434300000000 0.346374996627 -0.867753621653
1.437150000000 0.345935897916 -0.869606943223
1.440000000000 0.343159433736 -0.869525633704
1.442850000000 0.343103964170 -0.866185314035
1.445700000000 0.338922326828 -0.873497805299
1.448550000000 0.340053774205 -0.869577597977
1.451400000000 0.333897248936 -0.870826609245
1.454250000000 0.336534747033 -0.872014845297
1.457100000000 0.333371460180 -0.869024943118
1.459950000000 0.331683172686 -0.870518082832
1.462800000000 0.328445374350 -0.870972430493
1.465650000000 0.328544498900 -0.871714379347
1.468500000000 0.324248970643 -0.872567378679
1.471350000000 0.323282219171 -0.871661185669
1.474200000000 0.321930502785 -0.872500421153
1.477050000000 0.320682247380 -0.873549460061
1.479900000000 0.318581364271 -0.872983963070
1.482750000000 0.316042184986 -0.873357052154
1.485600000000 0.314506474875 -0.873440505127
1.488450000000 0.312486159261 -0.873686773570
1.491300000000 0.310516526670 -0.874752976499
1.494150000000 0.308093069025 -0.874911215635
1.497000000000 0.306448121209 -0.874883996684
1.499850000000 0.303574674211 -0.874860281253
1.502700000000 0.302020884052 -0.876410648411
1.505550000000 0.300897386637 -0.876992845678
1.508400000000 0.299087265616 -0.875623414744
1.511250000000 0.298115791583 -0.873452884519
1.514100000000 0.296290033047 -0.874804631157
1.516950000000 0.293228130780 -0.876226372901
1.519800000000 0.291784122016 -0.877975190723
1.522650000000 0.289705093198 -0.877126253496
1.525500000000 0.288922161356 -0.877468884298
1.528350000000 0.286358993501 -0.878332238333
1.531200000000 0.285692089315 -0.878586571019
1.534050000000 0.284396327836 -0.880105994111
