! NanoVNA-App by OneOfEleven et al v1.1.209 (+OD15) 
! Date: 2024-07-30 15:09:37
! Start: 200MHz Stop: 6GHz Points: 801
! S-Parameter data: F S11 S21 S12 S22
# Hz S RI R 50
!     Frequency           S11_Real           S11_Imag           S21_Real           S21_Imag           S12_Real           S12_Imag           S22_Real           S22_Imag
      200000000   -9.637216330e-01   -2.882329524e-01   -1.852679998e-05   -7.651746273e-06    0.000000000e+00    0.000000000e+00    0.000000000e+00    0.000000000e+00
      207250000   -9.911791086e-01   -1.997701526e-01    1.881271601e-06   -3.091990948e-05    0.000000000e+00    0.000000000e+00    0.000000000e+00    0.000000000e+00
      214500000   -1.010139227e+00   -1.082230955e-01    4.246830940e-07   -2.029817551e-05    0.000000000e+00    0.000000000e+00    0.000000000e+00    0.000000000e+00
      221750000   -1.020606518e+00   -1.344958600e-02   -1.584272832e-05   -1.076608896e-05    0.000000000e+00    0.000000000e+00    0.000000000e+00    0.000000000e+00
      229000000   -1.022617698e+00    8.302370459e-02    2.222135663e-05    2.522766590e-05    0.000000000e+00    0.000000000e+00    0.000000000e+00    0.000000000e+00
      236250000   -1.014934540e+00    1.806051433e-01   -2.961140126e-05   -1.794844866e-05    0.000000000e+00    0.000000000e+00    0.000000000e+00    0.000000000e+00
      243500000   -9.976422787e-01    2.793046236e-01    1.090764999e-05   -1.084525138e-05    0.000000000e+00    0.000000000e+00    0.000000000e+00    0.000000000e+00
      250750000   -9.688983560e-01    3.777966201e-01    1.180637628e-05   -1.070182770e-05    0.000000000e+00    0.000000000e+00    0.000000000e+00    0.000000000e+00
      258000000   -9.294871688e-01    4.737778008e-01   -1.995731145e-05   -2.309121192e-05    0.000000000e+00    0.000000000e+00    0.000000000e+00    0.000000000e+00
      265250000   -8.791014552e-01    5.674688816e-01    1.017563045e-05    1.058075577e-05    0.000000000e+00    0.000000000e+00    0.000000000e+00    0.000000000e+00
      272500000   -8.186077476e-01    6.563237309e-01   -2.544559538e-05   -2.512615174e-05    0.000000000e+00    0.000000000e+00    0.000000000e+00    0.000000000e+00
      279750000   -7.454758883e-01    7.401466966e-01    2.817809582e-05   -3.351364285e-05    0.000000000e+00    0.000000000e+00    0.000000000e+00    0.000000000e+00
      287000000   -6.626445651e-01    8.144770265e-01   -6.359070539e-06    1.925136894e-05    0.000000000e+00    0.000000000e+00    0.000000000e+00    0.000000000e+00
      294250000   -5.705872774e-01    8.815402389e-01    7.773749530e-06   -7.167458534e-06    0.000000000e+00    0.000000000e+00    0.000000000e+00    0.000000000e+00
      301500000   -4.696226120e-01    9.375189543e-01   -2.091750503e-06    6.037764251e-06    0.000000000e+00    0.000000000e+00    0.000000000e+00    0.000000000e+00
      308750000   -3.615732789e-01    9.821142554e-01   -1.464691013e-05    1.446064562e-05    0.000000000e+00    0.000000000e+00    0.000000000e+00    0.000000000e+00
      316000000   -2.480281442e-01    1.013142228e+00   -2.679880708e-05    2.242811024e-05    0.000000000e+00    0.000000000e+00    0.000000000e+00    0.000000000e+00
      323250000   -1.303627789e-01    1.030229092e+00    2.601183951e-06   -3.043375909e-05    0.000000000e+00    0.000000000e+00    0.000000000e+00    0.000000000e+00
      330500000   -1.023266371e-02    1.034108162e+00    2.754945308e-05    1.782830805e-05    0.000000000e+00    0.000000000e+00    0.000000000e+00    0.000000000e+00
      337750000    1.092178300e-01    1.023297668e+00   -2.877786756e-07   -7.217749953e-07    0.000000000e+00    0.000000000e+00    0.000000000e+00    0.000000000e+00
      345000000    2.272769064e-01    9.966654778e-01   -3.296881914e-07    4.647765309e-05    0.000000000e+00    0.000000000e+00    0.000000000e+00    0.000000000e+00
      352250000    3.409841955e-01    9.568763375e-01    2.175197005e-05   -2.491101623e-05    0.000000000e+00    0.000000000e+00    0.000000000e+00    0.000000000e+00
      359500000    4.485608339e-01    9.039883018e-01    2.766959369e-06   -3.836117685e-06    0.000000000e+00    0.000000000e+00    0.000000000e+00    0.000000000e+00
      366750000    5.487135053e-01    8.383303881e-01    8.095055819e-06   -1.620594412e-05    0.000000000e+00    0.000000000e+00    0.000000000e+00    0.000000000e+00
      374000000    6.399227381e-01    7.625946999e-01    3.197230399e-06   -5.233101547e-06    0.000000000e+00    0.000000000e+00    0.000000000e+00    0.000000000e+00
      381250000    7.223679423e-01    6.754757762e-01    1.881644130e-05    2.203229815e-05    0.000000000e+00    0.000000000e+00    0.000000000e+00    0.000000000e+00
      388500000    7.919866443e-01    5.823526382e-01   -7.708556950e-06    1.264642924e-05    0.000000000e+00    0.000000000e+00    0.000000000e+00    0.000000000e+00
      395750000    8.512334228e-01    4.824877083e-01   -1.609139144e-05   -1.909770072e-05    0.000000000e+00    0.000000000e+00    0.000000000e+00    0.000000000e+00
      403000000    8.973357081e-01    3.766549826e-01   -3.149732947e-05    1.313537359e-05    0.000000000e+00    0.000000000e+00    0.000000000e+00    0.000000000e+00
      410250000    9.326866269e-01    2.688118815e-01    1.378357410e-06   -1.094024628e-05    0.000000000e+00    0.000000000e+00    0.000000000e+00    0.000000000e+00
      417500000    9.546938539e-01    1.580923647e-01    9.590759873e-06    1.177564263e-05    0.000000000e+00    0.000000000e+00    0.000000000e+00    0.000000000e+00
      424750000    9.655771852e-01    4.697328061e-02    2.790894359e-05    4.485249519e-06    0.000000000e+00    0.000000000e+00    0.000000000e+00    0.000000000e+00
      432000000    9.648060799e-01   -6.379675865e-02    1.015048474e-05    1.822970808e-05    0.000000000e+00    0.000000000e+00    0.000000000e+00    0.000000000e+00
      439250000    9.527907372e-01   -1.726276577e-01    3.718119115e-05    3.163516521e-05    0.000000000e+00    0.000000000e+00    0.000000000e+00    0.000000000e+00
      446500000    9.295226932e-01   -2.784068882e-01   -9.181909263e-06    1.231860369e-05    0.000000000e+00    0.000000000e+00    0.000000000e+00    0.000000000e+00
      453750000    8.961103559e-01   -3.817774653e-01    2.825818956e-05   -2.768822014e-06    0.000000000e+00    0.000000000e+00    0.000000000e+00    0.000000000e+00
      461000000    8.529881239e-01   -4.791212082e-01   -1.441687346e-06    2.868007869e-05    0.000000000e+00    0.000000000e+00    0.000000000e+00    0.000000000e+00
      468250000    8.016969562e-01   -5.712157488e-01   -1.239497215e-05    2.159364522e-05    0.000000000e+00    0.000000000e+00    0.000000000e+00    0.000000000e+00
      475500000    7.399876118e-01   -6.588905454e-01   -2.633687109e-05   -2.205185592e-05    0.000000000e+00    0.000000000e+00    0.000000000e+00    0.000000000e+00
      482750000    6.711348891e-01   -7.387349606e-01    1.341104507e-05   -1.009833068e-05    0.000000000e+00    0.000000000e+00    0.000000000e+00    0.000000000e+00
      490000000    5.949794650e-01   -8.117983937e-01    2.145115286e-05    1.168530434e-05    0.000000000e+00    0.000000000e+00    0.000000000e+00    0.000000000e+00
      497250000    5.118431449e-01   -8.773960471e-01   -2.444069833e-05   -1.783482730e-06    0.000000000e+00    0.000000000e+00    0.000000000e+00    0.000000000e+00
      504500000    4.226470292e-01   -9.337953925e-01   -2.203695476e-05   -1.207739115e-05    0.000000000e+00    0.000000000e+00    0.000000000e+00    0.000000000e+00
      511750000    3.278799355e-01   -9.824044108e-01    1.026317477e-06   -2.804398537e-05    0.000000000e+00    0.000000000e+00    0.000000000e+00    0.000000000e+00
      519000000    2.292086482e-01   -1.020805240e+00    3.282539546e-05   -2.902373672e-05    0.000000000e+00    0.000000000e+00    0.000000000e+00    0.000000000e+00
      526250000    1.254629195e-01   -1.049600840e+00   -1.691654325e-05    1.308508217e-06    0.000000000e+00    0.000000000e+00    0.000000000e+00    0.000000000e+00
      533500000    1.994292438e-02   -1.068257928e+00   -2.076942474e-05    2.167094499e-05    0.000000000e+00    0.000000000e+00    0.000000000e+00    0.000000000e+00
      540750000   -8.895677328e-02   -1.075626254e+00    1.145619899e-05    2.807006240e-05    0.000000000e+00    0.000000000e+00    0.000000000e+00    0.000000000e+00
      548000000   -1.989717931e-01   -1.071555376e+00    1.154281199e-05   -1.026317477e-06    0.000000000e+00    0.000000000e+00    0.000000000e+00    0.000000000e+00
      555250000   -3.079916835e-01   -1.055690050e+00    6.819143891e-06   -3.785826266e-06    0.000000000e+00    0.000000000e+00    0.000000000e+00    0.000000000e+00
      562500000   -4.159460366e-01   -1.028653026e+00    8.723698556e-06    1.387670636e-06    0.000000000e+00    0.000000000e+00    0.000000000e+00    0.000000000e+00
      569750000   -5.203015208e-01   -9.902158976e-01   -2.263113856e-05    1.385435462e-05    0.000000000e+00    0.000000000e+00    0.000000000e+00    0.000000000e+00
      577000000   -6.227421165e-01   -9.394250512e-01    1.873262227e-05    3.292225301e-06    0.000000000e+00    0.000000000e+00    0.000000000e+00    0.000000000e+00
      584250000   -7.175950408e-01   -8.766882420e-01    2.923421562e-05   -2.628192306e-06    0.000000000e+00    0.000000000e+00    0.000000000e+00    0.000000000e+00
      591500000   -8.072762489e-01   -8.035119176e-01    4.572793841e-06    1.297518611e-05    0.000000000e+00    0.000000000e+00    0.000000000e+00    0.000000000e+00
      598750000   -8.884714842e-01   -7.199518085e-01    2.666376531e-05    2.839230001e-05    0.000000000e+00    0.000000000e+00    0.000000000e+00    0.000000000e+00
      606000000   -9.586299062e-01   -6.282789111e-01   -1.450255513e-05    1.972727478e-05    0.000000000e+00    0.000000000e+00    0.000000000e+00    0.000000000e+00
      613250000   -1.019152999e+00   -5.281684399e-01    1.382175833e-05   -2.178829163e-05    0.000000000e+00    0.000000000e+00    0.000000000e+00    0.000000000e+00
      620500000   -1.067352414e+00   -4.193788469e-01   -3.226101398e-05    4.978384823e-05    0.000000000e+00    0.000000000e+00    0.000000000e+00    0.000000000e+00
      627750000   -1.103847861e+00   -3.069412410e-01    3.635324538e-05    9.777024388e-06    0.000000000e+00    0.000000000e+00    0.000000000e+00    0.000000000e+00
      635000000   -1.124743581e+00   -1.926753521e-01    9.513460100e-06   -1.704413444e-05    0.000000000e+00    0.000000000e+00    0.000000000e+00    0.000000000e+00
      642250000   -1.133318067e+00   -7.371040434e-02    1.313164830e-06   -2.219993621e-05    0.000000000e+00    0.000000000e+00    0.000000000e+00    0.000000000e+00
      649500000   -1.128521442e+00    4.227270558e-02   -2.309586853e-05   -1.051463187e-06    0.000000000e+00    0.000000000e+00    0.000000000e+00    0.000000000e+00
      656750000   -1.109987020e+00    1.573322415e-01    5.279202014e-05    2.939067781e-05    0.000000000e+00    0.000000000e+00    0.000000000e+00    0.000000000e+00
      664000000   -1.078155041e+00    2.691500485e-01   -1.264829189e-05   -6.970949471e-06    0.000000000e+00    0.000000000e+00    0.000000000e+00    0.000000000e+00
      671250000   -1.034284353e+00    3.750842214e-01    1.356005669e-05    3.653019667e-05    0.000000000e+00    0.000000000e+00    0.000000000e+00    0.000000000e+00
      678500000   -9.786957502e-01    4.747066796e-01   -8.344650269e-07    8.354708552e-05    0.000000000e+00    0.000000000e+00    0.000000000e+00    0.000000000e+00
      685750000   -9.124467969e-01    5.671048164e-01   -1.458171755e-05    7.092021406e-06    0.000000000e+00    0.000000000e+00    0.000000000e+00    0.000000000e+00
      693000000   -8.379634619e-01    6.496961713e-01   -7.580034435e-06   -3.210082650e-05    0.000000000e+00    0.000000000e+00    0.000000000e+00    0.000000000e+00
      700250000   -7.543662786e-01    7.234644890e-01   -4.039146006e-05    1.462735236e-05    0.000000000e+00    0.000000000e+00    0.000000000e+00    0.000000000e+00
      707500000   -6.651495099e-01    7.877806425e-01    2.284068614e-05   -9.418465197e-06    0.000000000e+00    0.000000000e+00    0.000000000e+00    0.000000000e+00
      714750000   -5.710335970e-01    8.396372199e-01    6.506312639e-05   -4.660338163e-06    0.000000000e+00    0.000000000e+00    0.000000000e+00    0.000000000e+00
      722000000   -4.725413024e-01    8.824037910e-01   -1.557730138e-05    1.399777830e-06    0.000000000e+00    0.000000000e+00    0.000000000e+00    0.000000000e+00
      729250000   -3.733051419e-01    9.125074148e-01    1.193583012e-05    1.016072929e-06    0.000000000e+00    0.000000000e+00    0.000000000e+00    0.000000000e+00
      736500000   -2.712094486e-01    9.335294962e-01   -3.837607801e-05    1.751445234e-05    0.000000000e+00    0.000000000e+00    0.000000000e+00    0.000000000e+00
      743750000   -1.699067205e-01    9.430696368e-01   -2.116058022e-05    1.186877489e-05    0.000000000e+00    0.000000000e+00    0.000000000e+00    0.000000000e+00
      751000000   -6.789084524e-02    9.432321191e-01    6.312504411e-06    4.590675235e-05    0.000000000e+00    0.000000000e+00    0.000000000e+00    0.000000000e+00
      758250000    3.194677085e-02    9.329332113e-01    1.488532871e-05    2.860743552e-05    0.000000000e+00    0.000000000e+00    0.000000000e+00    0.000000000e+00
      765500000    1.290943623e-01    9.139621258e-01    1.315772533e-05   -1.074653119e-05    0.000000000e+00    0.000000000e+00    0.000000000e+00    0.000000000e+00
      772750000    2.243843973e-01    8.850425482e-01    3.747548908e-05   -1.316424459e-05    0.000000000e+00    0.000000000e+00    0.000000000e+00    0.000000000e+00
      780000000    3.139805198e-01    8.501994014e-01    4.272907972e-06    9.167939425e-06    0.000000000e+00    0.000000000e+00    0.000000000e+00    0.000000000e+00
      787250000    3.998833299e-01    8.048127890e-01   -2.842396498e-05    8.754432201e-06    0.000000000e+00    0.000000000e+00    0.000000000e+00    0.000000000e+00
      794500000    4.813263416e-01    7.529261112e-01    4.281289876e-05    1.852028072e-05    0.000000000e+00    0.000000000e+00    0.000000000e+00    0.000000000e+00
      801750000    5.575532317e-01    6.948792934e-01    1.045223325e-05    2.705305815e-05    0.000000000e+00    0.000000000e+00    0.000000000e+00    0.000000000e+00
      809000000    6.278542876e-01    6.294967532e-01    7.651746273e-06   -3.995466977e-05    0.000000000e+00    0.000000000e+00    0.000000000e+00    0.000000000e+00
      816250000    6.921457052e-01    5.573291779e-01   -5.791615695e-05   -1.424737275e-05    0.000000000e+00    0.000000000e+00    0.000000000e+00    0.000000000e+00
      823500000    7.498130798e-01    4.792183638e-01    2.613291144e-06   -3.115925938e-05    0.000000000e+00    0.000000000e+00    0.000000000e+00    0.000000000e+00
      830750000    8.001348972e-01    3.967379630e-01    2.081505954e-06   -3.253947943e-05    0.000000000e+00    0.000000000e+00    0.000000000e+00    0.000000000e+00
      838000000    8.426904082e-01    3.095699549e-01   -4.361290485e-05    6.936490536e-06    0.000000000e+00    0.000000000e+00    0.000000000e+00    0.000000000e+00
      845250000    8.780832291e-01    2.183062881e-01    8.568167686e-07    3.304332495e-06    0.000000000e+00    0.000000000e+00    0.000000000e+00    0.000000000e+00
      852500000    9.044746161e-01    1.219264343e-01   -2.290960401e-05    1.000799239e-05    0.000000000e+00    0.000000000e+00    0.000000000e+00    0.000000000e+00
      859750000    9.215308428e-01    2.435209043e-02   -2.046395093e-05    2.244487405e-07    0.000000000e+00    0.000000000e+00    0.000000000e+00    0.000000000e+00
      867000000    9.293695688e-01   -7.843900472e-02   -1.350697130e-05   -9.618699551e-06    0.000000000e+00    0.000000000e+00    0.000000000e+00    0.000000000e+00
      874250000    9.274780750e-01   -1.803902388e-01    4.955567420e-06   -4.934333265e-05    0.000000000e+00    0.000000000e+00    0.000000000e+00    0.000000000e+00
      881500000    9.138665199e-01   -2.863005102e-01    5.597528070e-05    8.923001587e-06    0.000000000e+00    0.000000000e+00    0.000000000e+00    0.000000000e+00
      888750000    8.906385303e-01   -3.882767856e-01    3.356579691e-05    2.139620483e-05    0.000000000e+00    0.000000000e+00    0.000000000e+00    0.000000000e+00
      896000000    8.551605940e-01   -4.909475148e-01    3.539957106e-05   -5.316454917e-05    0.000000000e+00    0.000000000e+00    0.000000000e+00    0.000000000e+00
      903250000    8.079915047e-01   -5.902970433e-01   -2.904329449e-05   -4.023406655e-05    0.000000000e+00    0.000000000e+00    0.000000000e+00    0.000000000e+00
      910500000    7.478839159e-01   -6.873180270e-01    1.855846494e-05   -9.650364518e-06    0.000000000e+00    0.000000000e+00    0.000000000e+00    0.000000000e+00
      917750000    6.765677929e-01   -7.764308453e-01    2.966541797e-05    6.910413504e-06    0.000000000e+00    0.000000000e+00    0.000000000e+00    0.000000000e+00
      925000000    5.950148702e-01   -8.587682843e-01   -6.700679660e-05   -4.038773477e-05    0.000000000e+00    0.000000000e+00    0.000000000e+00    0.000000000e+00
      932250000    4.998542666e-01   -9.325724840e-01    1.944229007e-05   -9.264796972e-06    0.000000000e+00    0.000000000e+00    0.000000000e+00    0.000000000e+00
      939500000    3.960682154e-01   -9.947090149e-01    6.482005119e-06    4.178471863e-05    0.000000000e+00    0.000000000e+00    0.000000000e+00    0.000000000e+00
      946750000    2.856860161e-01   -1.043531775e+00    1.020822674e-05    3.563892096e-05    0.000000000e+00    0.000000000e+00    0.000000000e+00    0.000000000e+00
      954000000    1.665136069e-01   -1.078732610e+00   -2.118013799e-05   -1.229811460e-05    0.000000000e+00    0.000000000e+00    0.000000000e+00    0.000000000e+00
      961250000    4.438235238e-02   -1.096555233e+00   -2.471171319e-05    1.516100019e-05    0.000000000e+00    0.000000000e+00    0.000000000e+00    0.000000000e+00
      968500000   -8.319271356e-02   -1.098219395e+00    1.102034003e-05    1.670792699e-05    0.000000000e+00    0.000000000e+00    0.000000000e+00    0.000000000e+00
      975750000   -2.069874704e-01   -1.084669113e+00   -5.054939538e-05   -7.570721209e-06    0.000000000e+00    0.000000000e+00    0.000000000e+00    0.000000000e+00
      983000000   -3.279057443e-01   -1.053762794e+00   -5.748588592e-05   -4.814192653e-05    0.000000000e+00    0.000000000e+00    0.000000000e+00    0.000000000e+00
      990250000   -4.434707165e-01   -1.007693172e+00    2.071447670e-05   -3.840122372e-05    0.000000000e+00    0.000000000e+00    0.000000000e+00    0.000000000e+00
      997500000   -5.512102246e-01   -9.462172985e-01    4.029553384e-05   -1.474563032e-05    0.000000000e+00    0.000000000e+00    0.000000000e+00    0.000000000e+00
     1004750000   -6.480080485e-01   -8.721251488e-01   -1.097284257e-05    1.743994653e-05    0.000000000e+00    0.000000000e+00    0.000000000e+00    0.000000000e+00
     1012000000   -7.325425744e-01   -7.896651626e-01    4.026107490e-06   -2.759136260e-05    0.000000000e+00    0.000000000e+00    0.000000000e+00    0.000000000e+00
     1019250000   -8.062777519e-01   -6.945723891e-01   -4.432350397e-05    1.290813088e-06    0.000000000e+00    0.000000000e+00    0.000000000e+00    0.000000000e+00
     1026500000   -8.653990030e-01   -5.951185226e-01   -2.102553844e-05    1.708697528e-05    0.000000000e+00    0.000000000e+00    0.000000000e+00    0.000000000e+00
     1033750000   -9.108375311e-01   -4.903972447e-01    3.874301910e-05    1.324154437e-05    0.000000000e+00    0.000000000e+00    0.000000000e+00    0.000000000e+00
     1041000000   -9.425358772e-01   -3.865112960e-01    1.871120185e-05   -5.196500570e-05    0.000000000e+00    0.000000000e+00    0.000000000e+00    0.000000000e+00
