! NanoVNA-App by OneOfEleven et al v1.1.209 (+OD15) 
! Date: 2024-07-30 15:09:40
! Start: 200MHz Stop: 6GHz Points: 801
! S-Parameter data: F S11 S21 S12 S22
# Hz S RI R 50
!     Frequency           S11_Real           S11_Imag           S21_Real           S21_Imag           S12_Real           S12_Imag           S22_Real           S22_Imag
      200000000   -9.643092155e-01   -2.881160676e-01    2.270471305e-05   -2.025160939e-05    0.000000000e+00    0.000000000e+00    0.000000000e+00    0.000000000e+00
      207250000   -9.909765124e-01   -1.996817589e-01   -2.149585634e-05    1.811981201e-05    0.000000000e+00    0.000000000e+00    0.000000000e+00    0.000000000e+00
      214500000   -1.010400295e+00   -1.083063707e-01   -9.455718100e-06    3.654509783e-05    0.000000000e+00    0.000000000e+00    0.000000000e+00    0.000000000e+00
      221750000   -1.020906210e+00   -1.362533402e-02    3.922544420e-05   -2.658925951e-06    0.000000000e+00    0.000000000e+00    0.000000000e+00    0.000000000e+00
      229000000   -1.023258448e+00    8.296070993e-02    1.458730549e-05    1.796893775e-05    0.000000000e+00    0.000000000e+00    0.000000000e+00    0.000000000e+00
      236250000   -1.014940739e+00    1.807700843e-01    5.451962352e-06   -1.399405301e-05    0.000000000e+00    0.000000000e+00    0.000000000e+00    0.000000000e+00
      243500000   -9.977064729e-01    2.791565955e-01    3.272760659e-05    2.701859921e-05    0.000000000e+00    0.000000000e+00    0.000000000e+00    0.000000000e+00
      250750000   -9.676842093e-01    3.778999746e-01    8.571892977e-06    3.398209810e-05    0.000000000e+00    0.000000000e+00    0.000000000e+00    0.000000000e+00
      258000000   -9.289125204e-01    4.742490351e-01   -2.623442560e-05   -6.409361959e-06    0.000000000e+00    0.000000000e+00    0.000000000e+00    0.000000000e+00
      265250000   -8.788396716e-01    5.669590235e-01    1.687835902e-05    1.904182136e-05    0.000000000e+00    0.000000000e+00    0.000000000e+00    0.000000000e+00
      272500000   -8.173568845e-01    6.561864018e-01   -6.064027548e-05   -2.833269536e-05    0.000000000e+00    0.000000000e+00    0.000000000e+00    0.000000000e+00
      279750000   -7.461243272e-01    7.396506071e-01   -1.916103065e-05   -2.170633525e-05    0.000000000e+00    0.000000000e+00    0.000000000e+00    0.000000000e+00
      287000000   -6.625944972e-01    8.151124120e-01    1.450534910e-05   -1.105945557e-05    0.000000000e+00    0.000000000e+00    0.000000000e+00    0.000000000e+00
      294250000   -5.710541606e-01    8.817766905e-01   -1.448765397e-05   -9.421259165e-06    0.000000000e+00    0.000000000e+00    0.000000000e+00    0.000000000e+00
      301500000   -4.699170291e-01    9.377329350e-01   -6.418675184e-06    3.234948963e-05    0.000000000e+00    0.000000000e+00    0.000000000e+00    0.000000000e+00
      308750000   -3.621475101e-01    9.819194078e-01   -7.860362530e-07   -4.917383194e-07    0.000000000e+00    0.000000000e+00    0.000000000e+00    0.000000000e+00
      316000000   -2.481269836e-01    1.012850761e+00   -8.717179298e-07   -2.113450319e-05    0.000000000e+00    0.000000000e+00    0.000000000e+00    0.000000000e+00
      323250000   -1.306842417e-01    1.031357765e+00    1.821387559e-05   -1.689698547e-05    0.000000000e+00    0.000000000e+00    0.000000000e+00    0.000000000e+00
      330500000   -1.066792104e-02    1.034221768e+00    5.309469998e-06   -2.562999725e-06    0.000000000e+00    0.000000000e+00    0.000000000e+00    0.000000000e+00
      337750000    1.091876701e-01    1.023135662e+00   -4.375725985e-05    3.534089774e-05    0.000000000e+00    0.000000000e+00    0.000000000e+00    0.000000000e+00
      345000000    2.270380408e-01    9.971907735e-01    3.554578871e-05    2.005137503e-05    0.000000000e+00    0.000000000e+00    0.000000000e+00    0.000000000e+00
      352250000    3.407731652e-01    9.570037723e-01    1.259241253e-05    1.290347427e-05    0.000000000e+00    0.000000000e+00    0.000000000e+00    0.000000000e+00
      359500000    4.489372075e-01    9.040892720e-01    1.077726483e-05   -4.845671356e-06    0.000000000e+00    0.000000000e+00    0.000000000e+00    0.000000000e+00
      366750000    5.488908291e-01    8.390285969e-01   -1.102872193e-05   -1.408439130e-05    0.000000000e+00    0.000000000e+00    0.000000000e+00    0.000000000e+00
      374000000    6.404492855e-01    7.617365718e-01   -3.289058805e-05   -2.848077565e-05    0.000000000e+00    0.000000000e+00    0.000000000e+00    0.000000000e+00
      381250000    7.218045592e-01    6.754258275e-01   -8.259899914e-06   -7.200054824e-06    0.000000000e+00    0.000000000e+00    0.000000000e+00    0.000000000e+00
      388500000    7.922617197e-01    5.820028782e-01    3.970228136e-06   -1.052394509e-06    0.000000000e+00    0.000000000e+00    0.000000000e+00    0.000000000e+00
      395750000    8.505491018e-01    4.821480513e-01   -1.997221261e-05    5.403533578e-06    0.000000000e+00    0.000000000e+00    0.000000000e+00    0.000000000e+00
      403000000    8.972530961e-01    3.768335581e-01   -2.968125045e-05   -2.437271178e-06    0.000000000e+00    0.000000000e+00    0.000000000e+00    0.000000000e+00
      410250000    9.324486852e-01    2.676288188e-01   -4.168134183e-05    1.719221473e-05    0.000000000e+00    0.000000000e+00    0.000000000e+00    0.000000000e+00
      417500000    9.547710419e-01    1.576445401e-01   -4.969537258e-06   -6.592832506e-06    0.000000000e+00    0.000000000e+00    0.000000000e+00    0.000000000e+00
      424750000    9.659094810e-01    4.660110921e-02   -4.149042070e-06    1.746229827e-06    0.000000000e+00    0.000000000e+00    0.000000000e+00    0.000000000e+00
      432000000    9.649302959e-01   -6.326510012e-02    3.951229155e-05   -2.074055374e-05    0.000000000e+00    0.000000000e+00    0.000000000e+00    0.000000000e+00
      439250000    9.528707862e-01   -1.722770929e-01    3.230944276e-05    2.761185169e-05    0.000000000e+00    0.000000000e+00    0.000000000e+00    0.000000000e+00
      446500000    9.292299151e-01   -2.782997489e-01   -1.600757241e-05   -3.029033542e-05    0.000000000e+00    0.000000000e+00    0.000000000e+00    0.000000000e+00
      453750000    8.961269855e-01   -3.815193772e-01   -8.406117558e-06    2.647005022e-05    0.000000000e+00    0.000000000e+00    0.000000000e+00    0.000000000e+00
      461000000    8.532068729e-01   -4.791401625e-01   -2.229586244e-05    3.560446203e-06    0.000000000e+00    0.000000000e+00    0.000000000e+00    0.000000000e+00
      468250000    8.014271855e-01   -5.716559887e-01    2.714805305e-05    2.221483737e-05    0.000000000e+00    0.000000000e+00    0.000000000e+00    0.000000000e+00
      475500000    7.405703068e-01   -6.591566801e-01   -1.167505980e-05   -3.334134817e-07    0.000000000e+00    0.000000000e+00    0.000000000e+00    0.000000000e+00
      482750000    6.720753312e-01   -7.386752963e-01    5.075987428e-05    1.689419150e-06    0.000000000e+00    0.000000000e+00    0.000000000e+00    0.000000000e+00
      490000000    5.948491096e-01   -8.119839430e-01    1.167319715e-05   -2.598762512e-05    0.000000000e+00    0.000000000e+00    0.000000000e+00    0.000000000e+00
      497250000    5.115621090e-01   -8.771479130e-01    2.112984657e-05    8.719041944e-06    0.000000000e+00    0.000000000e+00    0.000000000e+00    0.000000000e+00
      504500000    4.228957295e-01   -9.346567392e-01   -5.892571062e-05   -8.887611330e-06    0.000000000e+00    0.000000000e+00    0.000000000e+00    0.000000000e+00
      511750000    3.284616470e-01   -9.821706414e-01    3.415532410e-05    1.983717084e-07    0.000000000e+00    0.000000000e+00    0.000000000e+00    0.000000000e+00
      519000000    2.288861424e-01   -1.020949721e+00    3.053527325e-05   -3.255344927e-05    0.000000000e+00    0.000000000e+00    0.000000000e+00    0.000000000e+00
      526250000    1.249104664e-01   -1.049573302e+00    2.850778401e-06   -1.294165850e-05    0.000000000e+00    0.000000000e+00    0.000000000e+00    0.000000000e+00
      533500000    1.846994646e-02   -1.067672491e+00    2.076663077e-05    5.383975804e-06    0.000000000e+00    0.000000000e+00    0.000000000e+00    0.000000000e+00
      540750000   -8.972945064e-02   -1.075026631e+00   -2.852361649e-05   -1.206248999e-05    0.000000000e+00    0.000000000e+00    0.000000000e+00    0.000000000e+00
      548000000   -1.983345449e-01   -1.071642995e+00   -1.096446067e-05   -1.409742981e-05    0.000000000e+00    0.000000000e+00    0.000000000e+00    0.000000000e+00
      555250000   -3.084263504e-01   -1.055869460e+00    3.203935921e-05    2.592150122e-05    0.000000000e+00    0.000000000e+00    0.000000000e+00    0.000000000e+00
      562500000   -4.157415628e-01   -1.028522015e+00    1.650769264e-05    7.481314242e-06    0.000000000e+00    0.000000000e+00    0.000000000e+00    0.000000000e+00
      569750000   -5.208233595e-01   -9.895317554e-01   -1.433398575e-05    1.803692430e-05    0.000000000e+00    0.000000000e+00    0.000000000e+00    0.000000000e+00
      577000000   -6.224548817e-01   -9.386660457e-01    1.033209264e-05   -2.472568303e-05    0.000000000e+00    0.000000000e+00    0.000000000e+00    0.000000000e+00
      584250000   -7.192483544e-01   -8.758972883e-01   -2.531334758e-06    1.816079021e-06    0.000000000e+00    0.000000000e+00    0.000000000e+00    0.000000000e+00
      591500000   -8.074273467e-01   -8.029147387e-01    1.817289740e-05   -5.519017577e-06    0.000000000e+00    0.000000000e+00    0.000000000e+00    0.000000000e+00
      598750000   -8.885126114e-01   -7.195662260e-01   -1.115817577e-05    3.001000732e-05    0.000000000e+00    0.000000000e+00    0.000000000e+00    0.000000000e+00
      606000000   -9.592470527e-01   -6.282497048e-01    1.040846109e-05    1.502223313e-06    0.000000000e+00    0.000000000e+00    0.000000000e+00    0.000000000e+00
      613250000   -1.018334031e+00   -5.282988548e-01    4.697591066e-06    2.954155207e-06    0.000000000e+00    0.000000000e+00    0.000000000e+00    0.000000000e+00
      620500000   -1.067251563e+00   -4.195420444e-01    4.800967872e-06   -1.990422606e-05    0.000000000e+00    0.000000000e+00    0.000000000e+00    0.000000000e+00
      627750000   -1.103189111e+00   -3.076974750e-01    2.897437662e-05   -3.550201654e-05    0.000000000e+00    0.000000000e+00    0.000000000e+00    0.000000000e+00
      635000000   -1.124946833e+00   -1.912631094e-01   -2.125650644e-05   -3.457069397e-06    0.000000000e+00    0.000000000e+00    0.000000000e+00    0.000000000e+00
      642250000   -1.133373618e+00   -7.303235680e-02    3.081094474e-05    2.458319068e-05    0.000000000e+00    0.000000000e+00    0.000000000e+00    0.000000000e+00
      649500000   -1.127896428e+00    4.308757558e-02    6.800517440e-06   -5.820766091e-07    0.000000000e+00    0.000000000e+00    0.000000000e+00    0.000000000e+00
      656750000   -1.109066367e+00    1.582824737e-01   -1.015141606e-07    2.005137503e-05    0.000000000e+00    0.000000000e+00    0.000000000e+00    0.000000000e+00
      664000000   -1.078052998e+00    2.693984509e-01   -2.450309694e-06    2.814736217e-05    0.000000000e+00    0.000000000e+00    0.000000000e+00    0.000000000e+00
      671250000   -1.033347368e+00    3.762274384e-01   -1.610629261e-05   -1.681316644e-05    0.000000000e+00    0.000000000e+00    0.000000000e+00    0.000000000e+00
      678500000   -9.785434604e-01    4.752235711e-01   -1.836568117e-05    8.674338460e-06    0.000000000e+00    0.000000000e+00    0.000000000e+00    0.000000000e+00
      685750000   -9.127634764e-01    5.671530962e-01   -3.636162728e-05    1.231208444e-05    0.000000000e+00    0.000000000e+00    0.000000000e+00    0.000000000e+00
      693000000   -8.377068639e-01    6.496953964e-01   -1.594331115e-05    6.147660315e-06    0.000000000e+00    0.000000000e+00    0.000000000e+00    0.000000000e+00
      700250000   -7.550038099e-01    7.233346105e-01   -1.466646791e-05   -3.078114241e-05    0.000000000e+00    0.000000000e+00    0.000000000e+00    0.000000000e+00
      707500000   -6.653575301e-01    7.870544195e-01   -3.665592521e-05   -2.390984446e-05    0.000000000e+00    0.000000000e+00    0.000000000e+00    0.000000000e+00
      714750000   -5.709947944e-01    8.395604491e-01    4.247389734e-05    2.651289105e-05    0.000000000e+00    0.000000000e+00    0.000000000e+00    0.000000000e+00
      722000000   -4.735933542e-01    8.818709850e-01   -5.102623254e-05    6.277114153e-07    0.000000000e+00    0.000000000e+00    0.000000000e+00    0.000000000e+00
      729250000   -3.722220957e-01    9.133213162e-01   -7.037073374e-06   -3.535300493e-06    0.000000000e+00    0.000000000e+00    0.000000000e+00    0.000000000e+00
      736500000   -2.711535096e-01    9.339617491e-01   -1.718569547e-05   -4.153791815e-05    0.000000000e+00    0.000000000e+00    0.000000000e+00    0.000000000e+00
      743750000   -1.687235534e-01    9.431152940e-01   -6.406567991e-06    1.217518002e-05    0.000000000e+00    0.000000000e+00    0.000000000e+00    0.000000000e+00
      751000000   -6.705635786e-02    9.430449605e-01   -3.253854811e-05   -1.035165042e-05    0.000000000e+00    0.000000000e+00    0.000000000e+00    0.000000000e+00
      758250000    3.110197559e-02    9.328744411e-01    1.206807792e-05    2.314243466e-05    0.000000000e+00    0.000000000e+00    0.000000000e+00    0.000000000e+00
      765500000    1.291523874e-01    9.133735895e-01   -1.086294651e-05    9.564682841e-06    0.000000000e+00    0.000000000e+00    0.000000000e+00    0.000000000e+00
      772750000    2.240335047e-01    8.849731684e-01    4.319101572e-05    7.888302207e-07    0.000000000e+00    0.000000000e+00    0.000000000e+00    0.000000000e+00
      780000000    3.124101460e-01    8.494508266e-01    3.090221435e-05   -1.757685095e-05    0.000000000e+00    0.000000000e+00    0.000000000e+00    0.000000000e+00
      787250000    4.007812440e-01    8.047885299e-01    3.515183926e-05   -3.157742321e-05    0.000000000e+00    0.000000000e+00    0.000000000e+00    0.000000000e+00
      794500000    4.817632437e-01    7.535521984e-01    3.472715616e-05    1.611560583e-05    0.000000000e+00    0.000000000e+00    0.000000000e+00    0.000000000e+00
      801750000    5.570264459e-01    6.945230365e-01    2.915039659e-06   -1.635495573e-05    0.000000000e+00    0.000000000e+00    0.000000000e+00    0.000000000e+00
      809000000    6.270861626e-01    6.291503310e-01   -7.563270628e-06   -5.659833550e-05    0.000000000e+00    0.000000000e+00    0.000000000e+00    0.000000000e+00
      816250000    6.918124557e-01    5.571316481e-01    3.878213465e-05    1.584179699e-05    0.000000000e+00    0.000000000e+00    0.000000000e+00    0.000000000e+00
      823500000    7.496504784e-01    4.805352986e-01   -4.086922854e-05    4.995055497e-05    0.000000000e+00    0.000000000e+00    0.000000000e+00    0.000000000e+00
      830750000    7.995166183e-01    3.979487121e-01    2.358760685e-05   -6.704591215e-06    0.000000000e+00    0.000000000e+00    0.000000000e+00    0.000000000e+00
      838000000    8.433043361e-01    3.097098470e-01   -8.176080883e-06   -6.099231541e-06    0.000000000e+00    0.000000000e+00    0.000000000e+00    0.000000000e+00
      845250000    8.782427311e-01    2.179351598e-01    1.107342541e-05   -5.290843546e-06    0.000000000e+00    0.000000000e+00    0.000000000e+00    0.000000000e+00
      852500000    9.046036005e-01    1.214160025e-01    7.436610758e-06    8.740462363e-06    0.000000000e+00    0.000000000e+00    0.000000000e+00    0.000000000e+00
      859750000    9.214032888e-01    2.399878204e-02   -2.280063927e-05   -2.061855048e-05    0.000000000e+00    0.000000000e+00    0.000000000e+00    0.000000000e+00
      867000000    9.292144179e-01   -7.897989452e-02   -1.315027475e-06   -3.982800990e-05    0.000000000e+00    0.000000000e+00    0.000000000e+00    0.000000000e+00
      874250000    9.268875122e-01   -1.798230857e-01    1.487787813e-05   -4.377216101e-07    0.000000000e+00    0.000000000e+00    0.000000000e+00    0.000000000e+00
      881500000    9.139667749e-01   -2.845327854e-01   -1.524202526e-05   -1.740641892e-05    0.000000000e+00    0.000000000e+00    0.000000000e+00    0.000000000e+00
      888750000    8.900516033e-01   -3.886847496e-01    2.376176417e-05    2.802349627e-05    0.000000000e+00    0.000000000e+00    0.000000000e+00    0.000000000e+00
      896000000    8.547312617e-01   -4.914213419e-01   -9.953044355e-06    1.401267946e-05    0.000000000e+00    0.000000000e+00    0.000000000e+00    0.000000000e+00
      903250000    8.081452250e-01   -5.902222395e-01   -1.155957580e-05   -1.186039299e-05    0.000000000e+00    0.000000000e+00    0.000000000e+00    0.000000000e+00
      910500000    7.471342087e-01   -6.873368025e-01   -5.218107253e-05   -1.938268542e-05    0.000000000e+00    0.000000000e+00    0.000000000e+00    0.000000000e+00
      917750000    6.764538884e-01   -7.767933607e-01    1.095514745e-05    4.856754094e-05    0.000000000e+00    0.000000000e+00    0.000000000e+00    0.000000000e+00
      925000000    5.955941081e-01   -8.584777713e-01   -5.242414773e-06    1.004617661e-05    0.000000000e+00    0.000000000e+00    0.000000000e+00    0.000000000e+00
      932250000    4.993193150e-01   -9.331418872e-01   -1.510512084e-05    1.031439751e-05    0.000000000e+00    0.000000000e+00    0.000000000e+00    0.000000000e+00
      939500000    3.975353539e-01   -9.938318729e-01   -3.059394658e-06    5.747191608e-06    0.000000000e+00    0.000000000e+00    0.000000000e+00    0.000000000e+00
      946750000    2.840202153e-01   -1.043431878e+00    1.038424671e-06   -9.103678167e-06    0.000000000e+00    0.000000000e+00    0.000000000e+00    0.000000000e+00
      954000000    1.651641726e-01   -1.077417374e+00   -3.201887012e-06    2.763606608e-05    0.000000000e+00    0.000000000e+00    0.000000000e+00    0.000000000e+00
      961250000    4.341227561e-02   -1.095818996e+00   -5.489215255e-06    2.732314169e-05    0.000000000e+00    0.000000000e+00    0.000000000e+00    0.000000000e+00
      968500000   -8.316273987e-02   -1.098501444e+00    1.016352326e-05    5.496665835e-06    0.000000000e+00    0.000000000e+00    0.000000000e+00    0.000000000e+00
      975750000   -2.067042589e-01   -1.084774613e+00   -4.556030035e-06    5.703419447e-06    0.000000000e+00    0.000000000e+00    0.000000000e+00    0.000000000e+00
      983000000   -3.286890984e-01   -1.053676844e+00   -8.061528206e-06   -2.939626575e-05    0.000000000e+00    0.000000000e+00    0.000000000e+00    0.000000000e+00
      990250000   -4.431898296e-01   -1.007649064e+00   -1.523829997e-05   -5.750916898e-06    0.000000000e+00    0.000000000e+00    0.000000000e+00    0.000000000e+00
      997500000   -5.517098308e-01   -9.470236301e-01   -5.654059350e-06   -6.117299199e-05    0.000000000e+00    0.000000000e+00    0.000000000e+00    0.000000000e+00
     1004750000   -6.484975815e-01   -8.718780875e-01    4.616752267e-05   -2.395361662e-05    0.000000000e+00    0.000000000e+00    0.000000000e+00    0.000000000e+00
     1012000000   -7.341390252e-01   -7.881354690e-01    2.991408110e-06   -1.073349267e-05    0.000000000e+00    0.000000000e+00    0.000000000e+00    0.000000000e+00
     1019250000   -8.057686687e-01   -6.954697967e-01   -6.499700248e-06   -1.441780478e-05    0.000000000e+00    0.000000000e+00    0.000000000e+00    0.000000000e+00
     1026500000   -8.657475114e-01   -5.960010290e-01   -2.739951015e-05   -2.580508590e-05    0.000000000e+00    0.000000000e+00    0.000000000e+00    0.000000000e+00
     1033750000   -9.109452963e-01   -4.905604422e-01   -3.358256072e-05   -5.627982318e-06    0.000000000e+00    0.000000000e+00    0.000000000e+00    0.000000000e+00
     1041000000   -9.420643449e-01   -3.850349188e-01    2.458691597e-06    5.820766091e-07    0.000000000e+00    0.000000000e+00    0.000000000e+00    0.000000000e+00
