! NanoVNA-App
! Date: 2024-06-25 16:28:55
! Start: 200.00MHz  Stop: 6.00GHz  Points: 801
! S-Parameter data: F S11
# Hz S RI R 50
Frequency           S1_Real           S1_Imag           S11_Real           S11_Imag           S21_Real           S21_Imag
2.00000000E+8      1.07374182E+9      0.00000000E+0      5.29055690E-1      1.18899061E-1      -1.82287768E-5      1.32592395E-5
2.07250000E+8      1.07374182E+9      0.00000000E+0      5.30245966E-1      2.14978261E-2      1.98017806E-5      1.98837370E-6
2.14500000E+8      1.07374182E+9      0.00000000E+0      5.29480835E-1      -7.51244600E-2      3.91434878E-6      -8.71811062E-6
2.21750000E+8      1.07374182E+9      0.00000000E+0      5.26748391E-1      -1.80480137E-1      3.87988985E-6      4.99933958E-6
2.29000000E+8      1.07374182E+9      0.00000000E+0      5.22748763E-1      -3.06343345E-1      -9.90927219E-7      3.50549817E-6
2.36250000E+8      1.07374182E+9      0.00000000E+0      5.13157085E-1      -4.77219181E-1      -1.70795247E-5      5.66244125E-6
2.43500000E+8      1.07374182E+9      0.00000000E+0      4.90528094E-1      -7.49026647E-1      -3.39467078E-6      -2.06958503E-5
2.50750000E+8      1.07374182E+9      0.00000000E+0      4.05168406E-1      -1.33571060E+0      7.17770308E-6      -1.99917704E-5
2.58000000E+8      1.07374182E+9      0.00000000E+0      -6.18825471E-1      -3.94543015E+0      1.19833276E-5      -6.04428351E-6
2.65250000E+8      1.07374182E+9      0.00000000E+0      -5.05272231E-1      3.65851410E+0      -2.36593187E-5      1.11479312E-6
2.72500000E+8      1.07374182E+9      0.00000000E+0      4.04975808E-1      1.27716300E+0      3.09199095E-6      -6.66081905E-6
2.79750000E+8      1.07374182E+9      0.00000000E+0      4.87981842E-1      7.12822055E-1      4.21702862E-6      2.54586339E-5
2.87000000E+8      1.07374182E+9      0.00000000E+0      5.09302425E-1      4.40665705E-1      7.28294253E-7      9.88505781E-6
2.94250000E+8      1.07374182E+9      0.00000000E+0      5.18437174E-1      2.68082169E-1      -1.31484121E-5      -2.06558034E-5
3.01500000E+8      1.07374182E+9      0.00000000E+0      5.22963385E-1      1.36621531E-1      2.18283385E-5      2.31452286E-5
3.08750000E+8      1.07374182E+9      0.00000000E+0      5.24975040E-1      2.08603700E-2      9.51718539E-6      -2.70893797E-5
3.16000000E+8      1.07374182E+9      0.00000000E+0      5.25936266E-1      -9.28953053E-2      -6.49318099E-6      -2.49734148E-5
3.23250000E+8      1.07374182E+9      0.00000000E+0      5.25661499E-1      -2.18601642E-1      -7.78771937E-6      2.14269385E-5
3.30500000E+8      1.07374182E+9      0.00000000E+0      5.21301574E-1      -3.77560944E-1      -3.39569524E-5      2.74674967E-5
3.37750000E+8      1.07374182E+9      0.00000000E+0      5.06797234E-1      -6.15351824E-1      -6.87409192E-6      3.40864062E-6
3.45000000E+8      1.07374182E+9      0.00000000E+0      4.40700603E-1      -1.08538966E+0      -2.78558582E-6      2.65501440E-5
3.52250000E+8      1.07374182E+9      0.00000000E+0      -2.39421366E-1      -2.66323964E+0      1.07698143E-5      -3.70601192E-5
3.59500000E+8      1.07374182E+9      0.00000000E+0      -2.14354104E+0      3.44113457E+0      -1.45221129E-5      2.22548842E-5
3.66750000E+8      1.07374182E+9      0.00000000E+0      1.64039270E-1      1.25630907E+0      2.53319740E-6      1.10371038E-5
3.74000000E+8      1.07374182E+9      0.00000000E+0      3.57803282E-1      6.75449469E-1      7.20191747E-6      3.91509384E-5
3.81250000E+8      1.07374182E+9      0.00000000E+0      4.11908999E-1      4.00462454E-1      -1.20680779E-5      -1.84820965E-5
3.88500000E+8      1.07374182E+9      0.00000000E+0      4.32195108E-1      2.27985732E-1      5.82076609E-6      9.04407352E-6
3.95750000E+8      1.07374182E+9      0.00000000E+0      4.38973961E-1      9.48641223E-2      -2.06446275E-5      -2.25454569E-5
4.03000000E+8      1.07374182E+9      0.00000000E+0      4.37189847E-1      -2.39814113E-2      1.13118440E-5      -1.70562416E-5
4.10250000E+8      1.07374182E+9      0.00000000E+0      4.26517409E-1      -1.42653541E-1      -4.49642539E-6      -6.80983067E-6
4.17500000E+8      1.07374182E+9      0.00000000E+0      4.02732615E-1      -2.76882677E-1      2.02637166E-5      -1.61277130E-5
4.24750000E+8      1.07374182E+9      0.00000000E+0      3.53251307E-1      -4.47916960E-1      -2.09100544E-5      -4.62159514E-5
4.32000000E+8      1.07374182E+9      0.00000000E+0      2.35968187E-1      -6.98087804E-1      1.31446868E-5      8.83173198E-6
4.39250000E+8      1.07374182E+9      0.00000000E+0      -1.20633145E-1      -1.12353193E+0      6.12810254E-6      -2.50721350E-5
4.46500000E+8      1.07374182E+9      0.00000000E+0      -1.79561739E+0      -1.35828784E+0      -3.69874761E-5      1.89142302E-5
4.53750000E+8      1.07374182E+9      0.00000000E+0      -1.34361757E+0      1.74018517E+0      -3.12458724E-6      -8.15186650E-6
4.61000000E+8      1.07374182E+9      0.00000000E+0      8.94893328E-2      1.18667454E+0      1.90613791E-5      -8.68365169E-6
4.68250000E+8      1.07374182E+9      0.00000000E+0      3.67223203E-1      7.41389696E-1      -7.83056021E-6      3.15252692E-6
4.75500000E+8      1.07374182E+9      0.00000000E+0      4.53620678E-1      4.87575632E-1      -3.24752182E-6      -5.30853868E-7
4.82750000E+8      1.07374182E+9      0.00000000E+0      4.89995413E-1      3.22004660E-1      -2.10469589E-5      -2.34507024E-6
4.90000000E+8      1.07374182E+9      0.00000000E+0      5.08687929E-1      1.95758483E-1      -1.94488093E-5      -1.48555264E-5
4.97250000E+8      1.07374182E+9      0.00000000E+0      5.21303132E-1      8.97061291E-2      1.96984038E-5      2.79583037E-5
5.04500000E+8      1.07374182E+9      0.00000000E+0      5.30277974E-1      -8.84159501E-3      1.28876418E-5      2.28714198E-5
5.11750000E+8      1.07374182E+9      0.00000000E+0      5.39488340E-1      -1.08770951E-1      4.45079058E-6      3.27089801E-5
5.19000000E+8      1.07374182E+9      0.00000000E+0      5.51305203E-1      -2.19968848E-1      -2.92342156E-5      4.24413010E-5
5.26250000E+8      1.07374182E+9      0.00000000E+0      5.69061166E-1      -3.56103011E-1      8.63056630E-6      2.72290781E-5
5.33500000E+8      1.07374182E+9      0.00000000E+0      6.05781731E-1      -5.46386732E-1      2.77590007E-5      -2.36202031E-5
5.40750000E+8      1.07374182E+9      0.00000000E+0      7.02556417E-1      -8.59029321E-1      -2.68314034E-6      8.72183591E-6
5.48000000E+8      1.07374182E+9      0.00000000E+0      1.10621170E+0      -1.49418276E+0      1.55335292E-5      7.15442002E-6
5.55250000E+8      1.07374182E+9      0.00000000E+0      4.02118470E+0      -1.58221770E+0      1.00396574E-5      -8.06525350E-7
5.62500000E+8      1.07374182E+9      0.00000000E+0      1.90438735E+0      1.77405954E+0      -1.06226653E-5      -4.75812703E-6
5.69750000E+8      1.07374182E+9      0.00000000E+0      9.43794099E-1      1.02296133E+0      7.22147524E-6      3.53250653E-5
5.77000000E+8      1.07374182E+9      0.00000000E+0      7.38629083E-1      6.42068637E-1      -6.27897680E-6      2.52574682E-5
5.84250000E+8      1.07374182E+9      0.00000000E+0      6.66856894E-1      4.25015603E-1      3.92273068E-6      8.78889114E-6
5.91500000E+8      1.07374182E+9      0.00000000E+0      6.32769914E-1      2.76140981E-1      2.24262476E-6      -3.76058742E-5
5.98750000E+8      1.07374182E+9      0.00000000E+0      6.15280946E-1      1.60091908E-1      7.56978989E-6      -8.09412450E-6
6.06000000E+8      1.07374182E+9      0.00000000E+0      6.05612869E-1      5.98367700E-2      -1.18380412E-5      5.96875325E-5
6.13250000E+8      1.07374182E+9      0.00000000E+0      6.00803638E-1      -3.52023447E-2      2.17808411E-5      -1.34324655E-5
6.20500000E+8      1.07374182E+9      0.00000000E+0      5.99515501E-1      -1.35868950E-1      -5.49210235E-5      -1.44783407E-5
6.27750000E+8      1.07374182E+9      0.00000000E+0      6.01892532E-1      -2.50373974E-1      2.62605026E-5      1.44941732E-5
6.35000000E+8      1.07374182E+9      0.00000000E+0      6.08171353E-1      -3.96025861E-1      2.29850411E-6      -2.49035656E-6
6.42250000E+8      1.07374182E+9      0.00000000E+0      6.20512326E-1      -6.12851764E-1      -1.05639920E-5      5.09582460E-5
6.49500000E+8      1.07374182E+9      0.00000000E+0      6.43226897E-1      -1.02215448E+0      -1.15642324E-5      8.39401037E-6
6.56750000E+8      1.07374182E+9      0.00000000E+0      6.48418873E-1      -2.26750060E+0      5.18839806E-6      -1.58771873E-5
6.64000000E+8      1.07374182E+9      0.00000000E+0      -8.92032886E+0      1.08399198E+1      8.31391662E-6      -2.26320699E-5
6.71250000E+8      1.07374182E+9      0.00000000E+0      1.63417197E-1      1.70488445E+0      -3.05166468E-5      -2.09808350E-5
6.78500000E+8      1.07374182E+9      0.00000000E+0      3.59547718E-1      8.47845442E-1      1.76634640E-5      -4.48673964E-5
6.85750000E+8      1.07374182E+9      0.00000000E+0      4.14631670E-1      5.08955402E-1      -1.84215605E-5      -1.23968348E-5
6.93000000E+8      1.07374182E+9      0.00000000E+0      4.35960615E-1      3.13049683E-1      -1.18650496E-6      4.83514741E-5
7.00250000E+8      1.07374182E+9      0.00000000E+0      4.43114472E-1      1.72549658E-1      1.75107270E-5      8.92486423E-6
7.07500000E+8      1.07374182E+9      0.00000000E+0      4.41995500E-1      5.66139828E-2      1.66613609E-5      2.53785402E-5
7.14750000E+8      1.07374182E+9      0.00000000E+0      4.31461447E-1      -4.95146596E-2      -1.05071813E-5      1.46711245E-5
7.22000000E+8      1.07374182E+9      0.00000000E+0      4.10298878E-1      -1.57908869E-1      3.30014154E-5      1.76914036E-5
7.29250000E+8      1.07374182E+9      0.00000000E+0      3.68764438E-1      -2.76186552E-1      2.55070627E-5      7.87805766E-6
7.36500000E+8      1.07374182E+9      0.00000000E+0      2.88817420E-1      -4.14588701E-1      6.70272857E-6      -2.21505761E-5
7.43750000E+8      1.07374182E+9      0.00000000E+0      1.20047175E-1      -5.74700769E-1      -3.20607796E-5      5.61587512E-6
7.51000000E+8      1.07374182E+9      0.00000000E+0      -2.45650505E-1      -6.78561027E-1      5.91762364E-6      7.67596066E-6
7.58250000E+8      1.07374182E+9      0.00000000E+0      -7.81074762E-1      -3.44324475E-1      2.84072012E-5      -2.72067264E-5
7.65500000E+8      1.07374182E+9      0.00000000E+0      -6.68292917E-1      3.80722997E-1      4.87612560E-5      2.66544521E-6
7.72750000E+8      1.07374182E+9      0.00000000E+0      -1.81436338E-1      5.56736207E-1      1.85212120E-5      2.48784199E-5
7.80000000E+8      1.07374182E+9      0.00000000E+0      9.98605521E-2      4.58103998E-1      4.04128805E-5      -5.85801899E-6
7.87250000E+8      1.07374182E+9      0.00000000E+0      2.43149107E-1      3.27892971E-1      2.77040526E-5      1.82129443E-5
7.94500000E+8      1.07374182E+9      0.00000000E+0      3.16471054E-1      2.12425762E-1      2.52183527E-5      -6.57513738E-7
8.01750000E+8      1.07374182E+9      0.00000000E+0      3.57533373E-1      1.09625005E-1      -3.35481018E-5      2.34441832E-5
8.09000000E+8      1.07374182E+9      0.00000000E+0      3.80718949E-1      1.21206579E-2      1.49207190E-5      -5.22844493E-6
8.16250000E+8      1.07374182E+9      0.00000000E+0      3.92254568E-1      -8.56565336E-2      -3.04803252E-5      2.73697078E-5
8.23500000E+8      1.07374182E+9      0.00000000E+0      3.94175599E-1      -1.91662404E-1      -3.20514664E-5      2.56765634E-5
8.30750000E+8      1.07374182E+9      0.00000000E+0      3.85831221E-1      -3.18396200E-1      -1.34753063E-5      -3.18149105E-5
8.38000000E+8      1.07374182E+9      0.00000000E+0      3.58424602E-1      -4.92921209E-1      -2.63098627E-6      -7.01658428E-6
8.45250000E+8      1.07374182E+9      0.00000000E+0      2.88950250E-1      -7.67759569E-1      -2.91811302E-5      -2.79294327E-5
8.52500000E+8      1.07374182E+9      0.00000000E+0      5.48954744E-2      -1.34586398E+0      3.71159986E-5      -3.51266935E-5
8.59750000E+8      1.07374182E+9      0.00000000E+0      -2.09245609E+0      -3.20977347E+0      -1.72154978E-5      -1.28773972E-5
8.67000000E+8      1.07374182E+9      0.00000000E+0      -4.99910767E-1      3.05753291E+0      -2.86167488E-5      -2.44211406E-5
8.74250000E+8      1.07374182E+9      0.00000000E+0      4.42860166E-1      1.22365855E+0      -1.00946054E-5      2.44965777E-5
8.81500000E+8      1.07374182E+9      0.00000000E+0      5.20753115E-1      6.80369161E-1      -1.81058422E-5      -6.59190118E-6
8.88750000E+8      1.07374182E+9      0.00000000E+0      5.36756632E-1      4.17588711E-1      -1.73579901E-5      -7.74953514E-6
8.96000000E+8      1.07374182E+9      0.00000000E+0      5.41029237E-1      2.42092700E-1      -5.92414290E-6      -5.14658168E-5
9.03250000E+8      1.07374182E+9      0.00000000E+0      5.42991410E-1      1.06605430E-1      3.05380672E-6      2.24849209E-5
9.10500000E+8      1.07374182E+9      0.00000000E+0      5.45287809E-1      -1.44733544E-2      -8.98167491E-6      -1.43423676E-6
9.17750000E+8      1.07374182E+9      0.00000000E+0      5.47059568E-1      -1.38159944E-1      -3.02158296E-5      1.06720254E-5
9.25000000E+8      1.07374182E+9      0.00000000E+0      5.51165860E-1      -2.79410096E-1      -1.00973994E-5      2.51680613E-5
9.32250000E+8      1.07374182E+9      0.00000000E+0      5.58749333E-1      -4.73531011E-1      -6.65616244E-6      -1.10650435E-5
9.39500000E+8      1.07374182E+9      0.00000000E+0      5.73948449E-1      -7.86028442E-1      3.53269279E-5      -8.52160156E-7
9.46750000E+8      1.07374182E+9      0.00000000E+0      6.14441938E-1      -1.51702555E+0      -1.73747540E-5      3.00165266E-6
9.54000000E+8      1.07374182E+9      0.00000000E+0      1.06973171E+0      -7.27557127E+0      1.65170059E-5      -3.23168933E-6
9.61250000E+8      1.07374182E+9      0.00000000E+0      3.51973335E-1      2.89361225E+0      4.56692651E-5      -7.54557550E-6
9.68500000E+8      1.07374182E+9      0.00000000E+0      4.46283268E-1      1.15593553E+0      2.08523124E-5      4.64078039E-6
9.75750000E+8      1.07374182E+9      0.00000000E+0      4.65656137E-1      6.82533196E-1      -2.09212303E-5      -4.62727621E-5
9.83000000E+8      1.07374182E+9      0.00000000E+0      4.73079216E-1      4.40600726E-1      2.48178840E-5      1.85072422E-5
9.90250000E+8      1.07374182E+9      0.00000000E+0      4.74467658E-1      2.84577751E-1      9.40263271E-6      1.54785812E-6
9.97500000E+8      1.07374182E+9      0.00000000E+0      4.71700284E-1      1.66473448E-1      -2.10953876E-5      -2.36760825E-5
1.00475000E+9      1.07374182E+9      0.00000000E+0      4.65566062E-1      6.45522142E-2      -2.57119536E-5      3.06628644E-5
1.01200000E+9      1.07374182E+9      0.00000000E+0      4.54712962E-1      -2.87981350E-2      -2.15554610E-5      -1.81701034E-6
1.01925000E+9      1.07374182E+9      0.00000000E+0      4.36755555E-1      -1.21751547E-1      -5.69224358E-6      -2.55675986E-5
1.02650000E+9      1.07374182E+9      0.00000000E+0      4.08491460E-1      -2.21796074E-1      7.39842653E-6      2.83215195E-6
1.03375000E+9      1.07374182E+9      0.00000000E+0      3.58800247E-1      -3.35369338E-1      3.51667404E-6      6.97374344E-6
1.04100000E+9      1.07374182E+9      0.00000000E+0      2.68675308E-1      -4.67090254E-1      -2.27969140E-5      -1.46394596E-5
1.04825000E+9      1.07374182E+9      0.00000000E+0      8.74512071E-2      -6.17100251E-1      -1.17588788E-5      6.30505383E-7
1.05550000E+9      1.07374182E+9      0.00000000E+0      -2.69358761E-1      -6.94703869E-1      3.83798033E-5      -3.62666324E-5
1.06275000E+9      1.07374182E+9      0.00000000E+0      -7.48306834E-1      -3.86716638E-1      -4.84855846E-5      -5.85801899E-6
1.07000000E+9      1.07374182E+9      0.00000000E+0      -7.09547520E-1      2.52779659E-1      -4.47221100E-6      -9.86363739E-6
1.07725000E+9      1.07374182E+9      0.00000000E+0      -3.00149576E-1      4.84396920E-1      2.93375924E-5      2.29347497E-5
1.08450000E+9      1.07374182E+9      0.00000000E+0      -1.56235908E-2      4.34038538E-1      1.76271424E-5      2.68500298E-5
1.09175000E+9      1.07374182E+9      0.00000000E+0      1.29396948E-1      3.29077661E-1      -8.22264701E-6      1.45053491E-5
1.09900000E+9      1.07374182E+9      0.00000000E+0      2.05429685E-1      2.27272241E-1      1.25160441E-5      -1.98334455E-5
1.10625000E+9      1.07374182E+9      0.00000000E+0      2.41297548E-1      1.36961739E-1      4.03821468E-6      8.82521272E-6
1.11350000E+9      1.07374182E+9      0.00000000E+0      2.54163794E-1      5.17754560E-2      1.52830034E-6      -2.13906169E-5
1.12075000E+9      1.07374182E+9      0.00000000E+0      2.47701742E-1      -2.48342545E-2      1.07502565E-5      -5.12413681E-6
1.12800000E+9      1.07374182E+9      0.00000000E+0      2.23213764E-1      -9.87937528E-2      -1.28010288E-5      7.05104321E-6
1.13525000E+9      1.07374182E+9      0.00000000E+0      1.76823165E-1      -1.67818339E-1      5.58421016E-6      2.22213566E-6
1.14250000E+9      1.07374182E+9      0.00000000E+0      1.03350212E-1      -2.27641874E-1      3.13203782E-5      -2.41361558E-5
1.14975000E+9      1.07374182E+9      0.00000000E+0      -8.37670806E-3      -2.63058659E-1      -4.20631841E-5      1.06887892E-5
1.15700000E+9      1.07374182E+9      0.00000000E+0      -1.54198313E-1      -2.40090284E-1      2.52835453E-5      -2.40523368E-5
1.16425000E+9      1.07374182E+9      0.00000000E+0      -2.90102041E-1      -1.16133718E-1      2.25473195E-6      1.13826245E-5
1.17150000E+9      1.07374182E+9      0.00000000E+0      -3.20073549E-1      8.91297467E-2      1.24387443E-5      3.15960497E-5
1.17875000E+9      1.07374182E+9      0.00000000E+0      -2.06120942E-1      2.66481380E-1      -1.20494515E-5      -8.27759504E-6
1.18600000E+9      1.07374182E+9      0.00000000E+0      -3.83665313E-2      3.27695484E-1      5.61866909E-6      3.44477594E-5
1.19325000E+9      1.07374182E+9      0.00000000E+0      1.05587936E-1      3.02138572E-1      2.22325325E-5      -8.90344381E-6
1.20050000E+9      1.07374182E+9      0.00000000E+0      2.07096515E-1      2.37166507E-1      2.90926546E-5      -5.22565097E-6
1.20775000E+9      1.07374182E+9      0.00000000E+0      2.71355652E-1      1.60877161E-1      1.40396878E-5      -1.93240121E-5
1.21500000E+9      1.07374182E+9      0.00000000E+0      3.13327119E-1      7.58449082E-2      1.83666125E-5      -1.36336312E-5
1.22225000E+9      1.07374182E+9      0.00000000E+0      3.37506270E-1      -9.64211292E-3      -4.47779894E-6      6.78636134E-5
1.22950000E+9      1.07374182E+9      0.00000000E+0      3.49680548E-1      -1.02960694E-1      -2.11084262E-5      2.86297873E-5
1.23675000E+9      1.07374182E+9      0.00000000E+0      3.48903386E-1      -2.10537691E-1      1.97486952E-5      -4.58098948E-5
1.24400000E+9      1.07374182E+9      0.00000000E+0      3.32995838E-1      -3.40333918E-1      -5.61773777E-6      -1.27824023E-5
1.25125000E+9      1.07374182E+9      0.00000000E+0      2.87048553E-1      -5.22224958E-1      9.14465636E-6      -1.18939206E-5
1.25850000E+9      1.07374182E+9      0.00000000E+0      1.69011703E-1      -8.01116564E-1      2.11056322E-5      8.36048275E-6
1.26575000E+9      1.07374182E+9      0.00000000E+0      -2.43601359E-1      -1.32009392E+0      -1.03544444E-5      -1.61258504E-5
1.27300000E+9      1.07374182E+9      0.00000000E+0      -2.47837412E+0      -1.42678899E+0      -6.93183392E-6      2.97697261E-5
1.28025000E+9      1.07374182E+9      0.00000000E+0      -1.10985066E+0      1.84454820E+0      2.97902152E-5      -9.03010368E-6
1.28750000E+9      1.07374182E+9      0.00000000E+0      5.00738575E-2      1.11743190E+0      2.13272870E-6      1.07083470E-5
1.29475000E+9      1.07374182E+9      0.00000000E+0      2.74798737E-1      6.79527732E-1      2.29626894E-5      1.90632418E-5
