! NanoVNA-App by OneOfEleven et al v1.1.209 (+OD15) 
! Date: 2024-07-30 15:19:59
! Start: 200MHz Stop: 6GHz Points: 801
! S-Parameter data: F S11 S21 S12 S22
# Hz S RI R 50
!     Frequency           S11_Real           S11_Imag           S21_Real           S21_Imag           S12_Real           S12_Imag           S22_Real           S22_Imag
      200000000   -1.930511557e-02    2.772673499e-03    7.812139302e-06   -2.569888011e-06    0.000000000e+00    0.000000000e+00    0.000000000e+00    0.000000000e+00
      207250000   -1.886083744e-02    2.916692523e-03   -8.631741366e-06    1.391254136e-05    0.000000000e+00    0.000000000e+00    0.000000000e+00    0.000000000e+00
      214500000   -1.918618008e-02    2.944174223e-03   -5.605749720e-06    7.983005162e-06    0.000000000e+00    0.000000000e+00    0.000000000e+00    0.000000000e+00
      221750000   -1.889614202e-02    3.061869647e-03    3.185360401e-05    1.109352252e-05    0.000000000e+00    0.000000000e+00    0.000000000e+00    0.000000000e+00
      229000000   -1.876697131e-02    1.563303405e-03    2.851841600e-05   -7.948031453e-06    0.000000000e+00    0.000000000e+00    0.000000000e+00    0.000000000e+00
      236250000   -1.831321977e-02    1.956603490e-03    3.587787069e-05   -2.278058128e-05    0.000000000e+00    0.000000000e+00    0.000000000e+00    0.000000000e+00
      243500000   -1.840418950e-02    3.966710530e-03    6.834053238e-06    6.610920536e-06    0.000000000e+00    0.000000000e+00    0.000000000e+00    0.000000000e+00
      250750000   -1.883460581e-02    3.673852421e-03   -2.850464989e-05    1.304086436e-05    0.000000000e+00    0.000000000e+00    0.000000000e+00    0.000000000e+00
      258000000   -1.892810129e-02    3.543216735e-03   -2.970567948e-05    3.679329529e-05    0.000000000e+00    0.000000000e+00    0.000000000e+00    0.000000000e+00
      265250000   -1.926162280e-02    3.927036654e-03    3.132257461e-06   -1.257015811e-05    0.000000000e+00    0.000000000e+00    0.000000000e+00    0.000000000e+00
      272500000   -1.777221262e-02    3.376808483e-03   -9.407752259e-06   -1.048520630e-06    0.000000000e+00    0.000000000e+00    0.000000000e+00    0.000000000e+00
      279750000   -1.820222475e-02    2.948318608e-03   -4.624660505e-06    1.834409522e-05    0.000000000e+00    0.000000000e+00    0.000000000e+00    0.000000000e+00
      287000000   -1.898784749e-02    2.868324751e-03    1.258659722e-06    2.312151764e-06    0.000000000e+00    0.000000000e+00    0.000000000e+00    0.000000000e+00
      294250000   -1.887067594e-02    3.789882874e-03    2.669195055e-05    1.411113681e-05    0.000000000e+00    0.000000000e+00    0.000000000e+00    0.000000000e+00
      301500000   -1.925127767e-02    3.610015847e-03   -1.822766116e-08    1.209768652e-05    0.000000000e+00    0.000000000e+00    0.000000000e+00    0.000000000e+00
      308750000   -1.892173104e-02    3.920161631e-03   -9.186822354e-06   -8.602612070e-06    0.000000000e+00    0.000000000e+00    0.000000000e+00    0.000000000e+00
      316000000   -1.807272062e-02    3.320891177e-03   -3.728264346e-06   -3.022244300e-06    0.000000000e+00    0.000000000e+00    0.000000000e+00    0.000000000e+00
      323250000   -1.822840050e-02    3.724419978e-03   -5.429822977e-06    1.401188911e-05    0.000000000e+00    0.000000000e+00    0.000000000e+00    0.000000000e+00
      330500000   -1.831310429e-02    3.833617782e-03   -2.087414941e-05   -8.294599866e-06    0.000000000e+00    0.000000000e+00    0.000000000e+00    0.000000000e+00
      337750000   -1.852951013e-02    3.439717693e-03    1.641603194e-05    3.810493945e-05    0.000000000e+00    0.000000000e+00    0.000000000e+00    0.000000000e+00
      345000000   -1.930091530e-02    4.114753567e-03    1.155204131e-06    4.967694167e-06    0.000000000e+00    0.000000000e+00    0.000000000e+00    0.000000000e+00
      352250000   -1.814025268e-02    2.763603348e-03   -3.081647492e-06    1.322619482e-06    0.000000000e+00    0.000000000e+00    0.000000000e+00    0.000000000e+00
      359500000   -1.840763539e-02    3.493340453e-03    1.695383071e-05    1.181097377e-05    0.000000000e+00    0.000000000e+00    0.000000000e+00    0.000000000e+00
      366750000   -1.843542978e-02    3.663176671e-03   -4.200133390e-06   -7.138476576e-06    0.000000000e+00    0.000000000e+00    0.000000000e+00    0.000000000e+00
      374000000   -1.826953888e-02    3.709494136e-03   -9.285435226e-06   -1.623445678e-05    0.000000000e+00    0.000000000e+00    0.000000000e+00    0.000000000e+00
      381250000   -1.753601618e-02    4.377624951e-03    1.314823567e-05   -1.231031092e-05    0.000000000e+00    0.000000000e+00    0.000000000e+00    0.000000000e+00
      388500000   -1.809349842e-02    3.841001308e-03   -1.862073623e-05    5.856885400e-05    0.000000000e+00    0.000000000e+00    0.000000000e+00    0.000000000e+00
      395750000   -1.836477034e-02    3.986442927e-03   -7.888431355e-06    6.728738754e-06    0.000000000e+00    0.000000000e+00    0.000000000e+00    0.000000000e+00
      403000000   -1.937757991e-02    4.262288567e-03   -1.731068733e-05   -1.195447931e-05    0.000000000e+00    0.000000000e+00    0.000000000e+00    0.000000000e+00
      410250000   -1.839273609e-02    4.750114400e-03   -1.388989494e-05   -1.347079160e-05    0.000000000e+00    0.000000000e+00    0.000000000e+00    0.000000000e+00
      417500000   -1.790138893e-02    3.918676171e-03   -1.202517979e-05    2.274964208e-05    0.000000000e+00    0.000000000e+00    0.000000000e+00    0.000000000e+00
      424750000   -1.783789508e-02    3.561153542e-03    4.009757959e-06    4.753795110e-06    0.000000000e+00    0.000000000e+00    0.000000000e+00    0.000000000e+00
      432000000   -1.758040115e-02    4.231438506e-03    1.458260704e-05   -2.813417450e-05    0.000000000e+00    0.000000000e+00    0.000000000e+00    0.000000000e+00
      439250000   -1.805013046e-02    4.626627080e-03   -1.806193723e-05   -2.137899355e-05    0.000000000e+00    0.000000000e+00    0.000000000e+00    0.000000000e+00
      446500000   -1.788535528e-02    4.706768319e-03    4.400303078e-05    1.175540365e-05    0.000000000e+00    0.000000000e+00    0.000000000e+00    0.000000000e+00
      453750000   -1.772713661e-02    3.879817203e-03    1.523688934e-05    3.353545617e-05    0.000000000e+00    0.000000000e+00    0.000000000e+00    0.000000000e+00
      461000000   -1.885504462e-02    5.179522559e-03    4.222648204e-05    2.728341769e-06    0.000000000e+00    0.000000000e+00    0.000000000e+00    0.000000000e+00
      468250000   -1.851663366e-02    4.780267831e-03    2.868347110e-06    1.591991713e-05    0.000000000e+00    0.000000000e+00    0.000000000e+00    0.000000000e+00
      475500000   -1.761797629e-02    4.736001603e-03   -1.788148438e-05    5.903104920e-06    0.000000000e+00    0.000000000e+00    0.000000000e+00    0.000000000e+00
      482750000   -1.740936004e-02    5.142563954e-03    4.774572062e-06    5.975383374e-06    0.000000000e+00    0.000000000e+00    0.000000000e+00    0.000000000e+00
      490000000   -1.792119630e-02    4.709159024e-03    3.679693691e-05   -2.269602646e-06    0.000000000e+00    0.000000000e+00    0.000000000e+00    0.000000000e+00
      497250000   -1.757437922e-02    3.948017489e-03   -1.601637109e-06   -4.009684289e-06    0.000000000e+00    0.000000000e+00    0.000000000e+00    0.000000000e+00
      504500000   -1.745662466e-02    4.375741351e-03    1.406189222e-05   -3.029558684e-05    0.000000000e+00    0.000000000e+00    0.000000000e+00    0.000000000e+00
      511750000   -1.786656119e-02    5.175972357e-03    1.495749530e-05   -2.562606096e-05    0.000000000e+00    0.000000000e+00    0.000000000e+00    0.000000000e+00
      519000000   -1.785162278e-02    5.839348771e-03   -1.381893526e-05    6.017194210e-06    0.000000000e+00    0.000000000e+00    0.000000000e+00    0.000000000e+00
      526250000   -1.788815297e-02    5.598397460e-03   -2.484143079e-05    4.224854274e-05    0.000000000e+00    0.000000000e+00    0.000000000e+00    0.000000000e+00
      533500000   -1.723938063e-02    5.607504863e-03   -8.047701158e-06    1.456854898e-05    0.000000000e+00    0.000000000e+00    0.000000000e+00    0.000000000e+00
      540750000   -1.749840565e-02    5.235292017e-03    8.098337275e-06    1.274015773e-07    0.000000000e+00    0.000000000e+00    0.000000000e+00    0.000000000e+00
      548000000   -1.767967083e-02    5.150237586e-03    7.196764273e-06    2.417640280e-05    0.000000000e+00    0.000000000e+00    0.000000000e+00    0.000000000e+00
      555250000   -1.724940352e-02    5.528890062e-03    4.673424337e-05    7.543191259e-06    0.000000000e+00    0.000000000e+00    0.000000000e+00    0.000000000e+00
      562500000   -1.741829142e-02    5.670637824e-03   -2.134558235e-05   -8.339429769e-06    0.000000000e+00    0.000000000e+00    0.000000000e+00    0.000000000e+00
      569750000   -1.759811305e-02    5.814028438e-03    3.265489067e-05    4.394037660e-06    0.000000000e+00    0.000000000e+00    0.000000000e+00    0.000000000e+00
      577000000   -1.726967283e-02    5.830993876e-03   -4.588932279e-05   -4.591135166e-06    0.000000000e+00    0.000000000e+00    0.000000000e+00    0.000000000e+00
      584250000   -1.864204369e-02    5.840597674e-03   -3.088413723e-05   -1.902877557e-05    0.000000000e+00    0.000000000e+00    0.000000000e+00    0.000000000e+00
      591500000   -1.665468700e-02    6.332744379e-03   -3.376676887e-06   -8.681327017e-06    0.000000000e+00    0.000000000e+00    0.000000000e+00    0.000000000e+00
      598750000   -1.834747195e-02    5.460191518e-03   -4.735893526e-05   -1.086345128e-05    0.000000000e+00    0.000000000e+00    0.000000000e+00    0.000000000e+00
      606000000   -1.833169349e-02    5.590347107e-03    1.210323262e-06    2.303972542e-05    0.000000000e+00    0.000000000e+00    0.000000000e+00    0.000000000e+00
      613250000   -1.757856458e-02    5.832574796e-03   -4.045919013e-06    1.780687307e-05    0.000000000e+00    0.000000000e+00    0.000000000e+00    0.000000000e+00
      620500000   -1.753051020e-02    5.724538583e-03   -6.871741061e-05    1.213987980e-05    0.000000000e+00    0.000000000e+00    0.000000000e+00    0.000000000e+00
      627750000   -1.763607934e-02    5.518799182e-03   -3.649860082e-05   -3.093645500e-05    0.000000000e+00    0.000000000e+00    0.000000000e+00    0.000000000e+00
      635000000   -1.811850816e-02    6.757124793e-03   -1.252558923e-05   -6.116220902e-05    0.000000000e+00    0.000000000e+00    0.000000000e+00    0.000000000e+00
      642250000   -1.669249870e-02    6.254706532e-03   -1.579482705e-05    2.437384319e-05    0.000000000e+00    0.000000000e+00    0.000000000e+00    0.000000000e+00
      649500000   -1.793728583e-02    6.710255053e-03   -1.201153100e-05    5.651630636e-05    0.000000000e+00    0.000000000e+00    0.000000000e+00    0.000000000e+00
      656750000   -1.837287843e-02    6.932119373e-03    4.847539003e-06    6.836644752e-05    0.000000000e+00    0.000000000e+00    0.000000000e+00    0.000000000e+00
      664000000   -1.743564941e-02    6.265244447e-03   -2.648633199e-05    1.402665930e-06    0.000000000e+00    0.000000000e+00    0.000000000e+00    0.000000000e+00
      671250000   -1.725249738e-02    6.534914952e-03    1.297197286e-05   -1.455867641e-05    0.000000000e+00    0.000000000e+00    0.000000000e+00    0.000000000e+00
      678500000   -1.724204049e-02    6.355402526e-03    7.534511951e-06    1.199372855e-05    0.000000000e+00    0.000000000e+00    0.000000000e+00    0.000000000e+00
      685750000   -1.652420498e-02    6.554337218e-03   -1.620861985e-05    3.248247594e-05    0.000000000e+00    0.000000000e+00    0.000000000e+00    0.000000000e+00
      693000000   -1.722507738e-02    6.775187794e-03   -2.076935561e-05   -2.805388795e-05    0.000000000e+00    0.000000000e+00    0.000000000e+00    0.000000000e+00
      700250000   -1.701844111e-02    6.889337674e-03    4.410399015e-06   -6.779968317e-06    0.000000000e+00    0.000000000e+00    0.000000000e+00    0.000000000e+00
      707500000   -1.668392494e-02    6.753642112e-03   -3.159959988e-06    1.680231253e-05    0.000000000e+00    0.000000000e+00    0.000000000e+00    0.000000000e+00
      714750000   -1.871671714e-02    6.664346904e-03    3.534517646e-06    4.266067481e-05    0.000000000e+00    0.000000000e+00    0.000000000e+00    0.000000000e+00
      722000000   -1.507015992e-02    7.132794708e-03   -9.270643773e-07   -1.755946687e-05    0.000000000e+00    0.000000000e+00    0.000000000e+00    0.000000000e+00
      729250000   -1.659529842e-02    6.728514098e-03   -1.870944834e-05   -1.731897828e-05    0.000000000e+00    0.000000000e+00    0.000000000e+00    0.000000000e+00
      736500000   -1.679445617e-02    6.864831317e-03   -5.248481830e-05    2.995495197e-05    0.000000000e+00    0.000000000e+00    0.000000000e+00    0.000000000e+00
      743750000   -1.611748897e-02    6.688478403e-03    9.252873497e-06    1.767690628e-05    0.000000000e+00    0.000000000e+00    0.000000000e+00    0.000000000e+00
      751000000   -1.691122353e-02    7.436393294e-03    1.411389621e-05    1.563657497e-05    0.000000000e+00    0.000000000e+00    0.000000000e+00    0.000000000e+00
      758250000   -1.606492326e-02    6.994092371e-03    6.161768397e-05   -5.345117097e-05    0.000000000e+00    0.000000000e+00    0.000000000e+00    0.000000000e+00
      765500000   -1.645503379e-02    6.864840165e-03    3.153846365e-06    2.789816608e-05    0.000000000e+00    0.000000000e+00    0.000000000e+00    0.000000000e+00
      772750000   -1.590311714e-02    7.270029746e-03   -2.598618630e-05   -1.855250616e-06    0.000000000e+00    0.000000000e+00    0.000000000e+00    0.000000000e+00
      780000000   -1.605882868e-02    7.213840727e-03   -8.961245840e-06   -1.080115999e-05    0.000000000e+00    0.000000000e+00    0.000000000e+00    0.000000000e+00
      787250000   -1.673663780e-02    7.723716088e-03    2.928343929e-05    4.802686362e-06    0.000000000e+00    0.000000000e+00    0.000000000e+00    0.000000000e+00
      794500000   -1.600109227e-02    7.258983329e-03    1.909719140e-05    6.576318356e-06    0.000000000e+00    0.000000000e+00    0.000000000e+00    0.000000000e+00
      801750000   -1.599639654e-02    6.794996094e-03   -1.530074587e-05    3.128780008e-05    0.000000000e+00    0.000000000e+00    0.000000000e+00    0.000000000e+00
      809000000   -1.581209153e-02    7.721999660e-03    2.979728151e-06   -3.372353603e-06    0.000000000e+00    0.000000000e+00    0.000000000e+00    0.000000000e+00
      816250000   -1.618881337e-02    7.372854277e-03    1.547639840e-06    2.156815026e-05    0.000000000e+00    0.000000000e+00    0.000000000e+00    0.000000000e+00
      823500000   -1.579711586e-02    7.522166241e-03   -1.245888780e-05   -2.711364868e-05    0.000000000e+00    0.000000000e+00    0.000000000e+00    0.000000000e+00
      830750000   -1.626318134e-02    7.653288078e-03   -2.161302837e-05    4.097246347e-05    0.000000000e+00    0.000000000e+00    0.000000000e+00    0.000000000e+00
      838000000   -1.575270295e-02    7.609336637e-03   -2.766189027e-05   -5.284775398e-06    0.000000000e+00    0.000000000e+00    0.000000000e+00    0.000000000e+00
      845250000   -1.566059887e-02    7.898457348e-03   -2.238763591e-05   -3.435006590e-07    0.000000000e+00    0.000000000e+00    0.000000000e+00    0.000000000e+00
      852500000   -1.618100516e-02    7.787601557e-03   -3.845753781e-06   -4.939838618e-06    0.000000000e+00    0.000000000e+00    0.000000000e+00    0.000000000e+00
      859750000   -1.608041488e-02    7.578950841e-03   -3.434386963e-05    5.184757356e-06    0.000000000e+00    0.000000000e+00    0.000000000e+00    0.000000000e+00
      867000000   -1.535824127e-02    7.601964753e-03    1.419496130e-05   -3.017618110e-05    0.000000000e+00    0.000000000e+00    0.000000000e+00    0.000000000e+00
      874250000   -1.537136361e-02    8.111749776e-03    3.484954505e-06   -2.079464866e-05    0.000000000e+00    0.000000000e+00    0.000000000e+00    0.000000000e+00
      881500000   -1.623496972e-02    7.984823547e-03   -5.192279059e-05   -2.579734974e-05    0.000000000e+00    0.000000000e+00    0.000000000e+00    0.000000000e+00
      888750000   -1.509502437e-02    7.863886654e-03   -1.054366385e-05   -1.971425991e-05    0.000000000e+00    0.000000000e+00    0.000000000e+00    0.000000000e+00
      896000000   -1.546590682e-02    7.926037535e-03    1.327119026e-05    4.332648678e-05    0.000000000e+00    0.000000000e+00    0.000000000e+00    0.000000000e+00
      903250000   -1.540958602e-02    8.289445192e-03    1.299455016e-05    1.418184547e-05    0.000000000e+00    0.000000000e+00    0.000000000e+00    0.000000000e+00
      910500000   -1.564561948e-02    8.601121604e-03    1.212059942e-05   -5.651118499e-06    0.000000000e+00    0.000000000e+00    0.000000000e+00    0.000000000e+00
      917750000   -1.513941865e-02    8.088587783e-03    1.950407204e-05   -5.681536095e-07    0.000000000e+00    0.000000000e+00    0.000000000e+00    0.000000000e+00
      925000000   -1.529953349e-02    8.105064742e-03   -1.848324064e-05    4.657596492e-06    0.000000000e+00    0.000000000e+00    0.000000000e+00    0.000000000e+00
      932250000   -1.619130746e-02    8.312896825e-03    5.028099986e-05   -1.014893496e-05    0.000000000e+00    0.000000000e+00    0.000000000e+00    0.000000000e+00
      939500000   -1.486358419e-02    8.273709565e-03   -1.484152199e-05    2.385302287e-05    0.000000000e+00    0.000000000e+00    0.000000000e+00    0.000000000e+00
      946750000   -1.560119633e-02    8.515694179e-03    3.517880032e-05    4.207101665e-05    0.000000000e+00    0.000000000e+00    0.000000000e+00    0.000000000e+00
      954000000   -1.526439749e-02    8.313724771e-03   -3.142574860e-05   -2.873368794e-05    0.000000000e+00    0.000000000e+00    0.000000000e+00    0.000000000e+00
      961250000   -1.631400734e-02    8.773091249e-03   -1.177419108e-05    2.629854134e-05    0.000000000e+00    0.000000000e+00    0.000000000e+00    0.000000000e+00
      968500000   -1.513799373e-02    8.673758246e-03   -9.728783880e-06    1.870005144e-05    0.000000000e+00    0.000000000e+00    0.000000000e+00    0.000000000e+00
      975750000   -1.550317183e-02    8.575997315e-03    3.485227751e-07   -2.043335553e-05    0.000000000e+00    0.000000000e+00    0.000000000e+00    0.000000000e+00
      983000000   -1.476380788e-02    8.885615505e-03   -2.486577068e-05    1.635672197e-05    0.000000000e+00    0.000000000e+00    0.000000000e+00    0.000000000e+00
      990250000   -1.586922258e-02    8.740751073e-03    8.790599168e-06    2.541078175e-05    0.000000000e+00    0.000000000e+00    0.000000000e+00    0.000000000e+00
      997500000   -1.543248724e-02    8.585206233e-03   -3.999960245e-05   -4.539319434e-06    0.000000000e+00    0.000000000e+00    0.000000000e+00    0.000000000e+00
     1004750000   -1.524779666e-02    8.515576832e-03   -5.905733997e-05    5.107624020e-06    0.000000000e+00    0.000000000e+00    0.000000000e+00    0.000000000e+00
     1012000000   -1.523560937e-02    8.683770895e-03    1.857978532e-06   -8.576476830e-06    0.000000000e+00    0.000000000e+00    0.000000000e+00    0.000000000e+00
     1019250000   -1.574086770e-02    8.539670147e-03   -2.711561683e-05   -4.299258580e-05    0.000000000e+00    0.000000000e+00    0.000000000e+00    0.000000000e+00
     1026500000   -1.505908836e-02    8.521553129e-03    6.155503070e-05    2.514194239e-05    0.000000000e+00    0.000000000e+00    0.000000000e+00    0.000000000e+00
     1033750000   -1.573527232e-02    8.624787442e-03    2.559405630e-06    2.125115680e-05    0.000000000e+00    0.000000000e+00    0.000000000e+00    0.000000000e+00
     1041000000   -1.460436918e-02    8.974961936e-03   -6.394043339e-06    1.190577768e-05    0.000000000e+00    0.000000000e+00    0.000000000e+00    0.000000000e+00
