! NanoVNA-App by OneOfEleven et al v1.1.209 (+OD15) 
! Date: 2024-07-30 15:18:53
! Start: 200MHz Stop: 6GHz Points: 801
! S-Parameter data: F S11 S21 S12 S22
# Hz S RI R 50
!     Frequency           S11_Real           S11_Imag           S21_Real           S21_Imag           S12_Real           S12_Imag           S22_Real           S22_Imag
      200000000   -1.835013926e-02    1.870121923e-03    2.035233956e-05   -5.254745702e-06    0.000000000e+00    0.000000000e+00    0.000000000e+00    0.000000000e+00
      207250000   -1.899783686e-02    3.118458902e-03    1.811968559e-06   -5.765335573e-06    0.000000000e+00    0.000000000e+00    0.000000000e+00    0.000000000e+00
      214500000   -1.912070438e-02    2.973366296e-03   -3.164012742e-05   -1.010273536e-05    0.000000000e+00    0.000000000e+00    0.000000000e+00    0.000000000e+00
      221750000   -1.743311249e-02    3.247961635e-03    1.447530030e-05    2.260018118e-05    0.000000000e+00    0.000000000e+00    0.000000000e+00    0.000000000e+00
      229000000   -1.915156841e-02    4.079046659e-03   -1.517635337e-05   -2.436623436e-05    0.000000000e+00    0.000000000e+00    0.000000000e+00    0.000000000e+00
      236250000   -1.730133221e-02    2.511390485e-03   -6.161548754e-06   -1.948214413e-05    0.000000000e+00    0.000000000e+00    0.000000000e+00    0.000000000e+00
      243500000   -1.838796586e-02    2.941298764e-03   -8.082932254e-06   -1.754771984e-05    0.000000000e+00    0.000000000e+00    0.000000000e+00    0.000000000e+00
      250750000   -1.786898263e-02    3.371351399e-03   -1.280409651e-05    7.972572348e-06    0.000000000e+00    0.000000000e+00    0.000000000e+00    0.000000000e+00
      258000000   -1.761496812e-02    2.632132499e-03   -2.929163884e-06   -2.586292567e-06    0.000000000e+00    0.000000000e+00    0.000000000e+00    0.000000000e+00
      265250000   -1.814731769e-02    3.950351849e-03    6.992519502e-06   -3.684373723e-06    0.000000000e+00    0.000000000e+00    0.000000000e+00    0.000000000e+00
      272500000   -1.747116633e-02    2.827023622e-03    6.100702194e-06    2.314437734e-05    0.000000000e+00    0.000000000e+00    0.000000000e+00    0.000000000e+00
      279750000   -1.813798212e-02    3.551957896e-03    2.682346712e-05    7.779200132e-06    0.000000000e+00    0.000000000e+00    0.000000000e+00    0.000000000e+00
      287000000   -1.773178950e-02    3.051663516e-03    1.060756313e-05   -1.705188515e-05    0.000000000e+00    0.000000000e+00    0.000000000e+00    0.000000000e+00
      294250000   -1.751008630e-02    3.531931667e-03    2.500535084e-05    1.927997437e-05    0.000000000e+00    0.000000000e+00    0.000000000e+00    0.000000000e+00
      301500000   -1.735005341e-02    3.042097203e-03    1.807309127e-05   -1.409506694e-05    0.000000000e+00    0.000000000e+00    0.000000000e+00    0.000000000e+00
      308750000   -1.791115105e-02    4.649351351e-03   -4.837484994e-06    1.920575596e-05    0.000000000e+00    0.000000000e+00    0.000000000e+00    0.000000000e+00
      316000000   -1.784564182e-02    3.236143617e-03   -2.429757660e-05    1.908437071e-06    0.000000000e+00    0.000000000e+00    0.000000000e+00    0.000000000e+00
      323250000   -1.743138954e-02    2.946509281e-03   -2.179522016e-05    3.895457849e-05    0.000000000e+00    0.000000000e+00    0.000000000e+00    0.000000000e+00
      330500000   -1.718327217e-02    3.383455100e-03    3.281185491e-05   -2.343688175e-05    0.000000000e+00    0.000000000e+00    0.000000000e+00    0.000000000e+00
      337750000   -1.880111545e-02    4.058512393e-03    7.324642411e-06    2.256497282e-05    0.000000000e+00    0.000000000e+00    0.000000000e+00    0.000000000e+00
      345000000   -1.714188606e-02    3.210611641e-03   -1.709691423e-05    1.582699952e-05    0.000000000e+00    0.000000000e+00    0.000000000e+00    0.000000000e+00
      352250000   -1.788592897e-02    3.319059731e-03    1.076554145e-05    3.839413694e-05    0.000000000e+00    0.000000000e+00    0.000000000e+00    0.000000000e+00
      359500000   -1.779147796e-02    3.761169966e-03    1.021015487e-05   -1.446616352e-05    0.000000000e+00    0.000000000e+00    0.000000000e+00    0.000000000e+00
      366750000   -1.780123077e-02    3.498880658e-03    4.668836027e-06   -5.931269129e-07    0.000000000e+00    0.000000000e+00    0.000000000e+00    0.000000000e+00
      374000000   -1.817839779e-02    4.407229368e-03   -2.097403694e-06   -4.728119893e-05    0.000000000e+00    0.000000000e+00    0.000000000e+00    0.000000000e+00
      381250000   -1.764188334e-02    4.213931505e-03   -5.474885256e-06    1.726831033e-05    0.000000000e+00    0.000000000e+00    0.000000000e+00    0.000000000e+00
      388500000   -1.732891798e-02    3.787678434e-03    1.438140316e-05    8.884524505e-06    0.000000000e+00    0.000000000e+00    0.000000000e+00    0.000000000e+00
      395750000   -1.765575446e-02    3.838944947e-03   -2.952227442e-05    1.817333782e-06    0.000000000e+00    0.000000000e+00    0.000000000e+00    0.000000000e+00
      403000000   -1.794232801e-02    4.221940879e-03   -1.059303668e-05   -1.584640268e-05    0.000000000e+00    0.000000000e+00    0.000000000e+00    0.000000000e+00
      410250000   -1.677819714e-02    4.263724200e-03    1.987854603e-06    3.181447391e-05    0.000000000e+00    0.000000000e+00    0.000000000e+00    0.000000000e+00
      417500000   -1.689614914e-02    3.758863313e-03   -3.510993338e-05    4.227292447e-05    0.000000000e+00    0.000000000e+00    0.000000000e+00    0.000000000e+00
      424750000   -1.677013002e-02    4.304319620e-03    3.149203394e-06    9.879749086e-06    0.000000000e+00    0.000000000e+00    0.000000000e+00    0.000000000e+00
      432000000   -1.791902818e-02    4.585843533e-03   -3.189864856e-06   -1.285354483e-05    0.000000000e+00    0.000000000e+00    0.000000000e+00    0.000000000e+00
      439250000   -1.759351231e-02    4.487458151e-03   -7.223599823e-05    3.067941634e-06    0.000000000e+00    0.000000000e+00    0.000000000e+00    0.000000000e+00
      446500000   -1.738899387e-02    4.444467835e-03   -2.014329766e-05    3.520889368e-05    0.000000000e+00    0.000000000e+00    0.000000000e+00    0.000000000e+00
      453750000   -1.800680533e-02    5.163060036e-03    1.705575778e-05    6.632011264e-06    0.000000000e+00    0.000000000e+00    0.000000000e+00    0.000000000e+00
      461000000   -1.740424335e-02    4.560983740e-03    9.127980775e-06   -7.545032986e-06    0.000000000e+00    0.000000000e+00    0.000000000e+00    0.000000000e+00
      468250000   -1.763562486e-02    5.052295513e-03   -1.433967645e-05   -2.593187855e-05    0.000000000e+00    0.000000000e+00    0.000000000e+00    0.000000000e+00
      475500000   -1.701444015e-02    4.963061307e-03    2.018025407e-05   -5.098576730e-05    0.000000000e+00    0.000000000e+00    0.000000000e+00    0.000000000e+00
      482750000   -1.706342213e-02    4.870048258e-03   -1.657793837e-05    1.360670922e-05    0.000000000e+00    0.000000000e+00    0.000000000e+00    0.000000000e+00
      490000000   -1.736547425e-02    5.110373721e-03   -1.167898154e-05   -1.234678257e-05    0.000000000e+00    0.000000000e+00    0.000000000e+00    0.000000000e+00
      497250000   -1.702405140e-02    4.774725996e-03    4.145538242e-06    6.060685791e-06    0.000000000e+00    0.000000000e+00    0.000000000e+00    0.000000000e+00
      504500000   -1.741732843e-02    4.252873827e-03   -5.293736649e-06   -2.249517092e-05    0.000000000e+00    0.000000000e+00    0.000000000e+00    0.000000000e+00
      511750000   -1.787532680e-02    5.388208665e-03   -5.412236533e-06    6.036217997e-07    0.000000000e+00    0.000000000e+00    0.000000000e+00    0.000000000e+00
      519000000   -1.749207824e-02    5.584648810e-03    3.235041368e-05   -2.868355659e-05    0.000000000e+00    0.000000000e+00    0.000000000e+00    0.000000000e+00
      526250000   -1.681890711e-02    5.349439103e-03    7.843858839e-06    1.513094503e-05    0.000000000e+00    0.000000000e+00    0.000000000e+00    0.000000000e+00
      533500000   -1.705471240e-02    5.396704655e-03    3.567927251e-07   -1.202073599e-05    0.000000000e+00    0.000000000e+00    0.000000000e+00    0.000000000e+00
      540750000   -1.704304293e-02    5.637131631e-03   -2.277745443e-05    2.528152891e-06    0.000000000e+00    0.000000000e+00    0.000000000e+00    0.000000000e+00
      548000000   -1.723758131e-02    5.184525624e-03    1.631248779e-05    7.434795862e-06    0.000000000e+00    0.000000000e+00    0.000000000e+00    0.000000000e+00
      555250000   -1.677134261e-02    5.829808302e-03   -3.212594265e-06    1.681657159e-05    0.000000000e+00    0.000000000e+00    0.000000000e+00    0.000000000e+00
      562500000   -1.654136553e-02    5.409401841e-03   -6.449565262e-06    3.421886140e-05    0.000000000e+00    0.000000000e+00    0.000000000e+00    0.000000000e+00
      569750000   -1.752714254e-02    5.834960844e-03    1.946848533e-05   -7.998120054e-06    0.000000000e+00    0.000000000e+00    0.000000000e+00    0.000000000e+00
      577000000   -1.617954858e-02    5.466064904e-03   -8.732233255e-06   -6.316003692e-06    0.000000000e+00    0.000000000e+00    0.000000000e+00    0.000000000e+00
      584250000   -1.659073122e-02    6.209592801e-03    1.903478915e-05    3.205360599e-07    0.000000000e+00    0.000000000e+00    0.000000000e+00    0.000000000e+00
      591500000   -1.633728854e-02    5.101424642e-03   -1.271641963e-06    1.940242328e-05    0.000000000e+00    0.000000000e+00    0.000000000e+00    0.000000000e+00
      598750000   -1.712986268e-02    5.725603085e-03   -4.798304508e-05    7.065557838e-06    0.000000000e+00    0.000000000e+00    0.000000000e+00    0.000000000e+00
      606000000   -1.729358174e-02    5.673262756e-03    5.343494195e-06    1.204173714e-05    0.000000000e+00    0.000000000e+00    0.000000000e+00    0.000000000e+00
      613250000   -1.762094535e-02    5.595177878e-03    3.625885074e-05    1.829002940e-05    0.000000000e+00    0.000000000e+00    0.000000000e+00    0.000000000e+00
      620500000   -1.638903283e-02    5.438690074e-03   -4.515798719e-05   -3.298593583e-05    0.000000000e+00    0.000000000e+00    0.000000000e+00    0.000000000e+00
      627750000   -1.758110896e-02    6.439561956e-03   -1.923379386e-05    3.583129728e-05    0.000000000e+00    0.000000000e+00    0.000000000e+00    0.000000000e+00
      635000000   -1.726858690e-02    6.521914154e-03    3.342150376e-05   -3.971339538e-05    0.000000000e+00    0.000000000e+00    0.000000000e+00    0.000000000e+00
      642250000   -1.631268114e-02    6.356819067e-03   -2.305742237e-05   -2.201191637e-05    0.000000000e+00    0.000000000e+00    0.000000000e+00    0.000000000e+00
      649500000   -1.657069847e-02    6.188652012e-03    8.029296623e-06    4.229477418e-05    0.000000000e+00    0.000000000e+00    0.000000000e+00    0.000000000e+00
      656750000   -1.721367799e-02    6.495158188e-03   -2.547042413e-06   -1.085253643e-05    0.000000000e+00    0.000000000e+00    0.000000000e+00    0.000000000e+00
      664000000   -1.686627604e-02    6.254659500e-03   -1.555730159e-05   -2.377950113e-05    0.000000000e+00    0.000000000e+00    0.000000000e+00    0.000000000e+00
      671250000   -1.690055244e-02    6.711476948e-03   -6.452543312e-05    1.607991908e-05    0.000000000e+00    0.000000000e+00    0.000000000e+00    0.000000000e+00
      678500000   -1.691475138e-02    6.955204997e-03    1.475672798e-05    4.091292794e-05    0.000000000e+00    0.000000000e+00    0.000000000e+00    0.000000000e+00
      685750000   -1.631192490e-02    6.435509305e-03    1.003887064e-05   -2.200707422e-05    0.000000000e+00    0.000000000e+00    0.000000000e+00    0.000000000e+00
      693000000   -1.545786113e-02    6.786927581e-03    4.791790616e-06   -3.471648597e-05    0.000000000e+00    0.000000000e+00    0.000000000e+00    0.000000000e+00
      700250000   -1.673076488e-02    6.223176606e-03   -1.742680070e-05    1.336722016e-05    0.000000000e+00    0.000000000e+00    0.000000000e+00    0.000000000e+00
      707500000   -1.644616202e-02    7.000450511e-03    2.366851731e-06   -3.615320020e-05    0.000000000e+00    0.000000000e+00    0.000000000e+00    0.000000000e+00
      714750000   -1.630326547e-02    6.116500590e-03   -2.147626446e-06    2.474587018e-05    0.000000000e+00    0.000000000e+00    0.000000000e+00    0.000000000e+00
      722000000   -1.586234570e-02    6.764552090e-03   -3.470912270e-05   -5.413243798e-06    0.000000000e+00    0.000000000e+00    0.000000000e+00    0.000000000e+00
      729250000   -1.611768641e-02    6.419527344e-03    3.821510109e-05    2.720664452e-05    0.000000000e+00    0.000000000e+00    0.000000000e+00    0.000000000e+00
      736500000   -1.564248651e-02    6.484119222e-03   -5.286325631e-06    6.677523743e-06    0.000000000e+00    0.000000000e+00    0.000000000e+00    0.000000000e+00
      743750000   -1.650848798e-02    6.706364919e-03    1.043380871e-05    2.130810208e-05    0.000000000e+00    0.000000000e+00    0.000000000e+00    0.000000000e+00
      751000000   -1.587660983e-02    7.256437559e-03   -2.121304988e-06   -5.094251537e-05    0.000000000e+00    0.000000000e+00    0.000000000e+00    0.000000000e+00
      758250000   -1.557537075e-02    6.969149224e-03    1.037480524e-05   -4.936163168e-05    0.000000000e+00    0.000000000e+00    0.000000000e+00    0.000000000e+00
      765500000   -1.637414284e-02    6.818830501e-03    6.507921353e-05    1.108607080e-06    0.000000000e+00    0.000000000e+00    0.000000000e+00    0.000000000e+00
      772750000   -1.563968323e-02    6.869786885e-03    6.502663837e-06    9.235402104e-06    0.000000000e+00    0.000000000e+00    0.000000000e+00    0.000000000e+00
      780000000   -1.557909418e-02    7.200065069e-03    5.573838280e-06    1.337752110e-06    0.000000000e+00    0.000000000e+00    0.000000000e+00    0.000000000e+00
      787250000   -1.590476744e-02    6.945991423e-03   -2.120844147e-05    2.901690095e-05    0.000000000e+00    0.000000000e+00    0.000000000e+00    0.000000000e+00
      794500000   -1.588102430e-02    6.966736168e-03    1.023554159e-05    1.415017550e-06    0.000000000e+00    0.000000000e+00    0.000000000e+00    0.000000000e+00
      801750000   -1.582190022e-02    6.914326921e-03   -1.725866923e-06   -1.492093133e-06    0.000000000e+00    0.000000000e+00    0.000000000e+00    0.000000000e+00
      809000000   -1.529999729e-02    7.218467072e-03   -2.173757093e-05   -3.006059615e-06    0.000000000e+00    0.000000000e+00    0.000000000e+00    0.000000000e+00
      816250000   -1.550445426e-02    7.268310059e-03    3.406780888e-05    4.610708856e-06    0.000000000e+00    0.000000000e+00    0.000000000e+00    0.000000000e+00
      823500000   -1.587997004e-02    7.219551131e-03    8.536065252e-06   -1.868396794e-05    0.000000000e+00    0.000000000e+00    0.000000000e+00    0.000000000e+00
      830750000   -1.560638007e-02    7.736084983e-03    3.224957936e-06    5.944931763e-05    0.000000000e+00    0.000000000e+00    0.000000000e+00    0.000000000e+00
      838000000   -1.584451459e-02    7.641526405e-03    2.908148053e-05   -6.903117992e-06    0.000000000e+00    0.000000000e+00    0.000000000e+00    0.000000000e+00
      845250000   -1.512147672e-02    7.619404234e-03   -8.356328181e-06   -1.226447512e-05    0.000000000e+00    0.000000000e+00    0.000000000e+00    0.000000000e+00
      852500000   -1.566820033e-02    7.326723542e-03   -1.859137592e-05    2.025975118e-05    0.000000000e+00    0.000000000e+00    0.000000000e+00    0.000000000e+00
      859750000   -1.560548227e-02    7.675939240e-03    3.669641274e-06    5.201512977e-05    0.000000000e+00    0.000000000e+00    0.000000000e+00    0.000000000e+00
      867000000   -1.475082710e-02    7.366432808e-03   -3.957321314e-05    4.816697128e-06    0.000000000e+00    0.000000000e+00    0.000000000e+00    0.000000000e+00
      874250000   -1.430062298e-02    7.510141004e-03    5.319618595e-06    7.879142458e-07    0.000000000e+00    0.000000000e+00    0.000000000e+00    0.000000000e+00
      881500000   -1.597536914e-02    8.092394099e-03   -2.876684994e-05    9.281531675e-06    0.000000000e+00    0.000000000e+00    0.000000000e+00    0.000000000e+00
      888750000   -1.420464646e-02    7.674571127e-03    3.620842790e-06   -2.782594311e-05    0.000000000e+00    0.000000000e+00    0.000000000e+00    0.000000000e+00
      896000000   -1.494931802e-02    7.711295504e-03    2.579530019e-06    4.649491893e-05    0.000000000e+00    0.000000000e+00    0.000000000e+00    0.000000000e+00
      903250000   -1.561951265e-02    7.761799730e-03   -9.829730516e-06    9.636126379e-06    0.000000000e+00    0.000000000e+00    0.000000000e+00    0.000000000e+00
      910500000   -1.447718777e-02    8.196295239e-03    3.245326297e-05    6.751073670e-06    0.000000000e+00    0.000000000e+00    0.000000000e+00    0.000000000e+00
      917750000   -1.478941273e-02    7.955031469e-03    1.967788376e-05    3.595172529e-05    0.000000000e+00    0.000000000e+00    0.000000000e+00    0.000000000e+00
      925000000   -1.446644217e-02    7.722939365e-03    3.728056254e-05   -4.608568634e-05    0.000000000e+00    0.000000000e+00    0.000000000e+00    0.000000000e+00
      932250000   -1.519457996e-02    8.141851053e-03    1.655633241e-05    1.760446139e-05    0.000000000e+00    0.000000000e+00    0.000000000e+00    0.000000000e+00
      939500000   -1.481305342e-02    7.779895328e-03    3.036102680e-05    2.798686364e-05    0.000000000e+00    0.000000000e+00    0.000000000e+00    0.000000000e+00
      946750000   -1.580236293e-02    8.434806019e-03   -2.859435699e-05   -3.446017945e-05    0.000000000e+00    0.000000000e+00    0.000000000e+00    0.000000000e+00
      954000000   -1.479397155e-02    8.617091924e-03   -2.658671838e-05   -1.342709129e-05    0.000000000e+00    0.000000000e+00    0.000000000e+00    0.000000000e+00
      961250000   -1.458906848e-02    8.118308149e-03    1.488897510e-06   -4.256985267e-05    0.000000000e+00    0.000000000e+00    0.000000000e+00    0.000000000e+00
      968500000   -1.464955788e-02    8.286076598e-03    2.788727943e-05   -5.552614766e-06    0.000000000e+00    0.000000000e+00    0.000000000e+00    0.000000000e+00
      975750000   -1.506874617e-02    8.575167507e-03    1.465928926e-05    1.904356941e-05    0.000000000e+00    0.000000000e+00    0.000000000e+00    0.000000000e+00
      983000000   -1.469522994e-02    8.932141587e-03    3.810099952e-05    2.484959077e-05    0.000000000e+00    0.000000000e+00    0.000000000e+00    0.000000000e+00
      990250000   -1.523798797e-02    8.603056893e-03    2.852748003e-05   -5.739520202e-05    0.000000000e+00    0.000000000e+00    0.000000000e+00    0.000000000e+00
      997500000   -1.515871752e-02    8.598951623e-03   -3.841720172e-05    2.933492760e-05    0.000000000e+00    0.000000000e+00    0.000000000e+00    0.000000000e+00
     1004750000   -1.455061976e-02    8.637115359e-03   -1.679293564e-05    5.652506297e-05    0.000000000e+00    0.000000000e+00    0.000000000e+00    0.000000000e+00
     1012000000   -1.502651162e-02    8.426404558e-03    1.302005512e-05   -1.720233013e-05    0.000000000e+00    0.000000000e+00    0.000000000e+00    0.000000000e+00
     1019250000   -1.481765602e-02    8.549109101e-03   -4.974981857e-05   -1.346114550e-05    0.000000000e+00    0.000000000e+00    0.000000000e+00    0.000000000e+00
     1026500000   -1.391589642e-02    8.488910273e-03   -1.567594882e-05    6.165154900e-06    0.000000000e+00    0.000000000e+00    0.000000000e+00    0.000000000e+00
     1033750000   -1.556026842e-02    8.430182934e-03   -3.072479444e-07   -4.246343451e-05    0.000000000e+00    0.000000000e+00    0.000000000e+00    0.000000000e+00
     1041000000   -1.519162580e-02    8.067179471e-03   -2.562296868e-05    1.834965042e-05    0.000000000e+00    0.000000000e+00    0.000000000e+00    0.000000000e+00
