! NanoVNA-App
! Date: 2024-06-25 16:48:15
! Start: 200MHz Stop: 1.5GHz Points: 801
! S-Parameter data: F S11 S21 S12 S22
# Hz S RI R 50
!     Frequency           S11_Real           S11_Imag           S21_Real           S21_Imag           S12_Real           S12_Imag           S22_Real           S22_Imag
      200000000   -8.519444466e-01    1.387790143e-01    1.647229801e-04    7.659057155e-05    0.000000000e+00    0.000000000e+00    0.000000000e+00    0.000000000e+00
      201625000   -8.462803960e-01    1.654737890e-01    1.749835792e-04    5.654302731e-05    0.000000000e+00    0.000000000e+00    0.000000000e+00    0.000000000e+00
      203250000   -8.395596147e-01    1.918684542e-01    2.244071511e-04    6.659792416e-05    0.000000000e+00    0.000000000e+00    0.000000000e+00    0.000000000e+00
      204875000   -8.322507739e-01    2.179380655e-01    2.303612564e-04    7.421838382e-05    0.000000000e+00    0.000000000e+00    0.000000000e+00    0.000000000e+00
      206500000   -8.239715099e-01    2.435919344e-01    2.587580238e-04    6.008434502e-05    0.000000000e+00    0.000000000e+00    0.000000000e+00    0.000000000e+00
      208125000   -8.145176768e-01    2.690643668e-01    2.594766556e-04    6.867219781e-05    0.000000000e+00    0.000000000e+00    0.000000000e+00    0.000000000e+00
      209750000   -8.044894934e-01    2.939405143e-01    2.620784508e-04    8.643594629e-05    0.000000000e+00    0.000000000e+00    0.000000000e+00    0.000000000e+00
      211375000   -7.933618426e-01    3.181802928e-01    2.620397427e-04    9.050494555e-05    0.000000000e+00    0.000000000e+00    0.000000000e+00    0.000000000e+00
      213000000   -7.815418839e-01    3.422352374e-01    2.758490155e-04    8.079307736e-05    0.000000000e+00    0.000000000e+00    0.000000000e+00    0.000000000e+00
      214625000   -7.690803409e-01    3.655509055e-01    2.770064748e-04    1.181660627e-04    0.000000000e+00    0.000000000e+00    0.000000000e+00    0.000000000e+00
      216250000   -7.556030750e-01    3.884675503e-01    3.096176370e-04    1.112207319e-04    0.000000000e+00    0.000000000e+00    0.000000000e+00    0.000000000e+00
      217875000   -7.412425280e-01    4.107492864e-01    2.806328994e-04    1.184994908e-04    0.000000000e+00    0.000000000e+00    0.000000000e+00    0.000000000e+00
      219500000   -7.264791727e-01    4.323214293e-01    2.836551575e-04    1.146440263e-04    0.000000000e+00    0.000000000e+00    0.000000000e+00    0.000000000e+00
      221125000   -7.110546231e-01    4.533739984e-01    3.032699751e-04    1.298795396e-04    0.000000000e+00    0.000000000e+00    0.000000000e+00    0.000000000e+00
      222750000   -6.946769953e-01    4.737215340e-01    3.004532191e-04    1.134403283e-04    0.000000000e+00    0.000000000e+00    0.000000000e+00    0.000000000e+00
      224375000   -6.778674126e-01    4.934540391e-01    3.096156579e-04    1.490871946e-04    0.000000000e+00    0.000000000e+00    0.000000000e+00    0.000000000e+00
      226000000   -6.604328752e-01    5.124721527e-01    3.149056283e-04    1.244291198e-04    0.000000000e+00    0.000000000e+00    0.000000000e+00    0.000000000e+00
      227625000   -6.424193978e-01    5.306863785e-01    3.108875535e-04    1.551915775e-04    0.000000000e+00    0.000000000e+00    0.000000000e+00    0.000000000e+00
      229250000   -6.239233613e-01    5.483784676e-01    3.221824300e-04    1.437732135e-04    0.000000000e+00    0.000000000e+00    0.000000000e+00    0.000000000e+00
      230875000   -6.048246026e-01    5.654245615e-01    3.067487560e-04    1.446177193e-04    0.000000000e+00    0.000000000e+00    0.000000000e+00    0.000000000e+00
      232500000   -5.855004787e-01    5.816829801e-01    3.129523247e-04    1.261467114e-04    0.000000000e+00    0.000000000e+00    0.000000000e+00    0.000000000e+00
      234125000   -5.655784607e-01    5.971647501e-01    3.252637980e-04    1.414697326e-04    0.000000000e+00    0.000000000e+00    0.000000000e+00    0.000000000e+00
      235750000   -5.451607704e-01    6.118487120e-01    3.341730044e-04    1.246856555e-04    0.000000000e+00    0.000000000e+00    0.000000000e+00    0.000000000e+00
      237375000   -5.244204998e-01    6.255832911e-01    3.272128524e-04    1.496364857e-04    0.000000000e+00    0.000000000e+00    0.000000000e+00    0.000000000e+00
      239000000   -5.034052134e-01    6.387698650e-01    3.494071716e-04    1.215610828e-04    0.000000000e+00    0.000000000e+00    0.000000000e+00    0.000000000e+00
      240625000   -4.820187390e-01    6.511048675e-01    3.361813433e-04    1.300515869e-04    0.000000000e+00    0.000000000e+00    0.000000000e+00    0.000000000e+00
      242250000   -4.599568546e-01    6.629648209e-01    3.346250451e-04    1.471734286e-04    0.000000000e+00    0.000000000e+00    0.000000000e+00    0.000000000e+00
      243875000   -4.379805028e-01    6.739879251e-01    3.484894405e-04    1.455851452e-04    0.000000000e+00    0.000000000e+00    0.000000000e+00    0.000000000e+00
      245500000   -4.155139029e-01    6.842579842e-01    3.357592213e-04    1.406840893e-04    0.000000000e+00    0.000000000e+00    0.000000000e+00    0.000000000e+00
      247125000   -3.930249810e-01    6.939835548e-01    3.477526188e-04    1.220723789e-04    0.000000000e+00    0.000000000e+00    0.000000000e+00    0.000000000e+00
      248750000   -3.702066541e-01    7.027980089e-01    3.672425519e-04    1.392361155e-04    0.000000000e+00    0.000000000e+00    0.000000000e+00    0.000000000e+00
      250375000   -3.474311233e-01    7.108306885e-01    3.559816396e-04    1.514083124e-04    0.000000000e+00    0.000000000e+00    0.000000000e+00    0.000000000e+00
      252000000   -3.244415224e-01    7.181116343e-01    3.488016082e-04    1.359211601e-04    0.000000000e+00    0.000000000e+00    0.000000000e+00    0.000000000e+00
      253625000   -3.015470207e-01    7.246176600e-01    3.693426843e-04    1.289090433e-04    0.000000000e+00    0.000000000e+00    0.000000000e+00    0.000000000e+00
      255250000   -2.785809338e-01    7.301458716e-01    3.568308020e-04    1.477393234e-04    0.000000000e+00    0.000000000e+00    0.000000000e+00    0.000000000e+00
      256875000   -2.556492984e-01    7.350699306e-01    3.907576320e-04    1.639654656e-04    0.000000000e+00    0.000000000e+00    0.000000000e+00    0.000000000e+00
      258500000   -2.327148020e-01    7.392724752e-01    3.461261513e-04    1.523444080e-04    0.000000000e+00    0.000000000e+00    0.000000000e+00    0.000000000e+00
      260125000   -2.097209543e-01    7.427495718e-01    3.629896382e-04    1.543477119e-04    0.000000000e+00    0.000000000e+00    0.000000000e+00    0.000000000e+00
      261750000   -1.867136806e-01    7.459083796e-01    3.625721729e-04    1.462875807e-04    0.000000000e+00    0.000000000e+00    0.000000000e+00    0.000000000e+00
      263375000   -1.640627235e-01    7.474012971e-01    3.798066755e-04    1.415344741e-04    0.000000000e+00    0.000000000e+00    0.000000000e+00    0.000000000e+00
      265000000   -1.412496865e-01    7.488667369e-01    3.527845256e-04    1.433920697e-04    0.000000000e+00    0.000000000e+00    0.000000000e+00    0.000000000e+00
      266625000   -1.186632887e-01    7.493006587e-01    3.903141478e-04    1.312365785e-04    0.000000000e+00    0.000000000e+00    0.000000000e+00    0.000000000e+00
      268250000   -9.611405432e-02    7.494022846e-01    3.625837853e-04    1.374786807e-04    0.000000000e+00    0.000000000e+00    0.000000000e+00    0.000000000e+00
      269875000   -7.367657125e-02    7.487410903e-01    3.323903657e-04    1.337666472e-04    0.000000000e+00    0.000000000e+00    0.000000000e+00    0.000000000e+00
      271500000   -5.134718120e-02    7.472296953e-01    3.579423646e-04    1.322705357e-04    0.000000000e+00    0.000000000e+00    0.000000000e+00    0.000000000e+00
      273125000   -2.924248762e-02    7.453028560e-01    3.611777793e-04    1.384616626e-04    0.000000000e+00    0.000000000e+00    0.000000000e+00    0.000000000e+00
      274750000   -7.419805042e-03    7.427695394e-01    3.580274060e-04    1.221794082e-04    0.000000000e+00    0.000000000e+00    0.000000000e+00    0.000000000e+00
      276375000    1.425351296e-02    7.394082546e-01    3.320141986e-04    1.337720460e-04    0.000000000e+00    0.000000000e+00    0.000000000e+00    0.000000000e+00
      278000000    3.565892577e-02    7.356269956e-01    3.483751789e-04    1.298093703e-04    0.000000000e+00    0.000000000e+00    0.000000000e+00    0.000000000e+00
      279625000    5.690632015e-02    7.312011719e-01    3.709531156e-04    1.467337133e-04    0.000000000e+00    0.000000000e+00    0.000000000e+00    0.000000000e+00
      281250000    7.823362947e-02    7.264296412e-01    3.641293442e-04    1.080578368e-04    0.000000000e+00    0.000000000e+00    0.000000000e+00    0.000000000e+00
      282875000    9.892208129e-02    7.208316922e-01    3.304985876e-04    1.366268261e-04    0.000000000e+00    0.000000000e+00    0.000000000e+00    0.000000000e+00
      284500000    1.194534823e-01    7.149279118e-01    3.405302705e-04    1.339392911e-04    0.000000000e+00    0.000000000e+00    0.000000000e+00    0.000000000e+00
      286125000    1.398906708e-01    7.082222104e-01    3.124313953e-04    1.414284634e-04    0.000000000e+00    0.000000000e+00    0.000000000e+00    0.000000000e+00
      287750000    1.597796082e-01    7.013061047e-01    3.402045986e-04    1.009293410e-04    0.000000000e+00    0.000000000e+00    0.000000000e+00    0.000000000e+00
      289375000    1.793684959e-01    6.934134364e-01    3.250592563e-04    1.112892860e-04    0.000000000e+00    0.000000000e+00    0.000000000e+00    0.000000000e+00
      291000000    9.356728941e-02    6.522977352e-01   -3.585474624e-04    4.628112492e-06    0.000000000e+00    0.000000000e+00    0.000000000e+00    0.000000000e+00
      292625000    1.125277430e-01    6.466779709e-01   -3.593588917e-05   -1.118814907e-04    0.000000000e+00    0.000000000e+00    0.000000000e+00    0.000000000e+00
      294250000    1.308668405e-01    6.396490932e-01   -1.129450393e-04   -6.483871402e-05    0.000000000e+00    0.000000000e+00    0.000000000e+00    0.000000000e+00
      295875000    1.492384821e-01    6.331260800e-01   -1.131103272e-04    8.465449355e-05    0.000000000e+00    0.000000000e+00    0.000000000e+00    0.000000000e+00
      297500000    1.671537906e-01    6.258079410e-01   -1.011913191e-04    8.173179958e-05    0.000000000e+00    0.000000000e+00    0.000000000e+00    0.000000000e+00
      299125000    1.840643287e-01    6.182115078e-01   -5.130749196e-05    1.281273580e-05    0.000000000e+00    0.000000000e+00    0.000000000e+00    0.000000000e+00
      300750000    2.012694031e-01    6.097204089e-01   -1.220974664e-04    1.170631658e-04    0.000000000e+00    0.000000000e+00    0.000000000e+00    0.000000000e+00
      302375000    2.177759260e-01    6.003555655e-01   -9.427931946e-05    4.360504317e-05    0.000000000e+00    0.000000000e+00    0.000000000e+00    0.000000000e+00
      304000000    2.340305746e-01    5.917190909e-01   -2.392568276e-04    2.400957310e-04    0.000000000e+00    0.000000000e+00    0.000000000e+00    0.000000000e+00
      305625000    2.507900894e-01    5.823036432e-01   -8.960325067e-05   -4.112984971e-05    0.000000000e+00    0.000000000e+00    0.000000000e+00    0.000000000e+00
      307250000    2.670288980e-01    5.745685697e-01   -1.198525642e-04    8.694610733e-05    0.000000000e+00    0.000000000e+00    0.000000000e+00    0.000000000e+00
      308875000    2.808763683e-01    5.621080995e-01   -1.496951008e-04    2.552799378e-05    0.000000000e+00    0.000000000e+00    0.000000000e+00    0.000000000e+00
      310500000    2.958450913e-01    5.518158674e-01   -1.162976841e-04   -3.626724038e-06    0.000000000e+00    0.000000000e+00    0.000000000e+00    0.000000000e+00
      312125000    3.104536533e-01    5.404513478e-01    5.345489262e-05    1.293012174e-04    0.000000000e+00    0.000000000e+00    0.000000000e+00    0.000000000e+00
      313750000    3.250458539e-01    5.299022794e-01   -3.711340833e-05   -8.977491962e-05    0.000000000e+00    0.000000000e+00    0.000000000e+00    0.000000000e+00
      315375000    3.380137384e-01    5.178921223e-01   -1.387315715e-04    1.567041327e-04    0.000000000e+00    0.000000000e+00    0.000000000e+00    0.000000000e+00
      317000000    3.518946767e-01    5.065968633e-01    1.923073614e-05    1.158155428e-04    0.000000000e+00    0.000000000e+00    0.000000000e+00    0.000000000e+00
      318625000    3.646399379e-01    4.946817458e-01   -5.229951421e-05    3.573161302e-05    0.000000000e+00    0.000000000e+00    0.000000000e+00    0.000000000e+00
      320250000    3.771176934e-01    4.824343026e-01    2.221126579e-06   -8.980816347e-06    0.000000000e+00    0.000000000e+00    0.000000000e+00    0.000000000e+00
      321875000    3.895877004e-01    4.696368277e-01    9.374793080e-06   -1.088706085e-05    0.000000000e+00    0.000000000e+00    0.000000000e+00    0.000000000e+00
      323500000    4.013012946e-01    4.565239847e-01   -7.657124661e-05   -1.124173014e-05    0.000000000e+00    0.000000000e+00    0.000000000e+00    0.000000000e+00
      325125000    4.127365947e-01    4.441846013e-01    7.402644405e-05    2.058963582e-05    0.000000000e+00    0.000000000e+00    0.000000000e+00    0.000000000e+00
      326750000    4.237589836e-01    4.306334853e-01   -5.677060471e-05    2.935062003e-05    0.000000000e+00    0.000000000e+00    0.000000000e+00    0.000000000e+00
      328375000    4.344569147e-01    4.174701869e-01   -1.045823228e-04    5.767193579e-05    0.000000000e+00    0.000000000e+00    0.000000000e+00    0.000000000e+00
      330000000    4.445562363e-01    4.041525424e-01    4.173138223e-05    9.972203407e-05    0.000000000e+00    0.000000000e+00    0.000000000e+00    0.000000000e+00
      331625000    4.545654356e-01    3.900313079e-01   -9.604449588e-05   -6.325195864e-05    0.000000000e+00    0.000000000e+00    0.000000000e+00    0.000000000e+00
      333250000    4.636709392e-01    3.763405383e-01   -9.967300139e-05   -3.732078403e-05    0.000000000e+00    0.000000000e+00    0.000000000e+00    0.000000000e+00
      334875000    4.726361632e-01    3.625318110e-01   -6.132715498e-05   -1.374535168e-05    0.000000000e+00    0.000000000e+00    0.000000000e+00    0.000000000e+00
      336500000    4.813866913e-01    3.484600186e-01   -2.010710596e-04   -5.379206050e-05    0.000000000e+00    0.000000000e+00    0.000000000e+00    0.000000000e+00
      338125000    4.897531271e-01    3.341039121e-01   -7.052012370e-05   -1.922871343e-05    0.000000000e+00    0.000000000e+00    0.000000000e+00    0.000000000e+00
      339750000    4.978015721e-01    3.199743629e-01   -1.012853318e-04   -1.195620280e-05    0.000000000e+00    0.000000000e+00    0.000000000e+00    0.000000000e+00
      341375000    5.049858689e-01    3.053561747e-01   -3.503664630e-05   -1.176956575e-04    0.000000000e+00    0.000000000e+00    0.000000000e+00    0.000000000e+00
      343000000    5.124426484e-01    2.908702493e-01   -4.377820005e-05   -1.557213254e-04    0.000000000e+00    0.000000000e+00    0.000000000e+00    0.000000000e+00
      344625000    5.191242695e-01    2.763030529e-01   -6.378415856e-05   -1.133242858e-05    0.000000000e+00    0.000000000e+00    0.000000000e+00    0.000000000e+00
      346250000    5.253868699e-01    2.618938386e-01   -2.052275477e-06   -8.597897249e-05    0.000000000e+00    0.000000000e+00    0.000000000e+00    0.000000000e+00
      347875000    5.316177011e-01    2.472118288e-01   -2.442267214e-05   -8.831325249e-05    0.000000000e+00    0.000000000e+00    0.000000000e+00    0.000000000e+00
      349500000    5.371112227e-01    2.322476208e-01   -6.248895806e-05   -4.101611921e-05    0.000000000e+00    0.000000000e+00    0.000000000e+00    0.000000000e+00
      351125000    5.425363183e-01    2.175038755e-01   -3.694885891e-05    1.029143750e-04    0.000000000e+00    0.000000000e+00    0.000000000e+00    0.000000000e+00
      352750000    5.473691821e-01    2.025168985e-01   -6.524031051e-05    7.810404350e-05    0.000000000e+00    0.000000000e+00    0.000000000e+00    0.000000000e+00
      354375000    5.521078110e-01    1.875806600e-01   -1.058864582e-04   -7.898582226e-06    0.000000000e+00    0.000000000e+00    0.000000000e+00    0.000000000e+00
      356000000    5.561720729e-01    1.727464944e-01   -6.356144877e-05    1.240963047e-05    0.000000000e+00    0.000000000e+00    0.000000000e+00    0.000000000e+00
      357625000    5.602476597e-01    1.578993052e-01   -7.666463716e-06   -1.152105760e-04    0.000000000e+00    0.000000000e+00    0.000000000e+00    0.000000000e+00
      359250000    5.636366606e-01    1.425900012e-01   -9.844674787e-05    7.437375461e-05    0.000000000e+00    0.000000000e+00    0.000000000e+00    0.000000000e+00
      360875000    5.668662786e-01    1.277913004e-01    4.881919449e-05    2.098857840e-05    0.000000000e+00    0.000000000e+00    0.000000000e+00    0.000000000e+00
      362500000    5.698628426e-01    1.126967445e-01    1.901684072e-06   -5.038750169e-05    0.000000000e+00    0.000000000e+00    0.000000000e+00    0.000000000e+00
      364125000    5.726585984e-01    9.770132601e-02   -1.222675928e-04   -1.807557965e-05    0.000000000e+00    0.000000000e+00    0.000000000e+00    0.000000000e+00
      365750000    5.746320486e-01    8.301042020e-02   -7.753396494e-05   -6.680141087e-05    0.000000000e+00    0.000000000e+00    0.000000000e+00    0.000000000e+00
      367375000    5.767247081e-01    6.779301912e-02   -6.710653543e-05   -8.660978347e-05    0.000000000e+00    0.000000000e+00    0.000000000e+00    0.000000000e+00
      369000000    5.782919526e-01    5.321026966e-02   -7.853464922e-05   -4.078645361e-06    0.000000000e+00    0.000000000e+00    0.000000000e+00    0.000000000e+00
      370625000    5.795470476e-01    3.828324005e-02   -1.728903771e-05   -2.792658597e-05    0.000000000e+00    0.000000000e+00    0.000000000e+00    0.000000000e+00
      372250000    5.807689428e-01    2.345563285e-02   -7.980204828e-05   -6.198832853e-05    0.000000000e+00    0.000000000e+00    0.000000000e+00    0.000000000e+00
      373875000    5.809854865e-01    8.557757363e-03   -2.153919340e-04    1.982868998e-04    0.000000000e+00    0.000000000e+00    0.000000000e+00    0.000000000e+00
      375500000    5.812690258e-01   -6.151410285e-03    9.462241906e-07    2.246462827e-06    0.000000000e+00    0.000000000e+00    0.000000000e+00    0.000000000e+00
      377125000    5.812878013e-01   -2.077465877e-02   -1.757950376e-04    6.622446381e-05    0.000000000e+00    0.000000000e+00    0.000000000e+00    0.000000000e+00
      378750000    5.808773041e-01   -3.549904749e-02   -3.200919309e-05    1.657243047e-05    0.000000000e+00    0.000000000e+00    0.000000000e+00    0.000000000e+00
      380375000    5.802758336e-01   -5.009359121e-02   -5.359692659e-05    9.052698442e-05    0.000000000e+00    0.000000000e+00    0.000000000e+00    0.000000000e+00
      382000000    5.792257786e-01   -6.485901028e-02   -3.787314563e-05    9.550902905e-05    0.000000000e+00    0.000000000e+00    0.000000000e+00    0.000000000e+00
      383625000    5.780005455e-01   -7.937265933e-02   -9.003252489e-05    6.464854232e-05    0.000000000e+00    0.000000000e+00    0.000000000e+00    0.000000000e+00
      385250000    5.764718056e-01   -9.363310039e-02   -1.301627981e-05   -5.997152402e-05    0.000000000e+00    0.000000000e+00    0.000000000e+00    0.000000000e+00
      386875000    5.745137334e-01   -1.081782058e-01   -9.367230814e-05    5.262851118e-06    0.000000000e+00    0.000000000e+00    0.000000000e+00    0.000000000e+00
      388500000    5.723559260e-01   -1.224456728e-01   -1.204917644e-04   -5.410791709e-05    0.000000000e+00    0.000000000e+00    0.000000000e+00    0.000000000e+00
