! NanoVNA-App
! Date: 2024-06-25 16:48:18
! Start: 200MHz Stop: 1.5GHz Points: 801
! S-Parameter data: F S11 S21 S12 S22
# Hz S RI R 50
!     Frequency           S11_Real           S11_Imag           S21_Real           S21_Imag           S12_Real           S12_Imag           S22_Real           S22_Imag
      200000000   -8.519088030e-01    1.387462616e-01    1.986008137e-04    6.869404751e-05    0.000000000e+00    0.000000000e+00    0.000000000e+00    0.000000000e+00
      201625000   -8.462145329e-01    1.655425429e-01    2.053868084e-04    5.614270776e-05    0.000000000e+00    0.000000000e+00    0.000000000e+00    0.000000000e+00
      203250000   -8.395896554e-01    1.920028329e-01    2.015040227e-04    4.486422768e-05    0.000000000e+00    0.000000000e+00    0.000000000e+00    0.000000000e+00
      204875000   -8.321844935e-01    2.179693729e-01    2.209453232e-04    4.813437772e-05    0.000000000e+00    0.000000000e+00    0.000000000e+00    0.000000000e+00
      206500000   -8.238495588e-01    2.436898500e-01    2.240419271e-04    7.560966333e-05    0.000000000e+00    0.000000000e+00    0.000000000e+00    0.000000000e+00
      208125000   -8.146384358e-01    2.689099312e-01    2.434488706e-04    7.844529318e-05    0.000000000e+00    0.000000000e+00    0.000000000e+00    0.000000000e+00
      209750000   -8.044801354e-01    2.938793302e-01    2.656574361e-04    9.277778008e-05    0.000000000e+00    0.000000000e+00    0.000000000e+00    0.000000000e+00
      211375000   -7.934333086e-01    3.182563186e-01    2.658554586e-04    9.851924551e-05    0.000000000e+00    0.000000000e+00    0.000000000e+00    0.000000000e+00
      213000000   -7.815886736e-01    3.421303630e-01    2.591163211e-04    7.884954539e-05    0.000000000e+00    0.000000000e+00    0.000000000e+00    0.000000000e+00
      214625000   -7.689266205e-01    3.655345440e-01    2.729489352e-04    9.410742496e-05    0.000000000e+00    0.000000000e+00    0.000000000e+00    0.000000000e+00
      216250000   -7.554206252e-01    3.884042203e-01    2.813719329e-04    1.120129091e-04    0.000000000e+00    0.000000000e+00    0.000000000e+00    0.000000000e+00
      217875000   -7.412325144e-01    4.106449783e-01    2.880749526e-04    1.206210291e-04    0.000000000e+00    0.000000000e+00    0.000000000e+00    0.000000000e+00
      219500000   -7.265046835e-01    4.322813451e-01    3.040989686e-04    1.081340524e-04    0.000000000e+00    0.000000000e+00    0.000000000e+00    0.000000000e+00
      221125000   -7.109253407e-01    4.533581138e-01    3.135175793e-04    1.298652642e-04    0.000000000e+00    0.000000000e+00    0.000000000e+00    0.000000000e+00
      222750000   -6.946542859e-01    4.738696218e-01    3.189788840e-04    1.313257235e-04    0.000000000e+00    0.000000000e+00    0.000000000e+00    0.000000000e+00
      224375000   -6.778810620e-01    4.934587181e-01    2.955447417e-04    1.385639771e-04    0.000000000e+00    0.000000000e+00    0.000000000e+00    0.000000000e+00
      226000000   -6.603425741e-01    5.124461055e-01    3.369071055e-04    1.484202512e-04    0.000000000e+00    0.000000000e+00    0.000000000e+00    0.000000000e+00
      227625000   -6.424798369e-01    5.307413936e-01    3.117539745e-04    1.354872220e-04    0.000000000e+00    0.000000000e+00    0.000000000e+00    0.000000000e+00
      229250000   -6.239355803e-01    5.486001372e-01    3.316230141e-04    1.596389484e-04    0.000000000e+00    0.000000000e+00    0.000000000e+00    0.000000000e+00
      230875000   -6.048860550e-01    5.654132366e-01    3.295947390e-04    1.421619818e-04    0.000000000e+00    0.000000000e+00    0.000000000e+00    0.000000000e+00
      232500000   -5.854951143e-01    5.816613436e-01    3.289705783e-04    1.512528979e-04    0.000000000e+00    0.000000000e+00    0.000000000e+00    0.000000000e+00
      234125000   -5.656430125e-01    5.969029069e-01    3.434819228e-04    1.413576101e-04    0.000000000e+00    0.000000000e+00    0.000000000e+00    0.000000000e+00
      235750000   -5.452223420e-01    6.119263172e-01    3.190597345e-04    1.296093251e-04    0.000000000e+00    0.000000000e+00    0.000000000e+00    0.000000000e+00
      237375000   -5.244517922e-01    6.257196069e-01    3.205327084e-04    1.486016263e-04    0.000000000e+00    0.000000000e+00    0.000000000e+00    0.000000000e+00
      239000000   -5.034834146e-01    6.386113167e-01    3.290489258e-04    1.674821106e-04    0.000000000e+00    0.000000000e+00    0.000000000e+00    0.000000000e+00
      240625000   -4.818541408e-01    6.510207653e-01    3.565652005e-04    1.434841979e-04    0.000000000e+00    0.000000000e+00    0.000000000e+00    0.000000000e+00
      242250000   -4.601398408e-01    6.630195975e-01    3.537366865e-04    1.119229637e-04    0.000000000e+00    0.000000000e+00    0.000000000e+00    0.000000000e+00
      243875000   -4.378165901e-01    6.740063429e-01    3.121638438e-04    1.281121367e-04    0.000000000e+00    0.000000000e+00    0.000000000e+00    0.000000000e+00
      245500000   -4.153509438e-01    6.844592094e-01    3.488242801e-04    1.344985503e-04    0.000000000e+00    0.000000000e+00    0.000000000e+00    0.000000000e+00
      247125000   -3.929239810e-01    6.940222383e-01    3.483371111e-04    1.592190238e-04    0.000000000e+00    0.000000000e+00    0.000000000e+00    0.000000000e+00
      248750000   -3.702132702e-01    7.027791142e-01    3.540282487e-04    1.369989477e-04    0.000000000e+00    0.000000000e+00    0.000000000e+00    0.000000000e+00
      250375000   -3.473321497e-01    7.109460831e-01    3.593031142e-04    1.387387310e-04    0.000000000e+00    0.000000000e+00    0.000000000e+00    0.000000000e+00
      252000000   -3.246082664e-01    7.179042101e-01    3.491744283e-04    1.354972192e-04    0.000000000e+00    0.000000000e+00    0.000000000e+00    0.000000000e+00
      253625000   -3.015104830e-01    7.244250774e-01    3.693794715e-04    1.428565593e-04    0.000000000e+00    0.000000000e+00    0.000000000e+00    0.000000000e+00
      255250000   -2.786239386e-01    7.302218676e-01    3.585068043e-04    1.580051903e-04    0.000000000e+00    0.000000000e+00    0.000000000e+00    0.000000000e+00
      256875000   -2.556239069e-01    7.350754738e-01    3.621408541e-04    1.527539425e-04    0.000000000e+00    0.000000000e+00    0.000000000e+00    0.000000000e+00
      258500000   -2.326534390e-01    7.393186688e-01    3.538559249e-04    1.540146332e-04    0.000000000e+00    0.000000000e+00    0.000000000e+00    0.000000000e+00
      260125000   -2.096899748e-01    7.427004576e-01    3.567473323e-04    1.482725493e-04    0.000000000e+00    0.000000000e+00    0.000000000e+00    0.000000000e+00
      261750000   -1.868147999e-01    7.457497120e-01    3.759636602e-04    1.451704302e-04    0.000000000e+00    0.000000000e+00    0.000000000e+00    0.000000000e+00
      263375000   -1.639145166e-01    7.474179268e-01    3.568555694e-04    1.309562067e-04    0.000000000e+00    0.000000000e+00    0.000000000e+00    0.000000000e+00
      265000000   -1.412373483e-01    7.487450242e-01    3.679707006e-04    1.276042167e-04    0.000000000e+00    0.000000000e+00    0.000000000e+00    0.000000000e+00
      266625000   -1.187791154e-01    7.494637966e-01    3.948674130e-04    1.457017497e-04    0.000000000e+00    0.000000000e+00    0.000000000e+00    0.000000000e+00
      268250000   -9.612081200e-02    7.492447495e-01    3.628587583e-04    1.445175876e-04    0.000000000e+00    0.000000000e+00    0.000000000e+00    0.000000000e+00
      269875000   -7.377788424e-02    7.486270666e-01    3.814741794e-04    1.562053803e-04    0.000000000e+00    0.000000000e+00    0.000000000e+00    0.000000000e+00
      271500000   -5.137625337e-02    7.470936179e-01    3.693434701e-04    1.507256675e-04    0.000000000e+00    0.000000000e+00    0.000000000e+00    0.000000000e+00
      273125000   -2.939203382e-02    7.452787161e-01    3.436192637e-04    1.328460930e-04    0.000000000e+00    0.000000000e+00    0.000000000e+00    0.000000000e+00
      274750000   -7.377078291e-03    7.426596284e-01    3.580815974e-04    1.381586044e-04    0.000000000e+00    0.000000000e+00    0.000000000e+00    0.000000000e+00
      276375000    1.426271535e-02    7.395595908e-01    3.701459791e-04    1.515302720e-04    0.000000000e+00    0.000000000e+00    0.000000000e+00    0.000000000e+00
      278000000    3.578378260e-02    7.353757024e-01    3.617133480e-04    1.587556908e-04    0.000000000e+00    0.000000000e+00    0.000000000e+00    0.000000000e+00
      279625000    5.708445236e-02    7.312943935e-01    3.742350673e-04    1.489514689e-04    0.000000000e+00    0.000000000e+00    0.000000000e+00    0.000000000e+00
      281250000    7.809954882e-02    7.263963223e-01    3.369489277e-04    1.526764245e-04    0.000000000e+00    0.000000000e+00    0.000000000e+00    0.000000000e+00
      282875000    9.885070473e-02    7.208874226e-01    3.338961396e-04    1.487474510e-04    0.000000000e+00    0.000000000e+00    0.000000000e+00    0.000000000e+00
      284500000    1.194323525e-01    7.146949172e-01    3.323285491e-04    1.262313453e-04    0.000000000e+00    0.000000000e+00    0.000000000e+00    0.000000000e+00
      286125000    1.397279054e-01    7.083429098e-01    3.047419013e-04    1.151012548e-04    0.000000000e+00    0.000000000e+00    0.000000000e+00    0.000000000e+00
      287750000    1.599050462e-01    7.013750672e-01    3.317856463e-04    1.121640089e-04    0.000000000e+00    0.000000000e+00    0.000000000e+00    0.000000000e+00
      289375000    1.793039143e-01    6.934575438e-01    3.097336739e-04    1.270862849e-04    0.000000000e+00    0.000000000e+00    0.000000000e+00    0.000000000e+00
      291000000    9.463908523e-02    6.529316306e-01    1.963382529e-04   -7.007239037e-05    0.000000000e+00    0.000000000e+00    0.000000000e+00    0.000000000e+00
      292625000    1.134940684e-01    6.471713185e-01   -1.109717923e-04   -1.098247376e-04    0.000000000e+00    0.000000000e+00    0.000000000e+00    0.000000000e+00
      294250000    1.310913563e-01    6.396785975e-01   -6.227681297e-05    1.003777288e-04    0.000000000e+00    0.000000000e+00    0.000000000e+00    0.000000000e+00
      295875000    1.493280828e-01    6.330285668e-01   -9.266827692e-05   -8.903875823e-06    0.000000000e+00    0.000000000e+00    0.000000000e+00    0.000000000e+00
      297500000    1.669209003e-01    6.253697872e-01   -1.060782961e-04   -3.107194425e-05    0.000000000e+00    0.000000000e+00    0.000000000e+00    0.000000000e+00
      299125000    1.846698076e-01    6.181434989e-01   -3.866356201e-05   -6.603527254e-06    0.000000000e+00    0.000000000e+00    0.000000000e+00    0.000000000e+00
      300750000    2.010471821e-01    6.096000671e-01    4.998531949e-05   -1.008727631e-04    0.000000000e+00    0.000000000e+00    0.000000000e+00    0.000000000e+00
      302375000    2.176610827e-01    6.006217003e-01   -1.195839504e-04    6.224011304e-05    0.000000000e+00    0.000000000e+00    0.000000000e+00    0.000000000e+00
      304000000    2.343224138e-01    5.914993286e-01   -5.937065725e-05   -6.140776532e-05    0.000000000e+00    0.000000000e+00    0.000000000e+00    0.000000000e+00
      305625000    2.500566542e-01    5.816973448e-01   -1.737307612e-04   -2.220181887e-05    0.000000000e+00    0.000000000e+00    0.000000000e+00    0.000000000e+00
      307250000    2.655006647e-01    5.746049881e-01   -4.832953709e-05    1.383213676e-04    0.000000000e+00    0.000000000e+00    0.000000000e+00    0.000000000e+00
      308875000    2.810512185e-01    5.620952845e-01   -8.054955106e-05    1.644703734e-04    0.000000000e+00    0.000000000e+00    0.000000000e+00    0.000000000e+00
      310500000    2.963348627e-01    5.519758463e-01   -5.707169475e-05   -1.538873585e-05    0.000000000e+00    0.000000000e+00    0.000000000e+00    0.000000000e+00
      312125000    3.104257882e-01    5.404953361e-01    1.871440872e-05   -4.196482769e-05    0.000000000e+00    0.000000000e+00    0.000000000e+00    0.000000000e+00
      313750000    3.245960176e-01    5.299180746e-01   -4.574402192e-05   -2.702124766e-05    0.000000000e+00    0.000000000e+00    0.000000000e+00    0.000000000e+00
      315375000    3.384811580e-01    5.182052255e-01   -2.252370541e-05   -5.345679892e-05    0.000000000e+00    0.000000000e+00    0.000000000e+00    0.000000000e+00
      317000000    3.520410955e-01    5.068879724e-01   -6.343064888e-05   -1.436993334e-04    0.000000000e+00    0.000000000e+00    0.000000000e+00    0.000000000e+00
      318625000    3.644773066e-01    4.943126142e-01   -1.264928142e-04   -3.717138679e-05    0.000000000e+00    0.000000000e+00    0.000000000e+00    0.000000000e+00
      320250000    3.771326542e-01    4.822033346e-01   -1.628227765e-04   -4.553203689e-05    0.000000000e+00    0.000000000e+00    0.000000000e+00    0.000000000e+00
      321875000    3.893853724e-01    4.696978033e-01   -1.563566766e-04   -1.269090862e-04    0.000000000e+00    0.000000000e+00    0.000000000e+00    0.000000000e+00
      323500000    4.010961950e-01    4.565955400e-01   -4.529755097e-05    8.741735655e-05    0.000000000e+00    0.000000000e+00    0.000000000e+00    0.000000000e+00
      325125000    4.128619730e-01    4.441144168e-01   -1.271383371e-04   -8.281690680e-05    0.000000000e+00    0.000000000e+00    0.000000000e+00    0.000000000e+00
      326750000    4.240408242e-01    4.308250546e-01    3.539791805e-06   -2.565223440e-05    0.000000000e+00    0.000000000e+00    0.000000000e+00    0.000000000e+00
      328375000    4.343222976e-01    4.174863994e-01   -1.333496039e-04    4.255406748e-05    0.000000000e+00    0.000000000e+00    0.000000000e+00    0.000000000e+00
      330000000    4.448170066e-01    4.038760364e-01   -2.640234743e-05   -4.851203994e-05    0.000000000e+00    0.000000000e+00    0.000000000e+00    0.000000000e+00
      331625000    4.540874064e-01    3.905852437e-01    4.216009984e-05   -1.578356205e-05    0.000000000e+00    0.000000000e+00    0.000000000e+00    0.000000000e+00
      333250000    4.635234475e-01    3.762317896e-01    1.523914943e-05   -8.645551134e-06    0.000000000e+00    0.000000000e+00    0.000000000e+00    0.000000000e+00
      334875000    4.726862907e-01    3.623474240e-01   -2.001075190e-04    5.243544820e-06    0.000000000e+00    0.000000000e+00    0.000000000e+00    0.000000000e+00
      336500000    4.813861847e-01    3.482702374e-01   -1.140624372e-04   -3.957270019e-05    0.000000000e+00    0.000000000e+00    0.000000000e+00    0.000000000e+00
      338125000    4.899006784e-01    3.342790306e-01   -1.432645076e-04   -6.562137423e-05    0.000000000e+00    0.000000000e+00    0.000000000e+00    0.000000000e+00
      339750000    4.973298311e-01    3.198453188e-01   -8.126954526e-06    1.508968271e-04    0.000000000e+00    0.000000000e+00    0.000000000e+00    0.000000000e+00
      341375000    5.050969124e-01    3.056282997e-01    1.609252649e-05   -1.755873091e-04    0.000000000e+00    0.000000000e+00    0.000000000e+00    0.000000000e+00
      343000000    5.123462677e-01    2.908743620e-01   -4.675126547e-05    3.424737224e-05    0.000000000e+00    0.000000000e+00    0.000000000e+00    0.000000000e+00
      344625000    5.191538930e-01    2.764114439e-01   -8.509269537e-05    3.304405618e-05    0.000000000e+00    0.000000000e+00    0.000000000e+00    0.000000000e+00
      346250000    5.256702304e-01    2.617765367e-01   -2.244644566e-04    4.187163086e-06    0.000000000e+00    0.000000000e+00    0.000000000e+00    0.000000000e+00
      347875000    5.315286517e-01    2.470700592e-01   -1.240109850e-04    5.461238470e-05    0.000000000e+00    0.000000000e+00    0.000000000e+00    0.000000000e+00
      349500000    5.370884538e-01    2.322829813e-01   -5.511658310e-05    1.699152635e-04    0.000000000e+00    0.000000000e+00    0.000000000e+00    0.000000000e+00
      351125000    5.422776937e-01    2.173863053e-01    1.381586662e-05    4.246097160e-05    0.000000000e+00    0.000000000e+00    0.000000000e+00    0.000000000e+00
      352750000    5.474379659e-01    2.025527805e-01   -9.026495536e-05    4.093264579e-05    0.000000000e+00    0.000000000e+00    0.000000000e+00    0.000000000e+00
      354375000    5.518472195e-01    1.876492947e-01   -7.957420166e-05    4.076545156e-05    0.000000000e+00    0.000000000e+00    0.000000000e+00    0.000000000e+00
      356000000    5.563383698e-01    1.727620214e-01    8.062710549e-05    3.143294089e-05    0.000000000e+00    0.000000000e+00    0.000000000e+00    0.000000000e+00
      357625000    5.600907803e-01    1.576003581e-01   -1.474671008e-04    2.164608850e-05    0.000000000e+00    0.000000000e+00    0.000000000e+00    0.000000000e+00
      359250000    5.636656880e-01    1.428217143e-01   -9.249787399e-05   -9.613058864e-06    0.000000000e+00    0.000000000e+00    0.000000000e+00    0.000000000e+00
      360875000    5.670958757e-01    1.277315915e-01    3.697419743e-05   -8.495510701e-05    0.000000000e+00    0.000000000e+00    0.000000000e+00    0.000000000e+00
      362500000    5.698795319e-01    1.128021628e-01   -1.037750262e-04   -8.337509644e-05    0.000000000e+00    0.000000000e+00    0.000000000e+00    0.000000000e+00
      364125000    5.724390149e-01    9.764572233e-02   -1.720788277e-04   -7.786219612e-06    0.000000000e+00    0.000000000e+00    0.000000000e+00    0.000000000e+00
      365750000    5.747404695e-01    8.297971636e-02   -3.840733916e-05    9.864620552e-06    0.000000000e+00    0.000000000e+00    0.000000000e+00    0.000000000e+00
      367375000    5.764993429e-01    6.805543602e-02    1.814565621e-05    1.612086053e-04    0.000000000e+00    0.000000000e+00    0.000000000e+00    0.000000000e+00
      369000000    5.781482458e-01    5.308951065e-02   -1.155221253e-04   -1.758756753e-06    0.000000000e+00    0.000000000e+00    0.000000000e+00    0.000000000e+00
      370625000    5.793836117e-01    3.823227063e-02   -1.072506639e-04    4.544113108e-05    0.000000000e+00    0.000000000e+00    0.000000000e+00    0.000000000e+00
      372250000    5.805377364e-01    2.347281389e-02   -6.517300790e-05    5.574943498e-05    0.000000000e+00    0.000000000e+00    0.000000000e+00    0.000000000e+00
      373875000    5.810967684e-01    8.793945424e-03   -4.594267739e-05   -1.073400417e-04    0.000000000e+00    0.000000000e+00    0.000000000e+00    0.000000000e+00
      375500000    5.811678767e-01   -6.196109112e-03   -9.396197129e-05    2.980268982e-05    0.000000000e+00    0.000000000e+00    0.000000000e+00    0.000000000e+00
      377125000    5.810387731e-01   -2.091423608e-02   -1.710642246e-04   -1.876733004e-04    0.000000000e+00    0.000000000e+00    0.000000000e+00    0.000000000e+00
      378750000    5.809943080e-01   -3.564504161e-02   -2.170302614e-04   -4.752869063e-05    0.000000000e+00    0.000000000e+00    0.000000000e+00    0.000000000e+00
      380375000    5.801329017e-01   -5.004882440e-02   -7.164215640e-05    2.891693657e-05    0.000000000e+00    0.000000000e+00    0.000000000e+00    0.000000000e+00
      382000000    5.791779757e-01   -6.483513862e-02   -8.285918739e-05   -3.682804891e-05    0.000000000e+00    0.000000000e+00    0.000000000e+00    0.000000000e+00
      383625000    5.781754255e-01   -7.939387113e-02   -7.868796092e-05    7.802854088e-05    0.000000000e+00    0.000000000e+00    0.000000000e+00    0.000000000e+00
      385250000    5.766095519e-01   -9.377878159e-02   -1.495054676e-05    5.565909305e-05    0.000000000e+00    0.000000000e+00    0.000000000e+00    0.000000000e+00
      386875000    5.747790337e-01   -1.083980203e-01   -1.291160297e-04    1.686227333e-04    0.000000000e+00    0.000000000e+00    0.000000000e+00    0.000000000e+00
      388500000    5.723534226e-01   -1.225706041e-01   -4.996799544e-05   -6.749297609e-05    0.000000000e+00    0.000000000e+00    0.000000000e+00    0.000000000e+00
