! NanoVNA-App by OneOfEleven et al v1.1.209 (+OD15) 
! Date: 2024-07-30 15:11:23
! Start: 200MHz Stop: 6GHz Points: 801
! S-Parameter data: F S11 S21 S12 S22
# Hz S RI R 50
!     Frequency           S11_Real           S11_Imag           S21_Real           S21_Imag           S12_Real           S12_Imag           S22_Real           S22_Imag
      200000000    8.883670568e-01    2.079350501e-01    2.256222069e-05    6.108544767e-06    0.000000000e+00    0.000000000e+00    0.000000000e+00    0.000000000e+00
      207250000    9.043132067e-01    1.006532535e-01    1.010019332e-05    9.215436876e-06    0.000000000e+00    0.000000000e+00    0.000000000e+00    0.000000000e+00
      214500000    9.077553153e-01   -7.513094693e-03    2.292916179e-05    1.440849155e-05    0.000000000e+00    0.000000000e+00    0.000000000e+00    0.000000000e+00
      221750000    8.983685374e-01   -1.136407852e-01   -1.503899693e-05    4.130322486e-05    0.000000000e+00    0.000000000e+00    0.000000000e+00    0.000000000e+00
      229000000    8.775339127e-01   -2.167777270e-01    1.113954931e-05   -1.472979784e-05    0.000000000e+00    0.000000000e+00    0.000000000e+00    0.000000000e+00
      236250000    8.463724256e-01   -3.161632419e-01    1.146458089e-05   -1.111626625e-05    0.000000000e+00    0.000000000e+00    0.000000000e+00    0.000000000e+00
      243500000    8.050704002e-01   -4.091993570e-01    6.649643183e-07    1.962203532e-05    0.000000000e+00    0.000000000e+00    0.000000000e+00    0.000000000e+00
      250750000    7.543986440e-01   -4.964341819e-01    5.791895092e-06   -1.344829798e-06    0.000000000e+00    0.000000000e+00    0.000000000e+00    0.000000000e+00
      258000000    6.963845491e-01   -5.767164230e-01    1.068972051e-05   -1.225620508e-05    0.000000000e+00    0.000000000e+00    0.000000000e+00    0.000000000e+00
      265250000    6.314114928e-01   -6.498037577e-01    2.097152174e-05   -3.846362233e-07    0.000000000e+00    0.000000000e+00    0.000000000e+00    0.000000000e+00
      272500000    5.601036549e-01   -7.154347301e-01   -4.392024130e-05   -2.908241004e-05    0.000000000e+00    0.000000000e+00    0.000000000e+00    0.000000000e+00
      279750000    4.842686653e-01   -7.728450298e-01   -3.169849515e-05    2.722907811e-05    0.000000000e+00    0.000000000e+00    0.000000000e+00    0.000000000e+00
      287000000    4.030735195e-01   -8.223176599e-01   -2.509262413e-05   -3.365799785e-06    0.000000000e+00    0.000000000e+00    0.000000000e+00    0.000000000e+00
      294250000    3.191865981e-01   -8.627888560e-01    2.200063318e-05    2.768170089e-05    0.000000000e+00    0.000000000e+00    0.000000000e+00    0.000000000e+00
      301500000    2.322672755e-01   -8.952075243e-01   -6.779097021e-06    2.324208617e-05    0.000000000e+00    0.000000000e+00    0.000000000e+00    0.000000000e+00
      308750000    1.435728967e-01   -9.194940329e-01   -1.798383892e-06    1.826602966e-05    0.000000000e+00    0.000000000e+00    0.000000000e+00    0.000000000e+00
      316000000    5.317623168e-02   -9.347437024e-01   -7.710419595e-06   -9.893439710e-06    0.000000000e+00    0.000000000e+00    0.000000000e+00    0.000000000e+00
      323250000   -3.691135347e-02   -9.422398806e-01    2.754945308e-05   -1.149252057e-06    0.000000000e+00    0.000000000e+00    0.000000000e+00    0.000000000e+00
      330500000   -1.283716261e-01   -9.407465458e-01    9.768642485e-06   -1.053698361e-05    0.000000000e+00    0.000000000e+00    0.000000000e+00    0.000000000e+00
      337750000   -2.187607288e-01   -9.311456680e-01   -9.846873581e-06   -2.987589687e-05    0.000000000e+00    0.000000000e+00    0.000000000e+00    0.000000000e+00
      345000000   -3.075511456e-01   -9.138900042e-01   -1.269485801e-05    3.142096102e-05    0.000000000e+00    0.000000000e+00    0.000000000e+00    0.000000000e+00
      352250000   -3.953614831e-01   -8.877291083e-01    2.842582762e-05    5.146767944e-05    0.000000000e+00    0.000000000e+00    0.000000000e+00    0.000000000e+00
      359500000   -4.808607996e-01   -8.530797362e-01    1.021288335e-05    6.131827831e-06    0.000000000e+00    0.000000000e+00    0.000000000e+00    0.000000000e+00
      366750000   -5.626437664e-01   -8.112960458e-01    1.303851604e-06   -5.661509931e-06    0.000000000e+00    0.000000000e+00    0.000000000e+00    0.000000000e+00
      374000000   -6.404775381e-01   -7.597154975e-01    2.142041922e-06    4.051532596e-05    0.000000000e+00    0.000000000e+00    0.000000000e+00    0.000000000e+00
      381250000   -7.148493528e-01   -7.015098929e-01    4.334375262e-06   -1.950189471e-06    0.000000000e+00    0.000000000e+00    0.000000000e+00    0.000000000e+00
      388500000   -7.829325199e-01   -6.351632476e-01    1.280102879e-05    1.889187843e-05    0.000000000e+00    0.000000000e+00    0.000000000e+00    0.000000000e+00
      395750000   -8.449519873e-01   -5.628275871e-01    3.039464355e-05    3.884546459e-06    0.000000000e+00    0.000000000e+00    0.000000000e+00    0.000000000e+00
      403000000   -8.994920850e-01   -4.814835191e-01    5.075708032e-07   -1.861155033e-05    0.000000000e+00    0.000000000e+00    0.000000000e+00    0.000000000e+00
      410250000   -9.464710355e-01   -3.956365585e-01   -2.904422581e-05   -6.054155529e-05    0.000000000e+00    0.000000000e+00    0.000000000e+00    0.000000000e+00
      417500000   -9.842984080e-01   -3.043290079e-01    1.713726670e-05   -2.992805094e-05    0.000000000e+00    0.000000000e+00    0.000000000e+00    0.000000000e+00
      424750000   -1.011857867e+00   -2.073875815e-01   -3.467220813e-05   -3.123003989e-05    0.000000000e+00    0.000000000e+00    0.000000000e+00    0.000000000e+00
      432000000   -1.029919386e+00   -1.076928675e-01    1.624785364e-05    2.677366138e-05    0.000000000e+00    0.000000000e+00    0.000000000e+00    0.000000000e+00
      439250000   -1.036842704e+00   -5.258944817e-03    3.493297845e-05    1.324899495e-05    0.000000000e+00    0.000000000e+00    0.000000000e+00    0.000000000e+00
      446500000   -1.033029318e+00    9.732155502e-02   -2.876296639e-05   -1.407600939e-05    0.000000000e+00    0.000000000e+00    0.000000000e+00    0.000000000e+00
      453750000   -1.016360521e+00    2.017120868e-01   -6.778817624e-05    2.182088792e-05    0.000000000e+00    0.000000000e+00    0.000000000e+00    0.000000000e+00
      461000000   -9.879429936e-01    3.029322028e-01   -2.106744796e-05    1.433212310e-05    0.000000000e+00    0.000000000e+00    0.000000000e+00    0.000000000e+00
      468250000   -9.497069120e-01    4.013969004e-01   -3.775581717e-06    1.837871969e-05    0.000000000e+00    0.000000000e+00    0.000000000e+00    0.000000000e+00
      475500000   -8.977263570e-01    4.964155257e-01    2.088677138e-05    4.325062037e-06    0.000000000e+00    0.000000000e+00    0.000000000e+00    0.000000000e+00
      482750000   -8.367494345e-01    5.842815042e-01   -1.695286483e-05    3.900192678e-05    0.000000000e+00    0.000000000e+00    0.000000000e+00    0.000000000e+00
      490000000   -7.652349472e-01    6.648728251e-01    1.491885632e-05   -2.249330282e-05    0.000000000e+00    0.000000000e+00    0.000000000e+00    0.000000000e+00
      497250000   -6.848089695e-01    7.364153862e-01   -1.608487219e-05   -1.169089228e-05    0.000000000e+00    0.000000000e+00    0.000000000e+00    0.000000000e+00
      504500000   -5.959718823e-01    7.987458110e-01   -3.088358790e-05    2.346001565e-06    0.000000000e+00    0.000000000e+00    0.000000000e+00    0.000000000e+00
      511750000   -5.016655922e-01    8.502076268e-01   -8.100643754e-06    2.204813063e-05    0.000000000e+00    0.000000000e+00    0.000000000e+00    0.000000000e+00
      519000000   -4.015909433e-01    8.912215233e-01    1.242663711e-05    7.450580597e-09    0.000000000e+00    0.000000000e+00    0.000000000e+00    0.000000000e+00
      526250000   -2.984636724e-01    9.196749330e-01   -2.016592771e-05    2.857763320e-05    0.000000000e+00    0.000000000e+00    0.000000000e+00    0.000000000e+00
      533500000   -1.932735145e-01    9.365366697e-01    1.876987517e-05   -7.107853889e-06    0.000000000e+00    0.000000000e+00    0.000000000e+00    0.000000000e+00
      540750000   -8.663630486e-02    9.416995645e-01   -2.588983625e-05   -1.602899283e-05    0.000000000e+00    0.000000000e+00    0.000000000e+00    0.000000000e+00
      548000000    1.899969205e-02    9.344089031e-01   -1.870095730e-06   -1.081172377e-05    0.000000000e+00    0.000000000e+00    0.000000000e+00    0.000000000e+00
      555250000    1.230035052e-01    9.160553217e-01   -9.661540389e-06    6.826594472e-07    0.000000000e+00    0.000000000e+00    0.000000000e+00    0.000000000e+00
      562500000    2.224998325e-01    8.863101602e-01    2.499204129e-05   -2.424232662e-06    0.000000000e+00    0.000000000e+00    0.000000000e+00    0.000000000e+00
      569750000    3.187841773e-01    8.471816182e-01   -3.276299685e-05    3.050081432e-06    0.000000000e+00    0.000000000e+00    0.000000000e+00    0.000000000e+00
      577000000    4.082070887e-01    7.981513739e-01   -1.828558743e-05   -5.726702511e-06    0.000000000e+00    0.000000000e+00    0.000000000e+00    0.000000000e+00
      584250000    4.928911626e-01    7.406278849e-01    5.741603673e-06    1.840572804e-05    0.000000000e+00    0.000000000e+00    0.000000000e+00    0.000000000e+00
      591500000    5.708500743e-01    6.744627953e-01    1.043919474e-05   -1.951679587e-05    0.000000000e+00    0.000000000e+00    0.000000000e+00    0.000000000e+00
      598750000    6.407077909e-01    6.018652320e-01   -2.324488014e-05    1.504085958e-05    0.000000000e+00    0.000000000e+00    0.000000000e+00    0.000000000e+00
      606000000    7.023794055e-01    5.229517817e-01   -2.554617822e-06    1.746881753e-05    0.000000000e+00    0.000000000e+00    0.000000000e+00    0.000000000e+00
      613250000    7.550899982e-01    4.395805895e-01   -2.751126885e-05   -7.871538401e-06    0.000000000e+00    0.000000000e+00    0.000000000e+00    0.000000000e+00
      620500000    7.992672324e-01    3.504077196e-01    4.989095032e-06   -1.091323793e-05    0.000000000e+00    0.000000000e+00    0.000000000e+00    0.000000000e+00
      627750000    8.349480033e-01    2.572352886e-01    6.785616279e-06   -1.985672861e-05    0.000000000e+00    0.000000000e+00    0.000000000e+00    0.000000000e+00
      635000000    8.609883785e-01    1.625261009e-01    3.355462104e-05   -9.959563613e-06    0.000000000e+00    0.000000000e+00    0.000000000e+00    0.000000000e+00
      642250000    8.781716228e-01    6.416726857e-02   -6.100162864e-06   -1.564901322e-05    0.000000000e+00    0.000000000e+00    0.000000000e+00    0.000000000e+00
      649500000    8.851275444e-01   -3.393273056e-02    2.976506948e-05   -9.096227586e-06    0.000000000e+00    0.000000000e+00    0.000000000e+00    0.000000000e+00
      656750000    8.822361827e-01   -1.341188401e-01    3.319047391e-05    3.235414624e-06    0.000000000e+00    0.000000000e+00    0.000000000e+00    0.000000000e+00
      664000000    8.695693016e-01   -2.326335311e-01   -3.367662430e-05    3.352668136e-05    0.000000000e+00    0.000000000e+00    0.000000000e+00    0.000000000e+00
      671250000    8.477136493e-01   -3.301169872e-01    1.762062311e-06    1.652166247e-05    0.000000000e+00    0.000000000e+00    0.000000000e+00    0.000000000e+00
      678500000    8.155328035e-01   -4.254926145e-01   -2.338550985e-06   -2.324581146e-06    0.000000000e+00    0.000000000e+00    0.000000000e+00    0.000000000e+00
      685750000    7.729777098e-01   -5.187150240e-01    3.911554813e-06    3.565289080e-05    0.000000000e+00    0.000000000e+00    0.000000000e+00    0.000000000e+00
      693000000    7.215970755e-01   -6.069388986e-01   -1.919735223e-05    1.002568752e-05    0.000000000e+00    0.000000000e+00    0.000000000e+00    0.000000000e+00
      700250000    6.611649394e-01   -6.908732057e-01    2.190470695e-06   -4.201848060e-05    0.000000000e+00    0.000000000e+00    0.000000000e+00    0.000000000e+00
      707500000    5.912393928e-01   -7.683854103e-01    5.446374416e-06   -4.002451897e-05    0.000000000e+00    0.000000000e+00    0.000000000e+00    0.000000000e+00
      714750000    5.122808218e-01   -8.384316564e-01   -2.807378769e-05    1.446343958e-06    0.000000000e+00    0.000000000e+00    0.000000000e+00    0.000000000e+00
      722000000    4.246736169e-01   -9.014847279e-01   -1.314841211e-05    3.998167813e-05    0.000000000e+00    0.000000000e+00    0.000000000e+00    0.000000000e+00
      729250000    3.312217593e-01   -9.545199871e-01   -2.814456820e-05    1.777987927e-05    0.000000000e+00    0.000000000e+00    0.000000000e+00    0.000000000e+00
      736500000    2.299847156e-01   -9.972199202e-01    1.759268343e-06   -2.258084714e-05    0.000000000e+00    0.000000000e+00    0.000000000e+00    0.000000000e+00
      743750000    1.240139157e-01   -1.027941942e+00   -2.937763929e-05    1.855101436e-05    0.000000000e+00    0.000000000e+00    0.000000000e+00    0.000000000e+00
      751000000    1.389806718e-02   -1.048601270e+00   -9.423121810e-06   -1.727137715e-05    0.000000000e+00    0.000000000e+00    0.000000000e+00    0.000000000e+00
      758250000   -9.833656996e-02   -1.054064870e+00    1.699570566e-05   -1.211557537e-05    0.000000000e+00    0.000000000e+00    0.000000000e+00    0.000000000e+00
      765500000   -2.127231508e-01   -1.046544552e+00    3.206543624e-06    3.760308027e-05    0.000000000e+00    0.000000000e+00    0.000000000e+00    0.000000000e+00
      772750000   -3.252789974e-01   -1.025983334e+00    2.884306014e-05   -6.836839020e-06    0.000000000e+00    0.000000000e+00    0.000000000e+00    0.000000000e+00
      780000000   -4.357541502e-01   -9.927928448e-01    2.843327820e-05   -1.005828381e-05    0.000000000e+00    0.000000000e+00    0.000000000e+00    0.000000000e+00
      787250000   -5.414484739e-01   -9.436565638e-01    3.440957516e-05    1.144129783e-05    0.000000000e+00    0.000000000e+00    0.000000000e+00    0.000000000e+00
      794500000   -6.414203644e-01   -8.805087805e-01    3.701727837e-05    3.899447620e-06    0.000000000e+00    0.000000000e+00    0.000000000e+00    0.000000000e+00
      801750000   -7.331346273e-01   -8.060229421e-01   -1.800432801e-05    4.611909389e-06    0.000000000e+00    0.000000000e+00    0.000000000e+00    0.000000000e+00
      809000000   -8.134167194e-01   -7.229989767e-01    5.922280252e-06    6.681308150e-06    0.000000000e+00    0.000000000e+00    0.000000000e+00    0.000000000e+00
      816250000   -8.821294308e-01   -6.310623884e-01    2.154335380e-05   -2.806168050e-05    0.000000000e+00    0.000000000e+00    0.000000000e+00    0.000000000e+00
      823500000   -9.402127862e-01   -5.298281908e-01   -2.791173756e-06    4.044361413e-05    0.000000000e+00    0.000000000e+00    0.000000000e+00    0.000000000e+00
      830750000   -9.835951924e-01   -4.248456061e-01   -1.715309918e-05   -5.587935448e-08    0.000000000e+00    0.000000000e+00    0.000000000e+00    0.000000000e+00
      838000000   -1.013648987e+00   -3.180631697e-01    2.876855433e-06    5.836598575e-06    0.000000000e+00    0.000000000e+00    0.000000000e+00    0.000000000e+00
      845250000   -1.030094147e+00   -2.066097558e-01    1.713261008e-05   -1.698266715e-05    0.000000000e+00    0.000000000e+00    0.000000000e+00    0.000000000e+00
      852500000   -1.034131050e+00   -9.822981805e-02    1.282524318e-05   -8.043833077e-06    0.000000000e+00    0.000000000e+00    0.000000000e+00    0.000000000e+00
      859750000   -1.024614215e+00    8.979724720e-03   -1.312792301e-05    4.480313510e-05    0.000000000e+00    0.000000000e+00    0.000000000e+00    0.000000000e+00
      867000000   -1.003383517e+00    1.138767153e-01    5.826354027e-06    2.941582352e-05    0.000000000e+00    0.000000000e+00    0.000000000e+00    0.000000000e+00
      874250000   -9.721763730e-01    2.113156915e-01    1.073814929e-06    4.965253174e-05    0.000000000e+00    0.000000000e+00    0.000000000e+00    0.000000000e+00
      881500000   -9.289180636e-01    3.056397438e-01   -3.466848284e-05   -1.410022378e-05    0.000000000e+00    0.000000000e+00    0.000000000e+00    0.000000000e+00
      888750000   -8.789319396e-01    3.912979066e-01   -2.266559750e-05   -4.291534424e-05    0.000000000e+00    0.000000000e+00    0.000000000e+00    0.000000000e+00
      896000000   -8.196886182e-01    4.703496695e-01    2.403371036e-05    1.727789640e-05    0.000000000e+00    0.000000000e+00    0.000000000e+00    0.000000000e+00
      903250000   -7.551212311e-01    5.412197113e-01    3.622937948e-05    2.308748662e-06    0.000000000e+00    0.000000000e+00    0.000000000e+00    0.000000000e+00
      910500000   -6.831777692e-01    6.047006249e-01   -6.664544344e-06   -1.130532473e-05    0.000000000e+00    0.000000000e+00    0.000000000e+00    0.000000000e+00
      917750000   -6.091437936e-01    6.574164629e-01   -6.520561874e-05    2.064369619e-05    0.000000000e+00    0.000000000e+00    0.000000000e+00    0.000000000e+00
      925000000   -5.319424272e-01    7.035238743e-01    2.432335168e-05    2.099294215e-05    0.000000000e+00    0.000000000e+00    0.000000000e+00    0.000000000e+00
      932250000   -4.492146671e-01    7.414765954e-01   -1.780781895e-05   -4.330649972e-06    0.000000000e+00    0.000000000e+00    0.000000000e+00    0.000000000e+00
      939500000   -3.668408990e-01    7.713525891e-01    3.569759429e-06   -4.265457392e-06    0.000000000e+00    0.000000000e+00    0.000000000e+00    0.000000000e+00
      946750000   -2.837170064e-01    7.930496335e-01    3.601424396e-06    6.036832929e-06    0.000000000e+00    0.000000000e+00    0.000000000e+00    0.000000000e+00
      954000000   -1.982154697e-01    8.072462082e-01   -2.308748662e-06    2.281554043e-05    0.000000000e+00    0.000000000e+00    0.000000000e+00    0.000000000e+00
      961250000   -1.164881214e-01    8.132386804e-01   -2.978090197e-05   -3.869552165e-05    0.000000000e+00    0.000000000e+00    0.000000000e+00    0.000000000e+00
      968500000   -3.067600727e-02    8.122736216e-01    2.512615174e-05   -2.859439701e-05    0.000000000e+00    0.000000000e+00    0.000000000e+00    0.000000000e+00
      975750000    5.071328953e-02    8.041164875e-01   -2.536457032e-05    4.685483873e-06    0.000000000e+00    0.000000000e+00    0.000000000e+00    0.000000000e+00
      983000000    1.315592080e-01    7.895766497e-01    2.154894173e-05   -9.351409972e-06    0.000000000e+00    0.000000000e+00    0.000000000e+00    0.000000000e+00
      990250000    2.103511542e-01    7.681405544e-01   -4.021637142e-05    2.079736441e-05    0.000000000e+00    0.000000000e+00    0.000000000e+00    0.000000000e+00
      997500000    2.880246639e-01    7.392010093e-01   -5.094334483e-07    4.072580487e-05    0.000000000e+00    0.000000000e+00    0.000000000e+00    0.000000000e+00
     1004750000    3.620652258e-01    7.057436705e-01   -2.548098564e-06   -2.243090421e-05    0.000000000e+00    0.000000000e+00    0.000000000e+00    0.000000000e+00
     1012000000    4.339947402e-01    6.639601588e-01   -1.882761717e-05   -1.600570977e-05    0.000000000e+00    0.000000000e+00    0.000000000e+00    0.000000000e+00
     1019250000    5.025173426e-01    6.167500615e-01    2.855900675e-05    6.469525397e-05    0.000000000e+00    0.000000000e+00    0.000000000e+00    0.000000000e+00
     1026500000    5.668803453e-01    5.638763905e-01   -2.720672637e-05   -1.543387771e-05    0.000000000e+00    0.000000000e+00    0.000000000e+00    0.000000000e+00
     1033750000    6.259688139e-01    5.052878261e-01    2.398435026e-05   -2.918858081e-05    0.000000000e+00    0.000000000e+00    0.000000000e+00    0.000000000e+00
     1041000000    6.810959578e-01    4.397174716e-01    4.546716809e-06   -3.332551569e-05    0.000000000e+00    0.000000000e+00    0.000000000e+00    0.000000000e+00
