! NanoVNA-App by OneOfEleven et al v1.1.209 (+OD15) 
! Date: 2024-07-30 15:11:25
! Start: 200MHz Stop: 6GHz Points: 801
! S-Parameter data: F S11 S21 S12 S22
# Hz S RI R 50
!     Frequency           S11_Real           S11_Imag           S21_Real           S21_Imag           S12_Real           S12_Imag           S22_Real           S22_Imag
      200000000    8.878127337e-01    2.076878846e-01   -1.784693450e-05   -8.428469300e-07    0.000000000e+00    0.000000000e+00    0.000000000e+00    0.000000000e+00
      207250000    9.037832022e-01    9.979907423e-02   -1.260731369e-05   -2.770684659e-06    0.000000000e+00    0.000000000e+00    0.000000000e+00    0.000000000e+00
      214500000    9.076380730e-01   -7.359903306e-03   -3.772135824e-05    5.840323865e-06    0.000000000e+00    0.000000000e+00    0.000000000e+00    0.000000000e+00
      221750000    8.984132409e-01   -1.137027964e-01    2.042297274e-05   -1.168716699e-05    0.000000000e+00    0.000000000e+00    0.000000000e+00    0.000000000e+00
      229000000    8.777958751e-01   -2.167329639e-01   -4.081986845e-06   -8.135102689e-06    0.000000000e+00    0.000000000e+00    0.000000000e+00    0.000000000e+00
      236250000    8.462992311e-01   -3.156675100e-01    1.003406942e-05    5.690380931e-07    0.000000000e+00    0.000000000e+00    0.000000000e+00    0.000000000e+00
      243500000    8.053901196e-01   -4.088798463e-01   -1.591444016e-05   -1.647043973e-05    0.000000000e+00    0.000000000e+00    0.000000000e+00    0.000000000e+00
      250750000    7.545907497e-01   -4.966250360e-01   -8.480623364e-06    2.923235297e-05    0.000000000e+00    0.000000000e+00    0.000000000e+00    0.000000000e+00
      258000000    6.964660883e-01   -5.769656897e-01    1.306179911e-05   -1.396983862e-05    0.000000000e+00    0.000000000e+00    0.000000000e+00    0.000000000e+00
      265250000    6.313095093e-01   -6.495749354e-01    3.972090781e-06    8.440576494e-06    0.000000000e+00    0.000000000e+00    0.000000000e+00    0.000000000e+00
      272500000    5.600624084e-01   -7.154479027e-01   -1.822132617e-05    2.807378769e-05    0.000000000e+00    0.000000000e+00    0.000000000e+00    0.000000000e+00
      279750000    4.839265049e-01   -7.723805308e-01    1.598708332e-05    1.875683665e-06    0.000000000e+00    0.000000000e+00    0.000000000e+00    0.000000000e+00
      287000000    4.030838311e-01   -8.223270774e-01   -2.839323133e-05    2.061668783e-05    0.000000000e+00    0.000000000e+00    0.000000000e+00    0.000000000e+00
      294250000    3.193736970e-01   -8.625188470e-01   -8.992850780e-06    4.951748997e-05    0.000000000e+00    0.000000000e+00    0.000000000e+00    0.000000000e+00
      301500000    2.327058613e-01   -8.952102065e-01    3.173016012e-06    1.070182770e-05    0.000000000e+00    0.000000000e+00    0.000000000e+00    0.000000000e+00
      308750000    1.435085237e-01   -9.195835590e-01    8.751638234e-06   -9.121373296e-06    0.000000000e+00    0.000000000e+00    0.000000000e+00    0.000000000e+00
      316000000    5.363595858e-02   -9.353611469e-01    8.544884622e-06    3.174412996e-05    0.000000000e+00    0.000000000e+00    0.000000000e+00    0.000000000e+00
      323250000   -3.749530017e-02   -9.421741366e-01    1.447927207e-05   -1.899898052e-07    0.000000000e+00    0.000000000e+00    0.000000000e+00    0.000000000e+00
      330500000   -1.281578690e-01   -9.412980080e-01    1.771375537e-05    2.071261406e-06    0.000000000e+00    0.000000000e+00    0.000000000e+00    0.000000000e+00
      337750000   -2.190153748e-01   -9.316059351e-01   -2.845469862e-05    3.435555845e-05    0.000000000e+00    0.000000000e+00    0.000000000e+00    0.000000000e+00
      345000000   -3.079313040e-01   -9.137917757e-01   -3.142282367e-06   -9.869225323e-06    0.000000000e+00    0.000000000e+00    0.000000000e+00    0.000000000e+00
      352250000   -3.955422640e-01   -8.870841861e-01   -7.115304470e-06   -1.906789839e-05    0.000000000e+00    0.000000000e+00    0.000000000e+00    0.000000000e+00
      359500000   -4.804028869e-01   -8.535224795e-01    2.685189247e-05    5.518086255e-06    0.000000000e+00    0.000000000e+00    0.000000000e+00    0.000000000e+00
      366750000   -5.628939271e-01   -8.097169995e-01   -4.498288035e-07    2.894271165e-05    0.000000000e+00    0.000000000e+00    0.000000000e+00    0.000000000e+00
      374000000   -6.407588124e-01   -7.604032755e-01   -2.628285438e-05    1.514609903e-05    0.000000000e+00    0.000000000e+00    0.000000000e+00    0.000000000e+00
      381250000   -7.151805162e-01   -7.014884949e-01   -2.974364907e-05   -1.000054181e-05    0.000000000e+00    0.000000000e+00    0.000000000e+00    0.000000000e+00
      388500000   -7.830750346e-01   -6.353318095e-01   -1.792330295e-05   -9.260140359e-06    0.000000000e+00    0.000000000e+00    0.000000000e+00    0.000000000e+00
      395750000   -8.446058035e-01   -5.624943972e-01   -3.233365715e-05    1.992844045e-05    0.000000000e+00    0.000000000e+00    0.000000000e+00    0.000000000e+00
      403000000   -8.996040821e-01   -4.830114245e-01    9.692274034e-06    2.485699952e-05    0.000000000e+00    0.000000000e+00    0.000000000e+00    0.000000000e+00
      410250000   -9.461950064e-01   -3.958521783e-01   -9.202398360e-06   -4.667509347e-05    0.000000000e+00    0.000000000e+00    0.000000000e+00    0.000000000e+00
      417500000   -9.835366011e-01   -3.047218025e-01   -1.228228211e-05   -1.106411219e-06    0.000000000e+00    0.000000000e+00    0.000000000e+00    0.000000000e+00
      424750000   -1.012082219e+00   -2.072873861e-01   -2.591870725e-06   -1.831725240e-05    0.000000000e+00    0.000000000e+00    0.000000000e+00    0.000000000e+00
      432000000   -1.029954672e+00   -1.077198088e-01    2.976506948e-05   -1.441687346e-05    0.000000000e+00    0.000000000e+00    0.000000000e+00    0.000000000e+00
      439250000   -1.036987782e+00   -5.419842899e-03    5.853362381e-06    4.892796278e-05    0.000000000e+00    0.000000000e+00    0.000000000e+00    0.000000000e+00
      446500000   -1.032137990e+00    9.677547216e-02    2.029724419e-05   -2.253521234e-05    0.000000000e+00    0.000000000e+00    0.000000000e+00    0.000000000e+00
      453750000   -1.016475201e+00    2.013864666e-01    9.698793292e-06    3.532413393e-05    0.000000000e+00    0.000000000e+00    0.000000000e+00    0.000000000e+00
      461000000   -9.894417524e-01    3.027015030e-01   -6.051734090e-06    5.432404578e-06    0.000000000e+00    0.000000000e+00    0.000000000e+00    0.000000000e+00
      468250000   -9.495764375e-01    4.012143612e-01   -4.906207323e-05   -1.769419760e-05    0.000000000e+00    0.000000000e+00    0.000000000e+00    0.000000000e+00
      475500000   -8.980122805e-01    4.960197210e-01    3.811810166e-05   -4.046596587e-06    0.000000000e+00    0.000000000e+00    0.000000000e+00    0.000000000e+00
      482750000   -8.368755579e-01    5.842560530e-01   -9.059906006e-06   -1.234002411e-06    0.000000000e+00    0.000000000e+00    0.000000000e+00    0.000000000e+00
      490000000   -7.647168040e-01    6.646988988e-01   -8.665025234e-06   -1.890212297e-05    0.000000000e+00    0.000000000e+00    0.000000000e+00    0.000000000e+00
      497250000   -6.848339438e-01    7.362154722e-01   -3.476627171e-06   -2.156198025e-05    0.000000000e+00    0.000000000e+00    0.000000000e+00    0.000000000e+00
      504500000   -5.973238945e-01    7.988622189e-01    3.266334534e-05   -9.072944522e-06    0.000000000e+00    0.000000000e+00    0.000000000e+00    0.000000000e+00
      511750000   -5.027103424e-01    8.509757519e-01    3.716163337e-05   -1.932680607e-05    0.000000000e+00    0.000000000e+00    0.000000000e+00    0.000000000e+00
      519000000   -4.024785757e-01    8.908551931e-01    5.019828677e-07    2.268701792e-06    0.000000000e+00    0.000000000e+00    0.000000000e+00    0.000000000e+00
      526250000   -2.983110547e-01    9.199054837e-01    3.959331661e-05   -4.553608596e-05    0.000000000e+00    0.000000000e+00    0.000000000e+00    0.000000000e+00
      533500000   -1.927457899e-01    9.366462827e-01   -1.905299723e-05   -4.721805453e-07    0.000000000e+00    0.000000000e+00    0.000000000e+00    0.000000000e+00
      540750000   -8.690802008e-02    9.411789179e-01    2.371706069e-05   -3.409199417e-05    0.000000000e+00    0.000000000e+00    0.000000000e+00    0.000000000e+00
      548000000    1.892648079e-02    9.346931577e-01    9.315088391e-06    9.804032743e-06    0.000000000e+00    0.000000000e+00    0.000000000e+00    0.000000000e+00
      555250000    1.220427975e-01    9.160727859e-01   -2.449098974e-05    4.082918167e-06    0.000000000e+00    0.000000000e+00    0.000000000e+00    0.000000000e+00
      562500000    2.224586755e-01    8.864548206e-01   -7.594935596e-06   -1.041870564e-05    0.000000000e+00    0.000000000e+00    0.000000000e+00    0.000000000e+00
      569750000    3.179479837e-01    8.472466469e-01   -3.487244248e-05    4.713889211e-05    0.000000000e+00    0.000000000e+00    0.000000000e+00    0.000000000e+00
      577000000    4.078799486e-01    7.985607386e-01   -2.433080226e-05   -1.609791070e-05    0.000000000e+00    0.000000000e+00    0.000000000e+00    0.000000000e+00
      584250000    4.927954078e-01    7.399540544e-01    2.068467438e-05   -4.232395440e-05    0.000000000e+00    0.000000000e+00    0.000000000e+00    0.000000000e+00
      591500000    5.703629255e-01    6.743100286e-01   -2.424232662e-06   -2.344883978e-05    0.000000000e+00    0.000000000e+00    0.000000000e+00    0.000000000e+00
      598750000    6.405603886e-01    6.017557979e-01    2.525839955e-05    2.340227365e-05    0.000000000e+00    0.000000000e+00    0.000000000e+00    0.000000000e+00
      606000000    7.014148831e-01    5.233019590e-01    1.576635987e-05    4.642736167e-05    0.000000000e+00    0.000000000e+00    0.000000000e+00    0.000000000e+00
      613250000    7.550803423e-01    4.394438565e-01    1.751817763e-06    1.241825521e-05    0.000000000e+00    0.000000000e+00    0.000000000e+00    0.000000000e+00
      620500000    8.000226617e-01    3.497714102e-01    2.645421773e-05    3.386195749e-05    0.000000000e+00    0.000000000e+00    0.000000000e+00    0.000000000e+00
      627750000    8.351568580e-01    2.572511435e-01    3.420840949e-05    4.935637116e-05    0.000000000e+00    0.000000000e+00    0.000000000e+00    0.000000000e+00
      635000000    8.615404367e-01    1.625758708e-01   -3.014598042e-05   -7.195398211e-06    0.000000000e+00    0.000000000e+00    0.000000000e+00    0.000000000e+00
      642250000    8.779839873e-01    6.416065991e-02   -9.986571968e-06   -3.429409117e-05    0.000000000e+00    0.000000000e+00    0.000000000e+00    0.000000000e+00
      649500000    8.851452470e-01   -3.412095830e-02    1.012627035e-05   -3.530643880e-06    0.000000000e+00    0.000000000e+00    0.000000000e+00    0.000000000e+00
      656750000    8.819239140e-01   -1.330916286e-01   -1.339241862e-05    2.736505121e-05    0.000000000e+00    0.000000000e+00    0.000000000e+00    0.000000000e+00
      664000000    8.691186309e-01   -2.327797562e-01    2.057012171e-05   -1.503527164e-05    0.000000000e+00    0.000000000e+00    0.000000000e+00    0.000000000e+00
      671250000    8.474900126e-01   -3.307234347e-01    1.355074346e-06    2.977252007e-05    0.000000000e+00    0.000000000e+00    0.000000000e+00    0.000000000e+00
      678500000    8.156459332e-01   -4.250927269e-01   -4.632212222e-05    2.279970795e-05    0.000000000e+00    0.000000000e+00    0.000000000e+00    0.000000000e+00
      685750000    7.732077241e-01   -5.185657740e-01    2.032890916e-05   -2.213846892e-05    0.000000000e+00    0.000000000e+00    0.000000000e+00    0.000000000e+00
      693000000    7.213656306e-01   -6.067382693e-01   -1.069623977e-05    4.407949746e-06    0.000000000e+00    0.000000000e+00    0.000000000e+00    0.000000000e+00
      700250000    6.606547832e-01   -6.909612417e-01    2.718344331e-05   -9.732320905e-07    0.000000000e+00    0.000000000e+00    0.000000000e+00    0.000000000e+00
      707500000    5.909551382e-01   -7.675683498e-01    2.531334758e-06   -2.154521644e-05    0.000000000e+00    0.000000000e+00    0.000000000e+00    0.000000000e+00
      714750000    5.126296878e-01   -8.385754228e-01    1.922249794e-06   -5.478970706e-06    0.000000000e+00    0.000000000e+00    0.000000000e+00    0.000000000e+00
      722000000    4.242247343e-01   -9.015181661e-01    1.570861787e-05    9.124167264e-06    0.000000000e+00    0.000000000e+00    0.000000000e+00    0.000000000e+00
      729250000    3.311436176e-01   -9.542077780e-01    1.843553036e-05    1.639500260e-05    0.000000000e+00    0.000000000e+00    0.000000000e+00    0.000000000e+00
      736500000    2.302134782e-01   -9.965240955e-01    3.567896783e-05   -8.428469300e-07    0.000000000e+00    0.000000000e+00    0.000000000e+00    0.000000000e+00
      743750000    1.241350323e-01   -1.028199911e+00    9.931623936e-06    1.498125494e-05    0.000000000e+00    0.000000000e+00    0.000000000e+00    0.000000000e+00
      751000000    1.359265856e-02   -1.047506571e+00    1.927744597e-05    2.165324986e-05    0.000000000e+00    0.000000000e+00    0.000000000e+00    0.000000000e+00
      758250000   -9.879087657e-02   -1.054050446e+00   -2.797041088e-05    1.278892159e-05    0.000000000e+00    0.000000000e+00    0.000000000e+00    0.000000000e+00
      765500000   -2.122252136e-01   -1.046710372e+00   -7.241033018e-06   -3.135763109e-05    0.000000000e+00    0.000000000e+00    0.000000000e+00    0.000000000e+00
      772750000   -3.254680037e-01   -1.025379777e+00    1.602154225e-05    5.115754902e-06    0.000000000e+00    0.000000000e+00    0.000000000e+00    0.000000000e+00
      780000000   -4.349134266e-01   -9.927025437e-01    9.434297681e-07    4.171393812e-06    0.000000000e+00    0.000000000e+00    0.000000000e+00    0.000000000e+00
      787250000   -5.433197618e-01   -9.405766726e-01   -3.363192081e-05    1.134257764e-05    0.000000000e+00    0.000000000e+00    0.000000000e+00    0.000000000e+00
      794500000   -6.414579749e-01   -8.804461360e-01    3.467407078e-05    6.599351764e-06    0.000000000e+00    0.000000000e+00    0.000000000e+00    0.000000000e+00
      801750000   -7.328405380e-01   -8.066788316e-01    4.330649972e-06    3.707967699e-05    0.000000000e+00    0.000000000e+00    0.000000000e+00    0.000000000e+00
      809000000   -8.132444024e-01   -7.236146927e-01    3.615859896e-05   -2.195406705e-05    0.000000000e+00    0.000000000e+00    0.000000000e+00    0.000000000e+00
      816250000   -8.827652335e-01   -6.300022602e-01   -1.801084727e-05   -3.182142973e-05    0.000000000e+00    0.000000000e+00    0.000000000e+00    0.000000000e+00
      823500000   -9.395340681e-01   -5.304224491e-01   -5.699694157e-06    1.773331314e-05    0.000000000e+00    0.000000000e+00    0.000000000e+00    0.000000000e+00
      830750000   -9.834089875e-01   -4.260593951e-01   -1.989491284e-05   -1.499429345e-06    0.000000000e+00    0.000000000e+00    0.000000000e+00    0.000000000e+00
      838000000   -1.013092995e+00   -3.172055185e-01    1.710560173e-05    5.986541510e-06    0.000000000e+00    0.000000000e+00    0.000000000e+00    0.000000000e+00
      845250000   -1.030493736e+00   -2.082961500e-01    5.403533578e-06   -4.522409290e-05    0.000000000e+00    0.000000000e+00    0.000000000e+00    0.000000000e+00
      852500000   -1.034040093e+00   -9.779746085e-02    1.568999141e-05    1.261290163e-05    0.000000000e+00    0.000000000e+00    0.000000000e+00    0.000000000e+00
      859750000   -1.024538398e+00    8.749541827e-03   -3.370735794e-05    2.368818969e-05    0.000000000e+00    0.000000000e+00    0.000000000e+00    0.000000000e+00
      867000000   -1.003102303e+00    1.145410240e-01    8.884817362e-07    2.192053944e-05    0.000000000e+00    0.000000000e+00    0.000000000e+00    0.000000000e+00
      874250000   -9.710982442e-01    2.127524018e-01    8.252449334e-06    1.490581781e-05    0.000000000e+00    0.000000000e+00    0.000000000e+00    0.000000000e+00
      881500000   -9.290930033e-01    3.058244586e-01   -7.329508662e-07    5.231704563e-05    0.000000000e+00    0.000000000e+00    0.000000000e+00    0.000000000e+00
      888750000   -8.791044354e-01    3.909010589e-01   -5.859695375e-05   -2.606119961e-05    0.000000000e+00    0.000000000e+00    0.000000000e+00    0.000000000e+00
      896000000   -8.203911185e-01    4.702448547e-01   -2.036988735e-05    2.335943282e-05    0.000000000e+00    0.000000000e+00    0.000000000e+00    0.000000000e+00
      903250000   -7.549462914e-01    5.409368873e-01   -3.296323121e-05    2.574827522e-05    0.000000000e+00    0.000000000e+00    0.000000000e+00    0.000000000e+00
      910500000   -6.835335493e-01    6.043220162e-01    9.099021554e-06    2.196058631e-06    0.000000000e+00    0.000000000e+00    0.000000000e+00    0.000000000e+00
      917750000   -6.095861793e-01    6.577950716e-01    6.196554750e-05    1.971703023e-05    0.000000000e+00    0.000000000e+00    0.000000000e+00    0.000000000e+00
      925000000   -5.308941603e-01    7.035054564e-01    7.450580597e-06    2.200528979e-05    0.000000000e+00    0.000000000e+00    0.000000000e+00    0.000000000e+00
      932250000   -4.496943057e-01    7.421930432e-01   -4.733633250e-05   -6.304122508e-06    0.000000000e+00    0.000000000e+00    0.000000000e+00    0.000000000e+00
      939500000   -3.676347435e-01    7.713461518e-01    1.341104507e-07   -1.638475806e-05    0.000000000e+00    0.000000000e+00    0.000000000e+00    0.000000000e+00
      946750000   -2.846971750e-01    7.928007245e-01    1.871958375e-07   -4.584901035e-06    0.000000000e+00    0.000000000e+00    0.000000000e+00    0.000000000e+00
      954000000   -1.994254142e-01    8.063803315e-01   -3.843568265e-06    3.190152347e-05    0.000000000e+00    0.000000000e+00    0.000000000e+00    0.000000000e+00
      961250000   -1.153571233e-01    8.131649494e-01    2.357549965e-05   -2.745632082e-05    0.000000000e+00    0.000000000e+00    0.000000000e+00    0.000000000e+00
      968500000   -3.154785931e-02    8.117850423e-01   -8.914619684e-06   -1.517962664e-05    0.000000000e+00    0.000000000e+00    0.000000000e+00    0.000000000e+00
      975750000    5.068258941e-02    8.040661812e-01   -4.685483873e-06   -3.889203072e-05    0.000000000e+00    0.000000000e+00    0.000000000e+00    0.000000000e+00
      983000000    1.315735132e-01    7.895444632e-01    1.056212932e-05    1.133512706e-05    0.000000000e+00    0.000000000e+00    0.000000000e+00    0.000000000e+00
      990250000    2.105939239e-01    7.682000995e-01   -2.552568913e-05   -2.832990140e-05    0.000000000e+00    0.000000000e+00    0.000000000e+00    0.000000000e+00
      997500000    2.877116203e-01    7.395585775e-01    3.373250365e-06   -4.576146603e-05    0.000000000e+00    0.000000000e+00    0.000000000e+00    0.000000000e+00
     1004750000    3.621519208e-01    7.048722506e-01   -2.183206379e-05   -1.688487828e-06    0.000000000e+00    0.000000000e+00    0.000000000e+00    0.000000000e+00
     1012000000    4.344396293e-01    6.640940905e-01   -1.515075564e-05    6.976537406e-06    0.000000000e+00    0.000000000e+00    0.000000000e+00    0.000000000e+00
     1019250000    5.018739700e-01    6.171140075e-01    9.970739484e-06   -2.672430128e-05    0.000000000e+00    0.000000000e+00    0.000000000e+00    0.000000000e+00
     1026500000    5.659711957e-01    5.644006729e-01   -7.215887308e-06   -5.745328963e-05    0.000000000e+00    0.000000000e+00    0.000000000e+00    0.000000000e+00
     1033750000    6.269966960e-01    5.043566227e-01   -2.847518772e-05   -8.524395525e-06    0.000000000e+00    0.000000000e+00    0.000000000e+00    0.000000000e+00
     1041000000    6.810663342e-01    4.409669042e-01   -1.970957965e-05   -1.913681626e-05    0.000000000e+00    0.000000000e+00    0.000000000e+00    0.000000000e+00
