! NanoVNA-App by OneOfEleven et al v1.1.209 (+OD15) 
! Date: 2024-07-30 15:11:28
! Start: 200MHz Stop: 6GHz Points: 801
! S-Parameter data: F S11 S21 S12 S22
# Hz S RI R 50
!     Frequency           S11_Real           S11_Imag           S21_Real           S21_Imag           S12_Real           S12_Imag           S22_Real           S22_Imag
      200000000    8.879024982e-01    2.077627182e-01    8.902512491e-06   -9.149312973e-06    0.000000000e+00    0.000000000e+00    0.000000000e+00    0.000000000e+00
      207250000    9.046105742e-01    1.004064903e-01   -6.164424121e-06    1.740641892e-06    0.000000000e+00    0.000000000e+00    0.000000000e+00    0.000000000e+00
      214500000    9.074989557e-01   -7.538417354e-03    9.048730135e-06    4.655681551e-06    0.000000000e+00    0.000000000e+00    0.000000000e+00    0.000000000e+00
      221750000    8.982543349e-01   -1.138340607e-01   -1.378357410e-05    8.016824722e-06    0.000000000e+00    0.000000000e+00    0.000000000e+00    0.000000000e+00
      229000000    8.787133098e-01   -2.164906263e-01    2.718064934e-05    2.267211676e-05    0.000000000e+00    0.000000000e+00    0.000000000e+00    0.000000000e+00
      236250000    8.464031219e-01   -3.156401813e-01    4.802271724e-05   -3.799796104e-07    0.000000000e+00    0.000000000e+00    0.000000000e+00    0.000000000e+00
      243500000    8.051160574e-01   -4.092887342e-01    7.787719369e-06   -1.127365977e-05    0.000000000e+00    0.000000000e+00    0.000000000e+00    0.000000000e+00
      250750000    7.546244264e-01   -4.964040220e-01    5.094334483e-07    4.934985191e-05    0.000000000e+00    0.000000000e+00    0.000000000e+00    0.000000000e+00
      258000000    6.965439916e-01   -5.767470002e-01    1.499988139e-05   -9.541399777e-06    0.000000000e+00    0.000000000e+00    0.000000000e+00    0.000000000e+00
      265250000    6.311259866e-01   -6.497558951e-01   -5.681067705e-06    3.063678741e-05    0.000000000e+00    0.000000000e+00    0.000000000e+00    0.000000000e+00
      272500000    5.606159568e-01   -7.157340646e-01   -1.541338861e-05    4.089437425e-06    0.000000000e+00    0.000000000e+00    0.000000000e+00    0.000000000e+00
      279750000    4.834370911e-01   -7.727161050e-01    1.855194569e-05   -1.281499863e-05    0.000000000e+00    0.000000000e+00    0.000000000e+00    0.000000000e+00
      287000000    4.033490121e-01   -8.216916323e-01   -2.602022141e-05    3.273598850e-06    0.000000000e+00    0.000000000e+00    0.000000000e+00    0.000000000e+00
      294250000    3.194933534e-01   -8.626529574e-01   -4.717148840e-06    2.833269536e-05    0.000000000e+00    0.000000000e+00    0.000000000e+00    0.000000000e+00
      301500000    2.326599956e-01   -8.952032924e-01   -4.916451871e-06    3.098603338e-05    0.000000000e+00    0.000000000e+00    0.000000000e+00    0.000000000e+00
      308750000    1.433549374e-01   -9.190708399e-01   -2.076849341e-07    1.405738294e-05    0.000000000e+00    0.000000000e+00    0.000000000e+00    0.000000000e+00
      316000000    5.329301208e-02   -9.346494079e-01   -7.346272469e-06   -1.993123442e-05    0.000000000e+00    0.000000000e+00    0.000000000e+00    0.000000000e+00
      323250000   -3.773723543e-02   -9.416935444e-01    1.235865057e-06   -2.566259354e-05    0.000000000e+00    0.000000000e+00    0.000000000e+00    0.000000000e+00
      330500000   -1.281382442e-01   -9.412937760e-01    1.814495772e-05   -1.892168075e-05    0.000000000e+00    0.000000000e+00    0.000000000e+00    0.000000000e+00
      337750000   -2.185865939e-01   -9.316805601e-01   -1.405831426e-05    1.306831837e-05    0.000000000e+00    0.000000000e+00    0.000000000e+00    0.000000000e+00
      345000000   -3.079707623e-01   -9.135497212e-01    6.276182830e-06    1.082383096e-05    0.000000000e+00    0.000000000e+00    0.000000000e+00    0.000000000e+00
      352250000   -3.954607248e-01   -8.873576522e-01   -2.877786756e-06    2.012401819e-05    0.000000000e+00    0.000000000e+00    0.000000000e+00    0.000000000e+00
      359500000   -4.804296494e-01   -8.535458446e-01    2.908334136e-05    4.705041647e-06    0.000000000e+00    0.000000000e+00    0.000000000e+00    0.000000000e+00
      366750000   -5.627680421e-01   -8.111795187e-01    2.392847091e-05   -5.588866770e-06    0.000000000e+00    0.000000000e+00    0.000000000e+00    0.000000000e+00
      374000000   -6.414687634e-01   -7.598444819e-01   -2.251658589e-05    1.077260822e-05    0.000000000e+00    0.000000000e+00    0.000000000e+00    0.000000000e+00
      381250000   -7.146835923e-01   -7.019054294e-01    3.287196159e-05    8.746050298e-06    0.000000000e+00    0.000000000e+00    0.000000000e+00    0.000000000e+00
      388500000   -7.823858261e-01   -6.361211538e-01   -3.328546882e-06    3.747642040e-06    0.000000000e+00    0.000000000e+00    0.000000000e+00    0.000000000e+00
      395750000   -8.449676633e-01   -5.618596673e-01    3.459211439e-05   -5.413778126e-06    0.000000000e+00    0.000000000e+00    0.000000000e+00    0.000000000e+00
      403000000   -8.988764286e-01   -4.823808968e-01   -2.885702997e-05   -3.256276250e-05    0.000000000e+00    0.000000000e+00    0.000000000e+00    0.000000000e+00
      410250000   -9.459680915e-01   -3.957217932e-01    1.812726259e-05   -9.769573808e-07    0.000000000e+00    0.000000000e+00    0.000000000e+00    0.000000000e+00
      417500000   -9.835695028e-01   -3.036832809e-01    2.801604569e-05    1.053791493e-05    0.000000000e+00    0.000000000e+00    0.000000000e+00    0.000000000e+00
      424750000   -1.012614608e+00   -2.080795765e-01   -3.405287862e-05    3.631319851e-05    0.000000000e+00    0.000000000e+00    0.000000000e+00    0.000000000e+00
      432000000   -1.030198932e+00   -1.080010906e-01    1.008901745e-05   -5.466863513e-06    0.000000000e+00    0.000000000e+00    0.000000000e+00    0.000000000e+00
      439250000   -1.037020326e+00   -5.060117692e-03   -1.928769052e-06   -5.163252354e-06    0.000000000e+00    0.000000000e+00    0.000000000e+00    0.000000000e+00
      446500000   -1.032622576e+00    9.701881558e-02    4.935078323e-06   -1.334212720e-05    0.000000000e+00    0.000000000e+00    0.000000000e+00    0.000000000e+00
      453750000   -1.016954780e+00    2.018330693e-01   -1.640897244e-05   -1.982133836e-05    0.000000000e+00    0.000000000e+00    0.000000000e+00    0.000000000e+00
      461000000   -9.897207618e-01    3.031246364e-01   -1.208763570e-05   -9.497627616e-06    0.000000000e+00    0.000000000e+00    0.000000000e+00    0.000000000e+00
      468250000   -9.489035606e-01    4.012570977e-01    9.932555258e-06    8.260831237e-07    0.000000000e+00    0.000000000e+00    0.000000000e+00    0.000000000e+00
      475500000   -8.978200555e-01    4.964763522e-01    5.250051618e-05    2.593733370e-06    0.000000000e+00    0.000000000e+00    0.000000000e+00    0.000000000e+00
      482750000   -8.370497823e-01    5.838855505e-01   -3.410782665e-05   -1.446902752e-05    0.000000000e+00    0.000000000e+00    0.000000000e+00    0.000000000e+00
      490000000   -7.652878165e-01    6.646135449e-01    1.911073923e-06    3.978516906e-05    0.000000000e+00    0.000000000e+00    0.000000000e+00    0.000000000e+00
      497250000   -6.854537725e-01    7.365725636e-01    1.904182136e-05   -2.023484558e-05    0.000000000e+00    0.000000000e+00    0.000000000e+00    0.000000000e+00
      504500000   -5.969344974e-01    7.989069819e-01    2.333614975e-05    1.148693264e-05    0.000000000e+00    0.000000000e+00    0.000000000e+00    0.000000000e+00
      511750000   -5.022650957e-01    8.502796292e-01   -6.184913218e-06    9.833835065e-06    0.000000000e+00    0.000000000e+00    0.000000000e+00    0.000000000e+00
      519000000   -4.021075368e-01    8.907492757e-01   -1.789070666e-06    3.072060645e-05    0.000000000e+00    0.000000000e+00    0.000000000e+00    0.000000000e+00
      526250000   -2.986206710e-01    9.195413589e-01    5.336478353e-06    1.775473356e-05    0.000000000e+00    0.000000000e+00    0.000000000e+00    0.000000000e+00
      533500000   -1.931676567e-01    9.365393519e-01   -5.663372576e-06   -7.602386177e-06    0.000000000e+00    0.000000000e+00    0.000000000e+00    0.000000000e+00
      540750000   -8.624684811e-02    9.409701824e-01    1.309253275e-05   -1.736637205e-05    0.000000000e+00    0.000000000e+00    0.000000000e+00    0.000000000e+00
      548000000    1.894850098e-02    9.349923730e-01   -1.489371061e-05   -1.299381256e-05    0.000000000e+00    0.000000000e+00    0.000000000e+00    0.000000000e+00
      555250000    1.225597337e-01    9.162683487e-01   -3.004446626e-06    1.441594213e-05    0.000000000e+00    0.000000000e+00    0.000000000e+00    0.000000000e+00
      562500000    2.226543725e-01    8.864731193e-01    1.043267548e-05    1.234002411e-06    0.000000000e+00    0.000000000e+00    0.000000000e+00    0.000000000e+00
      569750000    3.180935681e-01    8.470398188e-01   -1.619756222e-05    1.791957766e-05    0.000000000e+00    0.000000000e+00    0.000000000e+00    0.000000000e+00
      577000000    4.076238275e-01    7.989661694e-01   -9.972602129e-06    9.273178875e-06    0.000000000e+00    0.000000000e+00    0.000000000e+00    0.000000000e+00
      584250000    4.937367737e-01    7.399779558e-01   -3.474298865e-05   -2.908520401e-05    0.000000000e+00    0.000000000e+00    0.000000000e+00    0.000000000e+00
      591500000    5.699401498e-01    6.746123433e-01   -1.365318894e-06    1.257006079e-05    0.000000000e+00    0.000000000e+00    0.000000000e+00    0.000000000e+00
      598750000    6.404145360e-01    6.019554138e-01    8.360482752e-06   -3.079976887e-05    0.000000000e+00    0.000000000e+00    0.000000000e+00    0.000000000e+00
      606000000    7.014517188e-01    5.226670504e-01   -7.684342563e-06    7.143244147e-06    0.000000000e+00    0.000000000e+00    0.000000000e+00    0.000000000e+00
      613250000    7.551334500e-01    4.395180941e-01    1.594703645e-05    3.121793270e-05    0.000000000e+00    0.000000000e+00    0.000000000e+00    0.000000000e+00
      620500000    7.999569178e-01    3.499138057e-01    1.590047032e-05    1.246389002e-05    0.000000000e+00    0.000000000e+00    0.000000000e+00    0.000000000e+00
      627750000    8.355680704e-01    2.575572431e-01   -1.523643732e-06    2.889428288e-05    0.000000000e+00    0.000000000e+00    0.000000000e+00    0.000000000e+00
      635000000    8.612080812e-01    1.624661982e-01    3.189127892e-05   -7.376074791e-06    0.000000000e+00    0.000000000e+00    0.000000000e+00    0.000000000e+00
      642250000    8.779446483e-01    6.389828771e-02    1.145340502e-05    2.344883978e-05    0.000000000e+00    0.000000000e+00    0.000000000e+00    0.000000000e+00
      649500000    8.849443793e-01   -3.452260047e-02   -5.392357707e-06   -5.215406418e-08    0.000000000e+00    0.000000000e+00    0.000000000e+00    0.000000000e+00
      656750000    8.824405074e-01   -1.335112602e-01    1.828745008e-05   -1.182034612e-05    0.000000000e+00    0.000000000e+00    0.000000000e+00    0.000000000e+00
      664000000    8.698085546e-01   -2.324680835e-01    6.427057087e-06   -4.848279059e-05    0.000000000e+00    0.000000000e+00    0.000000000e+00    0.000000000e+00
      671250000    8.470924497e-01   -3.299044967e-01   -2.992805094e-05    1.456774771e-05    0.000000000e+00    0.000000000e+00    0.000000000e+00    0.000000000e+00
      678500000    8.156833053e-01   -4.250953794e-01   -2.114288509e-05   -3.065820783e-05    0.000000000e+00    0.000000000e+00    0.000000000e+00    0.000000000e+00
      685750000    7.731571794e-01   -5.181782842e-01    8.763745427e-07   -4.877336323e-06    0.000000000e+00    0.000000000e+00    0.000000000e+00    0.000000000e+00
      693000000    7.216969728e-01   -6.070749164e-01   -8.031725883e-06    4.687346518e-05    0.000000000e+00    0.000000000e+00    0.000000000e+00    0.000000000e+00
      700250000    6.611381769e-01   -6.906654239e-01   -1.284852624e-05    9.126029909e-06    0.000000000e+00    0.000000000e+00    0.000000000e+00    0.000000000e+00
      707500000    5.902334452e-01   -7.689158320e-01   -8.554197848e-06   -3.529712558e-07    0.000000000e+00    0.000000000e+00    0.000000000e+00    0.000000000e+00
      714750000    5.126169920e-01   -8.387344480e-01    4.506669939e-06    9.505078197e-06    0.000000000e+00    0.000000000e+00    0.000000000e+00    0.000000000e+00
      722000000    4.243766069e-01   -9.014415741e-01    1.768488437e-05    4.102475941e-05    0.000000000e+00    0.000000000e+00    0.000000000e+00    0.000000000e+00
      729250000    3.306600451e-01   -9.545407295e-01   -1.420825720e-05   -5.276873708e-06    0.000000000e+00    0.000000000e+00    0.000000000e+00    0.000000000e+00
      736500000    2.303628772e-01   -9.968501329e-01   -6.679445505e-06    4.705041647e-06    0.000000000e+00    0.000000000e+00    0.000000000e+00    0.000000000e+00
      743750000    1.250732243e-01   -1.028725863e+00    1.158565283e-05    1.132115722e-05    0.000000000e+00    0.000000000e+00    0.000000000e+00    0.000000000e+00
      751000000    1.305042673e-02   -1.048741341e+00    1.626648009e-05   -1.498591155e-05    0.000000000e+00    0.000000000e+00    0.000000000e+00    0.000000000e+00
      758250000   -9.790303558e-02   -1.054726958e+00    1.389160752e-05   -3.902241588e-07    0.000000000e+00    0.000000000e+00    0.000000000e+00    0.000000000e+00
      765500000   -2.124079913e-01   -1.046526551e+00   -1.365132630e-05   -5.750730634e-05    0.000000000e+00    0.000000000e+00    0.000000000e+00    0.000000000e+00
      772750000   -3.256941140e-01   -1.025674939e+00    1.427438110e-05    7.383525372e-06    0.000000000e+00    0.000000000e+00    0.000000000e+00    0.000000000e+00
      780000000   -4.366700351e-01   -9.918988943e-01   -1.900829375e-06   -1.096446067e-05    0.000000000e+00    0.000000000e+00    0.000000000e+00    0.000000000e+00
      787250000   -5.418789983e-01   -9.418646097e-01    1.306738704e-05    3.762915730e-05    0.000000000e+00    0.000000000e+00    0.000000000e+00    0.000000000e+00
      794500000   -6.415955424e-01   -8.807393909e-01   -6.591901183e-06   -2.753920853e-06    0.000000000e+00    0.000000000e+00    0.000000000e+00    0.000000000e+00
      801750000   -7.325963378e-01   -8.067865968e-01   -2.890825272e-06    3.055296838e-05    0.000000000e+00    0.000000000e+00    0.000000000e+00    0.000000000e+00
      809000000   -8.130083680e-01   -7.245986462e-01   -4.900246859e-05    1.283921301e-05    0.000000000e+00    0.000000000e+00    0.000000000e+00    0.000000000e+00
      816250000   -8.831804395e-01   -6.299756169e-01    6.982125342e-06    3.894232213e-05    0.000000000e+00    0.000000000e+00    0.000000000e+00    0.000000000e+00
      823500000   -9.396784306e-01   -5.313194990e-01    3.403052688e-06   -5.511566997e-06    0.000000000e+00    0.000000000e+00    0.000000000e+00    0.000000000e+00
      830750000   -9.835631847e-01   -4.255802929e-01    1.539848745e-05    2.765562385e-05    0.000000000e+00    0.000000000e+00    0.000000000e+00    0.000000000e+00
      838000000   -1.013296604e+00   -3.174695075e-01   -3.516115248e-05   -1.192372292e-05    0.000000000e+00    0.000000000e+00    0.000000000e+00    0.000000000e+00
      845250000   -1.029828668e+00   -2.071597278e-01   -1.421663910e-05   -2.678390592e-05    0.000000000e+00    0.000000000e+00    0.000000000e+00    0.000000000e+00
      852500000   -1.034093618e+00   -9.777728468e-02   -1.050531864e-06    7.117167115e-06    0.000000000e+00    0.000000000e+00    0.000000000e+00    0.000000000e+00
      859750000   -1.024853468e+00    9.726828896e-03    1.046527177e-05   -1.415330917e-05    0.000000000e+00    0.000000000e+00    0.000000000e+00    0.000000000e+00
      867000000   -1.003898859e+00    1.146908402e-01   -1.232698560e-05   -1.091510057e-06    0.000000000e+00    0.000000000e+00    0.000000000e+00    0.000000000e+00
      874250000   -9.713014364e-01    2.123715281e-01   -2.026557922e-06   -4.365202039e-05    0.000000000e+00    0.000000000e+00    0.000000000e+00    0.000000000e+00
      881500000   -9.292648435e-01    3.061347306e-01    4.709418863e-05   -9.331852198e-07    0.000000000e+00    0.000000000e+00    0.000000000e+00    0.000000000e+00
      888750000   -8.777348995e-01    3.922160864e-01   -5.082227290e-06    1.763552427e-05    0.000000000e+00    0.000000000e+00    0.000000000e+00    0.000000000e+00
      896000000   -8.202522397e-01    4.703072906e-01   -7.199123502e-07   -2.480950207e-05    0.000000000e+00    0.000000000e+00    0.000000000e+00    0.000000000e+00
      903250000   -7.553820014e-01    5.402371287e-01    3.577116877e-05   -5.285814404e-05    0.000000000e+00    0.000000000e+00    0.000000000e+00    0.000000000e+00
      910500000   -6.832567453e-01    6.047188044e-01   -3.284309059e-05   -9.670853615e-06    0.000000000e+00    0.000000000e+00    0.000000000e+00    0.000000000e+00
      917750000   -6.092659235e-01    6.584290266e-01    7.636845112e-08   -3.570690751e-06    0.000000000e+00    0.000000000e+00    0.000000000e+00    0.000000000e+00
      925000000   -5.311467648e-01    7.039179206e-01   -1.697707921e-05    2.783164382e-05    0.000000000e+00    0.000000000e+00    0.000000000e+00    0.000000000e+00
      932250000   -4.497338831e-01    7.413042188e-01    2.370029688e-05   -1.914240420e-05    0.000000000e+00    0.000000000e+00    0.000000000e+00    0.000000000e+00
      939500000   -3.670410812e-01    7.712183595e-01   -1.425575465e-05    1.101102680e-05    0.000000000e+00    0.000000000e+00    0.000000000e+00    0.000000000e+00
      946750000   -2.843695879e-01    7.925474644e-01    1.124292612e-05   -7.720664144e-07    0.000000000e+00    0.000000000e+00    0.000000000e+00    0.000000000e+00
      954000000   -1.988044679e-01    8.062826395e-01   -2.711452544e-05    3.517325968e-05    0.000000000e+00    0.000000000e+00    0.000000000e+00    0.000000000e+00
      961250000   -1.166240945e-01    8.124175668e-01   -2.599786967e-05    1.067575067e-05    0.000000000e+00    0.000000000e+00    0.000000000e+00    0.000000000e+00
      968500000   -3.080737777e-02    8.125545979e-01    4.120636731e-05    2.595502883e-05    0.000000000e+00    0.000000000e+00    0.000000000e+00    0.000000000e+00
      975750000    5.000953004e-02    8.041597605e-01   -2.421438694e-05    3.416556865e-05    0.000000000e+00    0.000000000e+00    0.000000000e+00    0.000000000e+00
      983000000    1.316800565e-01    7.893299460e-01   -4.052370787e-05    3.135576844e-05    0.000000000e+00    0.000000000e+00    0.000000000e+00    0.000000000e+00
      990250000    2.102873772e-01    7.681435347e-01    2.467073500e-05   -2.496875823e-05    0.000000000e+00    0.000000000e+00    0.000000000e+00    0.000000000e+00
      997500000    2.877622843e-01    7.396264076e-01    2.544373274e-06    2.292077988e-05    0.000000000e+00    0.000000000e+00    0.000000000e+00    0.000000000e+00
     1004750000    3.624227047e-01    7.057436705e-01   -2.570077777e-05   -5.075708032e-05    0.000000000e+00    0.000000000e+00    0.000000000e+00    0.000000000e+00
     1012000000    4.343806505e-01    6.640003920e-01    1.485832036e-05   -7.238239050e-06    0.000000000e+00    0.000000000e+00    0.000000000e+00    0.000000000e+00
     1019250000    5.026365519e-01    6.174666286e-01    8.763745427e-07    1.511722803e-05    0.000000000e+00    0.000000000e+00    0.000000000e+00    0.000000000e+00
     1026500000    5.663403869e-01    5.641924739e-01   -1.931656152e-05    1.757778227e-05    0.000000000e+00    0.000000000e+00    0.000000000e+00    0.000000000e+00
     1033750000    6.266769767e-01    5.046801567e-01    2.010446042e-05   -5.008652806e-06    0.000000000e+00    0.000000000e+00    0.000000000e+00    0.000000000e+00
     1041000000    6.812960505e-01    4.393872321e-01   -2.044159919e-05    2.349261194e-05    0.000000000e+00    0.000000000e+00    0.000000000e+00    0.000000000e+00
