! NanoVNA-App by OneOfEleven et al v1.1.209 (+OD15) 
! Date: 2024-07-30 15:11:31
! Start: 200MHz Stop: 6GHz Points: 801
! S-Parameter data: F S11 S21 S12 S22
# Hz S RI R 50
!     Frequency           S11_Real           S11_Imag           S21_Real           S21_Imag           S12_Real           S12_Imag           S22_Real           S22_Imag
      200000000    8.883834481e-01    2.079957277e-01    1.875311136e-05   -5.960464478e-08    0.000000000e+00    0.000000000e+00    0.000000000e+00    0.000000000e+00
      207250000    9.047583342e-01    1.003937796e-01    3.630109131e-05    1.797080040e-05    0.000000000e+00    0.000000000e+00    0.000000000e+00    0.000000000e+00
      214500000    9.077833295e-01   -6.964307278e-03   -1.177284867e-05   -2.764910460e-05    0.000000000e+00    0.000000000e+00    0.000000000e+00    0.000000000e+00
      221750000    8.982232809e-01   -1.138497815e-01   -5.774199963e-06   -2.569612116e-05    0.000000000e+00    0.000000000e+00    0.000000000e+00    0.000000000e+00
      229000000    8.786293268e-01   -2.167439908e-01    1.133140177e-05    3.910623491e-06    0.000000000e+00    0.000000000e+00    0.000000000e+00    0.000000000e+00
      236250000    8.466944695e-01   -3.159385622e-01   -2.256315202e-05    3.489013761e-05    0.000000000e+00    0.000000000e+00    0.000000000e+00    0.000000000e+00
      243500000    8.048600554e-01   -4.088345766e-01    1.401454210e-05   -2.630148083e-05    0.000000000e+00    0.000000000e+00    0.000000000e+00    0.000000000e+00
      250750000    7.548027635e-01   -4.965686500e-01   -2.137012780e-05    1.608207822e-05    0.000000000e+00    0.000000000e+00    0.000000000e+00    0.000000000e+00
      258000000    6.967985034e-01   -5.770856738e-01   -1.863669604e-05   -2.917833626e-05    0.000000000e+00    0.000000000e+00    0.000000000e+00    0.000000000e+00
      265250000    6.316341758e-01   -6.498355865e-01    2.052355558e-05   -4.148669541e-05    0.000000000e+00    0.000000000e+00    0.000000000e+00    0.000000000e+00
      272500000    5.594770908e-01   -7.152096033e-01    1.644808799e-05    2.518389374e-05    0.000000000e+00    0.000000000e+00    0.000000000e+00    0.000000000e+00
      279750000    4.845029712e-01   -7.726330757e-01    9.618699551e-06   -1.002382487e-05    0.000000000e+00    0.000000000e+00    0.000000000e+00    0.000000000e+00
      287000000    4.030239880e-01   -8.220744133e-01   -5.614012480e-05   -2.263486385e-05    0.000000000e+00    0.000000000e+00    0.000000000e+00    0.000000000e+00
      294250000    3.191755116e-01   -8.629031181e-01    2.328306437e-05    1.354329288e-05    0.000000000e+00    0.000000000e+00    0.000000000e+00    0.000000000e+00
      301500000    2.324789613e-01   -8.951132298e-01    1.911073923e-05    1.681409776e-05    0.000000000e+00    0.000000000e+00    0.000000000e+00    0.000000000e+00
      308750000    1.435620487e-01   -9.194738269e-01    2.444908023e-05    1.356564462e-05    0.000000000e+00    0.000000000e+00    0.000000000e+00    0.000000000e+00
      316000000    5.358825251e-02   -9.351019859e-01    4.024710506e-05   -6.524845958e-06    0.000000000e+00    0.000000000e+00    0.000000000e+00    0.000000000e+00
      323250000   -3.721184656e-02   -9.419548512e-01   -2.127513289e-05   -3.008171916e-07    0.000000000e+00    0.000000000e+00    0.000000000e+00    0.000000000e+00
      330500000   -1.282115877e-01   -9.411196709e-01   -1.844763756e-05    2.809148282e-05    0.000000000e+00    0.000000000e+00    0.000000000e+00    0.000000000e+00
      337750000   -2.187628001e-01   -9.310870767e-01    1.199077815e-05   -1.266598701e-07    0.000000000e+00    0.000000000e+00    0.000000000e+00    0.000000000e+00
      345000000   -3.082849681e-01   -9.133964181e-01    1.166947186e-05    2.251937985e-05    0.000000000e+00    0.000000000e+00    0.000000000e+00    0.000000000e+00
      352250000   -3.956652284e-01   -8.872399330e-01    4.817731678e-06   -3.091990948e-07    0.000000000e+00    0.000000000e+00    0.000000000e+00    0.000000000e+00
      359500000   -4.804300666e-01   -8.528137803e-01   -4.211999476e-05    1.249369234e-05    0.000000000e+00    0.000000000e+00    0.000000000e+00    0.000000000e+00
      366750000   -5.631839037e-01   -8.099727035e-01   -1.312699169e-05    1.845881343e-06    0.000000000e+00    0.000000000e+00    0.000000000e+00    0.000000000e+00
      374000000   -6.402414441e-01   -7.604792714e-01   -2.294778824e-06   -8.941628039e-06    0.000000000e+00    0.000000000e+00    0.000000000e+00    0.000000000e+00
      381250000   -7.149465680e-01   -7.015479803e-01   -2.633687109e-05    1.762434840e-05    0.000000000e+00    0.000000000e+00    0.000000000e+00    0.000000000e+00
      388500000   -7.826110721e-01   -6.358017921e-01    1.548323780e-05   -4.856847227e-06    0.000000000e+00    0.000000000e+00    0.000000000e+00    0.000000000e+00
      395750000   -8.445168734e-01   -5.627201200e-01   -7.501803339e-06    1.041218638e-05    0.000000000e+00    0.000000000e+00    0.000000000e+00    0.000000000e+00
      403000000   -8.991948962e-01   -4.821032286e-01    1.414306462e-05    1.852400601e-06    0.000000000e+00    0.000000000e+00    0.000000000e+00    0.000000000e+00
      410250000   -9.464861751e-01   -3.960131705e-01    2.996437252e-05    2.803653479e-05    0.000000000e+00    0.000000000e+00    0.000000000e+00    0.000000000e+00
      417500000   -9.837796092e-01   -3.044188917e-01    2.220273018e-05   -6.392598152e-06    0.000000000e+00    0.000000000e+00    0.000000000e+00    0.000000000e+00
      424750000   -1.012060165e+00   -2.073782384e-01    2.149492502e-06   -4.855636507e-05    0.000000000e+00    0.000000000e+00    0.000000000e+00    0.000000000e+00
      432000000   -1.029970884e+00   -1.077400446e-01    7.167458534e-06   -5.615875125e-07    0.000000000e+00    0.000000000e+00    0.000000000e+00    0.000000000e+00
      439250000   -1.036963582e+00   -5.948915146e-03   -1.723878086e-06   -4.711560905e-06    0.000000000e+00    0.000000000e+00    0.000000000e+00    0.000000000e+00
      446500000   -1.032652855e+00    9.713374078e-02   -1.401826739e-05    1.022592187e-06    0.000000000e+00    0.000000000e+00    0.000000000e+00    0.000000000e+00
      453750000   -1.015834093e+00    2.016900033e-01    1.127831638e-05   -4.560686648e-06    0.000000000e+00    0.000000000e+00    0.000000000e+00    0.000000000e+00
      461000000   -9.881875515e-01    3.030737340e-01   -7.720664144e-06    8.658505976e-06    0.000000000e+00    0.000000000e+00    0.000000000e+00    0.000000000e+00
      468250000   -9.490920901e-01    4.012187123e-01    2.335943282e-05    1.697521657e-05    0.000000000e+00    0.000000000e+00    0.000000000e+00    0.000000000e+00
      475500000   -8.984408379e-01    4.963242114e-01   -2.853572369e-06    8.651055396e-06    0.000000000e+00    0.000000000e+00    0.000000000e+00    0.000000000e+00
      482750000   -8.368015885e-01    5.841826797e-01   -8.187256753e-06   -3.138463944e-05    0.000000000e+00    0.000000000e+00    0.000000000e+00    0.000000000e+00
      490000000   -7.653398514e-01    6.646522284e-01    8.237548172e-06    1.322198659e-05    0.000000000e+00    0.000000000e+00    0.000000000e+00    0.000000000e+00
      497250000   -6.849104166e-01    7.362304926e-01    1.049600542e-05    2.173427492e-05    0.000000000e+00    0.000000000e+00    0.000000000e+00    0.000000000e+00
      504500000   -5.968461037e-01    7.985994220e-01   -3.637187183e-05    2.265255898e-05    0.000000000e+00    0.000000000e+00    0.000000000e+00    0.000000000e+00
      511750000   -5.022265315e-01    8.507599831e-01    1.674424857e-05   -2.627819777e-05    0.000000000e+00    0.000000000e+00    0.000000000e+00    0.000000000e+00
      519000000   -4.018649459e-01    8.911824226e-01    1.334212720e-05   -5.396082997e-06    0.000000000e+00    0.000000000e+00    0.000000000e+00    0.000000000e+00
      526250000   -2.986288369e-01    9.197042584e-01   -1.032371074e-05    2.420321107e-05    0.000000000e+00    0.000000000e+00    0.000000000e+00    0.000000000e+00
      533500000   -1.931800395e-01    9.366011620e-01    2.593174577e-05    3.169197589e-05    0.000000000e+00    0.000000000e+00    0.000000000e+00    0.000000000e+00
      540750000   -8.655171841e-02    9.412046075e-01    3.614928573e-05   -2.410262823e-05    0.000000000e+00    0.000000000e+00    0.000000000e+00    0.000000000e+00
      548000000    1.928093471e-02    9.348996282e-01    3.423821181e-05   -1.681037247e-06    0.000000000e+00    0.000000000e+00    0.000000000e+00    0.000000000e+00
      555250000    1.220578328e-01    9.160537720e-01   -1.054443419e-05   -3.431830555e-05    0.000000000e+00    0.000000000e+00    0.000000000e+00    0.000000000e+00
      562500000    2.222941816e-01    8.871337771e-01   -1.982785761e-05    4.900619388e-05    0.000000000e+00    0.000000000e+00    0.000000000e+00    0.000000000e+00
      569750000    3.182236850e-01    8.472851515e-01   -2.038758248e-05   -3.081746399e-06    0.000000000e+00    0.000000000e+00    0.000000000e+00    0.000000000e+00
      577000000    4.080910385e-01    7.982125878e-01   -2.237968147e-06   -5.471706390e-05    0.000000000e+00    0.000000000e+00    0.000000000e+00    0.000000000e+00
      584250000    4.928144813e-01    7.411136627e-01    7.144175470e-06   -1.605041325e-05    0.000000000e+00    0.000000000e+00    0.000000000e+00    0.000000000e+00
      591500000    5.707395673e-01    6.748020649e-01    1.927372068e-05    1.214351505e-05    0.000000000e+00    0.000000000e+00    0.000000000e+00    0.000000000e+00
      598750000    6.400645375e-01    6.023106575e-01   -2.674851567e-05   -1.885648817e-05    0.000000000e+00    0.000000000e+00    0.000000000e+00    0.000000000e+00
      606000000    7.022302151e-01    5.229638219e-01   -1.227576286e-05   -1.479778439e-05    0.000000000e+00    0.000000000e+00    0.000000000e+00    0.000000000e+00
      613250000    7.551231980e-01    4.392708838e-01    7.388181984e-06   -2.740044147e-05    0.000000000e+00    0.000000000e+00    0.000000000e+00    0.000000000e+00
      620500000    7.996928096e-01    3.492635190e-01   -3.847479820e-05   -1.566857100e-05    0.000000000e+00    0.000000000e+00    0.000000000e+00    0.000000000e+00
      627750000    8.352131844e-01    2.574418485e-01    1.015886664e-05    3.638956696e-05    0.000000000e+00    0.000000000e+00    0.000000000e+00    0.000000000e+00
      635000000    8.613163233e-01    1.631097198e-01   -6.418675184e-06    2.196431160e-05    0.000000000e+00    0.000000000e+00    0.000000000e+00    0.000000000e+00
      642250000    8.781394958e-01    6.356379390e-02   -1.433677971e-05    1.370906830e-05    0.000000000e+00    0.000000000e+00    0.000000000e+00    0.000000000e+00
      649500000    8.851891756e-01   -3.454430774e-02   -1.302547753e-05   -8.782371879e-06    0.000000000e+00    0.000000000e+00    0.000000000e+00    0.000000000e+00
      656750000    8.823794723e-01   -1.334303319e-01   -4.076026380e-05   -1.923926175e-05    0.000000000e+00    0.000000000e+00    0.000000000e+00    0.000000000e+00
      664000000    8.694623113e-01   -2.324087769e-01   -2.426095307e-05    2.741627395e-05    0.000000000e+00    0.000000000e+00    0.000000000e+00    0.000000000e+00
      671250000    8.477605581e-01   -3.302441835e-01    2.481043339e-05    2.287235111e-05    0.000000000e+00    0.000000000e+00    0.000000000e+00    0.000000000e+00
      678500000    8.146411777e-01   -4.260130525e-01    2.848729491e-05    3.203097731e-05    0.000000000e+00    0.000000000e+00    0.000000000e+00    0.000000000e+00
      685750000    7.732295990e-01   -5.186858773e-01   -6.007030606e-07    1.222919673e-05    0.000000000e+00    0.000000000e+00    0.000000000e+00    0.000000000e+00
      693000000    7.218841314e-01   -6.069407463e-01    2.552103251e-05   -2.209283412e-05    0.000000000e+00    0.000000000e+00    0.000000000e+00    0.000000000e+00
      700250000    6.601488590e-01   -6.915985942e-01    1.166388392e-05    8.100643754e-06    0.000000000e+00    0.000000000e+00    0.000000000e+00    0.000000000e+00
      707500000    5.918934345e-01   -7.671473622e-01    3.965757787e-05    3.216881305e-05    0.000000000e+00    0.000000000e+00    0.000000000e+00    0.000000000e+00
      714750000    5.120243430e-01   -8.391801715e-01    3.262422979e-06   -3.087334335e-05    0.000000000e+00    0.000000000e+00    0.000000000e+00    0.000000000e+00
      722000000    4.251197577e-01   -9.016060233e-01    5.507469177e-05    2.842396498e-06    0.000000000e+00    0.000000000e+00    0.000000000e+00    0.000000000e+00
      729250000    3.316071033e-01   -9.542400241e-01    3.173202276e-05   -1.512095332e-05    0.000000000e+00    0.000000000e+00    0.000000000e+00    0.000000000e+00
      736500000    2.312949300e-01   -9.971979856e-01    6.733462214e-06    1.749955118e-06    0.000000000e+00    0.000000000e+00    0.000000000e+00    0.000000000e+00
      743750000    1.244553253e-01   -1.028695822e+00    1.269299537e-05   -6.940215826e-06    0.000000000e+00    0.000000000e+00    0.000000000e+00    0.000000000e+00
      751000000    1.481455099e-02   -1.048319101e+00    3.847293556e-06    4.792679101e-05    0.000000000e+00    0.000000000e+00    0.000000000e+00    0.000000000e+00
      758250000   -9.954394400e-02   -1.054289341e+00    1.699384302e-05   -9.240582585e-06    0.000000000e+00    0.000000000e+00    0.000000000e+00    0.000000000e+00
      765500000   -2.125454694e-01   -1.047049642e+00   -2.917461097e-05    4.297122359e-06    0.000000000e+00    0.000000000e+00    0.000000000e+00    0.000000000e+00
      772750000   -3.258060515e-01   -1.025922060e+00   -1.206621528e-05   -4.288367927e-05    0.000000000e+00    0.000000000e+00    0.000000000e+00    0.000000000e+00
      780000000   -4.345082939e-01   -9.919643998e-01   -4.605669528e-05   -2.286583185e-05    0.000000000e+00    0.000000000e+00    0.000000000e+00    0.000000000e+00
      787250000   -5.429564118e-01   -9.413876534e-01    6.693415344e-06   -5.458947271e-05    0.000000000e+00    0.000000000e+00    0.000000000e+00    0.000000000e+00
      794500000   -6.412134767e-01   -8.818147182e-01   -1.242663711e-05    8.937902749e-06    0.000000000e+00    0.000000000e+00    0.000000000e+00    0.000000000e+00
      801750000   -7.328867912e-01   -8.074187636e-01    4.037283361e-06    3.907456994e-05    0.000000000e+00    0.000000000e+00    0.000000000e+00    0.000000000e+00
      809000000   -8.133469224e-01   -7.233740687e-01    4.376377910e-05   -1.771561801e-05    0.000000000e+00    0.000000000e+00    0.000000000e+00    0.000000000e+00
      816250000   -8.831267357e-01   -6.303871274e-01    2.607330680e-05    2.064090222e-05    0.000000000e+00    0.000000000e+00    0.000000000e+00    0.000000000e+00
      823500000   -9.399647713e-01   -5.301625133e-01   -1.103524119e-05    1.597590744e-05    0.000000000e+00    0.000000000e+00    0.000000000e+00    0.000000000e+00
      830750000   -9.832541347e-01   -4.257349074e-01    1.959782094e-05    1.251697540e-06    0.000000000e+00    0.000000000e+00    0.000000000e+00    0.000000000e+00
      838000000   -1.013447642e+00   -3.177849650e-01   -6.089918315e-06    2.764631063e-05    0.000000000e+00    0.000000000e+00    0.000000000e+00    0.000000000e+00
      845250000   -1.030035853e+00   -2.072756588e-01    4.085060209e-05    4.166737199e-06    0.000000000e+00    0.000000000e+00    0.000000000e+00    0.000000000e+00
      852500000   -1.034070492e+00   -9.835730493e-02   -2.370215952e-05    8.992850780e-06    0.000000000e+00    0.000000000e+00    0.000000000e+00    0.000000000e+00
      859750000   -1.025033951e+00    8.942130022e-03    1.144316047e-05   -1.155957580e-05    0.000000000e+00    0.000000000e+00    0.000000000e+00    0.000000000e+00
      867000000   -1.003455877e+00    1.144329831e-01   -7.139518857e-06   -2.662651241e-05    0.000000000e+00    0.000000000e+00    0.000000000e+00    0.000000000e+00
      874250000   -9.720872045e-01    2.116768956e-01   -2.739951015e-06    4.452466965e-05    0.000000000e+00    0.000000000e+00    0.000000000e+00    0.000000000e+00
      881500000   -9.280890822e-01    3.072091043e-01   -1.147296280e-05    8.432194591e-06    0.000000000e+00    0.000000000e+00    0.000000000e+00    0.000000000e+00
      888750000   -8.791422844e-01    3.910544515e-01    1.553725451e-05    3.246963024e-05    0.000000000e+00    0.000000000e+00    0.000000000e+00    0.000000000e+00
      896000000   -8.193964362e-01    4.711577594e-01    1.225713640e-05   -8.707866073e-06    0.000000000e+00    0.000000000e+00    0.000000000e+00    0.000000000e+00
      903250000   -7.553620934e-01    5.403503776e-01    7.575377822e-06   -5.834084004e-05    0.000000000e+00    0.000000000e+00    0.000000000e+00    0.000000000e+00
      910500000   -6.827514172e-01    6.051647663e-01   -6.232969463e-05   -1.150742173e-05    0.000000000e+00    0.000000000e+00    0.000000000e+00    0.000000000e+00
      917750000   -6.088823080e-01    6.577860713e-01    1.328904182e-05   -1.743622124e-05    0.000000000e+00    0.000000000e+00    0.000000000e+00    0.000000000e+00
      925000000   -5.304679275e-01    7.044580579e-01    3.660097718e-05    1.547019929e-05    0.000000000e+00    0.000000000e+00    0.000000000e+00    0.000000000e+00
      932250000   -4.506973922e-01    7.418462634e-01    7.546506822e-06    6.416812539e-06    0.000000000e+00    0.000000000e+00    0.000000000e+00    0.000000000e+00
      939500000   -3.679883182e-01    7.714512348e-01    5.169957876e-05   -1.929793507e-05    0.000000000e+00    0.000000000e+00    0.000000000e+00    0.000000000e+00
      946750000   -2.845709026e-01    7.932351828e-01   -7.142312825e-06   -2.373941243e-06    0.000000000e+00    0.000000000e+00    0.000000000e+00    0.000000000e+00
      954000000   -1.992767453e-01    8.070459962e-01    2.383906394e-05    1.306645572e-06    0.000000000e+00    0.000000000e+00    0.000000000e+00    0.000000000e+00
      961250000   -1.159509569e-01    8.138968349e-01    3.743916750e-06    3.766268492e-06    0.000000000e+00    0.000000000e+00    0.000000000e+00    0.000000000e+00
      968500000   -3.184759989e-02    8.127760887e-01   -1.327227801e-05   -5.159527063e-07    0.000000000e+00    0.000000000e+00    0.000000000e+00    0.000000000e+00
      975750000    5.077844858e-02    8.041699529e-01    2.374779433e-05    1.172907650e-05    0.000000000e+00    0.000000000e+00    0.000000000e+00    0.000000000e+00
      983000000    1.309209615e-01    7.895990014e-01   -1.448113471e-05   -1.193676144e-05    0.000000000e+00    0.000000000e+00    0.000000000e+00    0.000000000e+00
      990250000    2.102297246e-01    7.682802081e-01    3.898609430e-05    4.836358130e-06    0.000000000e+00    0.000000000e+00    0.000000000e+00    0.000000000e+00
      997500000    2.872687280e-01    7.398620248e-01   -2.534221858e-05   -7.200986147e-06    0.000000000e+00    0.000000000e+00    0.000000000e+00    0.000000000e+00
     1004750000    3.621834815e-01    7.055473328e-01    1.755356789e-05    4.525110126e-05    0.000000000e+00    0.000000000e+00    0.000000000e+00    0.000000000e+00
     1012000000    4.340538085e-01    6.644099355e-01    2.347212285e-05   -1.404806972e-05    0.000000000e+00    0.000000000e+00    0.000000000e+00    0.000000000e+00
     1019250000    5.020760298e-01    6.172510982e-01   -4.165619612e-05   -1.548696309e-05    0.000000000e+00    0.000000000e+00    0.000000000e+00    0.000000000e+00
     1026500000    5.665925741e-01    5.648006797e-01    1.079868525e-05    7.487833500e-06    0.000000000e+00    0.000000000e+00    0.000000000e+00    0.000000000e+00
     1033750000    6.267071366e-01    5.046130419e-01   -7.187947631e-06   -1.019984484e-05    0.000000000e+00    0.000000000e+00    0.000000000e+00    0.000000000e+00
     1041000000    6.812703609e-01    4.403366148e-01    5.203951150e-05   -1.854915172e-05    0.000000000e+00    0.000000000e+00    0.000000000e+00    0.000000000e+00
