! NanoVNA-App by OneOfEleven et al v1.1.209 (+OD15) 
! Date: 2024-07-30 15:11:33
! Start: 200MHz Stop: 6GHz Points: 801
! S-Parameter data: F S11 S21 S12 S22
# Hz S RI R 50
!     Frequency           S11_Real           S11_Imag           S21_Real           S21_Imag           S12_Real           S12_Imag           S22_Real           S22_Imag
      200000000    8.883222342e-01    2.082699090e-01   -4.426576197e-06    2.326443791e-06    0.000000000e+00    0.000000000e+00    0.000000000e+00    0.000000000e+00
      207250000    9.044077396e-01    1.006064266e-01   -6.460584700e-06    1.243874431e-05    0.000000000e+00    0.000000000e+00    0.000000000e+00    0.000000000e+00
      214500000    9.075810909e-01   -7.269385271e-03   -2.317596227e-05    1.941248775e-05    0.000000000e+00    0.000000000e+00    0.000000000e+00    0.000000000e+00
      221750000    8.983880877e-01   -1.137536988e-01   -2.282112837e-05   -2.734456211e-05    0.000000000e+00    0.000000000e+00    0.000000000e+00    0.000000000e+00
      229000000    8.779671788e-01   -2.163670808e-01   -1.115258783e-05   -6.937421858e-06    0.000000000e+00    0.000000000e+00    0.000000000e+00    0.000000000e+00
      236250000    8.466550112e-01   -3.162728846e-01    2.313870937e-05   -7.378868759e-06    0.000000000e+00    0.000000000e+00    0.000000000e+00    0.000000000e+00
      243500000    8.056761026e-01   -4.090577066e-01   -2.185720950e-05    7.866881788e-06    0.000000000e+00    0.000000000e+00    0.000000000e+00    0.000000000e+00
      250750000    7.545152903e-01   -4.965806007e-01   -3.522261977e-06   -1.093465835e-05    0.000000000e+00    0.000000000e+00    0.000000000e+00    0.000000000e+00
      258000000    6.967233419e-01   -5.770021081e-01    1.813285053e-06   -5.445443094e-06    0.000000000e+00    0.000000000e+00    0.000000000e+00    0.000000000e+00
      265250000    6.314294934e-01   -6.500268579e-01   -4.800036550e-06   -3.495998681e-05    0.000000000e+00    0.000000000e+00    0.000000000e+00    0.000000000e+00
      272500000    5.607823133e-01   -7.156136036e-01   -1.910515130e-05    1.079309732e-05    0.000000000e+00    0.000000000e+00    0.000000000e+00    0.000000000e+00
      279750000    4.842778444e-01   -7.725178003e-01    5.608424544e-06    4.354864359e-06    0.000000000e+00    0.000000000e+00    0.000000000e+00    0.000000000e+00
      287000000    4.030208588e-01   -8.224328160e-01    1.036562026e-06   -3.138557076e-06    0.000000000e+00    0.000000000e+00    0.000000000e+00    0.000000000e+00
      294250000    3.191083074e-01   -8.627426624e-01   -6.110407412e-06    2.451520413e-05    0.000000000e+00    0.000000000e+00    0.000000000e+00    0.000000000e+00
      301500000    2.329599112e-01   -8.952469230e-01   -2.521555871e-05    2.415664494e-05    0.000000000e+00    0.000000000e+00    0.000000000e+00    0.000000000e+00
      308750000    1.434988827e-01   -9.196485281e-01   -1.212581992e-06   -4.870817065e-06    0.000000000e+00    0.000000000e+00    0.000000000e+00    0.000000000e+00
      316000000    5.348999426e-02   -9.348220229e-01   -3.771856427e-06    4.552491009e-05    0.000000000e+00    0.000000000e+00    0.000000000e+00    0.000000000e+00
      323250000   -3.708205372e-02   -9.425739050e-01    4.533771425e-05   -2.133939415e-05    0.000000000e+00    0.000000000e+00    0.000000000e+00    0.000000000e+00
      330500000   -1.284687221e-01   -9.408533573e-01   -9.188428521e-06   -6.522983313e-06    0.000000000e+00    0.000000000e+00    0.000000000e+00    0.000000000e+00
      337750000   -2.185522318e-01   -9.318872690e-01   -1.018401235e-05    2.849660814e-05    0.000000000e+00    0.000000000e+00    0.000000000e+00    0.000000000e+00
      345000000   -3.080053627e-01   -9.139149785e-01   -5.290843546e-06    1.236703247e-05    0.000000000e+00    0.000000000e+00    0.000000000e+00    0.000000000e+00
      352250000   -3.951716423e-01   -8.873737454e-01   -9.978190064e-06   -1.275818795e-05    0.000000000e+00    0.000000000e+00    0.000000000e+00    0.000000000e+00
      359500000   -4.810531735e-01   -8.526191115e-01   -2.241414040e-05   -2.454593778e-05    0.000000000e+00    0.000000000e+00    0.000000000e+00    0.000000000e+00
      366750000   -5.631023049e-01   -8.099367023e-01    9.906478226e-06    1.353118569e-05    0.000000000e+00    0.000000000e+00    0.000000000e+00    0.000000000e+00
      374000000   -6.406657100e-01   -7.605783343e-01   -8.150003850e-06   -5.568377674e-06    0.000000000e+00    0.000000000e+00    0.000000000e+00    0.000000000e+00
      381250000   -7.151678801e-01   -7.019159198e-01    2.375338227e-05   -1.314282417e-05    0.000000000e+00    0.000000000e+00    0.000000000e+00    0.000000000e+00
      388500000   -7.826094627e-01   -6.360373497e-01   -2.626515925e-05   -2.055801451e-05    0.000000000e+00    0.000000000e+00    0.000000000e+00    0.000000000e+00
      395750000   -8.449543715e-01   -5.622573495e-01   -2.234987915e-05    4.264898598e-05    0.000000000e+00    0.000000000e+00    0.000000000e+00    0.000000000e+00
      403000000   -8.991283774e-01   -4.823180735e-01   -1.340080053e-05   -2.454034984e-06    0.000000000e+00    0.000000000e+00    0.000000000e+00    0.000000000e+00
      410250000   -9.463793635e-01   -3.955802619e-01    1.362804323e-05   -5.702488124e-06    0.000000000e+00    0.000000000e+00    0.000000000e+00    0.000000000e+00
      417500000   -9.840948582e-01   -3.050586283e-01   -2.152007073e-05    9.655952454e-06    0.000000000e+00    0.000000000e+00    0.000000000e+00    0.000000000e+00
      424750000   -1.012563467e+00   -2.082794905e-01   -1.360289752e-05    3.142748028e-05    0.000000000e+00    0.000000000e+00    0.000000000e+00    0.000000000e+00
      432000000   -1.030262232e+00   -1.081875637e-01    2.838298678e-05    7.045455277e-06    0.000000000e+00    0.000000000e+00    0.000000000e+00    0.000000000e+00
      439250000   -1.037116766e+00   -5.457401276e-03    1.112092286e-05   -2.103857696e-05    0.000000000e+00    0.000000000e+00    0.000000000e+00    0.000000000e+00
      446500000   -1.032336235e+00    9.729300439e-02   -4.693865776e-07    2.936460078e-06    0.000000000e+00    0.000000000e+00    0.000000000e+00    0.000000000e+00
      453750000   -1.016257048e+00    2.011985481e-01    2.156477422e-05    2.576038241e-06    0.000000000e+00    0.000000000e+00    0.000000000e+00    0.000000000e+00
      461000000   -9.880464077e-01    3.032271862e-01   -1.432374120e-06   -2.118572593e-05    0.000000000e+00    0.000000000e+00    0.000000000e+00    0.000000000e+00
      468250000   -9.495290518e-01    4.010820687e-01    6.136484444e-06   -4.545692354e-05    0.000000000e+00    0.000000000e+00    0.000000000e+00    0.000000000e+00
      475500000   -8.980593085e-01    4.965502024e-01    4.854984581e-06   -1.171790063e-05    0.000000000e+00    0.000000000e+00    0.000000000e+00    0.000000000e+00
      482750000   -8.372386098e-01    5.837530494e-01    1.673214138e-05   -1.177191734e-06    0.000000000e+00    0.000000000e+00    0.000000000e+00    0.000000000e+00
      490000000   -7.658079863e-01    6.646065712e-01   -2.099107951e-05   -3.027729690e-06    0.000000000e+00    0.000000000e+00    0.000000000e+00    0.000000000e+00
      497250000   -6.856580973e-01    7.366922498e-01    1.306645572e-05   -4.470348358e-07    0.000000000e+00    0.000000000e+00    0.000000000e+00    0.000000000e+00
      504500000   -5.969280005e-01    7.992355824e-01   -3.109686077e-06    3.486406058e-05    0.000000000e+00    0.000000000e+00    0.000000000e+00    0.000000000e+00
      511750000   -5.028277636e-01    8.500745893e-01    8.766539395e-06    4.159286618e-06    0.000000000e+00    0.000000000e+00    0.000000000e+00    0.000000000e+00
      519000000   -4.014182985e-01    8.908326626e-01   -2.782046795e-05    3.813020885e-05    0.000000000e+00    0.000000000e+00    0.000000000e+00    0.000000000e+00
      526250000   -2.987441123e-01    9.197496772e-01   -5.770474672e-06   -1.020915806e-05    0.000000000e+00    0.000000000e+00    0.000000000e+00    0.000000000e+00
      533500000   -1.929417551e-01    9.366506934e-01    1.728348434e-05    1.421198249e-06    0.000000000e+00    0.000000000e+00    0.000000000e+00    0.000000000e+00
      540750000   -8.663374931e-02    9.413436055e-01   -4.812236875e-05   -4.539173096e-05    0.000000000e+00    0.000000000e+00    0.000000000e+00    0.000000000e+00
      548000000    1.871160045e-02    9.349328279e-01    8.110888302e-06    2.074707299e-05    0.000000000e+00    0.000000000e+00    0.000000000e+00    0.000000000e+00
      555250000    1.224930361e-01    9.161187410e-01    1.395959407e-05    9.220093489e-07    0.000000000e+00    0.000000000e+00    0.000000000e+00    0.000000000e+00
      562500000    2.226534337e-01    8.862105012e-01   -2.295244485e-05   -1.825392246e-06    0.000000000e+00    0.000000000e+00    0.000000000e+00    0.000000000e+00
      569750000    3.180235028e-01    8.473123908e-01    2.745538950e-06    1.895241439e-06    0.000000000e+00    0.000000000e+00    0.000000000e+00    0.000000000e+00
      577000000    4.080190659e-01    7.991750836e-01   -9.267590940e-06   -1.395214349e-05    0.000000000e+00    0.000000000e+00    0.000000000e+00    0.000000000e+00
      584250000    4.925206900e-01    7.405467033e-01   -6.491318345e-07    3.417208791e-05    0.000000000e+00    0.000000000e+00    0.000000000e+00    0.000000000e+00
      591500000    5.705690980e-01    6.742994189e-01    6.460584700e-06   -4.374701530e-05    0.000000000e+00    0.000000000e+00    0.000000000e+00    0.000000000e+00
      598750000    6.406601071e-01    6.015960574e-01   -8.773989975e-06   -4.684552550e-06    0.000000000e+00    0.000000000e+00    0.000000000e+00    0.000000000e+00
      606000000    7.015402913e-01    5.230957866e-01   -7.363036275e-06    1.365132630e-05    0.000000000e+00    0.000000000e+00    0.000000000e+00    0.000000000e+00
      613250000    7.546561360e-01    4.396973848e-01   -2.276431769e-05    9.288080037e-06    0.000000000e+00    0.000000000e+00    0.000000000e+00    0.000000000e+00
      620500000    8.000775576e-01    3.497078121e-01   -2.595223486e-05   -5.311332643e-06    0.000000000e+00    0.000000000e+00    0.000000000e+00    0.000000000e+00
      627750000    8.351575732e-01    2.575398684e-01    7.097609341e-06   -7.723458111e-06    0.000000000e+00    0.000000000e+00    0.000000000e+00    0.000000000e+00
      635000000    8.609415889e-01    1.625604779e-01   -5.834735930e-06   -1.580454409e-06    0.000000000e+00    0.000000000e+00    0.000000000e+00    0.000000000e+00
      642250000    8.781530857e-01    6.333667785e-02    9.913928807e-06   -3.376975656e-06    0.000000000e+00    0.000000000e+00    0.000000000e+00    0.000000000e+00
      649500000    8.850648999e-01   -3.402227536e-02    3.958307207e-05    4.128552973e-06    0.000000000e+00    0.000000000e+00    0.000000000e+00    0.000000000e+00
      656750000    8.826577663e-01   -1.335955113e-01   -2.655759454e-05   -1.089740545e-05    0.000000000e+00    0.000000000e+00    0.000000000e+00    0.000000000e+00
      664000000    8.692792058e-01   -2.325491756e-01    9.078532457e-06   -3.650039434e-05    0.000000000e+00    0.000000000e+00    0.000000000e+00    0.000000000e+00
      671250000    8.470296860e-01   -3.303994238e-01    1.410860568e-05   -3.352761269e-07    0.000000000e+00    0.000000000e+00    0.000000000e+00    0.000000000e+00
      678500000    8.156476021e-01   -4.250272512e-01    3.600493073e-06   -2.934411168e-05    0.000000000e+00    0.000000000e+00    0.000000000e+00    0.000000000e+00
      685750000    7.731183171e-01   -5.189783573e-01   -3.205612302e-06   -3.395602107e-06    0.000000000e+00    0.000000000e+00    0.000000000e+00    0.000000000e+00
      693000000    7.225087285e-01   -6.064425707e-01    2.160668373e-05    4.356727004e-06    0.000000000e+00    0.000000000e+00    0.000000000e+00    0.000000000e+00
      700250000    6.598781347e-01   -6.916520596e-01    3.424845636e-05   -6.344169378e-06    0.000000000e+00    0.000000000e+00    0.000000000e+00    0.000000000e+00
      707500000    5.913836360e-01   -7.674130797e-01    5.546957254e-06    1.241732389e-05    0.000000000e+00    0.000000000e+00    0.000000000e+00    0.000000000e+00
      714750000    5.120022893e-01   -8.385265470e-01    1.888722181e-05   -5.410984159e-06    0.000000000e+00    0.000000000e+00    0.000000000e+00    0.000000000e+00
      722000000    4.249948561e-01   -9.014497399e-01    9.313225746e-10    1.562107354e-05    0.000000000e+00    0.000000000e+00    0.000000000e+00    0.000000000e+00
      729250000    3.306126595e-01   -9.542961121e-01   -1.570023596e-05   -2.725515515e-05    0.000000000e+00    0.000000000e+00    0.000000000e+00    0.000000000e+00
      736500000    2.305269092e-01   -9.974610209e-01    1.105200499e-05    8.602626622e-06    0.000000000e+00    0.000000000e+00    0.000000000e+00    0.000000000e+00
      743750000    1.246653423e-01   -1.029248357e+00   -4.099681973e-06   -3.327336162e-05    0.000000000e+00    0.000000000e+00    0.000000000e+00    0.000000000e+00
      751000000    1.500463020e-02   -1.048892736e+00    8.484348655e-07   -1.573935151e-06    0.000000000e+00    0.000000000e+00    0.000000000e+00    0.000000000e+00
      758250000   -9.766164422e-02   -1.054375887e+00   -1.417566091e-05    4.806835204e-05    0.000000000e+00    0.000000000e+00    0.000000000e+00    0.000000000e+00
      765500000   -2.127017826e-01   -1.047075510e+00   -2.714525908e-05   -7.680617273e-06    0.000000000e+00    0.000000000e+00    0.000000000e+00    0.000000000e+00
      772750000   -3.258813918e-01   -1.025967836e+00   -3.006309271e-06    3.603100777e-05    0.000000000e+00    0.000000000e+00    0.000000000e+00    0.000000000e+00
      780000000   -4.363273382e-01   -9.913913608e-01   -3.553740680e-05   -8.722767234e-06    0.000000000e+00    0.000000000e+00    0.000000000e+00    0.000000000e+00
      787250000   -5.426360965e-01   -9.430903196e-01   -1.075118780e-05    7.801689208e-06    0.000000000e+00    0.000000000e+00    0.000000000e+00    0.000000000e+00
      794500000   -6.417077184e-01   -8.814176917e-01   -2.120900899e-05   -3.912486136e-06    0.000000000e+00    0.000000000e+00    0.000000000e+00    0.000000000e+00
      801750000   -7.324588299e-01   -8.082942963e-01    5.674734712e-05   -4.147086293e-05    0.000000000e+00    0.000000000e+00    0.000000000e+00    0.000000000e+00
      809000000   -8.137022853e-01   -7.237311602e-01   -2.425070852e-05    2.295337617e-05    0.000000000e+00    0.000000000e+00    0.000000000e+00    0.000000000e+00
      816250000   -8.827568889e-01   -6.308237910e-01   -2.498738468e-05   -1.488253474e-06    0.000000000e+00    0.000000000e+00    0.000000000e+00    0.000000000e+00
      823500000   -9.396253228e-01   -5.304653645e-01    7.375143468e-06    3.744848073e-05    0.000000000e+00    0.000000000e+00    0.000000000e+00    0.000000000e+00
      830750000   -9.835179448e-01   -4.254561067e-01    8.976086974e-06   -3.243423998e-05    0.000000000e+00    0.000000000e+00    0.000000000e+00    0.000000000e+00
      838000000   -1.013337016e+00   -3.174002767e-01    1.751445234e-05    2.077966928e-05    0.000000000e+00    0.000000000e+00    0.000000000e+00    0.000000000e+00
      845250000   -1.030446529e+00   -2.080627382e-01   -2.270098776e-05   -9.044073522e-06    0.000000000e+00    0.000000000e+00    0.000000000e+00    0.000000000e+00
      852500000   -1.034278750e+00   -9.734871238e-02   -1.898407936e-05    2.856925130e-05    0.000000000e+00    0.000000000e+00    0.000000000e+00    0.000000000e+00
      859750000   -1.025178552e+00    8.445582353e-03   -2.434849739e-05    4.136376083e-05    0.000000000e+00    0.000000000e+00    0.000000000e+00    0.000000000e+00
      867000000   -1.003014088e+00    1.141212806e-01    1.124385744e-05    1.871492714e-05    0.000000000e+00    0.000000000e+00    0.000000000e+00    0.000000000e+00
      874250000   -9.711120129e-01    2.126910686e-01    1.144409180e-05    5.355104804e-07    0.000000000e+00    0.000000000e+00    0.000000000e+00    0.000000000e+00
      881500000   -9.288412333e-01    3.054597080e-01    1.941621304e-05   -4.596356302e-05    0.000000000e+00    0.000000000e+00    0.000000000e+00    0.000000000e+00
      888750000   -8.780919313e-01    3.910221756e-01   -2.594385296e-05   -6.249174476e-07    0.000000000e+00    0.000000000e+00    0.000000000e+00    0.000000000e+00
      896000000   -8.201320767e-01    4.700550437e-01   -4.406087101e-06    2.022087574e-05    0.000000000e+00    0.000000000e+00    0.000000000e+00    0.000000000e+00
      903250000   -7.558074594e-01    5.398549438e-01   -2.048909664e-08   -2.545304596e-05    0.000000000e+00    0.000000000e+00    0.000000000e+00    0.000000000e+00
      910500000   -6.839949489e-01    6.045042276e-01   -8.529052138e-06   -3.384426236e-06    0.000000000e+00    0.000000000e+00    0.000000000e+00    0.000000000e+00
      917750000   -6.090729833e-01    6.586782932e-01   -6.442889571e-06   -2.173520625e-05    0.000000000e+00    0.000000000e+00    0.000000000e+00    0.000000000e+00
      925000000   -5.306845307e-01    7.042660713e-01    9.228475392e-06    1.356378198e-05    0.000000000e+00    0.000000000e+00    0.000000000e+00    0.000000000e+00
      932250000   -4.500014782e-01    7.419103384e-01   -3.695674241e-05   -6.359070539e-06    0.000000000e+00    0.000000000e+00    0.000000000e+00    0.000000000e+00
      939500000   -3.666308820e-01    7.713841796e-01   -3.350246698e-05   -2.859160304e-07    0.000000000e+00    0.000000000e+00    0.000000000e+00    0.000000000e+00
      946750000   -2.837496400e-01    7.928509116e-01   -5.463417619e-05   -3.554858267e-06    0.000000000e+00    0.000000000e+00    0.000000000e+00    0.000000000e+00
      954000000   -1.999240667e-01    8.061420321e-01   -1.934636384e-05    1.043174416e-05    0.000000000e+00    0.000000000e+00    0.000000000e+00    0.000000000e+00
      961250000   -1.161393449e-01    8.127211332e-01    2.195406705e-05   -1.942459494e-05    0.000000000e+00    0.000000000e+00    0.000000000e+00    0.000000000e+00
      968500000   -3.197081387e-02    8.122374415e-01   -1.070182770e-05   -2.984888852e-05    0.000000000e+00    0.000000000e+00    0.000000000e+00    0.000000000e+00
      975750000    5.050561950e-02    8.042526841e-01    3.030337393e-05   -4.554633051e-05    0.000000000e+00    0.000000000e+00    0.000000000e+00    0.000000000e+00
      983000000    1.319760978e-01    7.895475030e-01   -9.207986295e-06    4.893634468e-05    0.000000000e+00    0.000000000e+00    0.000000000e+00    0.000000000e+00
      990250000    2.111415267e-01    7.678001523e-01   -7.180497050e-06    1.554470509e-05    0.000000000e+00    0.000000000e+00    0.000000000e+00    0.000000000e+00
      997500000    2.875770926e-01    7.399120331e-01   -4.496425390e-06   -1.426599920e-05    0.000000000e+00    0.000000000e+00    0.000000000e+00    0.000000000e+00
     1004750000    3.625338078e-01    7.048093081e-01    2.321973443e-05    2.492219210e-05    0.000000000e+00    0.000000000e+00    0.000000000e+00    0.000000000e+00
     1012000000    4.339490533e-01    6.645849943e-01   -3.114342690e-06    1.703388989e-06    0.000000000e+00    0.000000000e+00    0.000000000e+00    0.000000000e+00
     1019250000    5.026602149e-01    6.174163818e-01    2.880487591e-05   -5.966983736e-06    0.000000000e+00    0.000000000e+00    0.000000000e+00    0.000000000e+00
     1026500000    5.658617020e-01    5.646597743e-01   -1.575332135e-05    3.112480044e-06    0.000000000e+00    0.000000000e+00    0.000000000e+00    0.000000000e+00
     1033750000    6.269101501e-01    5.044582486e-01   -3.278255463e-05    1.474842429e-05    0.000000000e+00    0.000000000e+00    0.000000000e+00    0.000000000e+00
     1041000000    6.809862256e-01    4.401565790e-01   -1.158285886e-05   -2.887565643e-05    0.000000000e+00    0.000000000e+00    0.000000000e+00    0.000000000e+00
