! NanoVNA-App by OneOfEleven et al v1.1.209 (+OD15) 
! Date: 2024-07-30 15:11:36
! Start: 200MHz Stop: 6GHz Points: 801
! S-Parameter data: F S11 S21 S12 S22
# Hz S RI R 50
!     Frequency           S11_Real           S11_Imag           S21_Real           S21_Imag           S12_Real           S12_Imag           S22_Real           S22_Imag
      200000000    8.885651827e-01    2.079924941e-01   -5.484558642e-06   -2.503301948e-05    0.000000000e+00    0.000000000e+00    0.000000000e+00    0.000000000e+00
      207250000    9.046436548e-01    1.003279611e-01    7.078051567e-07   -1.836754382e-05    0.000000000e+00    0.000000000e+00    0.000000000e+00    0.000000000e+00
      214500000    9.076245427e-01   -7.216309197e-03    4.215165973e-06   -7.610768080e-06    0.000000000e+00    0.000000000e+00    0.000000000e+00    0.000000000e+00
      221750000    8.986207843e-01   -1.138840094e-01    2.125464380e-05    2.686493099e-05    0.000000000e+00    0.000000000e+00    0.000000000e+00    0.000000000e+00
      229000000    8.779560924e-01   -2.165478170e-01   -2.288352698e-05   -8.682720363e-06    0.000000000e+00    0.000000000e+00    0.000000000e+00    0.000000000e+00
      236250000    8.471853733e-01   -3.160484731e-01    2.860464156e-05   -2.104789019e-06    0.000000000e+00    0.000000000e+00    0.000000000e+00    0.000000000e+00
      243500000    8.055688143e-01   -4.089123607e-01   -1.363456249e-06    3.488827497e-05    0.000000000e+00    0.000000000e+00    0.000000000e+00    0.000000000e+00
      250750000    7.545425296e-01   -4.964484572e-01   -2.341344953e-06    4.976056516e-06    0.000000000e+00    0.000000000e+00    0.000000000e+00    0.000000000e+00
      258000000    6.966341138e-01   -5.772848129e-01    9.756535292e-06   -2.006068826e-05    0.000000000e+00    0.000000000e+00    0.000000000e+00    0.000000000e+00
      265250000    6.316248775e-01   -6.501365304e-01    2.038571984e-05   -1.372396946e-05    0.000000000e+00    0.000000000e+00    0.000000000e+00    0.000000000e+00
      272500000    5.596457720e-01   -7.150529027e-01    2.766959369e-06   -2.165697515e-05    0.000000000e+00    0.000000000e+00    0.000000000e+00    0.000000000e+00
      279750000    4.836790860e-01   -7.728051543e-01   -8.208677173e-06    1.688208431e-05    0.000000000e+00    0.000000000e+00    0.000000000e+00    0.000000000e+00
      287000000    4.030419588e-01   -8.219487071e-01   -1.114327461e-05    2.569705248e-05    0.000000000e+00    0.000000000e+00    0.000000000e+00    0.000000000e+00
      294250000    3.192023635e-01   -8.629372716e-01    1.115072519e-05    1.190975308e-05    0.000000000e+00    0.000000000e+00    0.000000000e+00    0.000000000e+00
      301500000    2.326508909e-01   -8.951786160e-01    1.442432404e-05   -1.562759280e-05    0.000000000e+00    0.000000000e+00    0.000000000e+00    0.000000000e+00
      308750000    1.436883956e-01   -9.191723466e-01    2.266280353e-05    3.578513861e-05    0.000000000e+00    0.000000000e+00    0.000000000e+00    0.000000000e+00
      316000000    5.356546491e-02   -9.349825382e-01    2.481974661e-06   -2.296734601e-05    0.000000000e+00    0.000000000e+00    0.000000000e+00    0.000000000e+00
      323250000   -3.751052171e-02   -9.424791336e-01    1.876708120e-05    8.197501302e-06    0.000000000e+00    0.000000000e+00    0.000000000e+00    0.000000000e+00
      330500000   -1.284522116e-01   -9.408279061e-01   -3.195367754e-05    1.536775380e-05    0.000000000e+00    0.000000000e+00    0.000000000e+00    0.000000000e+00
      337750000   -2.185547650e-01   -9.318245649e-01    3.752391785e-05   -1.879315823e-05    0.000000000e+00    0.000000000e+00    0.000000000e+00    0.000000000e+00
      345000000   -3.080004752e-01   -9.139116406e-01   -1.644250005e-05   -1.973286271e-05    0.000000000e+00    0.000000000e+00    0.000000000e+00    0.000000000e+00
      352250000   -3.953636885e-01   -8.873984814e-01   -1.180823892e-05   -1.596286893e-05    0.000000000e+00    0.000000000e+00    0.000000000e+00    0.000000000e+00
      359500000   -4.808388948e-01   -8.527080417e-01    1.654215157e-05    3.513693810e-05    0.000000000e+00    0.000000000e+00    0.000000000e+00    0.000000000e+00
      366750000   -5.628620386e-01   -8.108940721e-01    6.107613444e-06   -4.577916116e-05    0.000000000e+00    0.000000000e+00    0.000000000e+00    0.000000000e+00
      374000000   -6.407657862e-01   -7.606756687e-01    1.404620707e-05   -2.719555050e-05    0.000000000e+00    0.000000000e+00    0.000000000e+00    0.000000000e+00
      381250000   -7.153645158e-01   -7.019926310e-01    1.243501902e-05   -1.452397555e-05    0.000000000e+00    0.000000000e+00    0.000000000e+00    0.000000000e+00
      388500000   -7.829113603e-01   -6.354894042e-01    2.809986472e-05    3.160722554e-05    0.000000000e+00    0.000000000e+00    0.000000000e+00    0.000000000e+00
      395750000   -8.449599147e-01   -5.623505712e-01    9.063631296e-06   -6.491318345e-06    0.000000000e+00    0.000000000e+00    0.000000000e+00    0.000000000e+00
      403000000   -8.999873996e-01   -4.825528264e-01    2.783723176e-06    2.902653068e-05    0.000000000e+00    0.000000000e+00    0.000000000e+00    0.000000000e+00
      410250000   -9.463179111e-01   -3.957215846e-01    1.803599298e-05    1.557450742e-05    0.000000000e+00    0.000000000e+00    0.000000000e+00    0.000000000e+00
      417500000   -9.839013219e-01   -3.039956391e-01    1.899432391e-05    5.229376256e-05    0.000000000e+00    0.000000000e+00    0.000000000e+00    0.000000000e+00
      424750000   -1.012410522e+00   -2.080403119e-01    1.070182770e-05   -1.932680607e-05    0.000000000e+00    0.000000000e+00    0.000000000e+00    0.000000000e+00
      432000000   -1.030469418e+00   -1.081918031e-01    5.153287202e-05    1.193117350e-05    0.000000000e+00    0.000000000e+00    0.000000000e+00    0.000000000e+00
      439250000   -1.037305236e+00   -5.314744078e-03    1.896172762e-05   -1.437123865e-05    0.000000000e+00    0.000000000e+00    0.000000000e+00    0.000000000e+00
      446500000   -1.032604218e+00    9.716608375e-02    1.474283636e-05   -3.339815885e-05    0.000000000e+00    0.000000000e+00    0.000000000e+00    0.000000000e+00
      453750000   -1.016999722e+00    2.013976425e-01    1.461245120e-05   -8.158385754e-07    0.000000000e+00    0.000000000e+00    0.000000000e+00    0.000000000e+00
      461000000   -9.886665344e-01    3.030887544e-01   -3.562029451e-05    6.302259862e-06    0.000000000e+00    0.000000000e+00    0.000000000e+00    0.000000000e+00
      468250000   -9.500290751e-01    4.013094604e-01   -2.374220639e-05   -3.831181675e-05    0.000000000e+00    0.000000000e+00    0.000000000e+00    0.000000000e+00
      475500000   -8.981997967e-01    4.965367615e-01    8.985400200e-06   -2.829264849e-05    0.000000000e+00    0.000000000e+00    0.000000000e+00    0.000000000e+00
      482750000   -8.369901776e-01    5.841031671e-01    1.991912723e-05    1.330487430e-05    0.000000000e+00    0.000000000e+00    0.000000000e+00    0.000000000e+00
      490000000   -7.657672763e-01    6.648308039e-01    3.334600478e-05   -2.647470683e-05    0.000000000e+00    0.000000000e+00    0.000000000e+00    0.000000000e+00
      497250000   -6.854850650e-01    7.370203733e-01   -4.239380360e-06    3.035459667e-05    0.000000000e+00    0.000000000e+00    0.000000000e+00    0.000000000e+00
      504500000   -5.965341330e-01    7.986623645e-01   -2.710707486e-05   -3.256835043e-06    0.000000000e+00    0.000000000e+00    0.000000000e+00    0.000000000e+00
      511750000   -5.018678904e-01    8.506504893e-01   -1.897849143e-05   -3.121607006e-05    0.000000000e+00    0.000000000e+00    0.000000000e+00    0.000000000e+00
      519000000   -4.015890360e-01    8.911579251e-01    4.567112774e-05   -3.449711949e-05    0.000000000e+00    0.000000000e+00    0.000000000e+00    0.000000000e+00
      526250000   -2.984464765e-01    9.199736118e-01   -5.473196507e-05    1.079589128e-05    0.000000000e+00    0.000000000e+00    0.000000000e+00    0.000000000e+00
      533500000   -1.928647608e-01    9.365762472e-01   -6.518326700e-06   -2.325419337e-05    0.000000000e+00    0.000000000e+00    0.000000000e+00    0.000000000e+00
      540750000   -8.691648394e-02    9.420685768e-01   -1.134071499e-05   -1.732818782e-05    0.000000000e+00    0.000000000e+00    0.000000000e+00    0.000000000e+00
      548000000    1.828645915e-02    9.352227449e-01   -4.969444126e-05    3.809295595e-05    0.000000000e+00    0.000000000e+00    0.000000000e+00    0.000000000e+00
      555250000    1.227943972e-01    9.161509871e-01    1.255888492e-05    2.135057002e-05    0.000000000e+00    0.000000000e+00    0.000000000e+00    0.000000000e+00
      562500000    2.226836830e-01    8.865985870e-01    7.700175047e-06    3.036297858e-05    0.000000000e+00    0.000000000e+00    0.000000000e+00    0.000000000e+00
      569750000    3.175678253e-01    8.477218151e-01    5.345139652e-05   -1.335516572e-06    0.000000000e+00    0.000000000e+00    0.000000000e+00    0.000000000e+00
      577000000    4.084675908e-01    7.988725901e-01   -4.658941180e-05    2.302043140e-05    0.000000000e+00    0.000000000e+00    0.000000000e+00    0.000000000e+00
      584250000    4.932005107e-01    7.403792739e-01    2.230517566e-06   -1.168157905e-05    0.000000000e+00    0.000000000e+00    0.000000000e+00    0.000000000e+00
      591500000    5.706962347e-01    6.747244000e-01    1.092441380e-06    4.083849490e-06    0.000000000e+00    0.000000000e+00    0.000000000e+00    0.000000000e+00
      598750000    6.408286691e-01    6.014773250e-01   -1.749396324e-05    8.480623364e-06    0.000000000e+00    0.000000000e+00    0.000000000e+00    0.000000000e+00
      606000000    7.015823722e-01    5.230543017e-01   -2.231448889e-06    4.144944251e-05    0.000000000e+00    0.000000000e+00    0.000000000e+00    0.000000000e+00
      613250000    7.553995848e-01    4.389873147e-01   -5.993992090e-06    2.293009311e-05    0.000000000e+00    0.000000000e+00    0.000000000e+00    0.000000000e+00
      620500000    7.998451591e-01    3.499060571e-01   -4.149600863e-05    2.618040890e-05    0.000000000e+00    0.000000000e+00    0.000000000e+00    0.000000000e+00
      627750000    8.360871077e-01    2.567360699e-01    3.584194928e-05   -1.007597893e-05    0.000000000e+00    0.000000000e+00    0.000000000e+00    0.000000000e+00
      635000000    8.616611362e-01    1.632603556e-01    4.344061017e-05    1.869909465e-05    0.000000000e+00    0.000000000e+00    0.000000000e+00    0.000000000e+00
      642250000    8.780969381e-01    6.398188323e-02   -3.544613719e-06    5.395524204e-05    0.000000000e+00    0.000000000e+00    0.000000000e+00    0.000000000e+00
      649500000    8.853414059e-01   -3.459567204e-02   -2.287607640e-05   -4.312023520e-07    0.000000000e+00    0.000000000e+00    0.000000000e+00    0.000000000e+00
      656750000    8.821309209e-01   -1.336365789e-01    3.387965262e-05   -5.571823567e-05    0.000000000e+00    0.000000000e+00    0.000000000e+00    0.000000000e+00
      664000000    8.703609109e-01   -2.320641130e-01    4.258938134e-06    4.218891263e-07    0.000000000e+00    0.000000000e+00    0.000000000e+00    0.000000000e+00
      671250000    8.473529220e-01   -3.296796679e-01    3.594346344e-05   -1.760572195e-05    0.000000000e+00    0.000000000e+00    0.000000000e+00    0.000000000e+00
      678500000    8.148195744e-01   -4.257770181e-01    9.985640645e-06   -8.028000593e-07    0.000000000e+00    0.000000000e+00    0.000000000e+00    0.000000000e+00
      685750000    7.733557224e-01   -5.182090402e-01    4.214327782e-05   -2.047978342e-06    0.000000000e+00    0.000000000e+00    0.000000000e+00    0.000000000e+00
      693000000    7.224698067e-01   -6.067170501e-01   -1.643970609e-05    2.470519394e-05    0.000000000e+00    0.000000000e+00    0.000000000e+00    0.000000000e+00
      700250000    6.614031196e-01   -6.905522346e-01    2.587027848e-05    3.291759640e-05    0.000000000e+00    0.000000000e+00    0.000000000e+00    0.000000000e+00
      707500000    5.917758346e-01   -7.684761882e-01    1.498311758e-05    2.653710544e-05    0.000000000e+00    0.000000000e+00    0.000000000e+00    0.000000000e+00
      714750000    5.122430325e-01   -8.384878039e-01    3.036390990e-05    2.069864422e-05    0.000000000e+00    0.000000000e+00    0.000000000e+00    0.000000000e+00
      722000000    4.249466360e-01   -9.017654657e-01   -1.589395106e-05    9.492039680e-06    0.000000000e+00    0.000000000e+00    0.000000000e+00    0.000000000e+00
      729250000    3.315016031e-01   -9.543800354e-01   -1.587532461e-05    3.294553608e-05    0.000000000e+00    0.000000000e+00    0.000000000e+00    0.000000000e+00
      736500000    2.309098691e-01   -9.970993996e-01   -5.060806870e-06    5.934387445e-06    0.000000000e+00    0.000000000e+00    0.000000000e+00    0.000000000e+00
      743750000    1.246023774e-01   -1.028802276e+00   -7.625669241e-06   -4.925951362e-05    0.000000000e+00    0.000000000e+00    0.000000000e+00    0.000000000e+00
      751000000    1.437755208e-02   -1.048718095e+00    2.643093467e-06    1.790933311e-05    0.000000000e+00    0.000000000e+00    0.000000000e+00    0.000000000e+00
      758250000   -9.907895327e-02   -1.053868771e+00   -1.213140786e-05    1.097936183e-05    0.000000000e+00    0.000000000e+00    0.000000000e+00    0.000000000e+00
      765500000   -2.129126787e-01   -1.046624780e+00   -2.086255699e-05   -1.879595220e-05    0.000000000e+00    0.000000000e+00    0.000000000e+00    0.000000000e+00
      772750000   -3.256996870e-01   -1.025848627e+00   -6.081722677e-05    6.020069122e-06    0.000000000e+00    0.000000000e+00    0.000000000e+00    0.000000000e+00
      780000000   -4.346735477e-01   -9.915440679e-01    2.250820398e-05   -8.163042367e-06    0.000000000e+00    0.000000000e+00    0.000000000e+00    0.000000000e+00
      787250000   -5.424937606e-01   -9.425884485e-01    2.898275852e-06   -3.075972199e-05    0.000000000e+00    0.000000000e+00    0.000000000e+00    0.000000000e+00
      794500000   -6.420702934e-01   -8.809479475e-01    1.567415893e-06   -1.579057425e-05    0.000000000e+00    0.000000000e+00    0.000000000e+00    0.000000000e+00
      801750000   -7.323895097e-01   -8.082111478e-01    1.278612763e-05   -1.945532858e-05    0.000000000e+00    0.000000000e+00    0.000000000e+00    0.000000000e+00
      809000000   -8.130537271e-01   -7.236095071e-01    1.051370054e-05    2.263579518e-05    0.000000000e+00    0.000000000e+00    0.000000000e+00    0.000000000e+00
      816250000   -8.835205436e-01   -6.301968694e-01    5.699694157e-07   -2.593360841e-05    0.000000000e+00    0.000000000e+00    0.000000000e+00    0.000000000e+00
      823500000   -9.393376112e-01   -5.318272114e-01    1.419987530e-05   -2.699904144e-06    0.000000000e+00    0.000000000e+00    0.000000000e+00    0.000000000e+00
      830750000   -9.838859439e-01   -4.242351651e-01    1.632049680e-05    8.948147297e-06    0.000000000e+00    0.000000000e+00    0.000000000e+00    0.000000000e+00
      838000000   -1.013365626e+00   -3.178816438e-01    5.792826414e-07    3.580097109e-05    0.000000000e+00    0.000000000e+00    0.000000000e+00    0.000000000e+00
      845250000   -1.030210972e+00   -2.086723149e-01   -2.549123019e-05    2.950150520e-05    0.000000000e+00    0.000000000e+00    0.000000000e+00    0.000000000e+00
      852500000   -1.034380436e+00   -9.797676653e-02   -3.706663847e-07    1.445785165e-05    0.000000000e+00    0.000000000e+00    0.000000000e+00    0.000000000e+00
      859750000   -1.025039434e+00    8.512355387e-03    5.792826414e-07   -5.117617548e-06    0.000000000e+00    0.000000000e+00    0.000000000e+00    0.000000000e+00
      867000000   -1.003484845e+00    1.134662628e-01   -1.049134880e-05   -3.097020090e-05    0.000000000e+00    0.000000000e+00    0.000000000e+00    0.000000000e+00
      874250000   -9.719176888e-01    2.132671177e-01   -1.293886453e-05    4.501827061e-05    0.000000000e+00    0.000000000e+00    0.000000000e+00    0.000000000e+00
      881500000   -9.299320579e-01    3.054106236e-01    1.192837954e-05   -2.077315003e-05    0.000000000e+00    0.000000000e+00    0.000000000e+00    0.000000000e+00
      888750000   -8.791146278e-01    3.915600479e-01   -5.366280675e-06   -2.570450306e-06    0.000000000e+00    0.000000000e+00    0.000000000e+00    0.000000000e+00
      896000000   -8.207280040e-01    4.702752829e-01    1.695007086e-06   -3.543775529e-05    0.000000000e+00    0.000000000e+00    0.000000000e+00    0.000000000e+00
      903250000   -7.554610968e-01    5.405360460e-01    1.162197441e-05   -8.254311979e-06    0.000000000e+00    0.000000000e+00    0.000000000e+00    0.000000000e+00
      910500000   -6.835625768e-01    6.046673059e-01    1.855194569e-05   -2.971664071e-05    0.000000000e+00    0.000000000e+00    0.000000000e+00    0.000000000e+00
      917750000   -6.087873578e-01    6.582005024e-01   -3.054272383e-05   -1.838430762e-06    0.000000000e+00    0.000000000e+00    0.000000000e+00    0.000000000e+00
      925000000   -5.313929319e-01    7.039135098e-01   -5.173776299e-05   -7.399357855e-06    0.000000000e+00    0.000000000e+00    0.000000000e+00    0.000000000e+00
      932250000   -4.492987096e-01    7.422665358e-01   -4.188995808e-05    1.029204577e-05    0.000000000e+00    0.000000000e+00    0.000000000e+00    0.000000000e+00
      939500000   -3.673702478e-01    7.715739608e-01    6.037671119e-05    9.539537132e-06    0.000000000e+00    0.000000000e+00    0.000000000e+00    0.000000000e+00
      946750000   -2.843016684e-01    7.931575775e-01   -9.865500033e-06   -1.335889101e-05    0.000000000e+00    0.000000000e+00    0.000000000e+00    0.000000000e+00
      954000000   -1.987937242e-01    8.071526885e-01   -4.797987640e-05   -2.917088568e-05    0.000000000e+00    0.000000000e+00    0.000000000e+00    0.000000000e+00
      961250000   -1.160043254e-01    8.132307529e-01    3.256369382e-05   -1.142919064e-05    0.000000000e+00    0.000000000e+00    0.000000000e+00    0.000000000e+00
      968500000   -3.104684129e-02    8.130325079e-01    1.148972660e-05    2.098269761e-06    0.000000000e+00    0.000000000e+00    0.000000000e+00    0.000000000e+00
      975750000    5.089979619e-02    8.044502735e-01    1.692306250e-05   -1.126434654e-05    0.000000000e+00    0.000000000e+00    0.000000000e+00    0.000000000e+00
      983000000    1.321615130e-01    7.894851565e-01   -2.409517765e-05   -3.273691982e-05    0.000000000e+00    0.000000000e+00    0.000000000e+00    0.000000000e+00
      990250000    2.108959556e-01    7.680326104e-01    4.085060209e-05    8.074566722e-06    0.000000000e+00    0.000000000e+00    0.000000000e+00    0.000000000e+00
      997500000    2.877364457e-01    7.397794724e-01   -2.552010119e-05    4.298891872e-05    0.000000000e+00    0.000000000e+00    0.000000000e+00    0.000000000e+00
     1004750000    3.623059392e-01    7.058225870e-01    1.532025635e-06   -1.547671854e-05    0.000000000e+00    0.000000000e+00    0.000000000e+00    0.000000000e+00
     1012000000    4.337154925e-01    6.649851799e-01   -1.423805952e-05    1.537241042e-05    0.000000000e+00    0.000000000e+00    0.000000000e+00    0.000000000e+00
     1019250000    5.017070770e-01    6.176325083e-01    1.261010766e-06   -5.062110722e-05    0.000000000e+00    0.000000000e+00    0.000000000e+00    0.000000000e+00
     1026500000    5.664796233e-01    5.646631718e-01    4.454515874e-06   -1.133792102e-05    0.000000000e+00    0.000000000e+00    0.000000000e+00    0.000000000e+00
     1033750000    6.273810863e-01    5.037891865e-01   -1.582410187e-05    2.703815699e-05    0.000000000e+00    0.000000000e+00    0.000000000e+00    0.000000000e+00
     1041000000    6.816766858e-01    4.402401745e-01    3.248453140e-06    1.724716276e-05    0.000000000e+00    0.000000000e+00    0.000000000e+00    0.000000000e+00
