! NanoVNA-App by OneOfEleven et al v1.1.209 (+OD15) 
! Date: 2024-07-30 15:11:46
! Start: 200MHz Stop: 6GHz Points: 801
! S-Parameter data: F S11 S21 S12 S22
# Hz S RI R 50
!     Frequency           S11_Real           S11_Imag           S21_Real           S21_Imag           S12_Real           S12_Imag           S22_Real           S22_Imag
      200000000    8.883123994e-01    2.081320882e-01    3.384612501e-05   -1.815147698e-06    0.000000000e+00    0.000000000e+00    0.000000000e+00    0.000000000e+00
      207250000    9.047783613e-01    1.004822180e-01    1.369044185e-06    2.625863999e-05    0.000000000e+00    0.000000000e+00    0.000000000e+00    0.000000000e+00
      214500000    9.075795412e-01   -7.628350519e-03    2.179294825e-07   -4.359427840e-05    0.000000000e+00    0.000000000e+00    0.000000000e+00    0.000000000e+00
      221750000    8.985726833e-01   -1.135376543e-01   -8.204951882e-07    2.420227975e-05    0.000000000e+00    0.000000000e+00    0.000000000e+00    0.000000000e+00
      229000000    8.781524301e-01   -2.167440951e-01   -1.943670213e-05   -4.411209375e-05    0.000000000e+00    0.000000000e+00    0.000000000e+00    0.000000000e+00
      236250000    8.464061618e-01   -3.158696294e-01   -3.795139492e-06   -4.728324711e-06    0.000000000e+00    0.000000000e+00    0.000000000e+00    0.000000000e+00
      243500000    8.055645823e-01   -4.090604186e-01    1.182779670e-06    1.405831426e-05    0.000000000e+00    0.000000000e+00    0.000000000e+00    0.000000000e+00
      250750000    7.545674443e-01   -4.968102276e-01    7.808208466e-06   -4.116445780e-06    0.000000000e+00    0.000000000e+00    0.000000000e+00    0.000000000e+00
      258000000    6.966500878e-01   -5.771633983e-01    1.438334584e-05   -3.319233656e-06    0.000000000e+00    0.000000000e+00    0.000000000e+00    0.000000000e+00
      265250000    6.314813495e-01   -6.501516700e-01    2.280715853e-05    1.506507397e-05    0.000000000e+00    0.000000000e+00    0.000000000e+00    0.000000000e+00
      272500000    5.606713295e-01   -7.157344818e-01    1.647695899e-05   -9.218230844e-06    0.000000000e+00    0.000000000e+00    0.000000000e+00    0.000000000e+00
      279750000    4.841670692e-01   -7.729399800e-01    1.765601337e-05    1.647043973e-05    0.000000000e+00    0.000000000e+00    0.000000000e+00    0.000000000e+00
      287000000    4.033796191e-01   -8.224365115e-01    1.177005470e-05   -2.042390406e-06    0.000000000e+00    0.000000000e+00    0.000000000e+00    0.000000000e+00
      294250000    3.196379244e-01   -8.630437851e-01   -6.305053830e-07    4.289858043e-05    0.000000000e+00    0.000000000e+00    0.000000000e+00    0.000000000e+00
      301500000    2.321921438e-01   -8.955147862e-01    1.760199666e-07    8.529983461e-06    0.000000000e+00    0.000000000e+00    0.000000000e+00    0.000000000e+00
      308750000    1.434403360e-01   -9.193214178e-01   -1.173093915e-05    2.315919846e-05    0.000000000e+00    0.000000000e+00    0.000000000e+00    0.000000000e+00
      316000000    5.331924185e-02   -9.349657893e-01    5.085021257e-07    1.593679190e-05    0.000000000e+00    0.000000000e+00    0.000000000e+00    0.000000000e+00
      323250000   -3.708771989e-02   -9.429756999e-01    1.833029091e-05    3.778375685e-06    0.000000000e+00    0.000000000e+00    0.000000000e+00    0.000000000e+00
      330500000   -1.281046867e-01   -9.408868551e-01    8.185394108e-06    3.713462502e-05    0.000000000e+00    0.000000000e+00    0.000000000e+00    0.000000000e+00
      337750000   -2.185313553e-01   -9.319784045e-01    2.026930451e-05    3.105215728e-05    0.000000000e+00    0.000000000e+00    0.000000000e+00    0.000000000e+00
      345000000   -3.080993593e-01   -9.136862159e-01    1.629535109e-05   -2.062134445e-05    0.000000000e+00    0.000000000e+00    0.000000000e+00    0.000000000e+00
      352250000   -3.957348764e-01   -8.879954815e-01   -1.589674503e-05   -3.566965461e-06    0.000000000e+00    0.000000000e+00    0.000000000e+00    0.000000000e+00
      359500000   -4.804807007e-01   -8.526667953e-01    2.262834460e-05    3.383588046e-05    0.000000000e+00    0.000000000e+00    0.000000000e+00    0.000000000e+00
      366750000   -5.628222227e-01   -8.100940585e-01   -3.485940397e-06    2.800300717e-05    0.000000000e+00    0.000000000e+00    0.000000000e+00    0.000000000e+00
      374000000   -6.411029696e-01   -7.604429722e-01    2.363231033e-05   -8.110888302e-06    0.000000000e+00    0.000000000e+00    0.000000000e+00    0.000000000e+00
      381250000   -7.149962783e-01   -7.022936344e-01   -4.339590669e-05   -2.095662057e-05    0.000000000e+00    0.000000000e+00    0.000000000e+00    0.000000000e+00
      388500000   -7.830403447e-01   -6.359426975e-01    7.519498467e-06   -1.103896648e-05    0.000000000e+00    0.000000000e+00    0.000000000e+00    0.000000000e+00
      395750000   -8.452086449e-01   -5.627456903e-01   -1.334864646e-05    1.570954919e-05    0.000000000e+00    0.000000000e+00    0.000000000e+00    0.000000000e+00
      403000000   -8.995682001e-01   -4.824833274e-01    1.002848148e-05    3.921240568e-05    0.000000000e+00    0.000000000e+00    0.000000000e+00    0.000000000e+00
      410250000   -9.460968375e-01   -3.956285715e-01   -5.620531738e-06    1.219380647e-05    0.000000000e+00    0.000000000e+00    0.000000000e+00    0.000000000e+00
      417500000   -9.847173691e-01   -3.046600223e-01    6.940215826e-06   -5.064532161e-06    0.000000000e+00    0.000000000e+00    0.000000000e+00    0.000000000e+00
      424750000   -1.012751818e+00   -2.081885338e-01    4.942528903e-06   -2.251937985e-05    0.000000000e+00    0.000000000e+00    0.000000000e+00    0.000000000e+00
      432000000   -1.030104876e+00   -1.082545370e-01   -3.069825470e-05    5.190260708e-06    0.000000000e+00    0.000000000e+00    0.000000000e+00    0.000000000e+00
      439250000   -1.037234545e+00   -5.759445019e-03    4.805624485e-06   -4.890374839e-06    0.000000000e+00    0.000000000e+00    0.000000000e+00    0.000000000e+00
      446500000   -1.032723069e+00    9.696708620e-02   -1.139473170e-05   -2.491567284e-05    0.000000000e+00    0.000000000e+00    0.000000000e+00    0.000000000e+00
      453750000   -1.016410589e+00    2.018066496e-01   -3.797374666e-05   -1.559220254e-05    0.000000000e+00    0.000000000e+00    0.000000000e+00    0.000000000e+00
      461000000   -9.887344241e-01    3.031576276e-01   -5.671754479e-07    3.185681999e-05    0.000000000e+00    0.000000000e+00    0.000000000e+00    0.000000000e+00
      468250000   -9.495226145e-01    4.015927315e-01   -1.238286495e-05    2.982933074e-05    0.000000000e+00    0.000000000e+00    0.000000000e+00    0.000000000e+00
      475500000   -8.979974985e-01    4.964181483e-01   -4.719942808e-05   -2.309866250e-05    0.000000000e+00    0.000000000e+00    0.000000000e+00    0.000000000e+00
      482750000   -8.368180394e-01    5.843064189e-01    3.482215106e-06   -2.698972821e-06    0.000000000e+00    0.000000000e+00    0.000000000e+00    0.000000000e+00
      490000000   -7.653186321e-01    6.643666029e-01    4.897825420e-06   -4.089809954e-05    0.000000000e+00    0.000000000e+00    0.000000000e+00    0.000000000e+00
      497250000   -6.853920817e-01    7.369639277e-01   -1.486390829e-05    4.554167390e-07    0.000000000e+00    0.000000000e+00    0.000000000e+00    0.000000000e+00
      504500000   -5.969820619e-01    7.995851040e-01    3.492459655e-06    1.904368401e-05    0.000000000e+00    0.000000000e+00    0.000000000e+00    0.000000000e+00
      511750000   -5.021343827e-01    8.503406644e-01    5.511566997e-06   -9.750947356e-07    0.000000000e+00    0.000000000e+00    0.000000000e+00    0.000000000e+00
      519000000   -4.022465944e-01    8.911531568e-01   -2.635549754e-05   -2.216827124e-05    0.000000000e+00    0.000000000e+00    0.000000000e+00    0.000000000e+00
      526250000   -2.988524437e-01    9.198450446e-01    2.297200263e-05    3.790482879e-06    0.000000000e+00    0.000000000e+00    0.000000000e+00    0.000000000e+00
      533500000   -1.933637559e-01    9.369298816e-01   -9.156763554e-06    2.088956535e-06    0.000000000e+00    0.000000000e+00    0.000000000e+00    0.000000000e+00
      540750000   -8.647312224e-02    9.416260123e-01    1.986790448e-05   -1.664739102e-05    0.000000000e+00    0.000000000e+00    0.000000000e+00    0.000000000e+00
      548000000    1.842128858e-02    9.351795316e-01   -3.093853593e-06    3.485661000e-05    0.000000000e+00    0.000000000e+00    0.000000000e+00    0.000000000e+00
      555250000    1.226195991e-01    9.162331820e-01    2.120994031e-05   -9.464100003e-06    0.000000000e+00    0.000000000e+00    0.000000000e+00    0.000000000e+00
      562500000    2.228229344e-01    8.869773149e-01    2.921372652e-05    1.928303391e-05    0.000000000e+00    0.000000000e+00    0.000000000e+00    0.000000000e+00
      569750000    3.184835613e-01    8.473940492e-01   -1.608766615e-05   -2.424977720e-05    0.000000000e+00    0.000000000e+00    0.000000000e+00    0.000000000e+00
      577000000    4.087439775e-01    7.985677123e-01   -1.921132207e-05   -1.299101859e-05    0.000000000e+00    0.000000000e+00    0.000000000e+00    0.000000000e+00
      584250000    4.932322502e-01    7.406003475e-01   -9.319745004e-06    1.109670848e-05    0.000000000e+00    0.000000000e+00    0.000000000e+00    0.000000000e+00
      591500000    5.703999996e-01    6.745201945e-01    2.047047019e-06    7.904972881e-05    0.000000000e+00    0.000000000e+00    0.000000000e+00    0.000000000e+00
      598750000    6.406499743e-01    6.012800932e-01   -1.969747245e-05    7.537193596e-06    0.000000000e+00    0.000000000e+00    0.000000000e+00    0.000000000e+00
      606000000    7.020943761e-01    5.229129791e-01   -1.207087189e-05   -1.663435251e-05    0.000000000e+00    0.000000000e+00    0.000000000e+00    0.000000000e+00
      613250000    7.550866008e-01    4.392274022e-01    3.769993782e-06    2.956856042e-05    0.000000000e+00    0.000000000e+00    0.000000000e+00    0.000000000e+00
      620500000    7.999758124e-01    3.502773643e-01   -4.147272557e-05    3.601424396e-06    0.000000000e+00    0.000000000e+00    0.000000000e+00    0.000000000e+00
      627750000    8.359263539e-01    2.573206127e-01    2.108328044e-05   -4.847720265e-05    0.000000000e+00    0.000000000e+00    0.000000000e+00    0.000000000e+00
      635000000    8.614569306e-01    1.624836326e-01    2.710614353e-05   -1.488439739e-05    0.000000000e+00    0.000000000e+00    0.000000000e+00    0.000000000e+00
      642250000    8.781750798e-01    6.388146430e-02   -4.261266440e-05    3.089196980e-06    0.000000000e+00    0.000000000e+00    0.000000000e+00    0.000000000e+00
      649500000    8.854385018e-01   -3.433500230e-02    1.094304025e-06   -1.973006874e-05    0.000000000e+00    0.000000000e+00    0.000000000e+00    0.000000000e+00
      656750000    8.824759126e-01   -1.333859414e-01   -4.030577838e-05    2.637505531e-06    0.000000000e+00    0.000000000e+00    0.000000000e+00    0.000000000e+00
      664000000    8.700764179e-01   -2.324719727e-01   -2.308934927e-05    1.654680818e-05    0.000000000e+00    0.000000000e+00    0.000000000e+00    0.000000000e+00
      671250000    8.482034802e-01   -3.302774727e-01   -1.338124275e-05   -3.236904740e-05    0.000000000e+00    0.000000000e+00    0.000000000e+00    0.000000000e+00
      678500000    8.152106404e-01   -4.260962605e-01    2.472661436e-06   -5.391985178e-05    0.000000000e+00    0.000000000e+00    0.000000000e+00    0.000000000e+00
      685750000    7.740279436e-01   -5.180132985e-01    2.070888877e-05    2.205744386e-05    0.000000000e+00    0.000000000e+00    0.000000000e+00    0.000000000e+00
      693000000    7.227944136e-01   -6.059299707e-01    1.360010356e-05    8.312985301e-06    0.000000000e+00    0.000000000e+00    0.000000000e+00    0.000000000e+00
      700250000    6.618312001e-01   -6.904485226e-01   -3.189779818e-06   -8.362345397e-06    0.000000000e+00    0.000000000e+00    0.000000000e+00    0.000000000e+00
      707500000    5.910292864e-01   -7.683364749e-01   -2.003554255e-05    2.767145634e-05    0.000000000e+00    0.000000000e+00    0.000000000e+00    0.000000000e+00
      714750000    5.111848712e-01   -8.400090337e-01    6.260350347e-06    5.698110908e-05    0.000000000e+00    0.000000000e+00    0.000000000e+00    0.000000000e+00
      722000000    4.255278409e-01   -9.015729427e-01   -9.499490261e-08    1.481175423e-05    0.000000000e+00    0.000000000e+00    0.000000000e+00    0.000000000e+00
      729250000    3.314524889e-01   -9.544653296e-01   -2.157967538e-05    1.248624176e-05    0.000000000e+00    0.000000000e+00    0.000000000e+00    0.000000000e+00
      736500000    2.302901149e-01   -9.977855682e-01   -2.921186388e-05   -1.135468483e-05    0.000000000e+00    0.000000000e+00    0.000000000e+00    0.000000000e+00
      743750000    1.247340068e-01   -1.028372765e+00   -1.596100628e-05   -1.363456249e-05    0.000000000e+00    0.000000000e+00    0.000000000e+00    0.000000000e+00
      751000000    1.440709643e-02   -1.047904611e+00   -5.177874118e-05    2.491381019e-05    0.000000000e+00    0.000000000e+00    0.000000000e+00    0.000000000e+00
      758250000   -9.835758060e-02   -1.054840565e+00    1.346040517e-05   -1.335237175e-05    0.000000000e+00    0.000000000e+00    0.000000000e+00    0.000000000e+00
      765500000   -2.121565193e-01   -1.047322035e+00   -3.545172513e-05    1.017469913e-05    0.000000000e+00    0.000000000e+00    0.000000000e+00    0.000000000e+00
      772750000   -3.258245289e-01   -1.026105165e+00   -1.141335815e-05    3.395974636e-05    0.000000000e+00    0.000000000e+00    0.000000000e+00    0.000000000e+00
      780000000   -4.338847399e-01   -9.919661283e-01   -2.202112228e-05   -2.386700362e-05    0.000000000e+00    0.000000000e+00    0.000000000e+00    0.000000000e+00
      787250000   -5.425322652e-01   -9.414944053e-01    1.242384315e-06   -1.459009945e-05    0.000000000e+00    0.000000000e+00    0.000000000e+00    0.000000000e+00
      794500000   -6.410343051e-01   -8.808166981e-01   -2.474244684e-05   -1.216772944e-05    0.000000000e+00    0.000000000e+00    0.000000000e+00    0.000000000e+00
      801750000   -7.327888012e-01   -8.072125316e-01   -2.477131784e-05   -7.733702660e-06    0.000000000e+00    0.000000000e+00    0.000000000e+00    0.000000000e+00
      809000000   -8.142625093e-01   -7.231525779e-01    5.476176739e-06   -3.879889846e-06    0.000000000e+00    0.000000000e+00    0.000000000e+00    0.000000000e+00
      816250000   -8.837299943e-01   -6.302123070e-01   -3.532133996e-05   -2.197828144e-05    0.000000000e+00    0.000000000e+00    0.000000000e+00    0.000000000e+00
      823500000   -9.398882389e-01   -5.312929153e-01   -1.558009535e-05   -5.993060768e-06    0.000000000e+00    0.000000000e+00    0.000000000e+00    0.000000000e+00
      830750000   -9.834805727e-01   -4.251705110e-01   -1.827254891e-06    2.529751509e-05    0.000000000e+00    0.000000000e+00    0.000000000e+00    0.000000000e+00
      838000000   -1.013841391e+00   -3.171409667e-01   -1.387484372e-05    1.044385135e-05    0.000000000e+00    0.000000000e+00    0.000000000e+00    0.000000000e+00
      845250000   -1.030293107e+00   -2.085322887e-01    4.077982157e-05    3.776606172e-05    0.000000000e+00    0.000000000e+00    0.000000000e+00    0.000000000e+00
      852500000   -1.034173369e+00   -9.798078984e-02    2.533476800e-05    3.109872341e-05    0.000000000e+00    0.000000000e+00    0.000000000e+00    0.000000000e+00
      859750000   -1.025054812e+00    7.583444938e-03   -2.714805305e-06   -4.563201219e-05    0.000000000e+00    0.000000000e+00    0.000000000e+00    0.000000000e+00
      867000000   -1.003839970e+00    1.146935299e-01    2.549029887e-05    3.049336374e-05    0.000000000e+00    0.000000000e+00    0.000000000e+00    0.000000000e+00
      874250000   -9.721798897e-01    2.114240080e-01   -3.945454955e-05   -8.055940270e-07    0.000000000e+00    0.000000000e+00    0.000000000e+00    0.000000000e+00
      881500000   -9.287420511e-01    3.071706891e-01    1.858174801e-05    3.314018250e-05    0.000000000e+00    0.000000000e+00    0.000000000e+00    0.000000000e+00
      888750000   -8.783055544e-01    3.914643824e-01    1.523550600e-05   -4.507880658e-05    0.000000000e+00    0.000000000e+00    0.000000000e+00    0.000000000e+00
      896000000   -8.203271031e-01    4.711000621e-01    3.578793257e-05    3.891810775e-05    0.000000000e+00    0.000000000e+00    0.000000000e+00    0.000000000e+00
      903250000   -7.558025122e-01    5.408743620e-01   -7.691793144e-06   -9.126961231e-08    0.000000000e+00    0.000000000e+00    0.000000000e+00    0.000000000e+00
      910500000   -6.835901737e-01    6.046724916e-01   -9.393319488e-06    1.258775592e-05    0.000000000e+00    0.000000000e+00    0.000000000e+00    0.000000000e+00
      917750000   -6.090463400e-01    6.581757069e-01    2.146698534e-05    3.023725003e-05    0.000000000e+00    0.000000000e+00    0.000000000e+00    0.000000000e+00
      925000000   -5.316662192e-01    7.035713196e-01   -2.374500036e-05   -3.783404827e-05    0.000000000e+00    0.000000000e+00    0.000000000e+00    0.000000000e+00
      932250000   -4.503393769e-01    7.420782447e-01   -1.574028283e-05    3.529712558e-07    0.000000000e+00    0.000000000e+00    0.000000000e+00    0.000000000e+00
      939500000   -3.675154746e-01    7.718745470e-01   -9.792856872e-06    5.143601447e-05    0.000000000e+00    0.000000000e+00    0.000000000e+00    0.000000000e+00
      946750000   -2.851500809e-01    7.929017544e-01    7.674098015e-06    1.018121839e-05    0.000000000e+00    0.000000000e+00    0.000000000e+00    0.000000000e+00
      954000000   -1.992554069e-01    8.073418736e-01   -2.909451723e-05   -6.587244570e-06    0.000000000e+00    0.000000000e+00    0.000000000e+00    0.000000000e+00
      961250000   -1.159717590e-01    8.128527999e-01   -1.100171357e-05    3.388151526e-06    0.000000000e+00    0.000000000e+00    0.000000000e+00    0.000000000e+00
      968500000   -3.121345863e-02    8.128575087e-01   -2.131052315e-05    5.044601858e-05    0.000000000e+00    0.000000000e+00    0.000000000e+00    0.000000000e+00
      975750000    5.030430108e-02    8.044964075e-01   -2.844911069e-05   -3.023073077e-06    0.000000000e+00    0.000000000e+00    0.000000000e+00    0.000000000e+00
      983000000    1.327643096e-01    7.892715335e-01    1.375563443e-05   -3.302842379e-05    0.000000000e+00    0.000000000e+00    0.000000000e+00    0.000000000e+00
      990250000    2.105562985e-01    7.682458162e-01   -6.308779120e-05   -3.717094660e-05    0.000000000e+00    0.000000000e+00    0.000000000e+00    0.000000000e+00
      997500000    2.884794474e-01    7.400184870e-01    8.867122233e-06   -3.727432340e-05    0.000000000e+00    0.000000000e+00    0.000000000e+00    0.000000000e+00
     1004750000    3.619264364e-01    7.052357793e-01   -8.894130588e-06    2.579018474e-05    0.000000000e+00    0.000000000e+00    0.000000000e+00    0.000000000e+00
     1012000000    4.343661070e-01    6.646818519e-01   -2.176407725e-05   -7.415190339e-06    0.000000000e+00    0.000000000e+00    0.000000000e+00    0.000000000e+00
     1019250000    5.026309490e-01    6.167778373e-01    2.901908010e-05   -1.849140972e-05    0.000000000e+00    0.000000000e+00    0.000000000e+00    0.000000000e+00
     1026500000    5.664063692e-01    5.649708509e-01    1.868233085e-06    2.600159496e-05    0.000000000e+00    0.000000000e+00    0.000000000e+00    0.000000000e+00
     1033750000    6.272492409e-01    5.046010613e-01   -6.335787475e-06   -1.772586256e-05    0.000000000e+00    0.000000000e+00    0.000000000e+00    0.000000000e+00
     1041000000    6.816267371e-01    4.400312603e-01    2.887006849e-05    6.739050150e-05    0.000000000e+00    0.000000000e+00    0.000000000e+00    0.000000000e+00
