! NanoVNA-App by OneOfEleven et al v1.1.209 (+OD15) 
! Date: 2024-07-30 15:24:06
! Start: 200MHz Stop: 6GHz Points: 801
! S-Parameter data: F S11 S21 S12 S22
# Hz S RI R 50
!     Frequency           S11_Real           S11_Imag           S21_Real           S21_Imag           S12_Real           S12_Imag           S22_Real           S22_Imag
      200000000   -9.018204808e-01   -1.071334183e-01    2.496782690e-05    9.067356586e-06    0.000000000e+00    0.000000000e+00    0.000000000e+00    0.000000000e+00
      207250000   -9.120683074e-01   -1.805174164e-02    6.938353181e-06   -3.384426236e-06    0.000000000e+00    0.000000000e+00    0.000000000e+00    0.000000000e+00
      214500000   -9.125695825e-01    7.247169316e-02    1.512747258e-05    9.668059647e-06    0.000000000e+00    0.000000000e+00    0.000000000e+00    0.000000000e+00
      221750000   -9.034650922e-01    1.651481539e-01    2.916902304e-05    3.896653652e-06    0.000000000e+00    0.000000000e+00    0.000000000e+00    0.000000000e+00
      229000000   -8.858373165e-01    2.568667829e-01    2.549774945e-05    1.011136919e-05    0.000000000e+00    0.000000000e+00    0.000000000e+00    0.000000000e+00
      236250000   -8.554923534e-01    3.486432731e-01   -6.031244993e-06   -5.147419870e-06    0.000000000e+00    0.000000000e+00    0.000000000e+00    0.000000000e+00
      243500000   -8.162615895e-01    4.370635152e-01    7.038936019e-06    6.838701665e-06    0.000000000e+00    0.000000000e+00    0.000000000e+00    0.000000000e+00
      250750000   -7.655846477e-01    5.228743553e-01   -2.200622112e-05    1.706276089e-05    0.000000000e+00    0.000000000e+00    0.000000000e+00    0.000000000e+00
      258000000   -7.046731114e-01    6.035745144e-01    1.215841621e-05   -2.226792276e-06    0.000000000e+00    0.000000000e+00    0.000000000e+00    0.000000000e+00
      265250000   -6.333684921e-01    6.777157784e-01    3.041699529e-06   -6.140209734e-06    0.000000000e+00    0.000000000e+00    0.000000000e+00    0.000000000e+00
      272500000   -5.528110862e-01    7.433227301e-01    6.555579603e-06   -2.087652683e-05    0.000000000e+00    0.000000000e+00    0.000000000e+00    0.000000000e+00
      279750000   -4.630655646e-01    7.995567322e-01    8.409842849e-07   -4.927627742e-06    0.000000000e+00    0.000000000e+00    0.000000000e+00    0.000000000e+00
      287000000   -3.654420972e-01    8.457176089e-01   -2.990756184e-05   -6.482005119e-07    0.000000000e+00    0.000000000e+00    0.000000000e+00    0.000000000e+00
      294250000   -2.618090808e-01    8.792594671e-01    1.381523907e-05    2.094544470e-05    0.000000000e+00    0.000000000e+00    0.000000000e+00    0.000000000e+00
      301500000   -1.538990736e-01    8.995810151e-01   -6.075855345e-05   -2.365652472e-05    0.000000000e+00    0.000000000e+00    0.000000000e+00    0.000000000e+00
      308750000   -4.322644323e-02    9.069107175e-01    1.827813685e-05   -1.085735857e-05    0.000000000e+00    0.000000000e+00    0.000000000e+00    0.000000000e+00
      316000000    6.835417449e-02    8.993318677e-01   -3.294367343e-05    1.462176442e-06    0.000000000e+00    0.000000000e+00    0.000000000e+00    0.000000000e+00
      323250000    1.777419597e-01    8.775632977e-01    2.002809197e-05    2.101343125e-05    0.000000000e+00    0.000000000e+00    0.000000000e+00    0.000000000e+00
      330500000    2.843772173e-01    8.425930738e-01   -8.487142622e-06    8.157454431e-06    0.000000000e+00    0.000000000e+00    0.000000000e+00    0.000000000e+00
      337750000    3.849961460e-01    7.942704558e-01   -1.488905400e-05    1.269299537e-05    0.000000000e+00    0.000000000e+00    0.000000000e+00    0.000000000e+00
      345000000    4.789595604e-01    7.326722741e-01   -2.026557922e-06    8.103437722e-06    0.000000000e+00    0.000000000e+00    0.000000000e+00    0.000000000e+00
      352250000    5.642048120e-01    6.622754335e-01    5.717389286e-06   -4.480313510e-05    0.000000000e+00    0.000000000e+00    0.000000000e+00    0.000000000e+00
      359500000    6.393867135e-01    5.808611512e-01   -3.497395664e-05   -8.783303201e-06    0.000000000e+00    0.000000000e+00    0.000000000e+00    0.000000000e+00
      366750000    7.034946680e-01    4.921304882e-01    1.156050712e-05    3.889296204e-05    0.000000000e+00    0.000000000e+00    0.000000000e+00    0.000000000e+00
      374000000    7.557923198e-01    3.970364332e-01   -1.617707312e-06   -3.707595170e-06    0.000000000e+00    0.000000000e+00    0.000000000e+00    0.000000000e+00
      381250000    7.968355417e-01    2.967375815e-01   -4.496425390e-06   -3.100000322e-05    0.000000000e+00    0.000000000e+00    0.000000000e+00    0.000000000e+00
      388500000    8.254817128e-01    1.941322535e-01   -9.222887456e-06    2.010725439e-05    0.000000000e+00    0.000000000e+00    0.000000000e+00    0.000000000e+00
      395750000    8.417977691e-01    8.971878886e-02    7.663853467e-06    4.873611033e-05    0.000000000e+00    0.000000000e+00    0.000000000e+00    0.000000000e+00
      403000000    8.461188674e-01   -1.478491537e-02    2.804771066e-05    2.607516944e-05    0.000000000e+00    0.000000000e+00    0.000000000e+00    0.000000000e+00
      410250000    8.388209939e-01   -1.184646264e-01    3.283005208e-05    1.694262028e-05    0.000000000e+00    0.000000000e+00    0.000000000e+00    0.000000000e+00
      417500000    8.200470805e-01   -2.192906886e-01   -2.090260386e-05   -1.683272421e-05    0.000000000e+00    0.000000000e+00    0.000000000e+00    0.000000000e+00
      424750000    7.919041514e-01   -3.168974519e-01    3.634579480e-05    1.008342952e-05    0.000000000e+00    0.000000000e+00    0.000000000e+00    0.000000000e+00
      432000000    7.530109286e-01   -4.096902013e-01    3.349967301e-06   -1.026690006e-05    0.000000000e+00    0.000000000e+00    0.000000000e+00    0.000000000e+00
      439250000    7.046094537e-01   -4.978130460e-01   -1.962110400e-05   -6.411597133e-05    0.000000000e+00    0.000000000e+00    0.000000000e+00    0.000000000e+00
      446500000    6.478161812e-01   -5.795384645e-01   -4.028435796e-05    2.664513886e-06    0.000000000e+00    0.000000000e+00    0.000000000e+00    0.000000000e+00
      453750000    5.829176903e-01   -6.542972326e-01    3.321934491e-05   -8.500181139e-06    0.000000000e+00    0.000000000e+00    0.000000000e+00    0.000000000e+00
      461000000    5.108076334e-01   -7.220337987e-01   -1.361779869e-05   -1.156423241e-05    0.000000000e+00    0.000000000e+00    0.000000000e+00    0.000000000e+00
      468250000    4.326795042e-01   -7.820009589e-01   -2.196989954e-05    4.245806485e-05    0.000000000e+00    0.000000000e+00    0.000000000e+00    0.000000000e+00
      475500000    3.475251794e-01   -8.327009678e-01   -1.585762948e-05   -2.847425640e-05    0.000000000e+00    0.000000000e+00    0.000000000e+00    0.000000000e+00
      482750000    2.588533461e-01   -8.749398589e-01    3.665685654e-06    9.740702808e-06    0.000000000e+00    0.000000000e+00    0.000000000e+00    0.000000000e+00
      490000000    1.648577005e-01   -9.069537520e-01   -4.147179425e-06   -6.034038961e-06    0.000000000e+00    0.000000000e+00    0.000000000e+00    0.000000000e+00
      497250000    6.889235973e-02   -9.301546216e-01   -1.043640077e-05   -4.330277443e-05    0.000000000e+00    0.000000000e+00    0.000000000e+00    0.000000000e+00
      504500000   -3.032592870e-02   -9.421046376e-01    1.224130392e-05    2.618227154e-05    0.000000000e+00    0.000000000e+00    0.000000000e+00    0.000000000e+00
      511750000   -1.303859204e-01   -9.434745312e-01   -2.676621079e-05    1.364760101e-05    0.000000000e+00    0.000000000e+00    0.000000000e+00    0.000000000e+00
      519000000   -2.311630845e-01   -9.346802831e-01    3.120489419e-05    3.143027425e-05    0.000000000e+00    0.000000000e+00    0.000000000e+00    0.000000000e+00
      526250000   -3.300747573e-01   -9.142703414e-01    4.583690315e-05   -2.413615584e-05    0.000000000e+00    0.000000000e+00    0.000000000e+00    0.000000000e+00
      533500000   -4.278528392e-01   -8.832756877e-01    1.864321530e-05    1.436937600e-05    0.000000000e+00    0.000000000e+00    0.000000000e+00    0.000000000e+00
      540750000   -5.220220685e-01   -8.404009938e-01    5.173496902e-06    1.581665128e-05    0.000000000e+00    0.000000000e+00    0.000000000e+00    0.000000000e+00
      548000000   -6.113481522e-01   -7.872502208e-01    1.201778650e-05   -3.605149686e-06    0.000000000e+00    0.000000000e+00    0.000000000e+00    0.000000000e+00
      555250000   -6.937184930e-01   -7.230452299e-01    3.501307219e-05   -1.281872392e-05    0.000000000e+00    0.000000000e+00    0.000000000e+00    0.000000000e+00
      562500000   -7.691788673e-01   -6.497470140e-01   -2.983957529e-05   -1.445226371e-05    0.000000000e+00    0.000000000e+00    0.000000000e+00    0.000000000e+00
      569750000   -8.358659744e-01   -5.670815110e-01   -2.306886017e-05    2.871546894e-05    0.000000000e+00    0.000000000e+00    0.000000000e+00    0.000000000e+00
      577000000   -8.926564455e-01   -4.776231647e-01    1.765321940e-05   -1.080054790e-05    0.000000000e+00    0.000000000e+00    0.000000000e+00    0.000000000e+00
      584250000   -9.383322597e-01   -3.799187839e-01    5.552358925e-05    1.408625394e-05    0.000000000e+00    0.000000000e+00    0.000000000e+00    0.000000000e+00
      591500000   -9.726386666e-01   -2.786868215e-01    6.339512765e-06    7.230788469e-06    0.000000000e+00    0.000000000e+00    0.000000000e+00    0.000000000e+00
      598750000   -9.939304590e-01   -1.726997346e-01    5.228444934e-06    1.465994865e-05    0.000000000e+00    0.000000000e+00    0.000000000e+00    0.000000000e+00
      606000000   -1.002473950e+00   -6.581583619e-02   -1.966860145e-05    2.724118531e-06    0.000000000e+00    0.000000000e+00    0.000000000e+00    0.000000000e+00
      613250000   -9.980122447e-01    4.254828766e-02    3.634113818e-05   -2.436805516e-05    0.000000000e+00    0.000000000e+00    0.000000000e+00    0.000000000e+00
      620500000   -9.803962708e-01    1.482942849e-01    3.980658948e-05    1.861434430e-05    0.000000000e+00    0.000000000e+00    0.000000000e+00    0.000000000e+00
      627750000   -9.498752952e-01    2.515845299e-01   -2.907682210e-05    1.359451562e-05    0.000000000e+00    0.000000000e+00    0.000000000e+00    0.000000000e+00
      635000000   -9.081509113e-01    3.490035236e-01    5.941838026e-06   -9.320676327e-06    0.000000000e+00    0.000000000e+00    0.000000000e+00    0.000000000e+00
      642250000   -8.553424478e-01    4.409271777e-01   -1.690816134e-05   -9.273178875e-06    0.000000000e+00    0.000000000e+00    0.000000000e+00    0.000000000e+00
      649500000   -7.920022607e-01    5.243697166e-01   -5.718320608e-07   -1.791305840e-05    0.000000000e+00    0.000000000e+00    0.000000000e+00    0.000000000e+00
      656750000   -7.204033732e-01    5.993524194e-01   -3.122724593e-06   -8.216127753e-06    0.000000000e+00    0.000000000e+00    0.000000000e+00    0.000000000e+00
      664000000   -6.392937899e-01    6.658829451e-01   -3.370456398e-05    3.152992576e-05    0.000000000e+00    0.000000000e+00    0.000000000e+00    0.000000000e+00
      671250000   -5.541558266e-01    7.215101123e-01   -2.766028047e-06    8.876435459e-06    0.000000000e+00    0.000000000e+00    0.000000000e+00    0.000000000e+00
      678500000   -4.642176032e-01    7.665572762e-01    6.276182830e-06    1.408718526e-05    0.000000000e+00    0.000000000e+00    0.000000000e+00    0.000000000e+00
      685750000   -3.694128990e-01    8.008604646e-01   -2.901908010e-05   -2.306234092e-05    0.000000000e+00    0.000000000e+00    0.000000000e+00    0.000000000e+00
      693000000   -2.736237943e-01    8.236022592e-01    2.510473132e-05    5.634129047e-05    0.000000000e+00    0.000000000e+00    0.000000000e+00    0.000000000e+00
      700250000   -1.754965633e-01    8.359898329e-01   -3.990996629e-05    5.181133747e-05    0.000000000e+00    0.000000000e+00    0.000000000e+00    0.000000000e+00
      707500000   -7.953836024e-02    8.376456499e-01    9.312294424e-06   -5.556270480e-06    0.000000000e+00    0.000000000e+00    0.000000000e+00    0.000000000e+00
      714750000    1.796060987e-02    8.289716840e-01   -2.823770046e-06   -7.541850209e-06    0.000000000e+00    0.000000000e+00    0.000000000e+00    0.000000000e+00
      722000000    1.089441851e-01    8.112636805e-01    4.950910807e-06    4.574656487e-06    0.000000000e+00    0.000000000e+00    0.000000000e+00    0.000000000e+00
      729250000    2.014057636e-01    7.834936976e-01    1.937802881e-05   -6.097368896e-06    0.000000000e+00    0.000000000e+00    0.000000000e+00    0.000000000e+00
      736500000    2.867737412e-01    7.466084361e-01   -1.707114279e-05    1.589674503e-05    0.000000000e+00    0.000000000e+00    0.000000000e+00    0.000000000e+00
      743750000    3.679622710e-01    7.022245526e-01   -1.433119178e-05   -3.681425005e-05    0.000000000e+00    0.000000000e+00    0.000000000e+00    0.000000000e+00
      751000000    4.442346096e-01    6.499104500e-01   -1.347716898e-05    4.334375262e-06    0.000000000e+00    0.000000000e+00    0.000000000e+00    0.000000000e+00
      758250000    5.141863227e-01    5.902676582e-01    5.821697414e-06   -9.842216969e-06    0.000000000e+00    0.000000000e+00    0.000000000e+00    0.000000000e+00
      765500000    5.782381892e-01    5.238415599e-01    1.354143023e-06    1.922156662e-05    0.000000000e+00    0.000000000e+00    0.000000000e+00    0.000000000e+00
      772750000    6.353543997e-01    4.523862600e-01    7.997266948e-06   -1.634564251e-05    0.000000000e+00    0.000000000e+00    0.000000000e+00    0.000000000e+00
      780000000    6.838731170e-01    3.749124706e-01   -1.696217805e-05   -1.162197441e-05    0.000000000e+00    0.000000000e+00    0.000000000e+00    0.000000000e+00
      787250000    7.266617417e-01    2.922111452e-01    1.832656562e-05   -1.369416714e-05    0.000000000e+00    0.000000000e+00    0.000000000e+00    0.000000000e+00
      794500000    7.595360875e-01    2.066769898e-01   -1.366250217e-05    4.004221410e-05    0.000000000e+00    0.000000000e+00    0.000000000e+00    0.000000000e+00
      801750000    7.850460410e-01    1.161386892e-01   -4.258006811e-06   -1.983437687e-05    0.000000000e+00    0.000000000e+00    0.000000000e+00    0.000000000e+00
      809000000    8.000180721e-01    2.407564595e-02    1.661758870e-05   -1.268275082e-05    0.000000000e+00    0.000000000e+00    0.000000000e+00    0.000000000e+00
      816250000    8.059385419e-01   -7.078601420e-02   -1.407321543e-05    2.494081855e-06    0.000000000e+00    0.000000000e+00    0.000000000e+00    0.000000000e+00
      823500000    8.016433120e-01   -1.669780761e-01    4.006549716e-06   -6.082467735e-06    0.000000000e+00    0.000000000e+00    0.000000000e+00    0.000000000e+00
      830750000    7.878398299e-01   -2.622668743e-01    2.287887037e-05    2.999510616e-05    0.000000000e+00    0.000000000e+00    0.000000000e+00    0.000000000e+00
      838000000    7.620714307e-01   -3.567638099e-01    3.240164369e-05   -1.560617238e-05    0.000000000e+00    0.000000000e+00    0.000000000e+00    0.000000000e+00
      845250000    7.267167568e-01   -4.496143162e-01   -2.278666943e-05    6.638467312e-06    0.000000000e+00    0.000000000e+00    0.000000000e+00    0.000000000e+00
      852500000    6.800874472e-01   -5.389117599e-01   -3.820471466e-05   -5.983747542e-06    0.000000000e+00    0.000000000e+00    0.000000000e+00    0.000000000e+00
      859750000    6.235229373e-01   -6.225320697e-01    3.900378942e-06   -1.619849354e-05    0.000000000e+00    0.000000000e+00    0.000000000e+00    0.000000000e+00
      867000000    5.535516739e-01   -7.021691799e-01   -1.688767225e-05    2.817995846e-05    0.000000000e+00    0.000000000e+00    0.000000000e+00    0.000000000e+00
      874250000    4.772661328e-01   -7.715353370e-01    8.037313819e-07   -1.556891948e-05    0.000000000e+00    0.000000000e+00    0.000000000e+00    0.000000000e+00
      881500000    3.885022104e-01   -8.344472647e-01   -5.131587386e-07   -4.092231393e-06    0.000000000e+00    0.000000000e+00    0.000000000e+00    0.000000000e+00
      888750000    2.940188944e-01   -8.836175203e-01    6.368383765e-06    3.751087934e-05    0.000000000e+00    0.000000000e+00    0.000000000e+00    0.000000000e+00
      896000000    1.931129247e-01   -9.227420688e-01    1.115724444e-05   -2.993550152e-05    0.000000000e+00    0.000000000e+00    0.000000000e+00    0.000000000e+00
      903250000    8.452478051e-02   -9.477891326e-01    3.041699529e-06    1.507066190e-05    0.000000000e+00    0.000000000e+00    0.000000000e+00    0.000000000e+00
      910500000   -2.749675140e-02   -9.586066008e-01   -4.936009645e-07    7.666647434e-06    0.000000000e+00    0.000000000e+00    0.000000000e+00    0.000000000e+00
      917750000   -1.380810887e-01   -9.547328949e-01    1.495424658e-05   -1.311022788e-05    0.000000000e+00    0.000000000e+00    0.000000000e+00    0.000000000e+00
      925000000   -2.492818087e-01   -9.348465800e-01    1.931283623e-05    2.644956112e-06    0.000000000e+00    0.000000000e+00    0.000000000e+00    0.000000000e+00
      932250000   -3.574511111e-01   -9.000488520e-01   -3.181770444e-05    2.037268132e-05    0.000000000e+00    0.000000000e+00    0.000000000e+00    0.000000000e+00
      939500000   -4.571717083e-01   -8.523978591e-01    7.178634405e-06    9.790062904e-06    0.000000000e+00    0.000000000e+00    0.000000000e+00    0.000000000e+00
      946750000   -5.492888689e-01   -7.936505675e-01   -2.673454583e-05   -1.088809222e-05    0.000000000e+00    0.000000000e+00    0.000000000e+00    0.000000000e+00
      954000000   -6.323074102e-01   -7.213641405e-01    2.546235919e-05    1.283083111e-05    0.000000000e+00    0.000000000e+00    0.000000000e+00    0.000000000e+00
      961250000   -7.036166191e-01   -6.410796046e-01   -3.581680357e-05    3.548339009e-06    0.000000000e+00    0.000000000e+00    0.000000000e+00    0.000000000e+00
      968500000   -7.647415996e-01   -5.493010283e-01   -7.348135114e-06    3.672204912e-06    0.000000000e+00    0.000000000e+00    0.000000000e+00    0.000000000e+00
      975750000   -8.103118539e-01   -4.574656188e-01    9.414739907e-06   -3.727432340e-05    0.000000000e+00    0.000000000e+00    0.000000000e+00    0.000000000e+00
      983000000   -8.446958661e-01   -3.602230847e-01   -1.084152609e-05    2.310052514e-05    0.000000000e+00    0.000000000e+00    0.000000000e+00    0.000000000e+00
      990250000   -8.654490709e-01   -2.620010674e-01    2.010725439e-05   -9.200535715e-06    0.000000000e+00    0.000000000e+00    0.000000000e+00    0.000000000e+00
      997500000   -8.744466901e-01   -1.614086181e-01    1.908000559e-05    9.490177035e-07    0.000000000e+00    0.000000000e+00    0.000000000e+00    0.000000000e+00
     1004750000   -8.709696531e-01   -6.550791860e-02    2.887099981e-06    1.385249197e-05    0.000000000e+00    0.000000000e+00    0.000000000e+00    0.000000000e+00
     1012000000   -8.574596643e-01    2.753353678e-02    1.628231257e-05   -1.356005669e-06    0.000000000e+00    0.000000000e+00    0.000000000e+00    0.000000000e+00
     1019250000   -8.332114220e-01    1.157361269e-01   -6.714742631e-05    2.568215132e-05    0.000000000e+00    0.000000000e+00    0.000000000e+00    0.000000000e+00
     1026500000   -8.007470369e-01    2.010059953e-01   -1.960434020e-05    2.950802445e-05    0.000000000e+00    0.000000000e+00    0.000000000e+00    0.000000000e+00
     1033750000   -7.602698207e-01    2.775999606e-01    3.186520189e-05   -3.539491445e-05    0.000000000e+00    0.000000000e+00    0.000000000e+00    0.000000000e+00
     1041000000   -7.134835720e-01    3.484240174e-01    1.063197851e-05   -1.797545701e-05    0.000000000e+00    0.000000000e+00    0.000000000e+00    0.000000000e+00
