! NanoVNA-App by OneOfEleven et al v1.1.209 (+OD15) 
! Date: 2024-07-30 15:24:13
! Start: 200MHz Stop: 6GHz Points: 801
! S-Parameter data: F S11 S21 S12 S22
# Hz S RI R 50
!     Frequency           S11_Real           S11_Imag           S21_Real           S21_Imag           S12_Real           S12_Imag           S22_Real           S22_Imag
      200000000   -9.020938277e-01   -1.070038900e-01   -2.194009721e-05    2.680346370e-06    0.000000000e+00    0.000000000e+00    0.000000000e+00    0.000000000e+00
      207250000   -9.117431641e-01   -1.787127741e-02    2.580136061e-05   -4.511326551e-06    0.000000000e+00    0.000000000e+00    0.000000000e+00    0.000000000e+00
      214500000   -9.125378132e-01    7.316625118e-02   -1.088902354e-05    1.060310751e-05    0.000000000e+00    0.000000000e+00    0.000000000e+00    0.000000000e+00
      221750000   -9.041286707e-01    1.647780091e-01    2.604909241e-06    1.290626824e-05    0.000000000e+00    0.000000000e+00    0.000000000e+00    0.000000000e+00
      229000000   -8.855381608e-01    2.571852207e-01    2.741906792e-05   -1.674983650e-05    0.000000000e+00    0.000000000e+00    0.000000000e+00    0.000000000e+00
      236250000   -8.562623262e-01    3.485165834e-01    1.225620508e-06   -1.302175224e-05    0.000000000e+00    0.000000000e+00    0.000000000e+00    0.000000000e+00
      243500000   -8.162246346e-01    4.374522269e-01    3.226473927e-05   -2.124533057e-05    0.000000000e+00    0.000000000e+00    0.000000000e+00    0.000000000e+00
      250750000   -7.657136321e-01    5.225740671e-01   -5.021691322e-06   -1.160148531e-05    0.000000000e+00    0.000000000e+00    0.000000000e+00    0.000000000e+00
      258000000   -7.040219903e-01    6.034089923e-01   -4.898756742e-06    5.261041224e-06    0.000000000e+00    0.000000000e+00    0.000000000e+00    0.000000000e+00
      265250000   -6.338024735e-01    6.771301031e-01    2.033170313e-05    1.345574856e-05    0.000000000e+00    0.000000000e+00    0.000000000e+00    0.000000000e+00
      272500000   -5.525928140e-01    7.435175180e-01   -2.964306623e-05   -1.378823072e-05    0.000000000e+00    0.000000000e+00    0.000000000e+00    0.000000000e+00
      279750000   -4.629589319e-01    8.001242876e-01    2.120621502e-06   -4.233792424e-06    0.000000000e+00    0.000000000e+00    0.000000000e+00    0.000000000e+00
      287000000   -3.656181097e-01    8.457866907e-01    1.328904182e-05    2.217851579e-05    0.000000000e+00    0.000000000e+00    0.000000000e+00    0.000000000e+00
      294250000   -2.621127069e-01    8.796638250e-01   -9.989365935e-06   -3.341492265e-05    0.000000000e+00    0.000000000e+00    0.000000000e+00    0.000000000e+00
      301500000   -1.536051184e-01    8.996112347e-01   -3.778468817e-05   -1.738686115e-05    0.000000000e+00    0.000000000e+00    0.000000000e+00    0.000000000e+00
      308750000   -4.346558824e-02    9.070346355e-01    2.628937364e-05    8.700415492e-06    0.000000000e+00    0.000000000e+00    0.000000000e+00    0.000000000e+00
      316000000    6.788812578e-02    8.989690542e-01   -3.905035555e-06    2.284534276e-06    0.000000000e+00    0.000000000e+00    0.000000000e+00    0.000000000e+00
      323250000    1.782744080e-01    8.775440454e-01    1.743528992e-05    3.094784915e-05    0.000000000e+00    0.000000000e+00    0.000000000e+00    0.000000000e+00
      330500000    2.842738330e-01    8.424147964e-01    1.437123865e-05    1.215003431e-05    0.000000000e+00    0.000000000e+00    0.000000000e+00    0.000000000e+00
      337750000    3.850248754e-01    7.941769361e-01    1.251045614e-05    1.811049879e-05    0.000000000e+00    0.000000000e+00    0.000000000e+00    0.000000000e+00
      345000000    4.786176085e-01    7.340208292e-01    1.624040306e-05   -2.170074731e-05    0.000000000e+00    0.000000000e+00    0.000000000e+00    0.000000000e+00
      352250000    5.643721819e-01    6.620817184e-01    4.154536873e-05   -2.234801650e-05    0.000000000e+00    0.000000000e+00    0.000000000e+00    0.000000000e+00
      359500000    6.389427185e-01    5.811610818e-01    5.353707820e-05    1.640245318e-05    0.000000000e+00    0.000000000e+00    0.000000000e+00    0.000000000e+00
      366750000    7.034783363e-01    4.919117093e-01    1.354701817e-05   -3.475695848e-06    0.000000000e+00    0.000000000e+00    0.000000000e+00    0.000000000e+00
      374000000    7.559702396e-01    3.972699642e-01   -1.659989357e-05   -1.087132841e-05    0.000000000e+00    0.000000000e+00    0.000000000e+00    0.000000000e+00
      381250000    7.965745926e-01    2.961311042e-01   -2.684351057e-05    1.273024827e-05    0.000000000e+00    0.000000000e+00    0.000000000e+00    0.000000000e+00
      388500000    8.250929117e-01    1.939434856e-01    5.278084427e-05   -3.201887012e-05    0.000000000e+00    0.000000000e+00    0.000000000e+00    0.000000000e+00
      395750000    8.418746591e-01    9.036616236e-02    8.312985301e-06    1.045688987e-05    0.000000000e+00    0.000000000e+00    0.000000000e+00    0.000000000e+00
      403000000    8.461375833e-01   -1.470890176e-02   -4.861224443e-05    6.160698831e-06    0.000000000e+00    0.000000000e+00    0.000000000e+00    0.000000000e+00
      410250000    8.384733796e-01   -1.185614988e-01    3.716349602e-05    3.202818334e-06    0.000000000e+00    0.000000000e+00    0.000000000e+00    0.000000000e+00
      417500000    8.209304214e-01   -2.188341320e-01    2.713315189e-05   -3.419723362e-05    0.000000000e+00    0.000000000e+00    0.000000000e+00    0.000000000e+00
      424750000    7.924244404e-01   -3.168600500e-01    9.940005839e-06    4.256982356e-05    0.000000000e+00    0.000000000e+00    0.000000000e+00    0.000000000e+00
      432000000    7.525799870e-01   -4.098481834e-01   -6.737187505e-06    2.235732973e-05    0.000000000e+00    0.000000000e+00    0.000000000e+00    0.000000000e+00
      439250000    7.047134638e-01   -4.978798628e-01    1.728814095e-05   -3.032013774e-05    0.000000000e+00    0.000000000e+00    0.000000000e+00    0.000000000e+00
      446500000    6.479412913e-01   -5.790140629e-01   -6.400514394e-05   -7.444061339e-06    0.000000000e+00    0.000000000e+00    0.000000000e+00    0.000000000e+00
      453750000    5.826281309e-01   -6.548507810e-01    8.661299944e-07    1.582875848e-05    0.000000000e+00    0.000000000e+00    0.000000000e+00    0.000000000e+00
      461000000    5.111991167e-01   -7.222480178e-01    3.455858678e-05   -1.308694482e-05    0.000000000e+00    0.000000000e+00    0.000000000e+00    0.000000000e+00
      468250000    4.328357875e-01   -7.817501426e-01    1.997593790e-05   -1.455657184e-06    0.000000000e+00    0.000000000e+00    0.000000000e+00    0.000000000e+00
      475500000    3.475234509e-01   -8.327471018e-01    2.376083285e-05    2.328399569e-05    0.000000000e+00    0.000000000e+00    0.000000000e+00    0.000000000e+00
      482750000    2.586307228e-01   -8.749275208e-01    2.246908844e-05   -6.005167961e-06    0.000000000e+00    0.000000000e+00    0.000000000e+00    0.000000000e+00
      490000000    1.654624641e-01   -9.078410864e-01    1.498218626e-05    1.751631498e-05    0.000000000e+00    0.000000000e+00    0.000000000e+00    0.000000000e+00
      497250000    6.898389757e-02   -9.305375814e-01    1.015141606e-07   -4.442874342e-05    0.000000000e+00    0.000000000e+00    0.000000000e+00    0.000000000e+00
      504500000   -3.027835302e-02   -9.425126314e-01    1.466833055e-06    1.485459507e-06    0.000000000e+00    0.000000000e+00    0.000000000e+00    0.000000000e+00
      511750000   -1.303832978e-01   -9.436890483e-01    2.507958561e-05   -2.787169069e-05    0.000000000e+00    0.000000000e+00    0.000000000e+00    0.000000000e+00
      519000000   -2.311223447e-01   -9.348134995e-01   -1.073256135e-05    1.666694880e-05    0.000000000e+00    0.000000000e+00    0.000000000e+00    0.000000000e+00
      526250000   -3.307155967e-01   -9.141403437e-01    4.020519555e-05    4.480220377e-05    0.000000000e+00    0.000000000e+00    0.000000000e+00    0.000000000e+00
      533500000   -4.282381237e-01   -8.825433850e-01   -1.396518201e-05   -1.130346209e-05    0.000000000e+00    0.000000000e+00    0.000000000e+00    0.000000000e+00
      540750000   -5.217365026e-01   -8.396377563e-01    1.633539796e-05   -1.410115510e-05    0.000000000e+00    0.000000000e+00    0.000000000e+00    0.000000000e+00
      548000000   -6.113471985e-01   -7.870258093e-01    3.701820970e-05   -1.766066998e-05    0.000000000e+00    0.000000000e+00    0.000000000e+00    0.000000000e+00
      555250000   -6.937655210e-01   -7.233664393e-01    2.364628017e-05   -9.654089808e-06    0.000000000e+00    0.000000000e+00    0.000000000e+00    0.000000000e+00
      562500000   -7.691366673e-01   -6.495094299e-01    9.536743164e-06   -1.254398376e-05    0.000000000e+00    0.000000000e+00    0.000000000e+00    0.000000000e+00
      569750000   -8.358461857e-01   -5.677585602e-01   -6.273388863e-06   -1.211557537e-05    0.000000000e+00    0.000000000e+00    0.000000000e+00    0.000000000e+00
      577000000   -8.922321200e-01   -4.774158597e-01    3.884918988e-05   -1.844670624e-05    0.000000000e+00    0.000000000e+00    0.000000000e+00    0.000000000e+00
      584250000   -9.380674362e-01   -3.810943663e-01    2.902466804e-05    1.224502921e-05    0.000000000e+00    0.000000000e+00    0.000000000e+00    0.000000000e+00
      591500000   -9.730685949e-01   -2.791559994e-01    9.966082871e-06    1.842156053e-06    0.000000000e+00    0.000000000e+00    0.000000000e+00    0.000000000e+00
      598750000   -9.935338497e-01   -1.723954231e-01    2.341810614e-05   -8.933246136e-06    0.000000000e+00    0.000000000e+00    0.000000000e+00    0.000000000e+00
      606000000   -1.002288461e+00   -6.472036988e-02    2.040620893e-05    5.315057933e-06    0.000000000e+00    0.000000000e+00    0.000000000e+00    0.000000000e+00
      613250000   -9.980724454e-01    4.215431586e-02    1.011975110e-05    2.951920033e-05    0.000000000e+00    0.000000000e+00    0.000000000e+00    0.000000000e+00
      620500000   -9.803280234e-01    1.485307962e-01   -6.604939699e-06    3.794208169e-06    0.000000000e+00    0.000000000e+00    0.000000000e+00    0.000000000e+00
      627750000   -9.498078823e-01    2.521245182e-01   -8.131377399e-06    9.355135262e-06    0.000000000e+00    0.000000000e+00    0.000000000e+00    0.000000000e+00
      635000000   -9.085667729e-01    3.500100076e-01    6.532296538e-06    1.724809408e-06    0.000000000e+00    0.000000000e+00    0.000000000e+00    0.000000000e+00
      642250000   -8.552497625e-01    4.410599172e-01    2.046395093e-05    1.220684499e-05    0.000000000e+00    0.000000000e+00    0.000000000e+00    0.000000000e+00
      649500000   -7.923534513e-01    5.246832967e-01   -1.664087176e-05    1.305807382e-05    0.000000000e+00    0.000000000e+00    0.000000000e+00    0.000000000e+00
      656750000   -7.203916311e-01    5.997108221e-01    4.019401968e-05    2.821628004e-05    0.000000000e+00    0.000000000e+00    0.000000000e+00    0.000000000e+00
      664000000   -6.405390501e-01    6.658834815e-01    1.112278551e-05    4.432164133e-06    0.000000000e+00    0.000000000e+00    0.000000000e+00    0.000000000e+00
      671250000   -5.541691184e-01    7.216164470e-01   -4.382152110e-05    1.045875251e-05    0.000000000e+00    0.000000000e+00    0.000000000e+00    0.000000000e+00
      678500000   -4.632629454e-01    7.665219307e-01    1.875218004e-05   -3.110617399e-07    0.000000000e+00    0.000000000e+00    0.000000000e+00    0.000000000e+00
      685750000   -3.698887229e-01    8.004289865e-01    2.880021930e-05   -2.754852176e-06    0.000000000e+00    0.000000000e+00    0.000000000e+00    0.000000000e+00
      693000000   -2.732286453e-01    8.236199021e-01    1.888163388e-05   -1.068878919e-05    0.000000000e+00    0.000000000e+00    0.000000000e+00    0.000000000e+00
      700250000   -1.765941083e-01    8.362256289e-01   -2.189632505e-05   -2.266839147e-05    0.000000000e+00    0.000000000e+00    0.000000000e+00    0.000000000e+00
      707500000   -7.931706309e-02    8.378702998e-01   -3.753229976e-06   -2.129189670e-05    0.000000000e+00    0.000000000e+00    0.000000000e+00    0.000000000e+00
      714750000    1.711400412e-02    8.291863799e-01    8.223578334e-06   -2.567004412e-05    0.000000000e+00    0.000000000e+00    0.000000000e+00    0.000000000e+00
      722000000    1.107742786e-01    8.108524084e-01    1.094397157e-05    2.911407501e-05    0.000000000e+00    0.000000000e+00    0.000000000e+00    0.000000000e+00
      729250000    2.008657455e-01    7.830891013e-01    1.274142414e-05    6.365589797e-06    0.000000000e+00    0.000000000e+00    0.000000000e+00    0.000000000e+00
      736500000    2.869278789e-01    7.470177412e-01    3.569759429e-06   -1.702457666e-06    0.000000000e+00    0.000000000e+00    0.000000000e+00    0.000000000e+00
      743750000    3.683028519e-01    7.018456459e-01    1.624040306e-05   -2.235826105e-05    0.000000000e+00    0.000000000e+00    0.000000000e+00    0.000000000e+00
      751000000    4.448905289e-01    6.493203044e-01    2.877227962e-05    6.824731827e-06    0.000000000e+00    0.000000000e+00    0.000000000e+00    0.000000000e+00
      758250000    5.141288042e-01    5.907353163e-01   -3.326684237e-06    1.154746860e-05    0.000000000e+00    0.000000000e+00    0.000000000e+00    0.000000000e+00
      765500000    5.790538788e-01    5.227525830e-01    3.770273179e-05   -8.080061525e-05    0.000000000e+00    0.000000000e+00    0.000000000e+00    0.000000000e+00
      772750000    6.356158853e-01    4.516299367e-01    3.458186984e-05    2.036802471e-05    0.000000000e+00    0.000000000e+00    0.000000000e+00    0.000000000e+00
      780000000    6.838197708e-01    3.756860793e-01    3.202818334e-06   -4.528090358e-06    0.000000000e+00    0.000000000e+00    0.000000000e+00    0.000000000e+00
      787250000    7.269649506e-01    2.919115722e-01   -2.734642476e-05   -1.735519618e-05    0.000000000e+00    0.000000000e+00    0.000000000e+00    0.000000000e+00
      794500000    7.599877715e-01    2.065371126e-01   -1.836009324e-05   -4.789792001e-06    0.000000000e+00    0.000000000e+00    0.000000000e+00    0.000000000e+00
      801750000    7.846882939e-01    1.155761555e-01   -7.684342563e-06   -1.306086779e-05    0.000000000e+00    0.000000000e+00    0.000000000e+00    0.000000000e+00
      809000000    8.002586961e-01    2.390138619e-02   -1.051370054e-05   -8.984468877e-06    0.000000000e+00    0.000000000e+00    0.000000000e+00    0.000000000e+00
      816250000    8.058618307e-01   -7.112929225e-02   -2.121552825e-06   -2.642069012e-05    0.000000000e+00    0.000000000e+00    0.000000000e+00    0.000000000e+00
      823500000    8.016171455e-01   -1.669962108e-01   -6.889924407e-06    9.667128325e-07    0.000000000e+00    0.000000000e+00    0.000000000e+00    0.000000000e+00
      830750000    7.874863148e-01   -2.620996833e-01    2.166442573e-05   -1.545529813e-05    0.000000000e+00    0.000000000e+00    0.000000000e+00    0.000000000e+00
      838000000    7.628541589e-01   -3.567619026e-01   -5.738344043e-05    5.414709449e-06    0.000000000e+00    0.000000000e+00    0.000000000e+00    0.000000000e+00
      845250000    7.267688513e-01   -4.497357905e-01    3.600120544e-05   -5.194917321e-06    0.000000000e+00    0.000000000e+00    0.000000000e+00    0.000000000e+00
      852500000    6.803777218e-01   -5.382658243e-01   -1.557357609e-05    1.476332545e-05    0.000000000e+00    0.000000000e+00    0.000000000e+00    0.000000000e+00
      859750000    6.236281395e-01   -6.228591204e-01    2.350658178e-05   -2.707540989e-05    0.000000000e+00    0.000000000e+00    0.000000000e+00    0.000000000e+00
      867000000    5.537623167e-01   -7.019069791e-01   -5.683861673e-06    2.942420542e-05    0.000000000e+00    0.000000000e+00    0.000000000e+00    0.000000000e+00
      874250000    4.778125584e-01   -7.722265124e-01    1.245830208e-05    1.001171768e-05    0.000000000e+00    0.000000000e+00    0.000000000e+00    0.000000000e+00
      881500000    3.883637488e-01   -8.344685435e-01   -8.033588529e-06   -1.458637416e-05    0.000000000e+00    0.000000000e+00    0.000000000e+00    0.000000000e+00
      888750000    2.940699756e-01   -8.840143085e-01    9.933486581e-06   -6.573274732e-06    0.000000000e+00    0.000000000e+00    0.000000000e+00    0.000000000e+00
      896000000    1.916239262e-01   -9.226468205e-01    7.415190339e-06   -3.276672214e-05    0.000000000e+00    0.000000000e+00    0.000000000e+00    0.000000000e+00
      903250000    8.445248008e-02   -9.482153654e-01    1.731608063e-05    8.628703654e-06    0.000000000e+00    0.000000000e+00    0.000000000e+00    0.000000000e+00
      910500000   -2.635654993e-02   -9.581971169e-01    4.717148840e-06   -5.290750414e-05    0.000000000e+00    0.000000000e+00    0.000000000e+00    0.000000000e+00
      917750000   -1.384561211e-01   -9.546140432e-01    6.700865924e-06    7.305294275e-06    0.000000000e+00    0.000000000e+00    0.000000000e+00    0.000000000e+00
      925000000   -2.480471283e-01   -9.356892705e-01   -2.722907811e-05    2.159737051e-05    0.000000000e+00    0.000000000e+00    0.000000000e+00    0.000000000e+00
      932250000   -3.564691544e-01   -9.011191726e-01   -5.409494042e-05    1.601129770e-05    0.000000000e+00    0.000000000e+00    0.000000000e+00    0.000000000e+00
      939500000   -4.562585652e-01   -8.530560136e-01    4.139915109e-05   -1.804903150e-06    0.000000000e+00    0.000000000e+00    0.000000000e+00    0.000000000e+00
      946750000   -5.499781966e-01   -7.920404673e-01    2.703908831e-05   -9.860843420e-06    0.000000000e+00    0.000000000e+00    0.000000000e+00    0.000000000e+00
      954000000   -6.318717599e-01   -7.220000625e-01   -2.363603562e-05    1.231022179e-05    0.000000000e+00    0.000000000e+00    0.000000000e+00    0.000000000e+00
      961250000   -7.035844922e-01   -6.407142878e-01   -1.010950655e-05   -2.157688141e-05    0.000000000e+00    0.000000000e+00    0.000000000e+00    0.000000000e+00
      968500000   -7.642297745e-01   -5.500422120e-01    1.074559987e-05   -2.698041499e-06    0.000000000e+00    0.000000000e+00    0.000000000e+00    0.000000000e+00
      975750000   -8.110330701e-01   -4.574161172e-01    5.664676428e-05   -3.597885370e-05    0.000000000e+00    0.000000000e+00    0.000000000e+00    0.000000000e+00
      983000000   -8.444712758e-01   -3.606223464e-01   -2.341065556e-05    4.534889013e-05    0.000000000e+00    0.000000000e+00    0.000000000e+00    0.000000000e+00
      990250000   -8.652687669e-01   -2.621117532e-01    1.054722816e-05    2.786517143e-06    0.000000000e+00    0.000000000e+00    0.000000000e+00    0.000000000e+00
      997500000   -8.744563460e-01   -1.617033929e-01   -3.469176590e-06   -3.829132766e-05    0.000000000e+00    0.000000000e+00    0.000000000e+00    0.000000000e+00
     1004750000   -8.710365891e-01   -6.649274379e-02   -4.725065082e-05    1.266226172e-05    0.000000000e+00    0.000000000e+00    0.000000000e+00    0.000000000e+00
     1012000000   -8.571522832e-01    2.837488614e-02   -4.203058779e-06    5.303882062e-06    0.000000000e+00    0.000000000e+00    0.000000000e+00    0.000000000e+00
     1019250000   -8.332775235e-01    1.164009646e-01    3.989692777e-05   -2.866610885e-06    0.000000000e+00    0.000000000e+00    0.000000000e+00    0.000000000e+00
     1026500000   -8.008197546e-01    2.000271231e-01    4.000496119e-05   -3.386288881e-05    0.000000000e+00    0.000000000e+00    0.000000000e+00    0.000000000e+00
     1033750000   -7.602349520e-01    2.779476941e-01    3.284495324e-05    9.444542229e-06    0.000000000e+00    0.000000000e+00    0.000000000e+00    0.000000000e+00
     1041000000   -7.130824924e-01    3.478782177e-01   -9.641982615e-06   -6.915070117e-06    0.000000000e+00    0.000000000e+00    0.000000000e+00    0.000000000e+00
