! NanoVNA-App by OneOfEleven et al v1.1.209 (+OD15) 
! Date: 2024-07-30 15:24:16
! Start: 200MHz Stop: 6GHz Points: 801
! S-Parameter data: F S11 S21 S12 S22
# Hz S RI R 50
!     Frequency           S11_Real           S11_Imag           S21_Real           S21_Imag           S12_Real           S12_Imag           S22_Real           S22_Imag
      200000000   -9.021135569e-01   -1.072889641e-01   -6.100162864e-06   -2.521462739e-05    0.000000000e+00    0.000000000e+00    0.000000000e+00    0.000000000e+00
      207250000   -9.119093418e-01   -1.824819855e-02   -1.444481313e-05    4.577729851e-05    0.000000000e+00    0.000000000e+00    0.000000000e+00    0.000000000e+00
      214500000   -9.123296142e-01    7.281047106e-02   -6.145797670e-06    1.058727503e-05    0.000000000e+00    0.000000000e+00    0.000000000e+00    0.000000000e+00
      221750000   -9.042492509e-01    1.648443490e-01   -9.703449905e-06    1.402106136e-05    0.000000000e+00    0.000000000e+00    0.000000000e+00    0.000000000e+00
      229000000   -8.851085305e-01    2.569922209e-01   -1.372117549e-05    1.594703645e-05    0.000000000e+00    0.000000000e+00    0.000000000e+00    0.000000000e+00
      236250000   -8.563769460e-01    3.483113050e-01    1.655612141e-05   -2.898648381e-05    0.000000000e+00    0.000000000e+00    0.000000000e+00    0.000000000e+00
      243500000   -8.163232207e-01    4.369894564e-01   -3.687106073e-06   -4.751607776e-06    0.000000000e+00    0.000000000e+00    0.000000000e+00    0.000000000e+00
      250750000   -7.654750943e-01    5.229153037e-01   -3.342516720e-06   -1.878757030e-05    0.000000000e+00    0.000000000e+00    0.000000000e+00    0.000000000e+00
      258000000   -7.049043775e-01    6.037829518e-01   -1.593027264e-05   -1.355726272e-05    0.000000000e+00    0.000000000e+00    0.000000000e+00    0.000000000e+00
      265250000   -6.332569718e-01    6.772974730e-01   -4.789792001e-06    1.056212932e-05    0.000000000e+00    0.000000000e+00    0.000000000e+00    0.000000000e+00
      272500000   -5.525327325e-01    7.432561517e-01   -4.204921424e-06   -4.427228123e-05    0.000000000e+00    0.000000000e+00    0.000000000e+00    0.000000000e+00
      279750000   -4.628487229e-01    8.000801802e-01    6.584450603e-06   -1.167040318e-05    0.000000000e+00    0.000000000e+00    0.000000000e+00    0.000000000e+00
      287000000   -3.650878668e-01    8.458572030e-01   -1.747068018e-05    1.139938831e-05    0.000000000e+00    0.000000000e+00    0.000000000e+00    0.000000000e+00
      294250000   -2.619528174e-01    8.796026707e-01   -1.719221473e-05    1.454260200e-05    0.000000000e+00    0.000000000e+00    0.000000000e+00    0.000000000e+00
      301500000   -1.541590393e-01    8.996270895e-01    2.183485776e-05    5.192123353e-06    0.000000000e+00    0.000000000e+00    0.000000000e+00    0.000000000e+00
      308750000   -4.266740754e-02    9.065867066e-01    8.859671652e-06    1.853331923e-06    0.000000000e+00    0.000000000e+00    0.000000000e+00    0.000000000e+00
      316000000    6.809044629e-02    8.988713622e-01    1.503061503e-05    5.740672350e-06    0.000000000e+00    0.000000000e+00    0.000000000e+00    0.000000000e+00
      323250000    1.781203747e-01    8.777183294e-01    7.561407983e-06    7.077120245e-06    0.000000000e+00    0.000000000e+00    0.000000000e+00    0.000000000e+00
      330500000    2.844679356e-01    8.427077532e-01    1.039914787e-05   -2.236664295e-05    0.000000000e+00    0.000000000e+00    0.000000000e+00    0.000000000e+00
      337750000    3.845219314e-01    7.944769263e-01    1.460220665e-05    2.705398947e-05    0.000000000e+00    0.000000000e+00    0.000000000e+00    0.000000000e+00
      345000000    4.792416692e-01    7.326575518e-01   -3.627128899e-05   -5.122087896e-05    0.000000000e+00    0.000000000e+00    0.000000000e+00    0.000000000e+00
      352250000    5.640689135e-01    6.619734168e-01   -7.556751370e-06   -1.595355570e-06    0.000000000e+00    0.000000000e+00    0.000000000e+00    0.000000000e+00
      359500000    6.392227411e-01    5.810749531e-01    1.184456050e-05   -4.386901855e-05    0.000000000e+00    0.000000000e+00    0.000000000e+00    0.000000000e+00
      366750000    7.030645013e-01    4.926861227e-01   -7.203780115e-06   -5.347654223e-06    0.000000000e+00    0.000000000e+00    0.000000000e+00    0.000000000e+00
      374000000    7.563194633e-01    3.968841434e-01    1.575704664e-05   -3.824010491e-06    0.000000000e+00    0.000000000e+00    0.000000000e+00    0.000000000e+00
      381250000    7.968184948e-01    2.965455353e-01   -4.250556231e-06    3.046449274e-05    0.000000000e+00    0.000000000e+00    0.000000000e+00    0.000000000e+00
      388500000    8.257135153e-01    1.939414740e-01    2.179667354e-05   -4.405807704e-05    0.000000000e+00    0.000000000e+00    0.000000000e+00    0.000000000e+00
      395750000    8.415206075e-01    8.943587542e-02    4.363246262e-06   -6.147567183e-05    0.000000000e+00    0.000000000e+00    0.000000000e+00    0.000000000e+00
      403000000    8.458900452e-01   -1.498289499e-02   -1.312978566e-05    2.950057387e-05    0.000000000e+00    0.000000000e+00    0.000000000e+00    0.000000000e+00
      410250000    8.389891386e-01   -1.182723492e-01    4.114769399e-05    4.461966455e-06    0.000000000e+00    0.000000000e+00    0.000000000e+00    0.000000000e+00
      417500000    8.207857609e-01   -2.184586525e-01   -3.102794290e-05   -5.964189768e-06    0.000000000e+00    0.000000000e+00    0.000000000e+00    0.000000000e+00
      424750000    7.911924720e-01   -3.170905411e-01   -2.254173160e-05    8.313916624e-06    0.000000000e+00    0.000000000e+00    0.000000000e+00    0.000000000e+00
      432000000    7.517135143e-01   -4.101675749e-01   -7.279217243e-06    6.462261081e-05    0.000000000e+00    0.000000000e+00    0.000000000e+00    0.000000000e+00
      439250000    7.047570348e-01   -4.976405203e-01   -1.624319702e-05   -8.391216397e-06    0.000000000e+00    0.000000000e+00    0.000000000e+00    0.000000000e+00
      446500000    6.479055882e-01   -5.792140365e-01   -1.634098589e-05   -1.621060073e-05    0.000000000e+00    0.000000000e+00    0.000000000e+00    0.000000000e+00
      453750000    5.829482079e-01   -6.547713876e-01    1.223757863e-06   -2.084299922e-05    0.000000000e+00    0.000000000e+00    0.000000000e+00    0.000000000e+00
      461000000    5.111007094e-01   -7.220418453e-01   -2.240203321e-05    1.853145659e-05    0.000000000e+00    0.000000000e+00    0.000000000e+00    0.000000000e+00
      468250000    4.330757260e-01   -7.814913988e-01   -3.255717456e-05    1.683458686e-05    0.000000000e+00    0.000000000e+00    0.000000000e+00    0.000000000e+00
      475500000    3.474394977e-01   -8.329235315e-01    2.096407115e-05   -5.355104804e-06    0.000000000e+00    0.000000000e+00    0.000000000e+00    0.000000000e+00
      482750000    2.588552833e-01   -8.749983311e-01    1.508183777e-05   -1.262687147e-05    0.000000000e+00    0.000000000e+00    0.000000000e+00    0.000000000e+00
      490000000    1.651326418e-01   -9.076386094e-01    1.798756421e-05    1.566298306e-05    0.000000000e+00    0.000000000e+00    0.000000000e+00    0.000000000e+00
      497250000    6.891484559e-02   -9.297888279e-01    1.113582402e-05    4.274770617e-05    0.000000000e+00    0.000000000e+00    0.000000000e+00    0.000000000e+00
      504500000   -3.040780127e-02   -9.425498843e-01    7.716938853e-06   -3.453344107e-06    0.000000000e+00    0.000000000e+00    0.000000000e+00    0.000000000e+00
      511750000   -1.299126148e-01   -9.438611269e-01    2.213194966e-05    7.839873433e-06    0.000000000e+00    0.000000000e+00    0.000000000e+00    0.000000000e+00
      519000000   -2.305959761e-01   -9.347364306e-01   -1.311022788e-05   -1.662131399e-05    0.000000000e+00    0.000000000e+00    0.000000000e+00    0.000000000e+00
      526250000   -3.307297528e-01   -9.141121507e-01    5.593802780e-05    6.561167538e-06    0.000000000e+00    0.000000000e+00    0.000000000e+00    0.000000000e+00
      533500000   -4.277931452e-01   -8.829975128e-01    1.909490675e-05    3.547687083e-05    0.000000000e+00    0.000000000e+00    0.000000000e+00    0.000000000e+00
      540750000   -5.219208598e-01   -8.398382664e-01    1.128576696e-05   -1.709070057e-05    0.000000000e+00    0.000000000e+00    0.000000000e+00    0.000000000e+00
      548000000   -6.109198332e-01   -7.873422503e-01    2.930499613e-05    2.672243863e-05    0.000000000e+00    0.000000000e+00    0.000000000e+00    0.000000000e+00
      555250000   -6.938508153e-01   -7.231397033e-01    1.860782504e-05   -4.457775503e-05    0.000000000e+00    0.000000000e+00    0.000000000e+00    0.000000000e+00
      562500000   -7.691776156e-01   -6.496492624e-01   -2.628192306e-06   -9.441748261e-06    0.000000000e+00    0.000000000e+00    0.000000000e+00    0.000000000e+00
      569750000   -8.355007172e-01   -5.675091147e-01    9.275041521e-06    8.149072528e-07    0.000000000e+00    0.000000000e+00    0.000000000e+00    0.000000000e+00
      577000000   -8.927550912e-01   -4.763258398e-01    2.638250589e-05    8.244067430e-06    0.000000000e+00    0.000000000e+00    0.000000000e+00    0.000000000e+00
      584250000   -9.378917217e-01   -3.808971643e-01   -7.220543921e-06   -7.709488273e-06    0.000000000e+00    0.000000000e+00    0.000000000e+00    0.000000000e+00
      591500000   -9.726355672e-01   -2.788558900e-01    2.173427492e-05    4.058051854e-05    0.000000000e+00    0.000000000e+00    0.000000000e+00    0.000000000e+00
      598750000   -9.933954477e-01   -1.723715216e-01   -1.612491906e-05    2.130772918e-05    0.000000000e+00    0.000000000e+00    0.000000000e+00    0.000000000e+00
      606000000   -1.002365589e+00   -6.521540880e-02   -9.642913938e-06   -1.256540418e-05    0.000000000e+00    0.000000000e+00    0.000000000e+00    0.000000000e+00
      613250000   -9.980977774e-01    4.206079245e-02    1.972168684e-05   -2.825632691e-05    0.000000000e+00    0.000000000e+00    0.000000000e+00    0.000000000e+00
      620500000   -9.808583856e-01    1.475923955e-01    1.330580562e-05   -1.150462776e-05    0.000000000e+00    0.000000000e+00    0.000000000e+00    0.000000000e+00
      627750000   -9.500751495e-01    2.515590787e-01   -1.829117537e-06   -1.584272832e-05    0.000000000e+00    0.000000000e+00    0.000000000e+00    0.000000000e+00
      635000000   -9.086466432e-01    3.491985202e-01    1.773238182e-05   -1.997128129e-05    0.000000000e+00    0.000000000e+00    0.000000000e+00    0.000000000e+00
      642250000   -8.551110625e-01    4.406004548e-01    2.459622920e-06    2.422370017e-06    0.000000000e+00    0.000000000e+00    0.000000000e+00    0.000000000e+00
      649500000   -7.926112413e-01    5.246323347e-01   -1.108739525e-05   -5.650985986e-05    0.000000000e+00    0.000000000e+00    0.000000000e+00    0.000000000e+00
      656750000   -7.201085091e-01    6.000717878e-01   -1.943670213e-06    1.044943929e-06    0.000000000e+00    0.000000000e+00    0.000000000e+00    0.000000000e+00
      664000000   -6.402340531e-01    6.663923860e-01   -4.389323294e-06   -3.719702363e-06    0.000000000e+00    0.000000000e+00    0.000000000e+00    0.000000000e+00
      671250000   -5.544632673e-01    7.209563255e-01   -2.354755998e-05    2.793688327e-05    0.000000000e+00    0.000000000e+00    0.000000000e+00    0.000000000e+00
      678500000   -4.633710682e-01    7.659740448e-01   -1.512840390e-05    5.509331822e-05    0.000000000e+00    0.000000000e+00    0.000000000e+00    0.000000000e+00
      685750000   -3.707447946e-01    8.003382087e-01    1.173373312e-05    5.690380931e-07    0.000000000e+00    0.000000000e+00    0.000000000e+00    0.000000000e+00
      693000000   -2.739627361e-01    8.232098222e-01    1.629162580e-05   -1.132767648e-05    0.000000000e+00    0.000000000e+00    0.000000000e+00    0.000000000e+00
      700250000   -1.761965603e-01    8.361280560e-01    1.623481512e-05    1.966021955e-06    0.000000000e+00    0.000000000e+00    0.000000000e+00    0.000000000e+00
      707500000   -7.887956500e-02    8.377215266e-01    2.777762711e-05   -2.337805927e-05    0.000000000e+00    0.000000000e+00    0.000000000e+00    0.000000000e+00
      714750000    1.720038615e-02    8.290174007e-01   -3.341399133e-05    1.678802073e-05    0.000000000e+00    0.000000000e+00    0.000000000e+00    0.000000000e+00
      722000000    1.102262512e-01    8.111227155e-01   -1.082848758e-05    1.791678369e-05    0.000000000e+00    0.000000000e+00    0.000000000e+00    0.000000000e+00
      729250000    2.017338872e-01    7.836825848e-01   -8.518807590e-06    7.897615433e-07    0.000000000e+00    0.000000000e+00    0.000000000e+00    0.000000000e+00
      736500000    2.872027159e-01    7.466986179e-01   -7.603317499e-06   -1.549720764e-06    0.000000000e+00    0.000000000e+00    0.000000000e+00    0.000000000e+00
      743750000    3.684462011e-01    7.022403479e-01    2.563837916e-05    3.568921238e-05    0.000000000e+00    0.000000000e+00    0.000000000e+00    0.000000000e+00
      751000000    4.448166788e-01    6.495243311e-01    3.271736205e-06    2.802163363e-05    0.000000000e+00    0.000000000e+00    0.000000000e+00    0.000000000e+00
      758250000    5.141813159e-01    5.904783607e-01    2.498924732e-05   -2.353359014e-05    0.000000000e+00    0.000000000e+00    0.000000000e+00    0.000000000e+00
      765500000    5.784162283e-01    5.241842866e-01   -3.125518560e-06    1.431535929e-05    0.000000000e+00    0.000000000e+00    0.000000000e+00    0.000000000e+00
      772750000    6.355165243e-01    4.518482685e-01   -3.169663250e-05    1.692119986e-05    0.000000000e+00    0.000000000e+00    0.000000000e+00    0.000000000e+00
      780000000    6.843562126e-01    3.754196763e-01    1.484528184e-05    5.487352610e-06    0.000000000e+00    0.000000000e+00    0.000000000e+00    0.000000000e+00
      787250000    7.271621823e-01    2.917002439e-01   -9.248964489e-06    9.043142200e-06    0.000000000e+00    0.000000000e+00    0.000000000e+00    0.000000000e+00
      794500000    7.599074244e-01    2.058441043e-01   -6.536021829e-06   -6.681308150e-06    0.000000000e+00    0.000000000e+00    0.000000000e+00    0.000000000e+00
      801750000    7.846567035e-01    1.166611686e-01   -1.704413444e-05    2.523511648e-05    0.000000000e+00    0.000000000e+00    0.000000000e+00    0.000000000e+00
      809000000    8.001930714e-01    2.398901433e-02    1.162756234e-05    2.305116504e-05    0.000000000e+00    0.000000000e+00    0.000000000e+00    0.000000000e+00
      816250000    8.059180379e-01   -7.128013670e-02   -2.722255886e-06   -3.391318023e-05    0.000000000e+00    0.000000000e+00    0.000000000e+00    0.000000000e+00
      823500000    8.018679619e-01   -1.658167541e-01    3.170408309e-05   -3.885012120e-05    0.000000000e+00    0.000000000e+00    0.000000000e+00    0.000000000e+00
      830750000    7.875331044e-01   -2.629373074e-01    3.572925925e-05    2.987310290e-05    0.000000000e+00    0.000000000e+00    0.000000000e+00    0.000000000e+00
      838000000    7.626582980e-01   -3.564363420e-01   -1.037493348e-06   -5.907379091e-06    0.000000000e+00    0.000000000e+00    0.000000000e+00    0.000000000e+00
      845250000    7.268131971e-01   -4.490558207e-01    2.412870526e-05    1.318100840e-05    0.000000000e+00    0.000000000e+00    0.000000000e+00    0.000000000e+00
      852500000    6.805352569e-01   -5.384265780e-01    7.414259017e-06    2.481509000e-05    0.000000000e+00    0.000000000e+00    0.000000000e+00    0.000000000e+00
      859750000    6.237804294e-01   -6.223518848e-01    3.231037408e-05   -2.250634134e-05    0.000000000e+00    0.000000000e+00    0.000000000e+00    0.000000000e+00
      867000000    5.538975000e-01   -7.014514804e-01    1.321081072e-05    1.767929643e-05    0.000000000e+00    0.000000000e+00    0.000000000e+00    0.000000000e+00
      874250000    4.773970544e-01   -7.722278833e-01   -2.100411803e-05    3.797560930e-05    0.000000000e+00    0.000000000e+00    0.000000000e+00    0.000000000e+00
      881500000    3.885777891e-01   -8.341377378e-01   -9.926036000e-06    1.843273640e-05    0.000000000e+00    0.000000000e+00    0.000000000e+00    0.000000000e+00
      888750000    2.937035561e-01   -8.841279745e-01    2.301856875e-05   -1.803599298e-05    0.000000000e+00    0.000000000e+00    0.000000000e+00    0.000000000e+00
      896000000    1.915210634e-01   -9.228311777e-01    3.046356142e-06   -1.323409379e-06    0.000000000e+00    0.000000000e+00    0.000000000e+00    0.000000000e+00
      903250000    8.496351540e-02   -9.481962919e-01   -2.756156027e-05    8.644536138e-06    0.000000000e+00    0.000000000e+00    0.000000000e+00    0.000000000e+00
      910500000   -2.685982734e-02   -9.583140016e-01   -1.633819193e-05    5.889683962e-06    0.000000000e+00    0.000000000e+00    0.000000000e+00    0.000000000e+00
      917750000   -1.381458491e-01   -9.542903900e-01    9.854324162e-06    3.034994006e-05    0.000000000e+00    0.000000000e+00    0.000000000e+00    0.000000000e+00
      925000000   -2.493725717e-01   -9.349839687e-01   -3.922265023e-05   -1.160707325e-05    0.000000000e+00    0.000000000e+00    0.000000000e+00    0.000000000e+00
      932250000   -3.561997414e-01   -9.007980227e-01   -1.060124487e-05   -1.205969602e-05    0.000000000e+00    0.000000000e+00    0.000000000e+00    0.000000000e+00
      939500000   -4.567677677e-01   -8.522915840e-01   -3.956072032e-05   -7.204711437e-06    0.000000000e+00    0.000000000e+00    0.000000000e+00    0.000000000e+00
      946750000   -5.483250618e-01   -7.941631675e-01    2.083182335e-05   -2.654269338e-05    0.000000000e+00    0.000000000e+00    0.000000000e+00    0.000000000e+00
      954000000   -6.335567236e-01   -7.203967571e-01   -7.390044630e-06   -9.159557521e-06    0.000000000e+00    0.000000000e+00    0.000000000e+00    0.000000000e+00
      961250000   -7.037661076e-01   -6.403099895e-01   -7.247552276e-06   -1.199543476e-05    0.000000000e+00    0.000000000e+00    0.000000000e+00    0.000000000e+00
      968500000   -7.644566894e-01   -5.509580374e-01    3.198813647e-05    1.135468483e-05    0.000000000e+00    0.000000000e+00    0.000000000e+00    0.000000000e+00
      975750000   -8.113387823e-01   -4.562191069e-01   -1.191347837e-05    3.945082426e-05    0.000000000e+00    0.000000000e+00    0.000000000e+00    0.000000000e+00
      983000000   -8.447020054e-01   -3.591871858e-01   -6.034970284e-07    7.033348083e-06    0.000000000e+00    0.000000000e+00    0.000000000e+00    0.000000000e+00
      990250000   -8.655580282e-01   -2.623707354e-01    5.139037967e-06    3.716256469e-05    0.000000000e+00    0.000000000e+00    0.000000000e+00    0.000000000e+00
      997500000   -8.742731810e-01   -1.620585918e-01   -4.179496318e-05   -1.422408968e-05    0.000000000e+00    0.000000000e+00    0.000000000e+00    0.000000000e+00
     1004750000   -8.710035682e-01   -6.578501314e-02    5.854293704e-06    3.359746188e-05    0.000000000e+00    0.000000000e+00    0.000000000e+00    0.000000000e+00
     1012000000   -8.570773602e-01    2.678024583e-02    2.670381218e-05   -3.673881292e-05    0.000000000e+00    0.000000000e+00    0.000000000e+00    0.000000000e+00
     1019250000   -8.333345652e-01    1.160902977e-01   -3.448128700e-05   -2.415571362e-05    0.000000000e+00    0.000000000e+00    0.000000000e+00    0.000000000e+00
     1026500000   -8.008393049e-01    1.997724921e-01    2.141110599e-06    5.802139640e-06    0.000000000e+00    0.000000000e+00    0.000000000e+00    0.000000000e+00
     1033750000   -7.596746683e-01    2.780821919e-01    4.119891673e-05    1.771654934e-05    0.000000000e+00    0.000000000e+00    0.000000000e+00    0.000000000e+00
     1041000000   -7.133243680e-01    3.484150469e-01   -5.979184061e-05   -6.782822311e-06    0.000000000e+00    0.000000000e+00    0.000000000e+00    0.000000000e+00
