! NanoVNA-App
! Date: 2024-06-25 16:04:00
! Start: 200MHz Stop: 6GHz Points: 801
! S-Parameter data: F S11 S21 S12 S22
# Hz S RI R 50
!     Frequency           S11_Real           S11_Imag           S21_Real           S21_Imag           S12_Real           S12_Imag           S22_Real           S22_Imag
      200000000   -9.982416034e-01   -1.227419823e-01   -7.404014468e-06   -1.357775182e-05    0.000000000e+00    0.000000000e+00    0.000000000e+00    0.000000000e+00
      207250000   -1.010102153e+00   -2.346403524e-02   -3.371387720e-05    6.725080311e-06    0.000000000e+00    0.000000000e+00    0.000000000e+00    0.000000000e+00
      214500000   -1.012030363e+00    7.771410048e-02    3.569386899e-05    2.053938806e-05    0.000000000e+00    0.000000000e+00    0.000000000e+00    0.000000000e+00
      221750000   -1.004328847e+00    1.799267679e-01   -1.658592373e-05    2.441368997e-05    0.000000000e+00    0.000000000e+00    0.000000000e+00    0.000000000e+00
      229000000   -9.841683507e-01    2.835038602e-01   -2.194847912e-05   -2.383161336e-05    0.000000000e+00    0.000000000e+00    0.000000000e+00    0.000000000e+00
      236250000   -9.528737068e-01    3.857643306e-01   -2.138968557e-05    2.771429718e-05    0.000000000e+00    0.000000000e+00    0.000000000e+00    0.000000000e+00
      243500000   -9.108956456e-01    4.858039618e-01   -6.982125342e-06    1.691374928e-05    0.000000000e+00    0.000000000e+00    0.000000000e+00    0.000000000e+00
      250750000   -8.552035689e-01    5.826619864e-01    5.211681128e-06    3.780238330e-06    0.000000000e+00    0.000000000e+00    0.000000000e+00    0.000000000e+00
      258000000   -7.877902389e-01    6.743990779e-01   -1.631584018e-05    3.502704203e-05    0.000000000e+00    0.000000000e+00    0.000000000e+00    0.000000000e+00
      265250000   -7.096534967e-01    7.586407661e-01    2.228375524e-05   -6.912276149e-06    0.000000000e+00    0.000000000e+00    0.000000000e+00    0.000000000e+00
      272500000   -6.187475324e-01    8.349592686e-01   -2.296641469e-06    3.056600690e-06    0.000000000e+00    0.000000000e+00    0.000000000e+00    0.000000000e+00
      279750000   -5.192682743e-01    8.995357752e-01    2.937763929e-05    2.909824252e-05    0.000000000e+00    0.000000000e+00    0.000000000e+00    0.000000000e+00
      287000000   -4.091362357e-01    9.528005123e-01    4.564411938e-06    8.809380233e-06    0.000000000e+00    0.000000000e+00    0.000000000e+00    0.000000000e+00
      294250000   -2.927221358e-01    9.919906259e-01    3.239978105e-05   -1.354794949e-05    0.000000000e+00    0.000000000e+00    0.000000000e+00    0.000000000e+00
      301500000   -1.703723222e-01    1.016131997e+00    1.927837729e-07   -3.300420940e-05    0.000000000e+00    0.000000000e+00    0.000000000e+00    0.000000000e+00
      308750000   -4.512659088e-02    1.024385810e+00   -4.602503031e-05   -1.873634756e-05    0.000000000e+00    0.000000000e+00    0.000000000e+00    0.000000000e+00
      316000000    8.123731613e-02    1.017951965e+00    2.523884177e-07    3.152526915e-06    0.000000000e+00    0.000000000e+00    0.000000000e+00    0.000000000e+00
      323250000    2.062415183e-01    9.938634038e-01    2.299062908e-05    3.428850323e-05    0.000000000e+00    0.000000000e+00    0.000000000e+00    0.000000000e+00
      330500000    3.264999986e-01    9.542173743e-01   -1.448672265e-05   -4.413537681e-06    0.000000000e+00    0.000000000e+00    0.000000000e+00    0.000000000e+00
      337750000    4.409170747e-01    8.991925120e-01   -1.642201096e-05    1.238193363e-05    0.000000000e+00    0.000000000e+00    0.000000000e+00    0.000000000e+00
      345000000    5.469777584e-01    8.311613798e-01    2.605747432e-05   -7.628463209e-06    0.000000000e+00    0.000000000e+00    0.000000000e+00    0.000000000e+00
      352250000    6.430160999e-01    7.488620281e-01   -1.261942089e-05    1.972448081e-05    0.000000000e+00    0.000000000e+00    0.000000000e+00    0.000000000e+00
      359500000    7.278938890e-01    6.571865678e-01    1.043081284e-05   -1.207087189e-05    0.000000000e+00    0.000000000e+00    0.000000000e+00    0.000000000e+00
      366750000    8.002284169e-01    5.569072366e-01    1.409277320e-05    1.569092274e-05    0.000000000e+00    0.000000000e+00    0.000000000e+00    0.000000000e+00
      374000000    8.588050604e-01    4.497603476e-01   -3.830529749e-06   -1.504365355e-05    0.000000000e+00    0.000000000e+00    0.000000000e+00    0.000000000e+00
      381250000    9.044981599e-01    3.361239731e-01   -7.405877113e-06   -1.434236765e-06    0.000000000e+00    0.000000000e+00    0.000000000e+00    0.000000000e+00
      388500000    9.351493120e-01    2.213562578e-01    3.080908209e-05   -1.053512096e-05    0.000000000e+00    0.000000000e+00    0.000000000e+00    0.000000000e+00
      395750000    9.529512525e-01    1.043069363e-01   -2.160761505e-05   -2.307817340e-06    0.000000000e+00    0.000000000e+00    0.000000000e+00    0.000000000e+00
      403000000    9.569221139e-01   -1.312041096e-02    3.756396472e-05   -1.331046224e-05    0.000000000e+00    0.000000000e+00    0.000000000e+00    0.000000000e+00
      410250000    9.481582046e-01   -1.288101226e-01   -3.300979733e-05    6.040558219e-06    0.000000000e+00    0.000000000e+00    0.000000000e+00    0.000000000e+00
      417500000    9.270327091e-01   -2.416315526e-01   -2.506561577e-05    2.478901297e-05    0.000000000e+00    0.000000000e+00    0.000000000e+00    0.000000000e+00
      424750000    8.942380548e-01   -3.509161174e-01   -2.521649003e-05   -2.814456820e-06    0.000000000e+00    0.000000000e+00    0.000000000e+00    0.000000000e+00
      432000000    8.504626751e-01   -4.544509053e-01    5.018897355e-06   -1.971982419e-05    0.000000000e+00    0.000000000e+00    0.000000000e+00    0.000000000e+00
      439250000    7.960674763e-01   -5.515704751e-01   -4.828907549e-06   -3.254786134e-05    0.000000000e+00    0.000000000e+00    0.000000000e+00    0.000000000e+00
      446500000    7.322304249e-01   -6.419802904e-01    7.216818631e-06   -2.710334957e-05    0.000000000e+00    0.000000000e+00    0.000000000e+00    0.000000000e+00
      453750000    6.595427394e-01   -7.256810069e-01    2.360157669e-05    5.695037544e-06    0.000000000e+00    0.000000000e+00    0.000000000e+00    0.000000000e+00
      461000000    5.787975192e-01   -8.005844951e-01    1.731608063e-05    3.100093454e-05    0.000000000e+00    0.000000000e+00    0.000000000e+00    0.000000000e+00
      468250000    4.922357798e-01   -8.661342859e-01    1.480802894e-06    1.101475209e-05    0.000000000e+00    0.000000000e+00    0.000000000e+00    0.000000000e+00
      475500000    3.979023695e-01   -9.233331680e-01   -4.729069769e-05    2.763792872e-05    0.000000000e+00    0.000000000e+00    0.000000000e+00    0.000000000e+00
      482750000    2.985073626e-01   -9.700717926e-01    3.189034760e-05    2.352520823e-05    0.000000000e+00    0.000000000e+00    0.000000000e+00    0.000000000e+00
      490000000    1.955033690e-01   -1.006125331e+00   -5.069188774e-06    3.553088754e-05    0.000000000e+00    0.000000000e+00    0.000000000e+00    0.000000000e+00
      497250000    8.787649870e-02   -1.031607032e+00    5.225371569e-05    1.192931086e-05    0.000000000e+00    0.000000000e+00    0.000000000e+00    0.000000000e+00
      504500000   -2.206517942e-02   -1.044941187e+00    2.286769450e-05   -1.383014023e-05    0.000000000e+00    0.000000000e+00    0.000000000e+00    0.000000000e+00
      511750000   -1.337413490e-01   -1.047067046e+00   -2.646539360e-05    1.417566091e-05    0.000000000e+00    0.000000000e+00    0.000000000e+00    0.000000000e+00
      519000000   -2.459498495e-01   -1.037817836e+00    3.903172910e-05   -1.673586667e-05    0.000000000e+00    0.000000000e+00    0.000000000e+00    0.000000000e+00
      526250000   -3.561775088e-01   -1.015197396e+00    3.257486969e-05    1.211836934e-05    0.000000000e+00    0.000000000e+00    0.000000000e+00    0.000000000e+00
      533500000   -4.653908908e-01   -9.799606204e-01    7.606111467e-06    3.148894757e-05    0.000000000e+00    0.000000000e+00    0.000000000e+00    0.000000000e+00
      540750000   -5.699314475e-01   -9.333169460e-01    3.142841160e-05   -8.283182979e-06    0.000000000e+00    0.000000000e+00    0.000000000e+00    0.000000000e+00
      548000000   -6.691210866e-01   -8.735082746e-01    2.028420568e-05   -3.514438868e-05    0.000000000e+00    0.000000000e+00    0.000000000e+00    0.000000000e+00
      555250000   -7.624293566e-01   -8.030846119e-01    2.275034785e-05    8.680857718e-06    0.000000000e+00    0.000000000e+00    0.000000000e+00    0.000000000e+00
      562500000   -8.466306329e-01   -7.203905582e-01    1.030787826e-05   -2.449192107e-05    0.000000000e+00    0.000000000e+00    0.000000000e+00    0.000000000e+00
      569750000   -9.211923480e-01   -6.298461556e-01    1.414865255e-05   -1.716800034e-05    0.000000000e+00    0.000000000e+00    0.000000000e+00    0.000000000e+00
      577000000   -9.854358435e-01   -5.282239318e-01   -5.397945642e-06   -6.129965186e-06    0.000000000e+00    0.000000000e+00    0.000000000e+00    0.000000000e+00
      584250000   -1.037100434e+00   -4.213599265e-01   -2.506747842e-05   -1.802295446e-05    0.000000000e+00    0.000000000e+00    0.000000000e+00    0.000000000e+00
      591500000   -1.074489355e+00   -3.068428636e-01    1.997221261e-05    1.156050712e-05    0.000000000e+00    0.000000000e+00    0.000000000e+00    0.000000000e+00
      598750000   -1.098061204e+00   -1.875432283e-01    1.985579729e-05    4.133861512e-05    0.000000000e+00    0.000000000e+00    0.000000000e+00    0.000000000e+00
      606000000   -1.107691288e+00   -6.912770122e-02    1.346692443e-05    1.318007708e-05    0.000000000e+00    0.000000000e+00    0.000000000e+00    0.000000000e+00
      613250000   -1.101729631e+00    5.285708606e-02   -9.781681001e-06    3.464519978e-06    0.000000000e+00    0.000000000e+00    0.000000000e+00    0.000000000e+00
      620500000   -1.081936121e+00    1.712968796e-01    3.272853792e-05   -1.501478255e-05    0.000000000e+00    0.000000000e+00    0.000000000e+00    0.000000000e+00
      627750000   -1.048844218e+00    2.851888239e-01    1.536216587e-05   -5.381181836e-06    0.000000000e+00    0.000000000e+00    0.000000000e+00    0.000000000e+00
      635000000   -1.001425982e+00    3.934205472e-01    1.113954931e-05   -3.839563578e-05    0.000000000e+00    0.000000000e+00    0.000000000e+00    0.000000000e+00
      642250000   -9.413731694e-01    4.961344302e-01    2.244487405e-06    2.561137080e-07    0.000000000e+00    0.000000000e+00    0.000000000e+00    0.000000000e+00
      649500000   -8.713671565e-01    5.877665877e-01   -5.627050996e-06   -2.064742148e-05    0.000000000e+00    0.000000000e+00    0.000000000e+00    0.000000000e+00
      656750000   -7.905715704e-01    6.720033288e-01    1.600198448e-05    9.277835488e-06    0.000000000e+00    0.000000000e+00    0.000000000e+00    0.000000000e+00
      664000000   -7.007689476e-01    7.447377443e-01    3.045331687e-05   -2.141948789e-05    0.000000000e+00    0.000000000e+00    0.000000000e+00    0.000000000e+00
      671250000   -6.053740382e-01    8.060584068e-01    4.090461880e-05    5.377456546e-06    0.000000000e+00    0.000000000e+00    0.000000000e+00    0.000000000e+00
      678500000   -5.052813888e-01    8.548774719e-01   -2.407003194e-05   -3.328453749e-05    0.000000000e+00    0.000000000e+00    0.000000000e+00    0.000000000e+00
      685750000   -4.010732174e-01    8.916557431e-01   -2.035126090e-05   -3.811623901e-05    0.000000000e+00    0.000000000e+00    0.000000000e+00    0.000000000e+00
      693000000   -2.933672667e-01    9.174333811e-01   -8.798204362e-06   -3.216508776e-05    0.000000000e+00    0.000000000e+00    0.000000000e+00    0.000000000e+00
      700250000   -1.854964197e-01    9.307941794e-01    1.874193549e-05    2.523325384e-05    0.000000000e+00    0.000000000e+00    0.000000000e+00    0.000000000e+00
      707500000   -7.933601737e-02    9.318019748e-01    1.755543053e-05   -2.318993211e-05    0.000000000e+00    0.000000000e+00    0.000000000e+00    0.000000000e+00
      714750000    2.636034228e-02    9.221121669e-01   -4.196912050e-05    3.148615360e-05    0.000000000e+00    0.000000000e+00    0.000000000e+00    0.000000000e+00
      722000000    1.292596459e-01    9.011485577e-01    3.859121352e-05    1.039076596e-05    0.000000000e+00    0.000000000e+00    0.000000000e+00    0.000000000e+00
      729250000    2.297861725e-01    8.700822592e-01   -1.074746251e-06   -1.443549991e-06    0.000000000e+00    0.000000000e+00    0.000000000e+00    0.000000000e+00
      736500000    3.232614994e-01    8.296676278e-01    5.800276995e-06    8.197501302e-06    0.000000000e+00    0.000000000e+00    0.000000000e+00    0.000000000e+00
      743750000    4.123606384e-01    7.812699080e-01   -4.181172699e-05   -6.783194840e-05    0.000000000e+00    0.000000000e+00    0.000000000e+00    0.000000000e+00
      751000000    4.962089360e-01    7.231338024e-01   -4.296191037e-06    1.826323569e-05    0.000000000e+00    0.000000000e+00    0.000000000e+00    0.000000000e+00
      758250000    5.721220970e-01    6.589900255e-01   -8.950009942e-06   -1.623854041e-05    0.000000000e+00    0.000000000e+00    0.000000000e+00    0.000000000e+00
      765500000    6.439511180e-01    5.860094428e-01   -4.104338586e-06   -1.515075564e-05    0.000000000e+00    0.000000000e+00    0.000000000e+00    0.000000000e+00
      772750000    7.059859037e-01    5.078132749e-01    9.780749679e-06   -6.840471178e-05    0.000000000e+00    0.000000000e+00    0.000000000e+00    0.000000000e+00
      780000000    7.599999905e-01    4.236304760e-01    1.984741539e-05   -2.228654921e-06    0.000000000e+00    0.000000000e+00    0.000000000e+00    0.000000000e+00
      787250000    8.081459403e-01    3.321050704e-01   -2.345070243e-05   -3.537163138e-06    0.000000000e+00    0.000000000e+00    0.000000000e+00    0.000000000e+00
      794500000    8.452581763e-01    2.385143936e-01   -1.232046634e-05   -1.636054367e-05    0.000000000e+00    0.000000000e+00    0.000000000e+00    0.000000000e+00
      801750000    8.728018403e-01    1.399794370e-01    1.079775393e-05   -1.268181950e-05    0.000000000e+00    0.000000000e+00    0.000000000e+00    0.000000000e+00
      809000000    8.907611966e-01    3.869024664e-02   -1.590326428e-05    2.610869706e-05    0.000000000e+00    0.000000000e+00    0.000000000e+00    0.000000000e+00
      816250000    8.987119794e-01   -6.506644189e-02   -1.291278750e-05   -3.818795085e-05    0.000000000e+00    0.000000000e+00    0.000000000e+00    0.000000000e+00
      823500000    8.954191208e-01   -1.708161384e-01    2.544373274e-05    2.435408533e-05    0.000000000e+00    0.000000000e+00    0.000000000e+00    0.000000000e+00
      830750000    8.815677762e-01   -2.763930857e-01   -1.109391451e-05    9.279698133e-06    0.000000000e+00    0.000000000e+00    0.000000000e+00    0.000000000e+00
      838000000    8.557541966e-01   -3.824168444e-01    5.728192627e-05    4.214234650e-06    0.000000000e+00    0.000000000e+00    0.000000000e+00    0.000000000e+00
      845250000    8.174371719e-01   -4.849801064e-01    2.268236130e-05    3.197044134e-05    0.000000000e+00    0.000000000e+00    0.000000000e+00    0.000000000e+00
      852500000    7.668788433e-01   -5.855996609e-01   -9.283423424e-06   -3.461353481e-05    0.000000000e+00    0.000000000e+00    0.000000000e+00    0.000000000e+00
      859750000    7.051113248e-01   -6.797601581e-01   -3.208965063e-05   -4.170462489e-06    0.000000000e+00    0.000000000e+00    0.000000000e+00    0.000000000e+00
      867000000    6.291921735e-01   -7.697460651e-01   -1.305714250e-06    2.576690167e-05    0.000000000e+00    0.000000000e+00    0.000000000e+00    0.000000000e+00
      874250000    5.454865694e-01   -8.492142558e-01    2.873502672e-05    2.219527960e-05    0.000000000e+00    0.000000000e+00    0.000000000e+00    0.000000000e+00
      881500000    4.470052719e-01   -9.199960232e-01   -6.657093763e-06    1.235119998e-05    0.000000000e+00    0.000000000e+00    0.000000000e+00    0.000000000e+00
      888750000    3.413872123e-01   -9.769341946e-01   -3.910250962e-05    3.257300705e-05    0.000000000e+00    0.000000000e+00    0.000000000e+00    0.000000000e+00
      896000000    2.268135995e-01   -1.021309614e+00    2.300180495e-05    6.883405149e-06    0.000000000e+00    0.000000000e+00    0.000000000e+00    0.000000000e+00
      903250000    1.061159745e-01   -1.050647378e+00   -2.391915768e-05    4.182942212e-05    0.000000000e+00    0.000000000e+00    0.000000000e+00    0.000000000e+00
      910500000   -1.989446767e-02   -1.063891649e+00   -2.811010927e-05   -1.611839980e-05    0.000000000e+00    0.000000000e+00    0.000000000e+00    0.000000000e+00
      917750000   -1.452927291e-01   -1.059992552e+00    5.087442696e-05    1.865811646e-05    0.000000000e+00    0.000000000e+00    0.000000000e+00    0.000000000e+00
      925000000   -2.687603533e-01   -1.037957191e+00   -2.016127110e-05   -1.222826540e-05    0.000000000e+00    0.000000000e+00    0.000000000e+00    0.000000000e+00
      932250000   -3.899655342e-01   -9.999889731e-01   -1.812446862e-05   -1.927465200e-05    0.000000000e+00    0.000000000e+00    0.000000000e+00    0.000000000e+00
      939500000   -5.033117533e-01   -9.451216459e-01    5.303882062e-06   -1.020915806e-05    0.000000000e+00    0.000000000e+00    0.000000000e+00    0.000000000e+00
      946750000   -6.066275835e-01   -8.769403696e-01    2.770777792e-05    1.628044993e-05    0.000000000e+00    0.000000000e+00    0.000000000e+00    0.000000000e+00
      954000000   -7.006003857e-01   -7.944100499e-01   -9.015202522e-06    2.265535295e-05    0.000000000e+00    0.000000000e+00    0.000000000e+00    0.000000000e+00
      961250000   -7.785161734e-01   -7.041275501e-01    2.363044769e-05   -8.132308722e-06    0.000000000e+00    0.000000000e+00    0.000000000e+00    0.000000000e+00
      968500000   -8.457194567e-01   -6.028556228e-01   -3.236439079e-05    1.519918442e-05    0.000000000e+00    0.000000000e+00    0.000000000e+00    0.000000000e+00
      975750000   -8.965687156e-01   -4.970849156e-01    2.721510828e-05   -4.461035132e-06    0.000000000e+00    0.000000000e+00    0.000000000e+00    0.000000000e+00
      983000000   -9.324088097e-01   -3.893151879e-01    1.757312566e-05    5.229376256e-06    0.000000000e+00    0.000000000e+00    0.000000000e+00    0.000000000e+00
      990250000   -9.543330669e-01   -2.791708708e-01   -1.708511263e-05    1.727603376e-06    0.000000000e+00    0.000000000e+00    0.000000000e+00    0.000000000e+00
      997500000   -9.618515372e-01   -1.677978486e-01    2.040900290e-05   -1.486483961e-05    0.000000000e+00    0.000000000e+00    0.000000000e+00    0.000000000e+00
     1004750000   -9.564495087e-01   -6.293721497e-02   -1.304782927e-06   -9.032897651e-06    0.000000000e+00    0.000000000e+00    0.000000000e+00    0.000000000e+00
     1012000000   -9.394202232e-01    4.114423692e-02    2.558622509e-05    6.736256182e-06    0.000000000e+00    0.000000000e+00    0.000000000e+00    0.000000000e+00
     1019250000   -9.115428925e-01    1.366301030e-01   -5.587935448e-06   -2.854317427e-05    0.000000000e+00    0.000000000e+00    0.000000000e+00    0.000000000e+00
     1026500000   -8.739557862e-01    2.294199318e-01    3.395508975e-05   -6.924383342e-06    0.000000000e+00    0.000000000e+00    0.000000000e+00    0.000000000e+00
     1033750000   -8.276657462e-01    3.148342669e-01    5.810521543e-06    4.074536264e-06    0.000000000e+00    0.000000000e+00    0.000000000e+00    0.000000000e+00
     1041000000   -7.755301595e-01    3.903226852e-01   -3.432482481e-05   -6.148591638e-06    0.000000000e+00    0.000000000e+00    0.000000000e+00    0.000000000e+00
