! NanoVNA-App
! Date: 2024-06-25 16:04:05
! Start: 200MHz Stop: 6GHz Points: 801
! S-Parameter data: F S11 S21 S12 S22
# Hz S RI R 50
!     Frequency           S11_Real           S11_Imag           S21_Real           S21_Imag           S12_Real           S12_Imag           S22_Real           S22_Imag
      200000000   -9.982857704e-01   -1.222249344e-01   -5.038455129e-06   -1.532677561e-05    0.000000000e+00    0.000000000e+00    0.000000000e+00    0.000000000e+00
      207250000   -1.010223150e+00   -2.346054465e-02   -1.918617636e-05   -1.630373299e-05    0.000000000e+00    0.000000000e+00    0.000000000e+00    0.000000000e+00
      214500000   -1.012197495e+00    7.791515440e-02    7.330439985e-06    2.687610686e-05    0.000000000e+00    0.000000000e+00    0.000000000e+00    0.000000000e+00
      221750000   -1.003476620e+00    1.802120656e-01    1.314934343e-05    1.462362707e-05    0.000000000e+00    0.000000000e+00    0.000000000e+00    0.000000000e+00
      229000000   -9.845584035e-01    2.828988731e-01    1.105014235e-05   -4.107970744e-05    0.000000000e+00    0.000000000e+00    0.000000000e+00    0.000000000e+00
      236250000   -9.534026980e-01    3.860511184e-01   -1.406762749e-05    9.965151548e-07    0.000000000e+00    0.000000000e+00    0.000000000e+00    0.000000000e+00
      243500000   -9.105514288e-01    4.857904315e-01    2.564955503e-05   -4.293955863e-05    0.000000000e+00    0.000000000e+00    0.000000000e+00    0.000000000e+00
      250750000   -8.551713228e-01    5.828130245e-01    1.818221062e-05    7.597729564e-06    0.000000000e+00    0.000000000e+00    0.000000000e+00    0.000000000e+00
      258000000   -7.880952358e-01    6.739920974e-01   -1.389533281e-06   -1.363549381e-05    0.000000000e+00    0.000000000e+00    0.000000000e+00    0.000000000e+00
      265250000   -7.088313103e-01    7.586324811e-01   -1.492258161e-05   -2.438295633e-05    0.000000000e+00    0.000000000e+00    0.000000000e+00    0.000000000e+00
      272500000   -6.194423437e-01    8.349326253e-01    3.555137664e-05   -4.936009645e-07    0.000000000e+00    0.000000000e+00    0.000000000e+00    0.000000000e+00
      279750000   -5.191905499e-01    8.997849822e-01   -2.094171941e-05   -1.145619899e-05    0.000000000e+00    0.000000000e+00    0.000000000e+00    0.000000000e+00
      287000000   -4.087982476e-01    9.527511001e-01    2.040341496e-05    1.487135887e-05    0.000000000e+00    0.000000000e+00    0.000000000e+00    0.000000000e+00
      294250000   -2.926366031e-01    9.917086959e-01   -1.282058656e-05    2.021156251e-05    0.000000000e+00    0.000000000e+00    0.000000000e+00    0.000000000e+00
      301500000   -1.704066098e-01    1.015896678e+00    2.071168274e-05    3.342516720e-06    0.000000000e+00    0.000000000e+00    0.000000000e+00    0.000000000e+00
      308750000   -4.501623288e-02    1.024936438e+00   -2.864841372e-05   -1.045316458e-05    0.000000000e+00    0.000000000e+00    0.000000000e+00    0.000000000e+00
      316000000    8.157145232e-02    1.017612219e+00   -2.799183130e-05   -6.444752216e-06    0.000000000e+00    0.000000000e+00    0.000000000e+00    0.000000000e+00
      323250000    2.060647160e-01    9.936839342e-01    2.012588084e-05    2.089980990e-05    0.000000000e+00    0.000000000e+00    0.000000000e+00    0.000000000e+00
      330500000    3.267886937e-01    9.537309408e-01    4.020612687e-05   -1.617986709e-05    0.000000000e+00    0.000000000e+00    0.000000000e+00    0.000000000e+00
      337750000    4.412266016e-01    8.992323875e-01    3.704894334e-05   -1.398380846e-05    0.000000000e+00    0.000000000e+00    0.000000000e+00    0.000000000e+00
      345000000    5.470057726e-01    8.300032616e-01    2.969056368e-06   -8.811242878e-06    0.000000000e+00    0.000000000e+00    0.000000000e+00    0.000000000e+00
      352250000    6.437544823e-01    7.494305968e-01    2.624467015e-05    1.010671258e-05    0.000000000e+00    0.000000000e+00    0.000000000e+00    0.000000000e+00
      359500000    7.279481292e-01    6.582300663e-01   -1.969747245e-06   -9.417533875e-06    0.000000000e+00    0.000000000e+00    0.000000000e+00    0.000000000e+00
      366750000    8.002365828e-01    5.568531752e-01   -2.088397741e-05   -1.918990165e-05    0.000000000e+00    0.000000000e+00    0.000000000e+00    0.000000000e+00
      374000000    8.586866856e-01    4.496507049e-01    2.223066986e-05   -9.985640645e-06    0.000000000e+00    0.000000000e+00    0.000000000e+00    0.000000000e+00
      381250000    9.045690298e-01    3.362801671e-01   -2.990663052e-05   -5.986541510e-06    0.000000000e+00    0.000000000e+00    0.000000000e+00    0.000000000e+00
      388500000    9.353092909e-01    2.208060473e-01   -2.792011946e-05   -1.438613981e-05    0.000000000e+00    0.000000000e+00    0.000000000e+00    0.000000000e+00
      395750000    9.527105689e-01    1.039141491e-01    2.039596438e-06   -5.085021257e-07    0.000000000e+00    0.000000000e+00    0.000000000e+00    0.000000000e+00
      403000000    9.572550058e-01   -1.354358345e-02    9.006820619e-06   -4.727393389e-06    0.000000000e+00    0.000000000e+00    0.000000000e+00    0.000000000e+00
      410250000    9.479303360e-01   -1.286733449e-01   -2.629496157e-05   -5.214475095e-06    0.000000000e+00    0.000000000e+00    0.000000000e+00    0.000000000e+00
      417500000    9.275143743e-01   -2.411291003e-01    1.564621925e-07   -1.176260412e-06    0.000000000e+00    0.000000000e+00    0.000000000e+00    0.000000000e+00
      424750000    8.941584229e-01   -3.510934114e-01   -4.297122359e-06   -4.898756742e-06    0.000000000e+00    0.000000000e+00    0.000000000e+00    0.000000000e+00
      432000000    8.491529822e-01   -4.540712237e-01    1.078378409e-05   -6.509013474e-06    0.000000000e+00    0.000000000e+00    0.000000000e+00    0.000000000e+00
      439250000    7.962836623e-01   -5.519382358e-01    3.623496741e-05   -3.676861525e-06    0.000000000e+00    0.000000000e+00    0.000000000e+00    0.000000000e+00
      446500000    7.326327562e-01   -6.418114901e-01    5.816109478e-06    9.980984032e-06    0.000000000e+00    0.000000000e+00    0.000000000e+00    0.000000000e+00
      453750000    6.595229506e-01   -7.259460688e-01    1.263525337e-05   -3.991741687e-05    0.000000000e+00    0.000000000e+00    0.000000000e+00    0.000000000e+00
      461000000    5.790727735e-01   -8.006716967e-01   -3.960356116e-05   -1.254491508e-05    0.000000000e+00    0.000000000e+00    0.000000000e+00    0.000000000e+00
      468250000    4.917273521e-01   -8.664385676e-01    1.178961247e-05   -2.931803465e-06    0.000000000e+00    0.000000000e+00    0.000000000e+00    0.000000000e+00
      475500000    3.973689079e-01   -9.234979153e-01   -1.391954720e-05    9.573996067e-07    0.000000000e+00    0.000000000e+00    0.000000000e+00    0.000000000e+00
      482750000    2.983796895e-01   -9.700450897e-01   -1.747533679e-05    5.235895514e-06    0.000000000e+00    0.000000000e+00    0.000000000e+00    0.000000000e+00
      490000000    1.952047050e-01   -1.006142497e+00   -3.589317203e-05    2.058688551e-05    0.000000000e+00    0.000000000e+00    0.000000000e+00    0.000000000e+00
      497250000    8.793782443e-02   -1.031504869e+00    2.930313349e-05    4.320405424e-06    0.000000000e+00    0.000000000e+00    0.000000000e+00    0.000000000e+00
      504500000   -2.227959968e-02   -1.045054555e+00   -1.533981413e-05    5.506910384e-06    0.000000000e+00    0.000000000e+00    0.000000000e+00    0.000000000e+00
      511750000   -1.332699955e-01   -1.047549963e+00    3.127660602e-05    2.467352897e-05    0.000000000e+00    0.000000000e+00    0.000000000e+00    0.000000000e+00
      519000000   -2.456633598e-01   -1.037929296e+00    6.519258022e-05   -1.223292202e-05    0.000000000e+00    0.000000000e+00    0.000000000e+00    0.000000000e+00
      526250000   -3.568499386e-01   -1.014466405e+00    1.949444413e-05    4.626810551e-06    0.000000000e+00    0.000000000e+00    0.000000000e+00    0.000000000e+00
      533500000   -4.652408063e-01   -9.799562693e-01    6.196089089e-06    4.316400737e-05    0.000000000e+00    0.000000000e+00    0.000000000e+00    0.000000000e+00
      540750000   -5.698241591e-01   -9.329651594e-01   -2.678483725e-06    9.139999747e-06    0.000000000e+00    0.000000000e+00    0.000000000e+00    0.000000000e+00
      548000000   -6.701197028e-01   -8.747757077e-01    1.657288522e-05    1.003127545e-05    0.000000000e+00    0.000000000e+00    0.000000000e+00    0.000000000e+00
      555250000   -7.622545958e-01   -8.032038808e-01   -2.525467426e-05   -2.512522042e-05    0.000000000e+00    0.000000000e+00    0.000000000e+00    0.000000000e+00
      562500000   -8.464136124e-01   -7.205473185e-01    1.292582601e-05    2.175383270e-05    0.000000000e+00    0.000000000e+00    0.000000000e+00    0.000000000e+00
      569750000   -9.209685922e-01   -6.297236085e-01   -2.990290523e-05   -2.823956311e-05    0.000000000e+00    0.000000000e+00    0.000000000e+00    0.000000000e+00
      577000000   -9.850373268e-01   -5.273814797e-01    2.029258758e-05   -7.534399629e-06    0.000000000e+00    0.000000000e+00    0.000000000e+00    0.000000000e+00
      584250000   -1.036942959e+00   -4.209946394e-01    2.578739077e-05   -1.322105527e-05    0.000000000e+00    0.000000000e+00    0.000000000e+00    0.000000000e+00
      591500000   -1.074430823e+00   -3.076180220e-01   -1.633167267e-05    1.160986722e-05    0.000000000e+00    0.000000000e+00    0.000000000e+00    0.000000000e+00
      598750000   -1.097823143e+00   -1.873536706e-01    3.280583769e-05    2.495665103e-05    0.000000000e+00    0.000000000e+00    0.000000000e+00    0.000000000e+00
      606000000   -1.107604504e+00   -6.769014150e-02   -1.000985503e-05    2.039968967e-05    0.000000000e+00    0.000000000e+00    0.000000000e+00    0.000000000e+00
      613250000   -1.102456093e+00    5.169923976e-02    1.782737672e-05    4.487670958e-05    0.000000000e+00    0.000000000e+00    0.000000000e+00    0.000000000e+00
      620500000   -1.081721663e+00    1.719179451e-01    3.215484321e-05   -5.113426596e-05    0.000000000e+00    0.000000000e+00    0.000000000e+00    0.000000000e+00
      627750000   -1.048265696e+00    2.851067185e-01    4.346482456e-06    1.545343548e-05    0.000000000e+00    0.000000000e+00    0.000000000e+00    0.000000000e+00
      635000000   -1.001642704e+00    3.939160407e-01    4.583038390e-06   -2.110563219e-05    0.000000000e+00    0.000000000e+00    0.000000000e+00    0.000000000e+00
      642250000   -9.411672950e-01    4.959090948e-01   -4.425644875e-06   -1.099985093e-05    0.000000000e+00    0.000000000e+00    0.000000000e+00    0.000000000e+00
      649500000   -8.695573807e-01    5.903688669e-01   -3.042723984e-05    9.926967323e-06    0.000000000e+00    0.000000000e+00    0.000000000e+00    0.000000000e+00
      656750000   -7.904419899e-01    6.718097925e-01    9.072944522e-06   -1.867488027e-05    0.000000000e+00    0.000000000e+00    0.000000000e+00    0.000000000e+00
      664000000   -7.010157704e-01    7.447920442e-01   -1.812353730e-05   -1.859292388e-05    0.000000000e+00    0.000000000e+00    0.000000000e+00    0.000000000e+00
      671250000   -6.055042148e-01    8.057605028e-01   -2.733990550e-05    2.636015415e-05    0.000000000e+00    0.000000000e+00    0.000000000e+00    0.000000000e+00
      678500000   -5.043290257e-01    8.550878167e-01   -9.515322745e-06   -5.139783025e-05    0.000000000e+00    0.000000000e+00    0.000000000e+00    0.000000000e+00
      685750000   -4.007363915e-01    8.917004466e-01   -4.627276212e-05    2.745538950e-06    0.000000000e+00    0.000000000e+00    0.000000000e+00    0.000000000e+00
      693000000   -2.933200300e-01    9.172521234e-01   -4.333443940e-06    4.403293133e-06    0.000000000e+00    0.000000000e+00    0.000000000e+00    0.000000000e+00
      700250000   -1.865415275e-01    9.307809472e-01   -3.440305591e-06    2.476386726e-06    0.000000000e+00    0.000000000e+00    0.000000000e+00    0.000000000e+00
      707500000   -7.826806605e-02    9.316061735e-01    2.326164395e-05   -2.146698534e-06    0.000000000e+00    0.000000000e+00    0.000000000e+00    0.000000000e+00
      714750000    2.560346574e-02    9.225562215e-01   -1.690909266e-05   -7.520243526e-05    0.000000000e+00    0.000000000e+00    0.000000000e+00    0.000000000e+00
      722000000    1.298623532e-01    9.008235931e-01   -6.794929504e-06   -8.167698979e-07    0.000000000e+00    0.000000000e+00    0.000000000e+00    0.000000000e+00
      729250000    2.293009013e-01    8.706151247e-01    1.374259591e-05   -4.679802805e-05    0.000000000e+00    0.000000000e+00    0.000000000e+00    0.000000000e+00
      736500000    3.235068619e-01    8.300179243e-01   -1.013372093e-05   -6.632879376e-06    0.000000000e+00    0.000000000e+00    0.000000000e+00    0.000000000e+00
      743750000    4.122713804e-01    7.811179757e-01    3.229919821e-05    1.728069037e-05    0.000000000e+00    0.000000000e+00    0.000000000e+00    0.000000000e+00
      751000000    4.963812530e-01    7.228078842e-01   -1.248065382e-05   -1.128017902e-05    0.000000000e+00    0.000000000e+00    0.000000000e+00    0.000000000e+00
      758250000    5.725634098e-01    6.594288945e-01   -1.222733408e-05   -4.882644862e-05    0.000000000e+00    0.000000000e+00    0.000000000e+00    0.000000000e+00
      765500000    6.438010931e-01    5.861650705e-01   -1.303385943e-05    4.181638360e-07    0.000000000e+00    0.000000000e+00    0.000000000e+00    0.000000000e+00
      772750000    7.056732178e-01    5.078836679e-01   -1.210719347e-05   -7.999129593e-06    0.000000000e+00    0.000000000e+00    0.000000000e+00    0.000000000e+00
      780000000    7.604133487e-01    4.232528508e-01   -9.034760296e-06    2.478621900e-05    0.000000000e+00    0.000000000e+00    0.000000000e+00    0.000000000e+00
      787250000    8.071703911e-01    3.330037892e-01    1.590605825e-05   -4.126410931e-05    0.000000000e+00    0.000000000e+00    0.000000000e+00    0.000000000e+00
      794500000    8.452407122e-01    2.383973598e-01   -1.477543265e-05    1.466833055e-06    0.000000000e+00    0.000000000e+00    0.000000000e+00    0.000000000e+00
      801750000    8.731839657e-01    1.401208788e-01    1.598615199e-05   -1.096352935e-05    0.000000000e+00    0.000000000e+00    0.000000000e+00    0.000000000e+00
      809000000    8.908671737e-01    3.841201216e-02    2.387817949e-05   -2.457387745e-05    0.000000000e+00    0.000000000e+00    0.000000000e+00    0.000000000e+00
      816250000    8.987963796e-01   -6.459148973e-02    6.463378668e-07    3.776047379e-05    0.000000000e+00    0.000000000e+00    0.000000000e+00    0.000000000e+00
      823500000    8.960601687e-01   -1.714633554e-01   -2.008862793e-06    2.217013389e-05    0.000000000e+00    0.000000000e+00    0.000000000e+00    0.000000000e+00
      830750000    8.818399310e-01   -2.767513692e-01   -3.576278687e-07    1.849606633e-06    0.000000000e+00    0.000000000e+00    0.000000000e+00    0.000000000e+00
      838000000    8.551404476e-01   -3.828355968e-01    1.575052738e-05    4.179868847e-05    0.000000000e+00    0.000000000e+00    0.000000000e+00    0.000000000e+00
      845250000    8.170003295e-01   -4.854544699e-01   -2.683605999e-05   -7.813796401e-07    0.000000000e+00    0.000000000e+00    0.000000000e+00    0.000000000e+00
      852500000    7.670416832e-01   -5.856157541e-01    1.298543066e-05    1.959037036e-05    0.000000000e+00    0.000000000e+00    0.000000000e+00    0.000000000e+00
      859750000    7.052361369e-01   -6.799820662e-01    1.275353134e-05   -2.832151949e-05    0.000000000e+00    0.000000000e+00    0.000000000e+00    0.000000000e+00
      867000000    6.299450397e-01   -7.690912485e-01    1.322757453e-05    1.835729927e-05    0.000000000e+00    0.000000000e+00    0.000000000e+00    0.000000000e+00
      874250000    5.444065332e-01   -8.483997583e-01    3.416649997e-05    4.610326141e-05    0.000000000e+00    0.000000000e+00    0.000000000e+00    0.000000000e+00
      881500000    4.470274150e-01   -9.197886586e-01   -7.800757885e-06   -1.186411828e-05    0.000000000e+00    0.000000000e+00    0.000000000e+00    0.000000000e+00
      888750000    3.415623009e-01   -9.772007465e-01   -1.772306859e-06   -3.923196346e-05    0.000000000e+00    0.000000000e+00    0.000000000e+00    0.000000000e+00
      896000000    2.270138711e-01   -1.021585345e+00   -1.374073327e-05    1.057889313e-05    0.000000000e+00    0.000000000e+00    0.000000000e+00    0.000000000e+00
      903250000    1.069025993e-01   -1.050499678e+00    7.893890142e-06   -3.836117685e-06    0.000000000e+00    0.000000000e+00    0.000000000e+00    0.000000000e+00
      910500000   -2.023183554e-02   -1.063556552e+00   -2.929568291e-05   -2.037454396e-05    0.000000000e+00    0.000000000e+00    0.000000000e+00    0.000000000e+00
      917750000   -1.445073038e-01   -1.059221268e+00   -2.633500844e-05    1.515634358e-05    0.000000000e+00    0.000000000e+00    0.000000000e+00    0.000000000e+00
      925000000   -2.712179720e-01   -1.037537813e+00    2.937391400e-05    4.895962775e-06    0.000000000e+00    0.000000000e+00    0.000000000e+00    0.000000000e+00
      932250000   -3.890451789e-01   -9.999803901e-01   -2.909824252e-05   -9.834766388e-06    0.000000000e+00    0.000000000e+00    0.000000000e+00    0.000000000e+00
      939500000   -5.029596686e-01   -9.453161359e-01    8.374452591e-06    6.037764251e-06    0.000000000e+00    0.000000000e+00    0.000000000e+00    0.000000000e+00
      946750000   -6.072378755e-01   -8.763900995e-01    2.431310713e-05    4.191976041e-05    0.000000000e+00    0.000000000e+00    0.000000000e+00    0.000000000e+00
      954000000   -6.997129321e-01   -7.945613861e-01   -3.659538925e-05   -3.379303962e-05    0.000000000e+00    0.000000000e+00    0.000000000e+00    0.000000000e+00
      961250000   -7.794753909e-01   -7.036671042e-01    1.384131610e-05   -1.231487840e-05    0.000000000e+00    0.000000000e+00    0.000000000e+00    0.000000000e+00
      968500000   -8.449549079e-01   -6.036891937e-01    2.023205161e-05   -5.366280675e-06    0.000000000e+00    0.000000000e+00    0.000000000e+00    0.000000000e+00
      975750000   -8.956992626e-01   -4.994830191e-01    3.356114030e-05   -4.190951586e-07    0.000000000e+00    0.000000000e+00    0.000000000e+00    0.000000000e+00
      983000000   -9.326115251e-01   -3.883982599e-01    3.353320062e-05   -4.827044904e-06    0.000000000e+00    0.000000000e+00    0.000000000e+00    0.000000000e+00
      990250000   -9.543735981e-01   -2.780824602e-01   -4.144664854e-05    3.156252205e-05    0.000000000e+00    0.000000000e+00    0.000000000e+00    0.000000000e+00
      997500000   -9.621725082e-01   -1.696993262e-01    3.295019269e-06    2.193544060e-05    0.000000000e+00    0.000000000e+00    0.000000000e+00    0.000000000e+00
     1004750000   -9.564970732e-01   -6.225490198e-02    3.719795495e-05    4.360917956e-05    0.000000000e+00    0.000000000e+00    0.000000000e+00    0.000000000e+00
     1012000000   -9.392879009e-01    4.094987363e-02   -8.472241461e-06    1.585204154e-05    0.000000000e+00    0.000000000e+00    0.000000000e+00    0.000000000e+00
     1019250000   -9.114065170e-01    1.377278268e-01   -4.991516471e-05   -1.708883792e-05    0.000000000e+00    0.000000000e+00    0.000000000e+00    0.000000000e+00
     1026500000   -8.733901978e-01    2.299240381e-01    7.354281843e-05   -3.669410944e-06    0.000000000e+00    0.000000000e+00    0.000000000e+00    0.000000000e+00
     1033750000   -8.284103870e-01    3.134283423e-01   -9.370036423e-06   -2.557411790e-05    0.000000000e+00    0.000000000e+00    0.000000000e+00    0.000000000e+00
     1041000000   -7.762258649e-01    3.894180954e-01   -6.427615881e-05    1.327786595e-05    0.000000000e+00    0.000000000e+00    0.000000000e+00    0.000000000e+00
