! NanoVNA-App
! Date: 2024-06-25 16:04:08
! Start: 200MHz Stop: 6GHz Points: 801
! S-Parameter data: F S11 S21 S12 S22
# Hz S RI R 50
!     Frequency           S11_Real           S11_Imag           S21_Real           S21_Imag           S12_Real           S12_Imag           S22_Real           S22_Imag
      200000000   -9.979397655e-01   -1.222700998e-01    1.336075366e-05    2.948567271e-05    0.000000000e+00    0.000000000e+00    0.000000000e+00    0.000000000e+00
      207250000   -1.010148525e+00   -2.303502336e-02    1.730397344e-05   -1.199264079e-05    0.000000000e+00    0.000000000e+00    0.000000000e+00    0.000000000e+00
      214500000   -1.012256026e+00    7.784742117e-02    4.896987230e-05    2.152845263e-05    0.000000000e+00    0.000000000e+00    0.000000000e+00    0.000000000e+00
      221750000   -1.003491282e+00    1.802682877e-01   -2.998206764e-05    2.656970173e-05    0.000000000e+00    0.000000000e+00    0.000000000e+00    0.000000000e+00
      229000000   -9.840576053e-01    2.831207514e-01    2.603139728e-05   -3.514718264e-05    0.000000000e+00    0.000000000e+00    0.000000000e+00    0.000000000e+00
      236250000   -9.528195262e-01    3.858404160e-01    2.535339445e-05    4.730187356e-06    0.000000000e+00    0.000000000e+00    0.000000000e+00    0.000000000e+00
      243500000   -9.110018015e-01    4.854389429e-01   -1.019053161e-05    4.140567034e-05    0.000000000e+00    0.000000000e+00    0.000000000e+00    0.000000000e+00
      250750000   -8.554710746e-01    5.826794505e-01    8.762814105e-06   -1.626648009e-05    0.000000000e+00    0.000000000e+00    0.000000000e+00    0.000000000e+00
      258000000   -7.877168059e-01    6.743468046e-01    2.907775342e-05    3.143213689e-06    0.000000000e+00    0.000000000e+00    0.000000000e+00    0.000000000e+00
      265250000   -7.096159458e-01    7.586761117e-01   -1.862645149e-05    2.758018672e-05    0.000000000e+00    0.000000000e+00    0.000000000e+00    0.000000000e+00
      272500000   -6.181864142e-01    8.340050578e-01    3.149732947e-06    2.063438296e-05    0.000000000e+00    0.000000000e+00    0.000000000e+00    0.000000000e+00
      279750000   -5.192439556e-01    8.997057676e-01    4.664901644e-05   -1.772865653e-05    0.000000000e+00    0.000000000e+00    0.000000000e+00    0.000000000e+00
      287000000   -4.086647332e-01    9.524460435e-01   -3.654509783e-06   -2.414919436e-06    0.000000000e+00    0.000000000e+00    0.000000000e+00    0.000000000e+00
      294250000   -2.929080427e-01    9.921707511e-01   -4.858709872e-06   -4.805903882e-05    0.000000000e+00    0.000000000e+00    0.000000000e+00    0.000000000e+00
      301500000   -1.706009358e-01    1.016047120e+00    2.917274833e-05   -6.450340152e-06    0.000000000e+00    0.000000000e+00    0.000000000e+00    0.000000000e+00
      308750000   -4.494624957e-02    1.025044918e+00   -1.465622336e-05    2.155359834e-05    0.000000000e+00    0.000000000e+00    0.000000000e+00    0.000000000e+00
      316000000    8.102236688e-02    1.018377781e+00   -1.364480704e-05    1.897662878e-05    0.000000000e+00    0.000000000e+00    0.000000000e+00    0.000000000e+00
      323250000    2.059467733e-01    9.936591983e-01   -2.637133002e-05   -8.459202945e-06    0.000000000e+00    0.000000000e+00    0.000000000e+00    0.000000000e+00
      330500000    3.265123665e-01    9.540245533e-01    9.138137102e-06    9.937211871e-07    0.000000000e+00    0.000000000e+00    0.000000000e+00    0.000000000e+00
      337750000    4.411283433e-01    8.993205428e-01    3.472622484e-05   -7.278285921e-06    0.000000000e+00    0.000000000e+00    0.000000000e+00    0.000000000e+00
      345000000    5.469604135e-01    8.313336968e-01    1.567415893e-06    5.635898560e-05    0.000000000e+00    0.000000000e+00    0.000000000e+00    0.000000000e+00
      352250000    6.434434056e-01    7.494113445e-01    2.224277705e-05    3.320723772e-05    0.000000000e+00    0.000000000e+00    0.000000000e+00    0.000000000e+00
      359500000    7.279331684e-01    6.578205824e-01   -2.281740308e-05   -2.403184772e-05    0.000000000e+00    0.000000000e+00    0.000000000e+00    0.000000000e+00
      366750000    8.000724316e-01    5.572987795e-01   -1.871772110e-05   -1.384783536e-05    0.000000000e+00    0.000000000e+00    0.000000000e+00    0.000000000e+00
      374000000    8.588232398e-01    4.500963688e-01   -1.092255116e-05   -8.923001587e-06    0.000000000e+00    0.000000000e+00    0.000000000e+00    0.000000000e+00
      381250000    9.042026997e-01    3.359702528e-01    1.328065991e-06    7.201917470e-06    0.000000000e+00    0.000000000e+00    0.000000000e+00    0.000000000e+00
      388500000    9.355564117e-01    2.207557410e-01    7.443130016e-06   -7.422640920e-06    0.000000000e+00    0.000000000e+00    0.000000000e+00    0.000000000e+00
      395750000    9.525341988e-01    1.038255990e-01    3.395229578e-05   -1.707673073e-05    0.000000000e+00    0.000000000e+00    0.000000000e+00    0.000000000e+00
      403000000    9.569510221e-01   -1.342277043e-02   -2.187304199e-05    3.753136843e-05    0.000000000e+00    0.000000000e+00    0.000000000e+00    0.000000000e+00
      410250000    9.480988383e-01   -1.296406686e-01   -2.266839147e-06    2.920906991e-05    0.000000000e+00    0.000000000e+00    0.000000000e+00    0.000000000e+00
      417500000    9.264465570e-01   -2.419466376e-01    2.376269549e-05    1.145899296e-05    0.000000000e+00    0.000000000e+00    0.000000000e+00    0.000000000e+00
      424750000    8.942422271e-01   -3.504274189e-01   -2.073775977e-05    2.545677125e-05    0.000000000e+00    0.000000000e+00    0.000000000e+00    0.000000000e+00
      432000000    8.500822186e-01   -4.542105198e-01   -1.729279757e-05   -4.095025361e-06    0.000000000e+00    0.000000000e+00    0.000000000e+00    0.000000000e+00
      439250000    7.959399223e-01   -5.515911579e-01   -4.274770617e-07   -1.528300345e-06    0.000000000e+00    0.000000000e+00    0.000000000e+00    0.000000000e+00
      446500000    7.316842079e-01   -6.425592303e-01   -7.094815373e-06    1.543946564e-05    0.000000000e+00    0.000000000e+00    0.000000000e+00    0.000000000e+00
      453750000    6.589481831e-01   -7.260792851e-01   -6.447546184e-06   -5.076639354e-06    0.000000000e+00    0.000000000e+00    0.000000000e+00    0.000000000e+00
      461000000    5.795655847e-01   -8.001813293e-01   -1.652818173e-05   -1.758337021e-05    0.000000000e+00    0.000000000e+00    0.000000000e+00    0.000000000e+00
      468250000    4.925385118e-01   -8.670232892e-01    1.366250217e-05   -2.684071660e-06    0.000000000e+00    0.000000000e+00    0.000000000e+00    0.000000000e+00
      475500000    3.978873789e-01   -9.234711528e-01    1.453794539e-06    2.878345549e-05    0.000000000e+00    0.000000000e+00    0.000000000e+00    0.000000000e+00
      482750000    2.985517383e-01   -9.699467421e-01    2.736225724e-05    2.779439092e-05    0.000000000e+00    0.000000000e+00    0.000000000e+00    0.000000000e+00
      490000000    1.948932260e-01   -1.006115794e+00   -2.408307046e-05   -1.449603587e-05    0.000000000e+00    0.000000000e+00    0.000000000e+00    0.000000000e+00
      497250000    8.786439896e-02   -1.032014370e+00   -5.299225450e-06   -1.247785985e-05    0.000000000e+00    0.000000000e+00    0.000000000e+00    0.000000000e+00
      504500000   -2.232714184e-02   -1.045381904e+00   -1.960527152e-05    6.317161024e-06    0.000000000e+00    0.000000000e+00    0.000000000e+00    0.000000000e+00
      511750000   -1.337613910e-01   -1.047114372e+00    4.490837455e-06   -2.153869718e-05    0.000000000e+00    0.000000000e+00    0.000000000e+00    0.000000000e+00
      519000000   -2.458748221e-01   -1.037176967e+00    1.007877290e-05   -4.868209362e-05    0.000000000e+00    0.000000000e+00    0.000000000e+00    0.000000000e+00
      526250000   -3.565700054e-01   -1.015011311e+00    3.807246685e-06   -1.187063754e-05    0.000000000e+00    0.000000000e+00    0.000000000e+00    0.000000000e+00
      533500000   -4.647901654e-01   -9.798585176e-01    1.804810017e-05    8.567236364e-06    0.000000000e+00    0.000000000e+00    0.000000000e+00    0.000000000e+00
      540750000   -5.696028471e-01   -9.338048697e-01   -1.215375960e-06    1.804344356e-05    0.000000000e+00    0.000000000e+00    0.000000000e+00    0.000000000e+00
      548000000   -6.696823835e-01   -8.729538918e-01   -1.035258174e-05    4.413537681e-05    0.000000000e+00    0.000000000e+00    0.000000000e+00    0.000000000e+00
      555250000   -7.617095709e-01   -8.027490973e-01   -2.008676529e-05    1.670606434e-05    0.000000000e+00    0.000000000e+00    0.000000000e+00    0.000000000e+00
      562500000   -8.468405604e-01   -7.209216952e-01    1.997221261e-05    3.439467400e-05    0.000000000e+00    0.000000000e+00    0.000000000e+00    0.000000000e+00
      569750000   -9.208504558e-01   -6.300215721e-01    2.936925739e-05    2.077501267e-05    0.000000000e+00    0.000000000e+00    0.000000000e+00    0.000000000e+00
      577000000   -9.856597781e-01   -5.273138881e-01   -9.708106518e-06    4.215352237e-05    0.000000000e+00    0.000000000e+00    0.000000000e+00    0.000000000e+00
      584250000   -1.036211491e+00   -4.209613800e-01   -1.883879304e-05    2.183765173e-05    0.000000000e+00    0.000000000e+00    0.000000000e+00    0.000000000e+00
      591500000   -1.074079275e+00   -3.062951863e-01   -9.853392839e-06    4.414469004e-07    0.000000000e+00    0.000000000e+00    0.000000000e+00    0.000000000e+00
      598750000   -1.098582149e+00   -1.880085319e-01   -1.297425479e-05   -3.358628601e-05    0.000000000e+00    0.000000000e+00    0.000000000e+00    0.000000000e+00
      606000000   -1.107302308e+00   -6.879057735e-02    1.037679613e-05   -2.261716872e-05    0.000000000e+00    0.000000000e+00    0.000000000e+00    0.000000000e+00
      613250000   -1.102236867e+00    5.209092051e-02    1.954846084e-06    2.349633723e-05    0.000000000e+00    0.000000000e+00    0.000000000e+00    0.000000000e+00
      620500000   -1.082353354e+00    1.718183309e-01   -5.453824997e-06    1.336820424e-05    0.000000000e+00    0.000000000e+00    0.000000000e+00    0.000000000e+00
      627750000   -1.048166394e+00    2.848648429e-01    1.648254693e-05    7.282011211e-06    0.000000000e+00    0.000000000e+00    0.000000000e+00    0.000000000e+00
      635000000   -1.001908541e+00    3.937429190e-01    1.397822052e-05    1.678522676e-05    0.000000000e+00    0.000000000e+00    0.000000000e+00    0.000000000e+00
      642250000   -9.413909316e-01    4.963122606e-01   -1.733843237e-05   -1.099705696e-05    0.000000000e+00    0.000000000e+00    0.000000000e+00    0.000000000e+00
      649500000   -8.703362942e-01    5.890107155e-01    3.209803253e-05   -1.142267138e-05    0.000000000e+00    0.000000000e+00    0.000000000e+00    0.000000000e+00
      656750000   -7.909106016e-01    6.716892123e-01   -3.362819552e-05   -1.047737896e-05    0.000000000e+00    0.000000000e+00    0.000000000e+00    0.000000000e+00
      664000000   -7.010009885e-01    7.449662685e-01    7.254071534e-06    4.485994577e-05    0.000000000e+00    0.000000000e+00    0.000000000e+00    0.000000000e+00
      671250000   -6.056339741e-01    8.063207269e-01    5.819834769e-06    2.534035593e-05    0.000000000e+00    0.000000000e+00    0.000000000e+00    0.000000000e+00
      678500000   -5.055225492e-01    8.551208377e-01   -7.976777852e-06    5.726702511e-06    0.000000000e+00    0.000000000e+00    0.000000000e+00    0.000000000e+00
      685750000   -4.003845453e-01    8.923361897e-01   -7.912516594e-06    1.471769065e-05    0.000000000e+00    0.000000000e+00    0.000000000e+00    0.000000000e+00
      693000000   -2.933800817e-01    9.171631336e-01   -2.858228981e-06   -1.877546310e-06    0.000000000e+00    0.000000000e+00    0.000000000e+00    0.000000000e+00
      700250000   -1.850338876e-01    9.303150177e-01   -6.409361959e-06    1.134816557e-05    0.000000000e+00    0.000000000e+00    0.000000000e+00    0.000000000e+00
      707500000   -7.880227268e-02    9.313135743e-01    6.184913218e-06   -3.115925938e-05    0.000000000e+00    0.000000000e+00    0.000000000e+00    0.000000000e+00
      714750000    2.611256577e-02    9.219942689e-01    1.777429134e-05    9.726732969e-06    0.000000000e+00    0.000000000e+00    0.000000000e+00    0.000000000e+00
      722000000    1.291365325e-01    9.011365771e-01   -3.238581121e-05    1.429859549e-05    0.000000000e+00    0.000000000e+00    0.000000000e+00    0.000000000e+00
      729250000    2.290891558e-01    8.705138564e-01   -1.091603190e-05   -1.804996282e-05    0.000000000e+00    0.000000000e+00    0.000000000e+00    0.000000000e+00
      736500000    3.231919706e-01    8.304562569e-01   -3.212038428e-05    3.430992365e-06    0.000000000e+00    0.000000000e+00    0.000000000e+00    0.000000000e+00
      743750000    4.124091566e-01    7.813686132e-01   -1.822039485e-05    1.917686313e-05    0.000000000e+00    0.000000000e+00    0.000000000e+00    0.000000000e+00
      751000000    4.961080849e-01    7.232247591e-01    3.030523658e-05    4.547182471e-05    0.000000000e+00    0.000000000e+00    0.000000000e+00    0.000000000e+00
      758250000    5.731579065e-01    6.586075425e-01   -3.263354301e-06   -2.878438681e-05    0.000000000e+00    0.000000000e+00    0.000000000e+00    0.000000000e+00
      765500000    6.432147622e-01    5.856888294e-01    2.111494541e-05   -4.716217518e-06    0.000000000e+00    0.000000000e+00    0.000000000e+00    0.000000000e+00
      772750000    7.059990764e-01    5.076148510e-01    3.934279084e-05   -1.693144441e-06    0.000000000e+00    0.000000000e+00    0.000000000e+00    0.000000000e+00
      780000000    7.604598403e-01    4.235567749e-01    2.398807555e-05   -2.908427268e-05    0.000000000e+00    0.000000000e+00    0.000000000e+00    0.000000000e+00
      787250000    8.080246449e-01    3.331848979e-01   -3.524683416e-05    1.451838762e-05    0.000000000e+00    0.000000000e+00    0.000000000e+00    0.000000000e+00
      794500000    8.451826572e-01    2.389536202e-01    1.518893987e-05    9.363517165e-06    0.000000000e+00    0.000000000e+00    0.000000000e+00    0.000000000e+00
      801750000    8.730157018e-01    1.402025223e-01    2.017058432e-05    4.147179425e-06    0.000000000e+00    0.000000000e+00    0.000000000e+00    0.000000000e+00
      809000000    8.910008073e-01    3.803875670e-02   -6.823986769e-05   -1.370161772e-05    0.000000000e+00    0.000000000e+00    0.000000000e+00    0.000000000e+00
      816250000    8.985728621e-01   -6.614523381e-02   -4.132557660e-05   -3.580003977e-06    0.000000000e+00    0.000000000e+00    0.000000000e+00    0.000000000e+00
      823500000    8.955011368e-01   -1.707099974e-01   -2.745632082e-05    1.970306039e-05    0.000000000e+00    0.000000000e+00    0.000000000e+00    0.000000000e+00
      830750000    8.807697892e-01   -2.774440050e-01   -4.927627742e-06   -2.608634531e-06    0.000000000e+00    0.000000000e+00    0.000000000e+00    0.000000000e+00
      838000000    8.552113771e-01   -3.813592196e-01    1.814775169e-05   -1.755915582e-05    0.000000000e+00    0.000000000e+00    0.000000000e+00    0.000000000e+00
      845250000    8.168821931e-01   -4.856929183e-01   -4.845391959e-05    1.479405910e-05    0.000000000e+00    0.000000000e+00    0.000000000e+00    0.000000000e+00
      852500000    7.671773434e-01   -5.851189494e-01    4.378613085e-05    2.650916576e-05    0.000000000e+00    0.000000000e+00    0.000000000e+00    0.000000000e+00
      859750000    7.057677507e-01   -6.799558997e-01    3.444869071e-05   -1.519918442e-06    0.000000000e+00    0.000000000e+00    0.000000000e+00    0.000000000e+00
      867000000    6.303744316e-01   -7.695062160e-01    3.447290510e-05   -2.897251397e-05    0.000000000e+00    0.000000000e+00    0.000000000e+00    0.000000000e+00
      874250000    5.463089943e-01   -8.489874601e-01    2.213567495e-05    6.124842912e-05    0.000000000e+00    0.000000000e+00    0.000000000e+00    0.000000000e+00
      881500000    4.468721449e-01   -9.194338918e-01   -4.617217928e-05   -1.052301377e-05    0.000000000e+00    0.000000000e+00    0.000000000e+00    0.000000000e+00
      888750000    3.409376442e-01   -9.770613909e-01   -5.691125989e-05    1.603923738e-05    0.000000000e+00    0.000000000e+00    0.000000000e+00    0.000000000e+00
      896000000    2.262756377e-01   -1.022150159e+00    2.048164606e-05   -2.603046596e-05    0.000000000e+00    0.000000000e+00    0.000000000e+00    0.000000000e+00
      903250000    1.067129448e-01   -1.050643086e+00    5.960464478e-06    1.219101250e-05    0.000000000e+00    0.000000000e+00    0.000000000e+00    0.000000000e+00
      910500000   -1.963357441e-02   -1.063663602e+00   -7.636845112e-08    1.503340900e-05    0.000000000e+00    0.000000000e+00    0.000000000e+00    0.000000000e+00
      917750000   -1.450404078e-01   -1.060186386e+00    1.472886652e-05    4.971399903e-05    0.000000000e+00    0.000000000e+00    0.000000000e+00    0.000000000e+00
      925000000   -2.695657909e-01   -1.038047075e+00   -6.668269634e-07    4.149973392e-06    0.000000000e+00    0.000000000e+00    0.000000000e+00    0.000000000e+00
      932250000   -3.896352053e-01   -9.998354316e-01   -2.852082253e-05    7.615424693e-06    0.000000000e+00    0.000000000e+00    0.000000000e+00    0.000000000e+00
      939500000   -5.038741231e-01   -9.450863600e-01    1.262407750e-05    2.531241626e-05    0.000000000e+00    0.000000000e+00    0.000000000e+00    0.000000000e+00
      946750000   -6.070896387e-01   -8.772825003e-01   -2.307817340e-06   -1.905485988e-05    0.000000000e+00    0.000000000e+00    0.000000000e+00    0.000000000e+00
      954000000   -7.006018162e-01   -7.938565612e-01    4.289951175e-05   -8.474104106e-06    0.000000000e+00    0.000000000e+00    0.000000000e+00    0.000000000e+00
      961250000   -7.794671059e-01   -7.038456798e-01    1.458264887e-05   -1.671724021e-06    0.000000000e+00    0.000000000e+00    0.000000000e+00    0.000000000e+00
      968500000   -8.459370732e-01   -6.022086740e-01    4.960224032e-06    1.167319715e-05    0.000000000e+00    0.000000000e+00    0.000000000e+00    0.000000000e+00
      975750000   -8.962659240e-01   -4.978359640e-01   -1.687929034e-05    3.674626350e-05    0.000000000e+00    0.000000000e+00    0.000000000e+00    0.000000000e+00
      983000000   -9.326227307e-01   -3.889959455e-01    6.872229278e-06   -1.918524504e-06    0.000000000e+00    0.000000000e+00    0.000000000e+00    0.000000000e+00
      990250000   -9.540150762e-01   -2.796877325e-01    2.717599273e-06   -9.131617844e-06    0.000000000e+00    0.000000000e+00    0.000000000e+00    0.000000000e+00
      997500000   -9.614632130e-01   -1.688027680e-01   -3.090128303e-06   -8.080154657e-06    0.000000000e+00    0.000000000e+00    0.000000000e+00    0.000000000e+00
     1004750000   -9.562406540e-01   -6.174326316e-02    7.173977792e-06   -1.475214958e-05    0.000000000e+00    0.000000000e+00    0.000000000e+00    0.000000000e+00
     1012000000   -9.391873479e-01    4.059002921e-02    4.046224058e-05   -2.822186798e-05    0.000000000e+00    0.000000000e+00    0.000000000e+00    0.000000000e+00
     1019250000   -9.113855958e-01    1.371241659e-01    1.437030733e-06   -1.031626016e-05    0.000000000e+00    0.000000000e+00    0.000000000e+00    0.000000000e+00
     1026500000   -8.736589551e-01    2.291400433e-01    6.361864507e-06    4.616566002e-06    0.000000000e+00    0.000000000e+00    0.000000000e+00    0.000000000e+00
     1033750000   -8.282086253e-01    3.140026331e-01   -1.621060073e-05   -3.911554813e-06    0.000000000e+00    0.000000000e+00    0.000000000e+00    0.000000000e+00
     1041000000   -7.750576138e-01    3.910306096e-01   -2.952292562e-06    3.520399332e-07    0.000000000e+00    0.000000000e+00    0.000000000e+00    0.000000000e+00
