! NanoVNA-App
! Date: 2024-06-25 16:04:13
! Start: 200MHz Stop: 6GHz Points: 801
! S-Parameter data: F S11 S21 S12 S22
# Hz S RI R 50
!     Frequency           S11_Real           S11_Imag           S21_Real           S21_Imag           S12_Real           S12_Imag           S22_Real           S22_Imag
      200000000   -9.977037907e-01   -1.221603453e-01    2.236105502e-06   -1.393817365e-05    0.000000000e+00    0.000000000e+00    0.000000000e+00    0.000000000e+00
      207250000   -1.010175347e+00   -2.352215722e-02    1.672096550e-05   -3.858376294e-05    0.000000000e+00    0.000000000e+00    0.000000000e+00    0.000000000e+00
      214500000   -1.012186289e+00    7.775318623e-02   -3.033317626e-06    2.269167453e-05    0.000000000e+00    0.000000000e+00    0.000000000e+00    0.000000000e+00
      221750000   -1.003487825e+00    1.803344041e-01    2.563465387e-05   -4.060566425e-07    0.000000000e+00    0.000000000e+00    0.000000000e+00    0.000000000e+00
      229000000   -9.841203690e-01    2.832872868e-01    1.396145672e-05   -1.200661063e-05    0.000000000e+00    0.000000000e+00    0.000000000e+00    0.000000000e+00
      236250000   -9.533591270e-01    3.861024082e-01    7.241964340e-06   -3.203470260e-05    0.000000000e+00    0.000000000e+00    0.000000000e+00    0.000000000e+00
      243500000   -9.102764130e-01    4.860467017e-01   -4.389323294e-06   -1.691281796e-05    0.000000000e+00    0.000000000e+00    0.000000000e+00    0.000000000e+00
      250750000   -8.555899262e-01    5.828124285e-01   -1.264736056e-05   -1.098122448e-05    0.000000000e+00    0.000000000e+00    0.000000000e+00    0.000000000e+00
      258000000   -7.876102328e-01    6.742708683e-01    2.973061055e-05   -1.300405711e-05    0.000000000e+00    0.000000000e+00    0.000000000e+00    0.000000000e+00
      265250000   -7.087944746e-01    7.582645416e-01   -2.896413207e-06    5.501322448e-06    0.000000000e+00    0.000000000e+00    0.000000000e+00    0.000000000e+00
      272500000   -6.191196442e-01    8.346679807e-01   -1.691747457e-05    8.240342140e-06    0.000000000e+00    0.000000000e+00    0.000000000e+00    0.000000000e+00
      279750000   -5.187781453e-01    8.995098472e-01    3.120768815e-05   -3.228895366e-06    0.000000000e+00    0.000000000e+00    0.000000000e+00    0.000000000e+00
      287000000   -4.091567993e-01    9.526116848e-01    2.392195165e-05   -1.265015453e-05    0.000000000e+00    0.000000000e+00    0.000000000e+00    0.000000000e+00
      294250000   -2.924031615e-01    9.916782379e-01   -2.781767398e-05   -1.673586667e-06    0.000000000e+00    0.000000000e+00    0.000000000e+00    0.000000000e+00
      301500000   -1.710040420e-01    1.016527295e+00    5.453824997e-06    1.451931894e-05    0.000000000e+00    0.000000000e+00    0.000000000e+00    0.000000000e+00
      308750000   -4.571750760e-02    1.025400996e+00    4.239846021e-05    1.868605614e-05    0.000000000e+00    0.000000000e+00    0.000000000e+00    0.000000000e+00
      316000000    8.121222258e-02    1.017588258e+00    2.949405462e-05   -5.834456533e-05    0.000000000e+00    0.000000000e+00    0.000000000e+00    0.000000000e+00
      323250000    2.057871372e-01    9.937744141e-01   -1.459289342e-05    2.376735210e-06    0.000000000e+00    0.000000000e+00    0.000000000e+00    0.000000000e+00
      330500000    3.267201185e-01    9.539349675e-01   -2.889055759e-05    7.105711848e-05    0.000000000e+00    0.000000000e+00    0.000000000e+00    0.000000000e+00
      337750000    4.414179027e-01    8.990053535e-01    7.826834917e-06    5.664490163e-05    0.000000000e+00    0.000000000e+00    0.000000000e+00    0.000000000e+00
      345000000    5.467213988e-01    8.302353621e-01   -1.591630280e-06    2.503395081e-05    0.000000000e+00    0.000000000e+00    0.000000000e+00    0.000000000e+00
      352250000    6.433198452e-01    7.491136789e-01    4.771258682e-05   -6.142072380e-06    0.000000000e+00    0.000000000e+00    0.000000000e+00    0.000000000e+00
      359500000    7.278940678e-01    6.578441262e-01   -2.977438271e-05    1.155771315e-06    0.000000000e+00    0.000000000e+00    0.000000000e+00    0.000000000e+00
      366750000    7.999247313e-01    5.573465824e-01    2.966914326e-05   -8.614733815e-06    0.000000000e+00    0.000000000e+00    0.000000000e+00    0.000000000e+00
      374000000    8.587576747e-01    4.493816793e-01    1.192092896e-06   -2.766959369e-06    0.000000000e+00    0.000000000e+00    0.000000000e+00    0.000000000e+00
      381250000    9.037464857e-01    3.363804817e-01   -8.959323168e-06    1.938827336e-05    0.000000000e+00    0.000000000e+00    0.000000000e+00    0.000000000e+00
      388500000    9.355763197e-01    2.210336179e-01    6.049871445e-06    1.078192145e-05    0.000000000e+00    0.000000000e+00    0.000000000e+00    0.000000000e+00
      395750000    9.531684518e-01    1.044814363e-01   -2.146791667e-05   -3.647990525e-06    0.000000000e+00    0.000000000e+00    0.000000000e+00    0.000000000e+00
      403000000    9.570466876e-01   -1.344470866e-02   -9.117648005e-07    1.231580973e-05    0.000000000e+00    0.000000000e+00    0.000000000e+00    0.000000000e+00
      410250000    9.479261041e-01   -1.290948391e-01    1.559965312e-06    3.215856850e-06    0.000000000e+00    0.000000000e+00    0.000000000e+00    0.000000000e+00
      417500000    9.269599319e-01   -2.416485399e-01   -2.209655941e-05   -9.908340871e-06    0.000000000e+00    0.000000000e+00    0.000000000e+00    0.000000000e+00
      424750000    8.940684795e-01   -3.505725265e-01    3.983266652e-06    3.150291741e-05    0.000000000e+00    0.000000000e+00    0.000000000e+00    0.000000000e+00
      432000000    8.495681882e-01   -4.547925591e-01   -3.538653255e-05   -3.755092621e-05    0.000000000e+00    0.000000000e+00    0.000000000e+00    0.000000000e+00
      439250000    7.957253456e-01   -5.515859723e-01    1.716893166e-05   -1.698732376e-05    0.000000000e+00    0.000000000e+00    0.000000000e+00    0.000000000e+00
      446500000    7.320644855e-01   -6.424171329e-01   -1.999549568e-06   -8.517876267e-06    0.000000000e+00    0.000000000e+00    0.000000000e+00    0.000000000e+00
      453750000    6.594315171e-01   -7.262079716e-01   -1.672189683e-05   -7.085502148e-06    0.000000000e+00    0.000000000e+00    0.000000000e+00    0.000000000e+00
      461000000    5.788867474e-01   -8.004524708e-01   -3.475230187e-05    1.426693052e-05    0.000000000e+00    0.000000000e+00    0.000000000e+00    0.000000000e+00
      468250000    4.919497371e-01   -8.665252328e-01   -3.477558494e-06   -2.699624747e-05    0.000000000e+00    0.000000000e+00    0.000000000e+00    0.000000000e+00
      475500000    3.985643685e-01   -9.236330986e-01   -2.089049667e-05    1.466460526e-05    0.000000000e+00    0.000000000e+00    0.000000000e+00    0.000000000e+00
      482750000    2.978959680e-01   -9.703430533e-01    1.154839993e-06   -3.834906965e-05    0.000000000e+00    0.000000000e+00    0.000000000e+00    0.000000000e+00
      490000000    1.947966069e-01   -1.005876780e+00   -3.461167216e-05   -2.514384687e-05    0.000000000e+00    0.000000000e+00    0.000000000e+00    0.000000000e+00
      497250000    8.749568462e-02   -1.030987263e+00   -2.806540579e-05   -9.451992810e-06    0.000000000e+00    0.000000000e+00    0.000000000e+00    0.000000000e+00
      504500000   -2.160784416e-02   -1.045739293e+00   -5.484372377e-05    1.488346606e-05    0.000000000e+00    0.000000000e+00    0.000000000e+00    0.000000000e+00
      511750000   -1.338083744e-01   -1.047465086e+00    1.086853445e-06    1.345109195e-05    0.000000000e+00    0.000000000e+00    0.000000000e+00    0.000000000e+00
      519000000   -2.446857244e-01   -1.037006736e+00   -2.276152372e-06   -3.241002560e-06    0.000000000e+00    0.000000000e+00    0.000000000e+00    0.000000000e+00
      526250000   -3.568798900e-01   -1.014609814e+00   -2.438109368e-05    1.481734216e-06    0.000000000e+00    0.000000000e+00    0.000000000e+00    0.000000000e+00
      533500000   -4.651395977e-01   -9.801584482e-01   -1.497194171e-05   -1.516100019e-05    0.000000000e+00    0.000000000e+00    0.000000000e+00    0.000000000e+00
      540750000   -5.695112348e-01   -9.332057834e-01   -3.485009074e-06   -4.802457988e-05    0.000000000e+00    0.000000000e+00    0.000000000e+00    0.000000000e+00
      548000000   -6.692069769e-01   -8.739061356e-01    3.161840141e-06    1.038424671e-06    0.000000000e+00    0.000000000e+00    0.000000000e+00    0.000000000e+00
      555250000   -7.623710036e-01   -8.032602668e-01   -1.663807780e-05    2.456735820e-05    0.000000000e+00    0.000000000e+00    0.000000000e+00    0.000000000e+00
      562500000   -8.472288251e-01   -7.213348746e-01   -6.355345249e-06   -2.811476588e-05    0.000000000e+00    0.000000000e+00    0.000000000e+00    0.000000000e+00
      569750000   -9.209017754e-01   -6.301020980e-01    1.128762960e-05   -5.275942385e-06    0.000000000e+00    0.000000000e+00    0.000000000e+00    0.000000000e+00
      577000000   -9.850496054e-01   -5.291567445e-01   -3.031548113e-05    5.769543350e-06    0.000000000e+00    0.000000000e+00    0.000000000e+00    0.000000000e+00
      584250000   -1.036283255e+00   -4.198438227e-01   -6.586313248e-06   -4.050321877e-06    0.000000000e+00    0.000000000e+00    0.000000000e+00    0.000000000e+00
      591500000   -1.073562384e+00   -3.082036972e-01    1.985486597e-05    1.950003207e-05    0.000000000e+00    0.000000000e+00    0.000000000e+00    0.000000000e+00
      598750000   -1.098484278e+00   -1.874969304e-01    5.728844553e-05    2.551078796e-05    0.000000000e+00    0.000000000e+00    0.000000000e+00    0.000000000e+00
      606000000   -1.107299089e+00   -6.896075606e-02    3.428477794e-05    2.427771688e-05    0.000000000e+00    0.000000000e+00    0.000000000e+00    0.000000000e+00
      613250000   -1.101834416e+00    5.313036963e-02   -2.575386316e-05    1.301988959e-06    0.000000000e+00    0.000000000e+00    0.000000000e+00    0.000000000e+00
      620500000   -1.081718087e+00    1.711062342e-01    2.706237137e-05   -4.439614713e-05    0.000000000e+00    0.000000000e+00    0.000000000e+00    0.000000000e+00
      627750000   -1.048460603e+00    2.859072387e-01    3.751739860e-05   -1.823902130e-05    0.000000000e+00    0.000000000e+00    0.000000000e+00    0.000000000e+00
      635000000   -1.001673222e+00    3.939837217e-01   -3.699678928e-05    1.143477857e-05    0.000000000e+00    0.000000000e+00    0.000000000e+00    0.000000000e+00
      642250000   -9.419490695e-01    4.958197176e-01    6.287358701e-06    2.582836896e-05    0.000000000e+00    0.000000000e+00    0.000000000e+00    0.000000000e+00
      649500000   -8.708614707e-01    5.883103609e-01    1.983158290e-05    4.498101771e-05    0.000000000e+00    0.000000000e+00    0.000000000e+00    0.000000000e+00
      656750000   -7.904220819e-01    6.720422506e-01   -9.891577065e-06   -3.618281335e-05    0.000000000e+00    0.000000000e+00    0.000000000e+00    0.000000000e+00
      664000000   -7.010420561e-01    7.446758151e-01   -1.208484173e-05    7.775612175e-06    0.000000000e+00    0.000000000e+00    0.000000000e+00    0.000000000e+00
      671250000   -6.061083078e-01    8.054014444e-01   -1.914519817e-05   -2.362113446e-05    0.000000000e+00    0.000000000e+00    0.000000000e+00    0.000000000e+00
      678500000   -5.048031211e-01    8.548772335e-01   -2.436526120e-05   -3.833509982e-05    0.000000000e+00    0.000000000e+00    0.000000000e+00    0.000000000e+00
      685750000   -3.994876444e-01    8.919423223e-01    2.216547728e-06    4.009064287e-05    0.000000000e+00    0.000000000e+00    0.000000000e+00    0.000000000e+00
      693000000   -2.936436832e-01    9.169827104e-01    2.474710345e-05    1.934263855e-05    0.000000000e+00    0.000000000e+00    0.000000000e+00    0.000000000e+00
      700250000   -1.857099384e-01    9.304226637e-01   -4.820711911e-05   -4.640780389e-06    0.000000000e+00    0.000000000e+00    0.000000000e+00    0.000000000e+00
      707500000   -7.995570451e-02    9.310309887e-01   -1.170113683e-05   -1.992378384e-05    0.000000000e+00    0.000000000e+00    0.000000000e+00    0.000000000e+00
      714750000    2.820030972e-02    9.213433266e-01    2.723000944e-05    1.788977534e-05    0.000000000e+00    0.000000000e+00    0.000000000e+00    0.000000000e+00
      722000000    1.271442026e-01    9.019580483e-01   -2.001784742e-05    8.217990398e-06    0.000000000e+00    0.000000000e+00    0.000000000e+00    0.000000000e+00
      729250000    2.288917303e-01    8.704999089e-01   -2.398341894e-05    6.754882634e-06    0.000000000e+00    0.000000000e+00    0.000000000e+00    0.000000000e+00
      736500000    3.241744339e-01    8.293777704e-01    6.844289601e-06   -1.037586480e-05    0.000000000e+00    0.000000000e+00    0.000000000e+00    0.000000000e+00
      743750000    4.127057493e-01    7.806544304e-01   -3.965571523e-05    1.571420580e-05    0.000000000e+00    0.000000000e+00    0.000000000e+00    0.000000000e+00
      751000000    4.964862764e-01    7.234619260e-01   -4.062429070e-06    1.076795161e-05    0.000000000e+00    0.000000000e+00    0.000000000e+00    0.000000000e+00
      758250000    5.723890662e-01    6.586784124e-01    9.806826711e-07    2.825446427e-05    0.000000000e+00    0.000000000e+00    0.000000000e+00    0.000000000e+00
      765500000    6.435752511e-01    5.854712129e-01   -2.918019891e-05    1.328531653e-05    0.000000000e+00    0.000000000e+00    0.000000000e+00    0.000000000e+00
      772750000    7.058711648e-01    5.078386068e-01   -1.731235534e-05    8.759088814e-06    0.000000000e+00    0.000000000e+00    0.000000000e+00    0.000000000e+00
      780000000    7.594013810e-01    4.242727757e-01   -1.993961632e-05    1.588277519e-05    0.000000000e+00    0.000000000e+00    0.000000000e+00    0.000000000e+00
      787250000    8.081036806e-01    3.323170245e-01    2.054870129e-05   -1.315772533e-05    0.000000000e+00    0.000000000e+00    0.000000000e+00    0.000000000e+00
      794500000    8.447958231e-01    2.382681668e-01    2.171285450e-05    1.562479883e-05    0.000000000e+00    0.000000000e+00    0.000000000e+00    0.000000000e+00
      801750000    8.725779653e-01    1.404118985e-01   -2.143904567e-06    2.685002983e-05    0.000000000e+00    0.000000000e+00    0.000000000e+00    0.000000000e+00
      809000000    8.912968636e-01    3.905691952e-02   -2.234894782e-05   -1.056771725e-05    0.000000000e+00    0.000000000e+00    0.000000000e+00    0.000000000e+00
      816250000    8.989124894e-01   -6.423883885e-02   -1.683179289e-05    2.215895802e-05    0.000000000e+00    0.000000000e+00    0.000000000e+00    0.000000000e+00
      823500000    8.960732818e-01   -1.715311706e-01   -4.646833986e-05    4.801154137e-05    0.000000000e+00    0.000000000e+00    0.000000000e+00    0.000000000e+00
      830750000    8.809499741e-01   -2.773181796e-01    2.837087959e-05    8.278526366e-06    0.000000000e+00    0.000000000e+00    0.000000000e+00    0.000000000e+00
      838000000    8.561910391e-01   -3.819920123e-01   -4.005152732e-05   -1.788605005e-05    0.000000000e+00    0.000000000e+00    0.000000000e+00    0.000000000e+00
      845250000    8.182955980e-01   -4.850727320e-01    4.846602678e-06    7.393769920e-06    0.000000000e+00    0.000000000e+00    0.000000000e+00    0.000000000e+00
      852500000    7.671362758e-01   -5.853528380e-01    2.412125468e-07    6.744638085e-06    0.000000000e+00    0.000000000e+00    0.000000000e+00    0.000000000e+00
      859750000    7.057636976e-01   -6.802906990e-01   -2.285744995e-05    2.565793693e-05    0.000000000e+00    0.000000000e+00    0.000000000e+00    0.000000000e+00
      867000000    6.295281053e-01   -7.696484327e-01   -1.274142414e-05   -7.523223758e-06    0.000000000e+00    0.000000000e+00    0.000000000e+00    0.000000000e+00
      874250000    5.443014503e-01   -8.494808078e-01    3.904104233e-06   -4.446506500e-05    0.000000000e+00    0.000000000e+00    0.000000000e+00    0.000000000e+00
      881500000    4.469626248e-01   -9.198506474e-01    2.663955092e-05   -7.601454854e-06    0.000000000e+00    0.000000000e+00    0.000000000e+00    0.000000000e+00
      888750000    3.412710428e-01   -9.770317674e-01    2.265907824e-06   -1.074466854e-05    0.000000000e+00    0.000000000e+00    0.000000000e+00    0.000000000e+00
      896000000    2.273018956e-01   -1.021294475e+00   -2.341158688e-05    1.943856478e-05    0.000000000e+00    0.000000000e+00    0.000000000e+00    0.000000000e+00
      903250000    1.067629904e-01   -1.050453305e+00    1.257285476e-07    1.547951251e-05    0.000000000e+00    0.000000000e+00    0.000000000e+00    0.000000000e+00
      910500000   -2.000903711e-02   -1.063823223e+00    1.982785761e-06   -9.872950613e-06    0.000000000e+00    0.000000000e+00    0.000000000e+00    0.000000000e+00
      917750000   -1.444037408e-01   -1.060068011e+00    2.083368599e-05    5.907192826e-05    0.000000000e+00    0.000000000e+00    0.000000000e+00    0.000000000e+00
      925000000   -2.693097293e-01   -1.037944913e+00    1.708045602e-06    1.920014620e-05    0.000000000e+00    0.000000000e+00    0.000000000e+00    0.000000000e+00
      932250000   -3.900450766e-01   -9.996713996e-01    2.342928201e-05   -3.586616367e-05    0.000000000e+00    0.000000000e+00    0.000000000e+00    0.000000000e+00
      939500000   -5.031352639e-01   -9.455342293e-01   -2.507399768e-05    1.112371683e-05    0.000000000e+00    0.000000000e+00    0.000000000e+00    0.000000000e+00
      946750000   -6.070451736e-01   -8.774572015e-01   -4.252232611e-05   -5.193054676e-06    0.000000000e+00    0.000000000e+00    0.000000000e+00    0.000000000e+00
      954000000   -6.999196410e-01   -7.949612737e-01    1.309067011e-05    2.129003406e-06    0.000000000e+00    0.000000000e+00    0.000000000e+00    0.000000000e+00
      961250000   -7.787202597e-01   -7.046392560e-01    2.240948379e-05   -1.613702625e-05    0.000000000e+00    0.000000000e+00    0.000000000e+00    0.000000000e+00
      968500000   -8.455794454e-01   -6.023885012e-01   -2.581346780e-05    8.354894817e-06    0.000000000e+00    0.000000000e+00    0.000000000e+00    0.000000000e+00
      975750000   -8.957912326e-01   -4.992960095e-01    1.895520836e-05   -3.207940608e-05    0.000000000e+00    0.000000000e+00    0.000000000e+00    0.000000000e+00
      983000000   -9.321988821e-01   -3.888171613e-01    2.988521010e-05    2.365093678e-05    0.000000000e+00    0.000000000e+00    0.000000000e+00    0.000000000e+00
      990250000   -9.542084336e-01   -2.796015739e-01    1.296680421e-05    3.222376108e-06    0.000000000e+00    0.000000000e+00    0.000000000e+00    0.000000000e+00
      997500000   -9.619072676e-01   -1.687487215e-01   -8.214265108e-07   -8.697621524e-06    0.000000000e+00    0.000000000e+00    0.000000000e+00    0.000000000e+00
     1004750000   -9.562953115e-01   -6.293328851e-02    2.879649401e-05   -3.166496754e-06    0.000000000e+00    0.000000000e+00    0.000000000e+00    0.000000000e+00
     1012000000   -9.396791458e-01    4.045591131e-02    1.415610313e-07    1.105852425e-05    0.000000000e+00    0.000000000e+00    0.000000000e+00    0.000000000e+00
     1019250000   -9.116749763e-01    1.360599101e-01    2.893339843e-05    2.651475370e-06    0.000000000e+00    0.000000000e+00    0.000000000e+00    0.000000000e+00
     1026500000   -8.738753200e-01    2.295062989e-01   -4.338566214e-05    1.194700599e-05    0.000000000e+00    0.000000000e+00    0.000000000e+00    0.000000000e+00
     1033750000   -8.282266855e-01    3.135287166e-01   -1.421198249e-06    3.877282143e-05    0.000000000e+00    0.000000000e+00    0.000000000e+00    0.000000000e+00
     1041000000   -7.758518457e-01    3.900143504e-01   -1.352373511e-05    5.214475095e-06    0.000000000e+00    0.000000000e+00    0.000000000e+00    0.000000000e+00
