! NanoVNA-App by OneOfEleven et al v1.1.209 (+OD15) 
! Date: 2024-07-30 15:26:13
! Start: 200MHz Stop: 6GHz Points: 801
! S-Parameter data: F S11 S21 S12 S22
# Hz S RI R 50
!     Frequency           S11_Real           S11_Imag           S21_Real           S21_Imag           S12_Real           S12_Imag           S22_Real           S22_Imag
      200000000   -9.213704616e-02    2.741443515e-01    1.989618613e-05   -2.429364758e-05    0.000000000e+00    0.000000000e+00    0.000000000e+00    0.000000000e+00
      207250000   -8.640700579e-02    2.666162550e-01    1.561803037e-05    3.516697325e-05    0.000000000e+00    0.000000000e+00    0.000000000e+00    0.000000000e+00
      214500000   -8.140471578e-02    2.594550550e-01   -2.071746349e-05   -7.825551620e-06    0.000000000e+00    0.000000000e+00    0.000000000e+00    0.000000000e+00
      221750000   -7.512752712e-02    2.505653203e-01    7.076856946e-06    1.938814239e-05    0.000000000e+00    0.000000000e+00    0.000000000e+00    0.000000000e+00
      229000000   -7.210849226e-02    2.462374866e-01    6.117422890e-05   -1.216787587e-05    0.000000000e+00    0.000000000e+00    0.000000000e+00    0.000000000e+00
      236250000   -6.702622026e-02    2.387577146e-01    1.812604751e-05   -7.563996405e-06    0.000000000e+00    0.000000000e+00    0.000000000e+00    0.000000000e+00
      243500000   -6.376767159e-02    2.339774072e-01    1.588783675e-06    2.162760939e-05    0.000000000e+00    0.000000000e+00    0.000000000e+00    0.000000000e+00
      250750000   -6.162835658e-02    2.268072516e-01   -2.051098454e-05    2.036961268e-05    0.000000000e+00    0.000000000e+00    0.000000000e+00    0.000000000e+00
      258000000   -5.826844275e-02    2.219432145e-01   -2.214991400e-05    9.779075299e-06    0.000000000e+00    0.000000000e+00    0.000000000e+00    0.000000000e+00
      265250000   -5.480270088e-02    2.170340270e-01   -1.756324082e-06   -4.288873242e-06    0.000000000e+00    0.000000000e+00    0.000000000e+00    0.000000000e+00
      272500000   -5.114363506e-02    2.103071213e-01   -1.319277317e-06   -1.785145832e-05    0.000000000e+00    0.000000000e+00    0.000000000e+00    0.000000000e+00
      279750000   -4.909864441e-02    2.062878460e-01    4.240659564e-06    8.577294466e-06    0.000000000e+00    0.000000000e+00    0.000000000e+00    0.000000000e+00
      287000000   -4.823284596e-02    2.010545433e-01    3.196160378e-06   -2.490679071e-05    0.000000000e+00    0.000000000e+00    0.000000000e+00    0.000000000e+00
      294250000   -4.535475001e-02    1.968748719e-01   -6.387756912e-06   -1.356384382e-05    0.000000000e+00    0.000000000e+00    0.000000000e+00    0.000000000e+00
      301500000   -4.474086687e-02    1.933049858e-01   -2.564935312e-05   -1.208828144e-05    0.000000000e+00    0.000000000e+00    0.000000000e+00    0.000000000e+00
      308750000   -4.088002816e-02    1.885064840e-01   -2.931102699e-06    1.892454748e-06    0.000000000e+00    0.000000000e+00    0.000000000e+00    0.000000000e+00
      316000000   -3.990880772e-02    1.852283031e-01   -3.347570237e-05    1.460443127e-05    0.000000000e+00    0.000000000e+00    0.000000000e+00    0.000000000e+00
      323250000   -3.738603368e-02    1.807351261e-01    9.676384252e-06   -4.101391823e-06    0.000000000e+00    0.000000000e+00    0.000000000e+00    0.000000000e+00
      330500000   -3.634228185e-02    1.772866845e-01    5.049138963e-06    1.434863225e-05    0.000000000e+00    0.000000000e+00    0.000000000e+00    0.000000000e+00
      337750000   -3.477283940e-02    1.735896468e-01   -1.435437844e-05    5.322485777e-06    0.000000000e+00    0.000000000e+00    0.000000000e+00    0.000000000e+00
      345000000   -3.367362171e-02    1.702703089e-01    2.575436611e-06   -1.561835415e-05    0.000000000e+00    0.000000000e+00    0.000000000e+00    0.000000000e+00
      352250000   -3.197280690e-02    1.674194634e-01   -1.714751306e-05    3.077312385e-06    0.000000000e+00    0.000000000e+00    0.000000000e+00    0.000000000e+00
      359500000   -3.087924048e-02    1.642868966e-01   -3.316225411e-05   -2.692438557e-06    0.000000000e+00    0.000000000e+00    0.000000000e+00    0.000000000e+00
      366750000   -3.055685572e-02    1.612410098e-01    1.594433888e-05    7.762718269e-06    0.000000000e+00    0.000000000e+00    0.000000000e+00    0.000000000e+00
      374000000   -2.925238572e-02    1.584626734e-01    2.857678192e-05   -2.215206405e-05    0.000000000e+00    0.000000000e+00    0.000000000e+00    0.000000000e+00
      381250000   -2.780561149e-02    1.560982913e-01   -1.239519315e-05   -1.191388310e-05    0.000000000e+00    0.000000000e+00    0.000000000e+00    0.000000000e+00
      388500000   -2.673835866e-02    1.527400017e-01    2.722814315e-05    2.772140033e-05    0.000000000e+00    0.000000000e+00    0.000000000e+00    0.000000000e+00
      395750000   -2.584530972e-02    1.503798068e-01    4.983948543e-08   -1.174051795e-05    0.000000000e+00    0.000000000e+00    0.000000000e+00    0.000000000e+00
      403000000   -2.541651949e-02    1.482156515e-01    1.150486696e-05    3.301646939e-05    0.000000000e+00    0.000000000e+00    0.000000000e+00    0.000000000e+00
      410250000   -2.459772490e-02    1.456597298e-01   -3.189137351e-05   -1.174947556e-05    0.000000000e+00    0.000000000e+00    0.000000000e+00    0.000000000e+00
      417500000   -2.360655367e-02    1.433382779e-01    4.518874903e-06    1.021220305e-05    0.000000000e+00    0.000000000e+00    0.000000000e+00    0.000000000e+00
      424750000   -2.298556454e-02    1.414592266e-01   -1.950668320e-06    7.755400475e-06    0.000000000e+00    0.000000000e+00    0.000000000e+00    0.000000000e+00
      432000000   -2.295899019e-02    1.389753073e-01   -3.031744018e-05    1.486983456e-05    0.000000000e+00    0.000000000e+00    0.000000000e+00    0.000000000e+00
      439250000   -2.080682293e-02    1.367644370e-01    3.102191386e-06    8.902036825e-06    0.000000000e+00    0.000000000e+00    0.000000000e+00    0.000000000e+00
      446500000   -2.137341164e-02    1.347220093e-01    1.377881017e-05   -4.506342520e-05    0.000000000e+00    0.000000000e+00    0.000000000e+00    0.000000000e+00
      453750000   -2.069643512e-02    1.332792491e-01   -3.900167087e-07   -2.028631388e-05    0.000000000e+00    0.000000000e+00    0.000000000e+00    0.000000000e+00
      461000000   -1.953362674e-02    1.310040504e-01    4.603357957e-05    1.783318294e-05    0.000000000e+00    0.000000000e+00    0.000000000e+00    0.000000000e+00
      468250000   -1.933038607e-02    1.288708746e-01    6.509848390e-06   -2.746482096e-05    0.000000000e+00    0.000000000e+00    0.000000000e+00    0.000000000e+00
      475500000   -1.822274365e-02    1.268506497e-01   -5.977392902e-06    2.547777331e-05    0.000000000e+00    0.000000000e+00    0.000000000e+00    0.000000000e+00
      482750000   -1.814775728e-02    1.249872297e-01   -1.683878509e-05   -3.056610876e-05    0.000000000e+00    0.000000000e+00    0.000000000e+00    0.000000000e+00
      490000000   -1.794277318e-02    1.233617291e-01    1.454766152e-05    1.374517433e-05    0.000000000e+00    0.000000000e+00    0.000000000e+00    0.000000000e+00
      497250000   -1.743229665e-02    1.218354255e-01   -2.966954753e-06    1.862290674e-06    0.000000000e+00    0.000000000e+00    0.000000000e+00    0.000000000e+00
      504500000   -1.681797206e-02    1.202351749e-01   -8.140420505e-06   -4.662558058e-05    0.000000000e+00    0.000000000e+00    0.000000000e+00    0.000000000e+00
      511750000   -1.619614474e-02    1.183784306e-01    2.044862049e-05    1.043549128e-05    0.000000000e+00    0.000000000e+00    0.000000000e+00    0.000000000e+00
      519000000   -1.576270536e-02    1.163904667e-01    4.556062322e-06   -1.207359946e-05    0.000000000e+00    0.000000000e+00    0.000000000e+00    0.000000000e+00
      526250000   -1.526662428e-02    1.152803153e-01   -4.604725291e-06   -3.565283987e-05    0.000000000e+00    0.000000000e+00    0.000000000e+00    0.000000000e+00
      533500000   -1.475015469e-02    1.134685054e-01   -1.294713911e-05   -1.924140997e-05    0.000000000e+00    0.000000000e+00    0.000000000e+00    0.000000000e+00
      540750000   -1.464191079e-02    1.119889170e-01    2.296762977e-05    5.828042958e-06    0.000000000e+00    0.000000000e+00    0.000000000e+00    0.000000000e+00
      548000000   -1.441913284e-02    1.111574024e-01   -1.183015320e-05    4.007429379e-05    0.000000000e+00    0.000000000e+00    0.000000000e+00    0.000000000e+00
      555250000   -1.370715722e-02    1.088381037e-01    1.438328945e-05   -1.499614791e-05    0.000000000e+00    0.000000000e+00    0.000000000e+00    0.000000000e+00
      562500000   -1.375266537e-02    1.082147062e-01   -2.218355803e-05    3.632748849e-05    0.000000000e+00    0.000000000e+00    0.000000000e+00    0.000000000e+00
      569750000   -1.353650820e-02    1.070060283e-01    1.357952783e-06    2.108578701e-05    0.000000000e+00    0.000000000e+00    0.000000000e+00    0.000000000e+00
      577000000   -1.447282452e-02    1.050445959e-01   -2.153609239e-05   -4.051933047e-06    0.000000000e+00    0.000000000e+00    0.000000000e+00    0.000000000e+00
      584250000   -1.164185070e-02    1.041440964e-01    2.600437710e-06   -5.233116462e-05    0.000000000e+00    0.000000000e+00    0.000000000e+00    0.000000000e+00
      591500000   -1.144339330e-02    1.023597568e-01    5.715745374e-06   -8.138456906e-06    0.000000000e+00    0.000000000e+00    0.000000000e+00    0.000000000e+00
      598750000   -1.223202609e-02    1.012209132e-01   -2.352138290e-05   -3.927813668e-05    0.000000000e+00    0.000000000e+00    0.000000000e+00    0.000000000e+00
      606000000   -1.179826912e-02    9.985613078e-02    1.848072679e-05    1.606593651e-05    0.000000000e+00    0.000000000e+00    0.000000000e+00    0.000000000e+00
      613250000   -1.140068099e-02    9.892781079e-02   -3.467552006e-06    2.122481601e-05    0.000000000e+00    0.000000000e+00    0.000000000e+00    0.000000000e+00
      620500000   -1.179196592e-02    9.790018201e-02    1.830869405e-05   -1.897628317e-05    0.000000000e+00    0.000000000e+00    0.000000000e+00    0.000000000e+00
      627750000   -1.142449956e-02    9.729761630e-02   -3.094513522e-05   -6.237079560e-06    0.000000000e+00    0.000000000e+00    0.000000000e+00    0.000000000e+00
      635000000   -1.004233398e-02    9.575642645e-02    7.149398016e-07   -2.521741226e-05    0.000000000e+00    0.000000000e+00    0.000000000e+00    0.000000000e+00
      642250000   -1.000248455e-02    9.483736753e-02    2.612383412e-07    2.738102012e-07    0.000000000e+00    0.000000000e+00    0.000000000e+00    0.000000000e+00
      649500000   -9.887063876e-03    9.417630732e-02    1.629007602e-05   -2.086736458e-05    0.000000000e+00    0.000000000e+00    0.000000000e+00    0.000000000e+00
      656750000   -1.031393372e-02    9.329958260e-02    1.038752816e-05    2.649328599e-05    0.000000000e+00    0.000000000e+00    0.000000000e+00    0.000000000e+00
      664000000   -9.756280109e-03    9.237015247e-02   -2.307175464e-06    2.056089761e-05    0.000000000e+00    0.000000000e+00    0.000000000e+00    0.000000000e+00
      671250000   -8.812705986e-03    9.072697163e-02    1.147252442e-05   -3.690123094e-06    0.000000000e+00    0.000000000e+00    0.000000000e+00    0.000000000e+00
      678500000   -8.884592913e-03    8.977489173e-02    9.161389244e-06    4.166912913e-05    0.000000000e+00    0.000000000e+00    0.000000000e+00    0.000000000e+00
      685750000   -8.313870989e-03    8.887396008e-02   -3.180722842e-06   -3.099174364e-06    0.000000000e+00    0.000000000e+00    0.000000000e+00    0.000000000e+00
      693000000   -9.912601672e-03    8.826085925e-02    3.736846702e-05   -5.040653832e-06    0.000000000e+00    0.000000000e+00    0.000000000e+00    0.000000000e+00
      700250000   -9.740374982e-03    8.742649853e-02    1.363126921e-05   -1.047454316e-05    0.000000000e+00    0.000000000e+00    0.000000000e+00    0.000000000e+00
      707500000   -7.451944053e-03    8.755166829e-02   -1.126647703e-06   -1.771410280e-05    0.000000000e+00    0.000000000e+00    0.000000000e+00    0.000000000e+00
      714750000   -9.167871438e-03    8.595399559e-02    6.620374734e-06   -1.527393033e-05    0.000000000e+00    0.000000000e+00    0.000000000e+00    0.000000000e+00
      722000000   -6.603216752e-03    8.547116816e-02   -8.890733625e-06   -4.314490434e-05    0.000000000e+00    0.000000000e+00    0.000000000e+00    0.000000000e+00
      729250000   -8.084880188e-03    8.412475139e-02    2.416007192e-05   -3.743048728e-05    0.000000000e+00    0.000000000e+00    0.000000000e+00    0.000000000e+00
      736500000   -7.649691775e-03    8.368473500e-02   -5.331089596e-06    1.360294482e-05    0.000000000e+00    0.000000000e+00    0.000000000e+00    0.000000000e+00
      743750000   -7.577077020e-03    8.309356123e-02    4.647105743e-05    1.405568401e-05    0.000000000e+00    0.000000000e+00    0.000000000e+00    0.000000000e+00
      751000000   -7.271371782e-03    8.224742860e-02   -1.311585584e-05   -1.264238449e-06    0.000000000e+00    0.000000000e+00    0.000000000e+00    0.000000000e+00
      758250000   -7.164234295e-03    8.178117126e-02    2.028345079e-05   -1.427232019e-05    0.000000000e+00    0.000000000e+00    0.000000000e+00    0.000000000e+00
      765500000   -8.387137204e-03    8.082184941e-02    3.446000119e-05    5.450079698e-05    0.000000000e+00    0.000000000e+00    0.000000000e+00    0.000000000e+00
      772750000   -7.067463361e-03    8.003447205e-02   -2.107132786e-05   -2.023752677e-05    0.000000000e+00    0.000000000e+00    0.000000000e+00    0.000000000e+00
      780000000   -7.503468078e-03    7.962638140e-02    3.134984945e-05    4.201800039e-05    0.000000000e+00    0.000000000e+00    0.000000000e+00    0.000000000e+00
      787250000   -7.352653425e-03    7.911632210e-02   -4.746661091e-07    7.437159366e-05    0.000000000e+00    0.000000000e+00    0.000000000e+00    0.000000000e+00
      794500000   -6.845792755e-03    7.761860639e-02   -1.337167760e-05    6.898984793e-06    0.000000000e+00    0.000000000e+00    0.000000000e+00    0.000000000e+00
      801750000   -6.532979663e-03    7.706627250e-02   -4.424583722e-07    1.073992553e-05    0.000000000e+00    0.000000000e+00    0.000000000e+00    0.000000000e+00
      809000000   -6.593859755e-03    7.662156224e-02    1.632596832e-05    3.026221202e-05    0.000000000e+00    0.000000000e+00    0.000000000e+00    0.000000000e+00
      816250000   -6.835797802e-03    7.588201016e-02   -2.862163637e-05   -5.818612408e-06    0.000000000e+00    0.000000000e+00    0.000000000e+00    0.000000000e+00
      823500000   -5.901351571e-03    7.510460168e-02    5.083172800e-05   -3.254460535e-05    0.000000000e+00    0.000000000e+00    0.000000000e+00    0.000000000e+00
      830750000   -6.224920508e-03    7.499299198e-02   -3.979464509e-07    2.122223486e-05    0.000000000e+00    0.000000000e+00    0.000000000e+00    0.000000000e+00
      838000000   -6.481686607e-03    7.411636412e-02   -1.813744893e-05    1.530813392e-06    0.000000000e+00    0.000000000e+00    0.000000000e+00    0.000000000e+00
      845250000   -6.002267823e-03    7.387362421e-02    9.604312254e-06    1.715136386e-05    0.000000000e+00    0.000000000e+00    0.000000000e+00    0.000000000e+00
      852500000   -5.744581111e-03    7.298035920e-02   -1.096944743e-05    1.268349024e-05    0.000000000e+00    0.000000000e+00    0.000000000e+00    0.000000000e+00
      859750000   -5.587671883e-03    7.242046297e-02   -8.480222277e-06    5.528336624e-05    0.000000000e+00    0.000000000e+00    0.000000000e+00    0.000000000e+00
      867000000   -5.236717872e-03    7.192722708e-02    8.065016118e-06   -1.373266423e-05    0.000000000e+00    0.000000000e+00    0.000000000e+00    0.000000000e+00
      874250000   -5.518469028e-03    7.108759880e-02   -1.393362891e-05   -2.757102084e-05    0.000000000e+00    0.000000000e+00    0.000000000e+00    0.000000000e+00
      881500000   -5.386637524e-03    7.049425691e-02   -4.151262146e-06   -1.107680237e-05    0.000000000e+00    0.000000000e+00    0.000000000e+00    0.000000000e+00
      888750000   -4.815279040e-03    6.954520196e-02    1.571838402e-05    1.033777426e-05    0.000000000e+00    0.000000000e+00    0.000000000e+00    0.000000000e+00
      896000000   -5.314578768e-03    6.928553432e-02    3.677482482e-06    2.742499055e-05    0.000000000e+00    0.000000000e+00    0.000000000e+00    0.000000000e+00
      903250000   -5.192364100e-03    6.870963424e-02   -1.867714218e-06    1.379170226e-05    0.000000000e+00    0.000000000e+00    0.000000000e+00    0.000000000e+00
      910500000   -4.242653027e-03    6.870441139e-02    3.118651512e-05   -1.078285641e-05    0.000000000e+00    0.000000000e+00    0.000000000e+00    0.000000000e+00
      917750000   -4.736667965e-03    6.787205487e-02    4.170399552e-05   -3.994271992e-06    0.000000000e+00    0.000000000e+00    0.000000000e+00    0.000000000e+00
      925000000   -5.458742380e-03    6.681137532e-02   -3.030537482e-05   -2.756562753e-05    0.000000000e+00    0.000000000e+00    0.000000000e+00    0.000000000e+00
      932250000   -3.971393220e-03    6.658872217e-02    7.139607078e-06   -1.769981463e-05    0.000000000e+00    0.000000000e+00    0.000000000e+00    0.000000000e+00
      939500000   -4.621716216e-03    6.584949791e-02   -9.737827895e-06   -4.604722199e-05    0.000000000e+00    0.000000000e+00    0.000000000e+00    0.000000000e+00
      946750000   -5.037899595e-03    6.593404710e-02    2.948013753e-05    1.698569395e-05    0.000000000e+00    0.000000000e+00    0.000000000e+00    0.000000000e+00
      954000000   -5.639920942e-03    6.558552384e-02   -4.501259900e-05    9.539451639e-06    0.000000000e+00    0.000000000e+00    0.000000000e+00    0.000000000e+00
      961250000   -5.208288319e-03    6.494812667e-02    1.823901948e-05    1.613327754e-06    0.000000000e+00    0.000000000e+00    0.000000000e+00    0.000000000e+00
      968500000   -4.918402061e-03    6.439815462e-02   -9.599351870e-06    9.607548236e-06    0.000000000e+00    0.000000000e+00    0.000000000e+00    0.000000000e+00
      975750000   -5.099115428e-03    6.385675073e-02   -1.171584154e-05   -1.913135020e-05    0.000000000e+00    0.000000000e+00    0.000000000e+00    0.000000000e+00
      983000000   -3.853357863e-03    6.393318623e-02   -2.992758709e-05    3.458634637e-06    0.000000000e+00    0.000000000e+00    0.000000000e+00    0.000000000e+00
      990250000   -5.183592904e-03    6.335221231e-02   -6.753175512e-06    5.761628927e-06    0.000000000e+00    0.000000000e+00    0.000000000e+00    0.000000000e+00
      997500000   -4.332505167e-03    6.298245490e-02    3.098598199e-06    3.229366484e-05    0.000000000e+00    0.000000000e+00    0.000000000e+00    0.000000000e+00
     1004750000   -4.192268476e-03    6.193336472e-02    4.120400263e-05   -1.129836892e-05    0.000000000e+00    0.000000000e+00    0.000000000e+00    0.000000000e+00
     1012000000   -4.279599525e-03    6.170778722e-02   -5.689274985e-06   -3.081111572e-05    0.000000000e+00    0.000000000e+00    0.000000000e+00    0.000000000e+00
     1019250000   -3.760783700e-03    6.116058305e-02   -2.762252188e-05    3.022852434e-05    0.000000000e+00    0.000000000e+00    0.000000000e+00    0.000000000e+00
     1026500000   -5.002254155e-03    6.063818932e-02   -1.158157920e-05    3.453410682e-05    0.000000000e+00    0.000000000e+00    0.000000000e+00    0.000000000e+00
     1033750000   -3.768893890e-03    6.030149758e-02   -1.659419468e-05    6.046722660e-07    0.000000000e+00    0.000000000e+00    0.000000000e+00    0.000000000e+00
     1041000000   -3.588445485e-03    6.007841974e-02    1.367962341e-05    1.458044972e-05    0.000000000e+00    0.000000000e+00    0.000000000e+00    0.000000000e+00
