! NanoVNA-App by OneOfEleven et al v1.1.209 (+OD15) 
! Date: 2024-07-30 15:25:47
! Start: 200MHz Stop: 6GHz Points: 801
! S-Parameter data: F S11 S21 S12 S22
# Hz S RI R 50
!     Frequency           S11_Real           S11_Imag           S21_Real           S21_Imag           S12_Real           S12_Imag           S22_Real           S22_Imag
      200000000   -9.210702777e-02    2.742603719e-01    6.588486031e-06   -1.212613552e-05    0.000000000e+00    0.000000000e+00    0.000000000e+00    0.000000000e+00
      207250000   -8.596954495e-02    2.658301294e-01    2.534358646e-05   -6.628780739e-06    0.000000000e+00    0.000000000e+00    0.000000000e+00    0.000000000e+00
      214500000   -8.091102540e-02    2.599680722e-01    3.539992758e-05    9.217294973e-06    0.000000000e+00    0.000000000e+00    0.000000000e+00    0.000000000e+00
      221750000   -7.608673722e-02    2.520992458e-01    1.371519647e-05    9.693023458e-06    0.000000000e+00    0.000000000e+00    0.000000000e+00    0.000000000e+00
      229000000   -7.172940671e-02    2.455031574e-01    6.471271263e-06   -8.148243978e-06    0.000000000e+00    0.000000000e+00    0.000000000e+00    0.000000000e+00
      236250000   -6.788413972e-02    2.397337556e-01    3.147105417e-06   -5.023957783e-05    0.000000000e+00    0.000000000e+00    0.000000000e+00    0.000000000e+00
      243500000   -6.326902658e-02    2.336706370e-01    1.835083640e-05    5.015590432e-06    0.000000000e+00    0.000000000e+00    0.000000000e+00    0.000000000e+00
      250750000   -6.087830290e-02    2.277594507e-01   -1.134928789e-05   -6.242468316e-06    0.000000000e+00    0.000000000e+00    0.000000000e+00    0.000000000e+00
      258000000   -5.778121948e-02    2.219541967e-01   -2.221504110e-05    2.433018926e-05    0.000000000e+00    0.000000000e+00    0.000000000e+00    0.000000000e+00
      265250000   -5.556294322e-02    2.170955241e-01    3.767343969e-06   -3.218738357e-06    0.000000000e+00    0.000000000e+00    0.000000000e+00    0.000000000e+00
      272500000   -5.112831295e-02    2.104970664e-01   -6.552217656e-06    2.928369577e-05    0.000000000e+00    0.000000000e+00    0.000000000e+00    0.000000000e+00
      279750000   -4.971896112e-02    2.054935992e-01   -9.957452676e-06    2.530481834e-05    0.000000000e+00    0.000000000e+00    0.000000000e+00    0.000000000e+00
      287000000   -4.703209549e-02    2.014573961e-01    2.112051698e-05   -2.764094279e-05    0.000000000e+00    0.000000000e+00    0.000000000e+00    0.000000000e+00
      294250000   -4.583628103e-02    1.969130337e-01   -7.754782928e-06    2.070690425e-05    0.000000000e+00    0.000000000e+00    0.000000000e+00    0.000000000e+00
      301500000   -4.373667017e-02    1.928762496e-01   -2.796836816e-05   -1.355048971e-05    0.000000000e+00    0.000000000e+00    0.000000000e+00    0.000000000e+00
      308750000   -4.082172737e-02    1.883347183e-01    1.700443818e-06    3.847667904e-05    0.000000000e+00    0.000000000e+00    0.000000000e+00    0.000000000e+00
      316000000   -4.002787173e-02    1.842894852e-01    5.930621228e-06    2.392408760e-06    0.000000000e+00    0.000000000e+00    0.000000000e+00    0.000000000e+00
      323250000   -3.783264011e-02    1.804941893e-01   -2.205568853e-05   -1.727051313e-05    0.000000000e+00    0.000000000e+00    0.000000000e+00    0.000000000e+00
      330500000   -3.638508916e-02    1.776897013e-01   -2.694080104e-05    1.527060340e-05    0.000000000e+00    0.000000000e+00    0.000000000e+00    0.000000000e+00
      337750000   -3.502827883e-02    1.743630916e-01   -1.881238063e-06   -2.596399327e-06    0.000000000e+00    0.000000000e+00    0.000000000e+00    0.000000000e+00
      345000000   -3.446997702e-02    1.705600172e-01    3.518959829e-06    2.944109292e-05    0.000000000e+00    0.000000000e+00    0.000000000e+00    0.000000000e+00
      352250000   -3.276829794e-02    1.677567810e-01    2.836968406e-06    4.479798918e-06    0.000000000e+00    0.000000000e+00    0.000000000e+00    0.000000000e+00
      359500000   -3.045155108e-02    1.637887806e-01    2.011472316e-05   -9.827268514e-06    0.000000000e+00    0.000000000e+00    0.000000000e+00    0.000000000e+00
      366750000   -3.020021319e-02    1.614257097e-01   -1.742681707e-05    1.618087481e-05    0.000000000e+00    0.000000000e+00    0.000000000e+00    0.000000000e+00
      374000000   -2.940759063e-02    1.582416445e-01   -3.323079727e-05   -2.600505104e-05    0.000000000e+00    0.000000000e+00    0.000000000e+00    0.000000000e+00
      381250000   -2.718452364e-02    1.554520279e-01   -9.938607036e-06    8.041627552e-06    0.000000000e+00    0.000000000e+00    0.000000000e+00    0.000000000e+00
      388500000   -2.724962682e-02    1.531362683e-01    4.809384791e-06    3.655136243e-05    0.000000000e+00    0.000000000e+00    0.000000000e+00    0.000000000e+00
      395750000   -2.662996762e-02    1.508230716e-01    1.381407219e-05   -2.158371217e-06    0.000000000e+00    0.000000000e+00    0.000000000e+00    0.000000000e+00
      403000000   -2.543303929e-02    1.484977901e-01   -1.840088407e-05   -5.167716881e-05    0.000000000e+00    0.000000000e+00    0.000000000e+00    0.000000000e+00
      410250000   -2.460713498e-02    1.460831761e-01   -1.433933085e-05    1.648980469e-05    0.000000000e+00    0.000000000e+00    0.000000000e+00    0.000000000e+00
      417500000   -2.357812598e-02    1.430974156e-01    6.961680810e-06    3.573419235e-05    0.000000000e+00    0.000000000e+00    0.000000000e+00    0.000000000e+00
      424750000   -2.268060297e-02    1.400079131e-01    9.833202967e-06    2.215729728e-05    0.000000000e+00    0.000000000e+00    0.000000000e+00    0.000000000e+00
      432000000   -2.296674997e-02    1.392375231e-01   -5.226279973e-05   -1.062983938e-05    0.000000000e+00    0.000000000e+00    0.000000000e+00    0.000000000e+00
      439250000   -2.183964103e-02    1.366836876e-01   -2.827777644e-05    2.505100201e-05    0.000000000e+00    0.000000000e+00    0.000000000e+00    0.000000000e+00
      446500000   -2.066583559e-02    1.344860047e-01    3.314673813e-05    9.223975212e-06    0.000000000e+00    0.000000000e+00    0.000000000e+00    0.000000000e+00
      453750000   -2.123191208e-02    1.327284276e-01   -1.646111195e-05   -1.721941589e-05    0.000000000e+00    0.000000000e+00    0.000000000e+00    0.000000000e+00
      461000000   -1.951956376e-02    1.313737929e-01    1.777710713e-05   -2.920246880e-05    0.000000000e+00    0.000000000e+00    0.000000000e+00    0.000000000e+00
      468250000   -1.948927343e-02    1.287272722e-01   -3.445090670e-06    1.662771865e-05    0.000000000e+00    0.000000000e+00    0.000000000e+00    0.000000000e+00
      475500000   -1.820550300e-02    1.269567013e-01    1.342229280e-05   -5.084495569e-06    0.000000000e+00    0.000000000e+00    0.000000000e+00    0.000000000e+00
      482750000   -1.863691397e-02    1.254840940e-01   -1.309385243e-05    9.963353477e-06    0.000000000e+00    0.000000000e+00    0.000000000e+00    0.000000000e+00
      490000000   -1.873021759e-02    1.234510094e-01    3.984687646e-05    1.555210110e-05    0.000000000e+00    0.000000000e+00    0.000000000e+00    0.000000000e+00
      497250000   -1.806908660e-02    1.218429878e-01   -1.234693968e-06   -1.267562129e-05    0.000000000e+00    0.000000000e+00    0.000000000e+00    0.000000000e+00
      504500000   -1.728596725e-02    1.194871962e-01    1.098371195e-05   -1.742020322e-05    0.000000000e+00    0.000000000e+00    0.000000000e+00    0.000000000e+00
      511750000   -1.631356962e-02    1.179987267e-01    1.424970196e-05   -2.154129834e-05    0.000000000e+00    0.000000000e+00    0.000000000e+00    0.000000000e+00
      519000000   -1.599276438e-02    1.168923229e-01    5.276851152e-05    4.044936759e-06    0.000000000e+00    0.000000000e+00    0.000000000e+00    0.000000000e+00
      526250000   -1.523412392e-02    1.153731495e-01    8.246666994e-07    2.978719931e-05    0.000000000e+00    0.000000000e+00    0.000000000e+00    0.000000000e+00
      533500000   -1.575236022e-02    1.140074730e-01   -5.599238284e-05    1.847135718e-05    0.000000000e+00    0.000000000e+00    0.000000000e+00    0.000000000e+00
      540750000   -1.499191765e-02    1.124428213e-01    1.959554356e-05   -2.942492029e-05    0.000000000e+00    0.000000000e+00    0.000000000e+00    0.000000000e+00
      548000000   -1.416913606e-02    1.106562093e-01    1.176688443e-06    2.808522549e-05    0.000000000e+00    0.000000000e+00    0.000000000e+00    0.000000000e+00
      555250000   -1.390578598e-02    1.092640236e-01   -4.704928415e-06   -2.363255044e-05    0.000000000e+00    0.000000000e+00    0.000000000e+00    0.000000000e+00
      562500000   -1.362591702e-02    1.079835594e-01   -3.015980474e-05   -1.828792483e-05    0.000000000e+00    0.000000000e+00    0.000000000e+00    0.000000000e+00
      569750000   -1.357903332e-02    1.065296456e-01   -1.409810920e-05    1.558627446e-05    0.000000000e+00    0.000000000e+00    0.000000000e+00    0.000000000e+00
      577000000   -1.342043467e-02    1.051501930e-01   -1.082678227e-05   -4.917149909e-06    0.000000000e+00    0.000000000e+00    0.000000000e+00    0.000000000e+00
      584250000   -1.218490675e-02    1.037651151e-01   -4.599715612e-05   -4.923684537e-05    0.000000000e+00    0.000000000e+00    0.000000000e+00    0.000000000e+00
      591500000   -1.208791602e-02    1.031464040e-01    2.476865484e-05    1.360764600e-06    0.000000000e+00    0.000000000e+00    0.000000000e+00    0.000000000e+00
      598750000   -1.196489111e-02    1.013556346e-01   -3.363462383e-05   -4.794515189e-05    0.000000000e+00    0.000000000e+00    0.000000000e+00    0.000000000e+00
      606000000   -1.136939134e-02    1.000990346e-01    3.735382052e-05   -2.858726111e-05    0.000000000e+00    0.000000000e+00    0.000000000e+00    0.000000000e+00
      613250000   -1.216254197e-02    9.879212081e-02    3.839533383e-05    2.516316636e-05    0.000000000e+00    0.000000000e+00    0.000000000e+00    0.000000000e+00
      620500000   -1.101353113e-02    9.755103290e-02   -3.280661076e-06   -1.070153758e-05    0.000000000e+00    0.000000000e+00    0.000000000e+00    0.000000000e+00
      627750000   -1.131448988e-02    9.680476785e-02   -1.923502850e-06    6.588003089e-06    0.000000000e+00    0.000000000e+00    0.000000000e+00    0.000000000e+00
      635000000   -1.024114620e-02    9.595268220e-02   -5.336672984e-05    1.159034400e-05    0.000000000e+00    0.000000000e+00    0.000000000e+00    0.000000000e+00
      642250000   -1.072217338e-02    9.506382793e-02    3.153030548e-06    8.188238098e-06    0.000000000e+00    0.000000000e+00    0.000000000e+00    0.000000000e+00
      649500000   -9.941447526e-03    9.373627603e-02    1.052555126e-05    1.571907887e-06    0.000000000e+00    0.000000000e+00    0.000000000e+00    0.000000000e+00
      656750000   -9.948188439e-03    9.336482733e-02    3.126279626e-05   -6.139501920e-07    0.000000000e+00    0.000000000e+00    0.000000000e+00    0.000000000e+00
      664000000   -9.815697558e-03    9.202831239e-02    1.575393435e-05   -9.057200259e-06    0.000000000e+00    0.000000000e+00    0.000000000e+00    0.000000000e+00
      671250000   -9.017380886e-03    9.115538001e-02   -2.778657836e-05    3.512648618e-05    0.000000000e+00    0.000000000e+00    0.000000000e+00    0.000000000e+00
      678500000   -9.833801538e-03    9.009750932e-02    7.257007383e-06    5.804214197e-06    0.000000000e+00    0.000000000e+00    0.000000000e+00    0.000000000e+00
      685750000   -9.221139364e-03    8.932612091e-02   -5.569329369e-05   -2.748560746e-06    0.000000000e+00    0.000000000e+00    0.000000000e+00    0.000000000e+00
      693000000   -8.915681392e-03    8.860685676e-02    8.606320989e-06    1.227348639e-05    0.000000000e+00    0.000000000e+00    0.000000000e+00    0.000000000e+00
      700250000   -9.938529693e-03    8.738691360e-02    1.948572935e-05    2.232707266e-05    0.000000000e+00    0.000000000e+00    0.000000000e+00    0.000000000e+00
      707500000   -7.517508231e-03    8.724097162e-02    1.505852470e-05    5.358434919e-06    0.000000000e+00    0.000000000e+00    0.000000000e+00    0.000000000e+00
      714750000   -8.670049720e-03    8.614836633e-02    1.359899579e-05    1.139340111e-05    0.000000000e+00    0.000000000e+00    0.000000000e+00    0.000000000e+00
      722000000   -7.470197510e-03    8.535596728e-02   -1.752064964e-05    1.677847649e-05    0.000000000e+00    0.000000000e+00    0.000000000e+00    0.000000000e+00
      729250000   -7.581808604e-03    8.454757929e-02    3.509248927e-05    1.237355809e-05    0.000000000e+00    0.000000000e+00    0.000000000e+00    0.000000000e+00
      736500000   -8.459726349e-03    8.365546912e-02   -7.670873310e-05    1.206841807e-05    0.000000000e+00    0.000000000e+00    0.000000000e+00    0.000000000e+00
      743750000   -7.695158012e-03    8.315160125e-02    2.884022797e-05    3.855097020e-06    0.000000000e+00    0.000000000e+00    0.000000000e+00    0.000000000e+00
      751000000   -8.211280219e-03    8.262403309e-02   -1.859456461e-05   -3.506552457e-05    0.000000000e+00    0.000000000e+00    0.000000000e+00    0.000000000e+00
      758250000   -7.007273845e-03    8.163641393e-02    1.574631096e-05   -2.890986980e-05    0.000000000e+00    0.000000000e+00    0.000000000e+00    0.000000000e+00
      765500000   -7.067517377e-03    8.079354465e-02   -1.343728741e-06   -1.146266277e-05    0.000000000e+00    0.000000000e+00    0.000000000e+00    0.000000000e+00
      772750000   -7.407888770e-03    7.996541262e-02   -1.039603740e-05    5.283550308e-06    0.000000000e+00    0.000000000e+00    0.000000000e+00    0.000000000e+00
      780000000   -6.206377875e-03    7.983850688e-02   -6.198209576e-06    3.299425589e-05    0.000000000e+00    0.000000000e+00    0.000000000e+00    0.000000000e+00
      787250000   -7.551812567e-03    7.896296680e-02   -3.635325629e-05   -1.226327549e-05    0.000000000e+00    0.000000000e+00    0.000000000e+00    0.000000000e+00
      794500000   -6.564736366e-03    7.748697698e-02   -5.852289632e-06   -4.555511623e-06    0.000000000e+00    0.000000000e+00    0.000000000e+00    0.000000000e+00
      801750000   -6.831970997e-03    7.720499486e-02   -8.038239685e-06    4.099870057e-05    0.000000000e+00    0.000000000e+00    0.000000000e+00    0.000000000e+00
      809000000   -6.339922547e-03    7.653337717e-02   -8.481190889e-06   -8.732915376e-06    0.000000000e+00    0.000000000e+00    0.000000000e+00    0.000000000e+00
      816250000   -6.378263235e-03    7.604857534e-02    1.628985410e-05   -2.481187221e-05    0.000000000e+00    0.000000000e+00    0.000000000e+00    0.000000000e+00
      823500000   -5.889459513e-03    7.521166652e-02   -3.932812888e-06    3.122140242e-06    0.000000000e+00    0.000000000e+00    0.000000000e+00    0.000000000e+00
      830750000   -6.035175640e-03    7.479825616e-02   -1.504540614e-05    7.403806376e-05    0.000000000e+00    0.000000000e+00    0.000000000e+00    0.000000000e+00
      838000000   -6.323304027e-03    7.437739521e-02   -4.117328353e-05   -1.298240750e-05    0.000000000e+00    0.000000000e+00    0.000000000e+00    0.000000000e+00
      845250000   -5.861462094e-03    7.369966805e-02   -2.790569124e-05    2.111794311e-05    0.000000000e+00    0.000000000e+00    0.000000000e+00    0.000000000e+00
      852500000   -6.471605971e-03    7.307561487e-02    3.041560922e-05   -1.058355883e-05    0.000000000e+00    0.000000000e+00    0.000000000e+00    0.000000000e+00
      859750000   -6.116035860e-03    7.244714350e-02    1.219500632e-06    1.417679596e-05    0.000000000e+00    0.000000000e+00    0.000000000e+00    0.000000000e+00
      867000000   -5.170744378e-03    7.136476785e-02   -2.168161882e-05   -3.850679786e-05    0.000000000e+00    0.000000000e+00    0.000000000e+00    0.000000000e+00
      874250000   -5.797277205e-03    7.115544379e-02    3.017401696e-06   -8.964010703e-06    0.000000000e+00    0.000000000e+00    0.000000000e+00    0.000000000e+00
      881500000   -5.228432827e-03    7.072521001e-02   -7.605380233e-06   -3.344691140e-05    0.000000000e+00    0.000000000e+00    0.000000000e+00    0.000000000e+00
      888750000   -5.669601727e-03    7.013437897e-02   -1.997170102e-06    8.975112905e-06    0.000000000e+00    0.000000000e+00    0.000000000e+00    0.000000000e+00
      896000000   -4.289740231e-03    6.935096532e-02   -3.785237277e-05    3.584161459e-05    0.000000000e+00    0.000000000e+00    0.000000000e+00    0.000000000e+00
      903250000   -5.327169318e-03    6.892421097e-02   -4.746774357e-05    2.217492329e-05    0.000000000e+00    0.000000000e+00    0.000000000e+00    0.000000000e+00
      910500000   -4.706264473e-03    6.859944016e-02    5.849542504e-06    4.409906251e-05    0.000000000e+00    0.000000000e+00    0.000000000e+00    0.000000000e+00
      917750000   -4.220950417e-03    6.817166507e-02    1.633037186e-06   -8.731349226e-06    0.000000000e+00    0.000000000e+00    0.000000000e+00    0.000000000e+00
      925000000   -5.193777382e-03    6.709090620e-02   -1.266623622e-05    2.039155152e-05    0.000000000e+00    0.000000000e+00    0.000000000e+00    0.000000000e+00
      932250000   -5.490487907e-03    6.616693735e-02   -1.762807415e-06   -1.106972923e-05    0.000000000e+00    0.000000000e+00    0.000000000e+00    0.000000000e+00
      939500000   -4.586971365e-03    6.616239995e-02   -9.783208952e-06    2.041550943e-06    0.000000000e+00    0.000000000e+00    0.000000000e+00    0.000000000e+00
      946750000   -4.551002290e-03    6.547323614e-02    7.451595593e-06   -9.362592209e-06    0.000000000e+00    0.000000000e+00    0.000000000e+00    0.000000000e+00
      954000000   -4.179534968e-03    6.478795409e-02    6.333948932e-06    5.954473181e-06    0.000000000e+00    0.000000000e+00    0.000000000e+00    0.000000000e+00
      961250000   -4.742572084e-03    6.479679793e-02   -2.642672916e-05    2.784990465e-05    0.000000000e+00    0.000000000e+00    0.000000000e+00    0.000000000e+00
      968500000   -4.880172666e-03    6.427350640e-02    3.319119787e-05    8.584850548e-06    0.000000000e+00    0.000000000e+00    0.000000000e+00    0.000000000e+00
      975750000   -4.750923719e-03    6.388169527e-02    9.581634004e-06   -4.548690413e-05    0.000000000e+00    0.000000000e+00    0.000000000e+00    0.000000000e+00
      983000000   -5.369108170e-03    6.386345625e-02    8.554329725e-06    1.734301077e-05    0.000000000e+00    0.000000000e+00    0.000000000e+00    0.000000000e+00
      990250000   -3.572607413e-03    6.332868338e-02    3.617994707e-06    3.313145862e-05    0.000000000e+00    0.000000000e+00    0.000000000e+00    0.000000000e+00
      997500000   -4.927271511e-03    6.275987625e-02    8.109108421e-06    1.754235382e-05    0.000000000e+00    0.000000000e+00    0.000000000e+00    0.000000000e+00
     1004750000   -4.538196605e-03    6.207278371e-02   -1.256766609e-05    4.543121759e-05    0.000000000e+00    0.000000000e+00    0.000000000e+00    0.000000000e+00
     1012000000   -4.587899428e-03    6.157000363e-02   -2.293335456e-05    1.685693132e-05    0.000000000e+00    0.000000000e+00    0.000000000e+00    0.000000000e+00
     1019250000   -4.020811524e-03    6.097723544e-02   -4.544859564e-07   -3.348641258e-05    0.000000000e+00    0.000000000e+00    0.000000000e+00    0.000000000e+00
     1026500000   -4.112378694e-03    6.057598814e-02   -3.048751569e-05    2.394609510e-05    0.000000000e+00    0.000000000e+00    0.000000000e+00    0.000000000e+00
     1033750000   -4.473914392e-03    6.047668308e-02   -3.594707232e-05    1.766745117e-05    0.000000000e+00    0.000000000e+00    0.000000000e+00    0.000000000e+00
     1041000000   -3.277843585e-03    6.032842398e-02    3.070805542e-05    6.423367449e-05    0.000000000e+00    0.000000000e+00    0.000000000e+00    0.000000000e+00
