! NanoVNA-App by OneOfEleven et al v1.1.209 (+OD15) 
! Date: 2024-07-30 15:24:30
! Start: 200MHz Stop: 6GHz Points: 801
! S-Parameter data: F S11 S21 S12 S22
# Hz S RI R 50
!     Frequency           S11_Real           S11_Imag           S21_Real           S21_Imag           S12_Real           S12_Imag           S22_Real           S22_Imag
      200000000   -9.226062894e-02    2.741585076e-01    1.725125912e-05   -2.541963477e-05    0.000000000e+00    0.000000000e+00    0.000000000e+00    0.000000000e+00
      207250000   -8.634235710e-02    2.653685510e-01   -5.912408596e-06   -1.040047027e-05    0.000000000e+00    0.000000000e+00    0.000000000e+00    0.000000000e+00
      214500000   -8.118109405e-02    2.597996593e-01   -1.708035052e-05   -4.608657400e-05    0.000000000e+00    0.000000000e+00    0.000000000e+00    0.000000000e+00
      221750000   -7.639101893e-02    2.518756688e-01    1.772566429e-05    2.757153015e-05    0.000000000e+00    0.000000000e+00    0.000000000e+00    0.000000000e+00
      229000000   -7.068695873e-02    2.448099405e-01   -1.747948045e-05    3.886300419e-06    0.000000000e+00    0.000000000e+00    0.000000000e+00    0.000000000e+00
      236250000   -6.825713068e-02    2.399598509e-01    5.658719601e-06   -2.940239756e-05    0.000000000e+00    0.000000000e+00    0.000000000e+00    0.000000000e+00
      243500000   -6.305593252e-02    2.332947254e-01   -1.411614994e-05    1.467335369e-05    0.000000000e+00    0.000000000e+00    0.000000000e+00    0.000000000e+00
      250750000   -6.142785773e-02    2.276622206e-01   -2.377156306e-05    9.185134331e-06    0.000000000e+00    0.000000000e+00    0.000000000e+00    0.000000000e+00
      258000000   -5.803821981e-02    2.215931714e-01   -1.564826562e-05    1.602455086e-05    0.000000000e+00    0.000000000e+00    0.000000000e+00    0.000000000e+00
      265250000   -5.448365211e-02    2.158702314e-01   -5.845774922e-06   -2.881677119e-06    0.000000000e+00    0.000000000e+00    0.000000000e+00    0.000000000e+00
      272500000   -5.239780992e-02    2.110505402e-01   -3.721134476e-07   -1.502769373e-05    0.000000000e+00    0.000000000e+00    0.000000000e+00    0.000000000e+00
      279750000   -4.959623888e-02    2.061045021e-01   -1.257166787e-05    1.726932715e-05    0.000000000e+00    0.000000000e+00    0.000000000e+00    0.000000000e+00
      287000000   -4.716090858e-02    2.014982998e-01   -1.742055792e-05   -3.052295142e-05    0.000000000e+00    0.000000000e+00    0.000000000e+00    0.000000000e+00
      294250000   -4.562464356e-02    1.969496459e-01   -1.118490854e-05    4.712416739e-06    0.000000000e+00    0.000000000e+00    0.000000000e+00    0.000000000e+00
      301500000   -4.369160160e-02    1.922931522e-01   -6.164916704e-05   -1.105097363e-05    0.000000000e+00    0.000000000e+00    0.000000000e+00    0.000000000e+00
      308750000   -4.197695851e-02    1.891947091e-01   -4.395096767e-06    2.390986810e-05    0.000000000e+00    0.000000000e+00    0.000000000e+00    0.000000000e+00
      316000000   -3.910625726e-02    1.845905185e-01   -1.462271939e-05    2.042411506e-05    0.000000000e+00    0.000000000e+00    0.000000000e+00    0.000000000e+00
      323250000   -3.800195083e-02    1.807081699e-01    4.021652558e-07    9.526653230e-06    0.000000000e+00    0.000000000e+00    0.000000000e+00    0.000000000e+00
      330500000   -3.609361500e-02    1.772924960e-01    1.784454071e-05    2.679761201e-05    0.000000000e+00    0.000000000e+00    0.000000000e+00    0.000000000e+00
      337750000   -3.523749858e-02    1.735480875e-01   -1.040477400e-05    2.089222107e-05    0.000000000e+00    0.000000000e+00    0.000000000e+00    0.000000000e+00
      345000000   -3.340912238e-02    1.702251434e-01   -1.653255640e-05    3.160955430e-06    0.000000000e+00    0.000000000e+00    0.000000000e+00    0.000000000e+00
      352250000   -3.258602694e-02    1.672998667e-01    1.501313818e-05   -3.057511321e-06    0.000000000e+00    0.000000000e+00    0.000000000e+00    0.000000000e+00
      359500000   -3.107655235e-02    1.638111919e-01   -1.093169431e-05    1.061982039e-05    0.000000000e+00    0.000000000e+00    0.000000000e+00    0.000000000e+00
      366750000   -2.967793867e-02    1.616493016e-01    3.312861054e-06   -1.634271939e-05    0.000000000e+00    0.000000000e+00    0.000000000e+00    0.000000000e+00
      374000000   -2.973552421e-02    1.589769423e-01    5.216235422e-06    1.206023899e-05    0.000000000e+00    0.000000000e+00    0.000000000e+00    0.000000000e+00
      381250000   -2.828138322e-02    1.563789845e-01   -2.107977707e-06    3.425150908e-06    0.000000000e+00    0.000000000e+00    0.000000000e+00    0.000000000e+00
      388500000   -2.764473110e-02    1.536650062e-01    1.748732575e-05   -4.966554101e-08    0.000000000e+00    0.000000000e+00    0.000000000e+00    0.000000000e+00
      395750000   -2.614889666e-02    1.512986571e-01   -2.606644921e-05    3.445090260e-05    0.000000000e+00    0.000000000e+00    0.000000000e+00    0.000000000e+00
      403000000   -2.613195032e-02    1.478577852e-01    7.742326602e-08   -4.933379023e-05    0.000000000e+00    0.000000000e+00    0.000000000e+00    0.000000000e+00
      410250000   -2.398449741e-02    1.459607184e-01    2.697642958e-05   -1.600172436e-05    0.000000000e+00    0.000000000e+00    0.000000000e+00    0.000000000e+00
      417500000   -2.408436872e-02    1.434376687e-01   -2.112877701e-05   -1.799763777e-05    0.000000000e+00    0.000000000e+00    0.000000000e+00    0.000000000e+00
      424750000   -2.213483863e-02    1.408966333e-01    1.630227780e-05   -2.023054003e-05    0.000000000e+00    0.000000000e+00    0.000000000e+00    0.000000000e+00
      432000000   -2.202410065e-02    1.383969933e-01   -3.853746239e-05    1.005679860e-05    0.000000000e+00    0.000000000e+00    0.000000000e+00    0.000000000e+00
      439250000   -2.135241404e-02    1.370243430e-01    2.483642311e-05    5.998268080e-06    0.000000000e+00    0.000000000e+00    0.000000000e+00    0.000000000e+00
      446500000   -2.036234364e-02    1.350375712e-01    2.685478648e-05    9.117736226e-06    0.000000000e+00    0.000000000e+00    0.000000000e+00    0.000000000e+00
      453750000   -2.014186047e-02    1.325075477e-01   -1.344579005e-06    3.375154120e-05    0.000000000e+00    0.000000000e+00    0.000000000e+00    0.000000000e+00
      461000000   -1.953904517e-02    1.310694665e-01    1.069805057e-05    1.516016982e-05    0.000000000e+00    0.000000000e+00    0.000000000e+00    0.000000000e+00
      468250000   -1.950865425e-02    1.291582584e-01   -2.533294492e-06   -2.961525206e-05    0.000000000e+00    0.000000000e+00    0.000000000e+00    0.000000000e+00
      475500000   -1.866287738e-02    1.271707416e-01    4.604945934e-05   -1.140335371e-05    0.000000000e+00    0.000000000e+00    0.000000000e+00    0.000000000e+00
      482750000   -1.829509251e-02    1.254966855e-01   -2.756942740e-05    3.013125570e-05    0.000000000e+00    0.000000000e+00    0.000000000e+00    0.000000000e+00
      490000000   -1.827436127e-02    1.233017296e-01    1.748155228e-05   -2.194473927e-05    0.000000000e+00    0.000000000e+00    0.000000000e+00    0.000000000e+00
      497250000   -1.683325879e-02    1.218323261e-01    2.875848622e-05   -2.571782352e-05    0.000000000e+00    0.000000000e+00    0.000000000e+00    0.000000000e+00
      504500000   -1.662496291e-02    1.203319207e-01    1.784979031e-05    1.779570448e-05    0.000000000e+00    0.000000000e+00    0.000000000e+00    0.000000000e+00
      511750000   -1.696946844e-02    1.184952408e-01    2.750336353e-05    1.493746731e-05    0.000000000e+00    0.000000000e+00    0.000000000e+00    0.000000000e+00
      519000000   -1.608150266e-02    1.172506586e-01   -6.018201930e-06    4.665882898e-06    0.000000000e+00    0.000000000e+00    0.000000000e+00    0.000000000e+00
      526250000   -1.548909396e-02    1.154985353e-01    4.340517262e-05   -2.126803338e-06    0.000000000e+00    0.000000000e+00    0.000000000e+00    0.000000000e+00
      533500000   -1.564837806e-02    1.134756133e-01   -8.412399438e-06   -3.369461774e-05    0.000000000e+00    0.000000000e+00    0.000000000e+00    0.000000000e+00
      540750000   -1.419196930e-02    1.124695167e-01    9.710280210e-06    2.859947381e-05    0.000000000e+00    0.000000000e+00    0.000000000e+00    0.000000000e+00
      548000000   -1.475659478e-02    1.108060107e-01   -2.217937072e-05   -5.116448847e-06    0.000000000e+00    0.000000000e+00    0.000000000e+00    0.000000000e+00
      555250000   -1.447028667e-02    1.098062545e-01   -1.396152493e-05   -9.188835975e-06    0.000000000e+00    0.000000000e+00    0.000000000e+00    0.000000000e+00
      562500000   -1.345327962e-02    1.081734002e-01    1.729421911e-06    3.176102109e-05    0.000000000e+00    0.000000000e+00    0.000000000e+00    0.000000000e+00
      569750000   -1.326688472e-02    1.066356599e-01    1.919025453e-05   -4.367026486e-05    0.000000000e+00    0.000000000e+00    0.000000000e+00    0.000000000e+00
      577000000   -1.370989252e-02    1.055819318e-01   -8.596280168e-06   -2.033524652e-05    0.000000000e+00    0.000000000e+00    0.000000000e+00    0.000000000e+00
      584250000   -1.294981968e-02    1.037965268e-01    1.868208710e-05   -2.988833876e-05    0.000000000e+00    0.000000000e+00    0.000000000e+00    0.000000000e+00
      591500000   -1.127830520e-02    1.026897207e-01    2.476726308e-07    5.553738447e-05    0.000000000e+00    0.000000000e+00    0.000000000e+00    0.000000000e+00
      598750000   -1.228150353e-02    1.015646234e-01   -1.662155955e-05    1.991810495e-05    0.000000000e+00    0.000000000e+00    0.000000000e+00    0.000000000e+00
      606000000   -1.251007430e-02    9.989140183e-02   -1.218120815e-05    3.658966762e-06    0.000000000e+00    0.000000000e+00    0.000000000e+00    0.000000000e+00
      613250000   -1.273398753e-02    9.875021875e-02    3.206234396e-05    2.320742351e-05    0.000000000e+00    0.000000000e+00    0.000000000e+00    0.000000000e+00
      620500000   -1.115852408e-02    9.818283468e-02   -6.585985375e-06   -8.882665497e-06    0.000000000e+00    0.000000000e+00    0.000000000e+00    0.000000000e+00
      627750000   -1.132157724e-02    9.711410850e-02   -1.167068876e-05   -2.692159796e-05    0.000000000e+00    0.000000000e+00    0.000000000e+00    0.000000000e+00
      635000000   -1.021716651e-02    9.602464736e-02   -1.379536661e-05    4.618625098e-06    0.000000000e+00    0.000000000e+00    0.000000000e+00    0.000000000e+00
      642250000   -1.011844818e-02    9.489104897e-02   -5.177681032e-06    2.147738815e-05    0.000000000e+00    0.000000000e+00    0.000000000e+00    0.000000000e+00
      649500000   -1.000769064e-02    9.381325543e-02   -1.425018672e-05    9.948556908e-06    0.000000000e+00    0.000000000e+00    0.000000000e+00    0.000000000e+00
      656750000   -9.484008886e-03    9.319453686e-02    9.688176760e-06   -5.600215809e-05    0.000000000e+00    0.000000000e+00    0.000000000e+00    0.000000000e+00
      664000000   -1.031175442e-02    9.248885512e-02   -1.673251427e-05    1.270520897e-05    0.000000000e+00    0.000000000e+00    0.000000000e+00    0.000000000e+00
      671250000   -9.172815830e-03    9.108682722e-02    2.049148861e-05   -1.618009992e-05    0.000000000e+00    0.000000000e+00    0.000000000e+00    0.000000000e+00
      678500000   -9.325523861e-03    9.012188017e-02   -3.126301453e-05   -8.733766663e-06    0.000000000e+00    0.000000000e+00    0.000000000e+00    0.000000000e+00
      685750000   -9.196332656e-03    8.900424838e-02   -4.952950621e-05   -2.304235932e-05    0.000000000e+00    0.000000000e+00    0.000000000e+00    0.000000000e+00
      693000000   -9.515635669e-03    8.830282837e-02   -2.263484384e-05   -1.544842235e-05    0.000000000e+00    0.000000000e+00    0.000000000e+00    0.000000000e+00
      700250000   -9.092755616e-03    8.769807965e-02    2.128026244e-05    8.906886251e-06    0.000000000e+00    0.000000000e+00    0.000000000e+00    0.000000000e+00
      707500000   -9.014565498e-03    8.716589212e-02   -2.241210314e-05    1.403150873e-05    0.000000000e+00    0.000000000e+00    0.000000000e+00    0.000000000e+00
      714750000   -8.948422968e-03    8.566594124e-02   -3.138064358e-06   -2.349552597e-05    0.000000000e+00    0.000000000e+00    0.000000000e+00    0.000000000e+00
      722000000   -6.866672076e-03    8.546102792e-02   -1.760620398e-05   -1.458394672e-05    0.000000000e+00    0.000000000e+00    0.000000000e+00    0.000000000e+00
      729250000   -7.969896309e-03    8.435791731e-02    5.818459954e-07   -2.036147089e-05    0.000000000e+00    0.000000000e+00    0.000000000e+00    0.000000000e+00
      736500000   -7.675428875e-03    8.408990502e-02   -1.943706593e-05    7.576141797e-06    0.000000000e+00    0.000000000e+00    0.000000000e+00    0.000000000e+00
      743750000   -7.789953612e-03    8.295455575e-02    1.175566695e-06    1.812678966e-05    0.000000000e+00    0.000000000e+00    0.000000000e+00    0.000000000e+00
      751000000   -7.751646452e-03    8.263628185e-02    2.242616938e-05   -2.220281021e-05    0.000000000e+00    0.000000000e+00    0.000000000e+00    0.000000000e+00
      758250000   -7.869448513e-03    8.156035841e-02   -1.069189602e-05   -2.669095920e-05    0.000000000e+00    0.000000000e+00    0.000000000e+00    0.000000000e+00
      765500000   -7.237347774e-03    8.104213327e-02    1.491987678e-05    9.367818166e-06    0.000000000e+00    0.000000000e+00    0.000000000e+00    0.000000000e+00
      772750000   -6.837419234e-03    8.024285734e-02    1.196076937e-05   -2.726565617e-05    0.000000000e+00    0.000000000e+00    0.000000000e+00    0.000000000e+00
      780000000   -7.642233279e-03    7.963424921e-02    2.216458370e-06   -6.537519312e-06    0.000000000e+00    0.000000000e+00    0.000000000e+00    0.000000000e+00
      787250000   -7.287416141e-03    7.865112275e-02    7.090198324e-06    4.177863957e-05    0.000000000e+00    0.000000000e+00    0.000000000e+00    0.000000000e+00
      794500000   -6.732170004e-03    7.753396034e-02   -2.999964636e-05    7.414664287e-05    0.000000000e+00    0.000000000e+00    0.000000000e+00    0.000000000e+00
      801750000   -7.264476735e-03    7.719642669e-02    2.118572957e-05    1.835156945e-05    0.000000000e+00    0.000000000e+00    0.000000000e+00    0.000000000e+00
      809000000   -6.638107356e-03    7.644380629e-02    1.781308310e-05    1.218335819e-05    0.000000000e+00    0.000000000e+00    0.000000000e+00    0.000000000e+00
      816250000   -6.615133490e-03    7.599106431e-02    1.770727977e-05   -1.397680353e-05    0.000000000e+00    0.000000000e+00    0.000000000e+00    0.000000000e+00
      823500000   -6.310946774e-03    7.519050688e-02    1.225547385e-05    1.809345849e-05    0.000000000e+00    0.000000000e+00    0.000000000e+00    0.000000000e+00
      830750000   -5.900262389e-03    7.454713434e-02   -5.065466667e-06   -4.104103937e-06    0.000000000e+00    0.000000000e+00    0.000000000e+00    0.000000000e+00
      838000000   -5.435871426e-03    7.415270060e-02   -1.200652878e-05   -4.431690104e-05    0.000000000e+00    0.000000000e+00    0.000000000e+00    0.000000000e+00
      845250000   -6.301286630e-03    7.352778316e-02    1.066503955e-05   -1.029382929e-05    0.000000000e+00    0.000000000e+00    0.000000000e+00    0.000000000e+00
      852500000   -5.742176436e-03    7.290922850e-02   -7.452818409e-06    2.744583071e-05    0.000000000e+00    0.000000000e+00    0.000000000e+00    0.000000000e+00
      859750000   -5.740950350e-03    7.224766910e-02   -3.486438800e-05    9.327255611e-06    0.000000000e+00    0.000000000e+00    0.000000000e+00    0.000000000e+00
      867000000   -5.819782149e-03    7.203183323e-02   -2.108766239e-06   -3.700386969e-06    0.000000000e+00    0.000000000e+00    0.000000000e+00    0.000000000e+00
      874250000   -5.156028550e-03    7.124774158e-02   -8.356863873e-06   -1.956718734e-05    0.000000000e+00    0.000000000e+00    0.000000000e+00    0.000000000e+00
      881500000   -5.217350554e-03    7.054919749e-02   -2.803947609e-05    5.361646799e-06    0.000000000e+00    0.000000000e+00    0.000000000e+00    0.000000000e+00
      888750000   -5.604281090e-03    7.008402050e-02   -1.129822340e-05    4.356624231e-06    0.000000000e+00    0.000000000e+00    0.000000000e+00    0.000000000e+00
      896000000   -4.707285669e-03    6.934770197e-02   -6.037760249e-05    2.089572081e-05    0.000000000e+00    0.000000000e+00    0.000000000e+00    0.000000000e+00
      903250000   -5.436393898e-03    6.913659722e-02    1.604563658e-05    1.921476724e-05    0.000000000e+00    0.000000000e+00    0.000000000e+00    0.000000000e+00
      910500000   -4.774712957e-03    6.871440262e-02   -2.336023726e-06    2.124363891e-05    0.000000000e+00    0.000000000e+00    0.000000000e+00    0.000000000e+00
      917750000   -4.667886067e-03    6.768148392e-02    1.954136906e-06    1.300474742e-05    0.000000000e+00    0.000000000e+00    0.000000000e+00    0.000000000e+00
      925000000   -5.299898796e-03    6.698658317e-02    2.913747085e-05    2.973026858e-05    0.000000000e+00    0.000000000e+00    0.000000000e+00    0.000000000e+00
      932250000   -4.395301454e-03    6.690439582e-02   -1.192845230e-05   -7.305155304e-05    0.000000000e+00    0.000000000e+00    0.000000000e+00    0.000000000e+00
      939500000   -4.592920654e-03    6.648862362e-02    1.924881872e-05    5.533483545e-06    0.000000000e+00    0.000000000e+00    0.000000000e+00    0.000000000e+00
      946750000   -4.335783888e-03    6.582318246e-02   -4.120224730e-06    6.606812804e-06    0.000000000e+00    0.000000000e+00    0.000000000e+00    0.000000000e+00
      954000000   -5.000432953e-03    6.463174522e-02   -2.325530659e-05   -1.467038419e-05    0.000000000e+00    0.000000000e+00    0.000000000e+00    0.000000000e+00
      961250000   -4.058828577e-03    6.466274709e-02    2.405455234e-06    1.019430510e-05    0.000000000e+00    0.000000000e+00    0.000000000e+00    0.000000000e+00
      968500000   -4.654674325e-03    6.447198987e-02    4.345256093e-05    2.849650446e-05    0.000000000e+00    0.000000000e+00    0.000000000e+00    0.000000000e+00
      975750000   -4.968808033e-03    6.413219124e-02   -3.537046723e-05    3.022324017e-05    0.000000000e+00    0.000000000e+00    0.000000000e+00    0.000000000e+00
      983000000   -4.542686511e-03    6.401600689e-02    2.823814248e-05   -1.711552977e-05    0.000000000e+00    0.000000000e+00    0.000000000e+00    0.000000000e+00
      990250000   -3.656052286e-03    6.340751052e-02    3.576829477e-05    3.226168701e-05    0.000000000e+00    0.000000000e+00    0.000000000e+00    0.000000000e+00
      997500000   -3.738486674e-03    6.285601854e-02   -1.825406252e-05   -1.841708035e-05    0.000000000e+00    0.000000000e+00    0.000000000e+00    0.000000000e+00
     1004750000   -4.934912547e-03    6.208345294e-02   -5.584227438e-06   -7.929385902e-06    0.000000000e+00    0.000000000e+00    0.000000000e+00    0.000000000e+00
     1012000000   -4.498206079e-03    6.176112220e-02   -1.808005976e-07    5.794013873e-07    0.000000000e+00    0.000000000e+00    0.000000000e+00    0.000000000e+00
     1019250000   -4.472600296e-03    6.130298227e-02    2.083288928e-05   -2.775493704e-05    0.000000000e+00    0.000000000e+00    0.000000000e+00    0.000000000e+00
     1026500000   -4.408701323e-03    6.103127822e-02    7.755886145e-06   -1.653045547e-05    0.000000000e+00    0.000000000e+00    0.000000000e+00    0.000000000e+00
     1033750000   -4.422678612e-03    6.023770198e-02   -2.561311885e-05    1.220803006e-05    0.000000000e+00    0.000000000e+00    0.000000000e+00    0.000000000e+00
     1041000000   -4.060610197e-03    5.974988267e-02    2.871095785e-05   -2.691547161e-05    0.000000000e+00    0.000000000e+00    0.000000000e+00    0.000000000e+00
