! NanoVNA-App by OneOfEleven et al v1.1.209 (+OD15) 
! Date: 2024-07-30 15:25:19
! Start: 200MHz Stop: 6GHz Points: 801
! S-Parameter data: F S11 S21 S12 S22
# Hz S RI R 50
!     Frequency           S11_Real           S11_Imag           S21_Real           S21_Imag           S12_Real           S12_Imag           S22_Real           S22_Imag
      200000000   -9.141276777e-02    2.741643786e-01    2.699202378e-05   -3.812082650e-05    0.000000000e+00    0.000000000e+00    0.000000000e+00    0.000000000e+00
      207250000   -8.632915467e-02    2.664159238e-01    1.983121183e-05    1.404930845e-05    0.000000000e+00    0.000000000e+00    0.000000000e+00    0.000000000e+00
      214500000   -8.022771776e-02    2.584787011e-01   -2.634718328e-07   -1.435033846e-05    0.000000000e+00    0.000000000e+00    0.000000000e+00    0.000000000e+00
      221750000   -7.582348585e-02    2.519156933e-01    3.019185533e-05   -1.279202570e-05    0.000000000e+00    0.000000000e+00    0.000000000e+00    0.000000000e+00
      229000000   -7.171426713e-02    2.459599376e-01   -2.732046596e-06   -1.879881347e-05    0.000000000e+00    0.000000000e+00    0.000000000e+00    0.000000000e+00
      236250000   -6.658182293e-02    2.388676405e-01   -9.884206520e-06    1.276635430e-05    0.000000000e+00    0.000000000e+00    0.000000000e+00    0.000000000e+00
      243500000   -6.347933412e-02    2.326980084e-01    9.773360034e-06   -8.695416000e-06    0.000000000e+00    0.000000000e+00    0.000000000e+00    0.000000000e+00
      250750000   -6.154895946e-02    2.270632684e-01   -2.887060145e-05   -3.898353043e-06    0.000000000e+00    0.000000000e+00    0.000000000e+00    0.000000000e+00
      258000000   -5.802069604e-02    2.216173559e-01    1.530263216e-05    1.094958770e-05    0.000000000e+00    0.000000000e+00    0.000000000e+00    0.000000000e+00
      265250000   -5.471515656e-02    2.164347172e-01    1.114828683e-05   -2.888128438e-05    0.000000000e+00    0.000000000e+00    0.000000000e+00    0.000000000e+00
      272500000   -5.252184346e-02    2.109238058e-01    1.888022780e-05    1.191213983e-06    0.000000000e+00    0.000000000e+00    0.000000000e+00    0.000000000e+00
      279750000   -4.902963340e-02    2.060332000e-01   -1.636300658e-05   -2.261846748e-05    0.000000000e+00    0.000000000e+00    0.000000000e+00    0.000000000e+00
      287000000   -4.749570787e-02    2.011379898e-01    1.119405351e-05    2.598193305e-06    0.000000000e+00    0.000000000e+00    0.000000000e+00    0.000000000e+00
      294250000   -4.562314972e-02    1.960477382e-01    2.909457908e-05   -2.581645822e-05    0.000000000e+00    0.000000000e+00    0.000000000e+00    0.000000000e+00
      301500000   -4.267183319e-02    1.919967234e-01   -2.012300138e-05    2.197531103e-05    0.000000000e+00    0.000000000e+00    0.000000000e+00    0.000000000e+00
      308750000   -4.141959175e-02    1.885748655e-01   -5.404749118e-06   -2.306606802e-05    0.000000000e+00    0.000000000e+00    0.000000000e+00    0.000000000e+00
      316000000   -3.979983926e-02    1.845381856e-01    1.509119102e-05    2.693131364e-06    0.000000000e+00    0.000000000e+00    0.000000000e+00    0.000000000e+00
      323250000   -3.782344237e-02    1.812260151e-01    1.786298412e-06   -2.442297045e-05    0.000000000e+00    0.000000000e+00    0.000000000e+00    0.000000000e+00
      330500000   -3.644240648e-02    1.766842008e-01   -2.393724935e-05   -2.027790833e-05    0.000000000e+00    0.000000000e+00    0.000000000e+00    0.000000000e+00
      337750000   -3.471818194e-02    1.741342545e-01   -3.320181349e-06    7.323949831e-06    0.000000000e+00    0.000000000e+00    0.000000000e+00    0.000000000e+00
      345000000   -3.369624168e-02    1.706316024e-01   -3.997499516e-05   -5.353186680e-06    0.000000000e+00    0.000000000e+00    0.000000000e+00    0.000000000e+00
      352250000   -3.264926374e-02    1.668233871e-01   -8.388990977e-07    2.347894406e-05    0.000000000e+00    0.000000000e+00    0.000000000e+00    0.000000000e+00
      359500000   -3.118021414e-02    1.642881632e-01   -3.674969048e-05    3.571232446e-05    0.000000000e+00    0.000000000e+00    0.000000000e+00    0.000000000e+00
      366750000   -3.023939021e-02    1.610235423e-01    1.213983705e-05    3.395149179e-05    0.000000000e+00    0.000000000e+00    0.000000000e+00    0.000000000e+00
      374000000   -2.845825441e-02    1.587450802e-01   -1.340194012e-05    9.880906873e-06    0.000000000e+00    0.000000000e+00    0.000000000e+00    0.000000000e+00
      381250000   -2.730264142e-02    1.553149372e-01    2.586968321e-06   -8.046840776e-06    0.000000000e+00    0.000000000e+00    0.000000000e+00    0.000000000e+00
      388500000   -2.698120102e-02    1.530745178e-01    1.860595512e-05    2.638871410e-05    0.000000000e+00    0.000000000e+00    0.000000000e+00    0.000000000e+00
      395750000   -2.567687258e-02    1.509218365e-01   -8.035674909e-06    1.666057869e-06    0.000000000e+00    0.000000000e+00    0.000000000e+00    0.000000000e+00
      403000000   -2.585239522e-02    1.482468694e-01    3.468663272e-05    5.134818821e-06    0.000000000e+00    0.000000000e+00    0.000000000e+00    0.000000000e+00
      410250000   -2.442504279e-02    1.460482180e-01   -2.165037949e-05    2.641159654e-06    0.000000000e+00    0.000000000e+00    0.000000000e+00    0.000000000e+00
      417500000   -2.415151335e-02    1.437852234e-01   -5.409108780e-05   -2.598939500e-05    0.000000000e+00    0.000000000e+00    0.000000000e+00    0.000000000e+00
      424750000   -2.234202437e-02    1.407905519e-01   -2.472126835e-05   -4.775527032e-06    0.000000000e+00    0.000000000e+00    0.000000000e+00    0.000000000e+00
      432000000   -2.227238938e-02    1.394027472e-01   -1.252788388e-05    2.540394235e-05    0.000000000e+00    0.000000000e+00    0.000000000e+00    0.000000000e+00
      439250000   -2.139736339e-02    1.365566403e-01    2.611051059e-05   -4.449276275e-06    0.000000000e+00    0.000000000e+00    0.000000000e+00    0.000000000e+00
      446500000   -2.128044888e-02    1.349305212e-01   -9.912902897e-06   -4.212259591e-05    0.000000000e+00    0.000000000e+00    0.000000000e+00    0.000000000e+00
      453750000   -2.071599476e-02    1.336157918e-01    1.539615550e-05    4.088460992e-05    0.000000000e+00    0.000000000e+00    0.000000000e+00    0.000000000e+00
      461000000   -2.030900121e-02    1.309650838e-01    1.793800220e-05    1.679743764e-05    0.000000000e+00    0.000000000e+00    0.000000000e+00    0.000000000e+00
      468250000   -1.928885840e-02    1.286511570e-01   -3.412485512e-06    3.642284810e-06    0.000000000e+00    0.000000000e+00    0.000000000e+00    0.000000000e+00
      475500000   -1.909700409e-02    1.270684749e-01   -5.058130228e-06    1.771983625e-05    0.000000000e+00    0.000000000e+00    0.000000000e+00    0.000000000e+00
      482750000   -1.776933670e-02    1.253000349e-01   -3.401704089e-05    6.369400126e-06    0.000000000e+00    0.000000000e+00    0.000000000e+00    0.000000000e+00
      490000000   -1.805697940e-02    1.239797249e-01   -1.581009201e-05   -4.347049617e-05    0.000000000e+00    0.000000000e+00    0.000000000e+00    0.000000000e+00
      497250000   -1.732972078e-02    1.212586239e-01   -1.477796468e-05    1.448261082e-05    0.000000000e+00    0.000000000e+00    0.000000000e+00    0.000000000e+00
      504500000   -1.667426713e-02    1.197476238e-01    2.257802976e-07    4.431082743e-06    0.000000000e+00    0.000000000e+00    0.000000000e+00    0.000000000e+00
      511750000   -1.623451523e-02    1.185233518e-01    2.377998317e-05    2.803739335e-05    0.000000000e+00    0.000000000e+00    0.000000000e+00    0.000000000e+00
      519000000   -1.482739951e-02    1.169878170e-01    5.410135782e-05   -2.678730198e-05    0.000000000e+00    0.000000000e+00    0.000000000e+00    0.000000000e+00
      526250000   -1.532985363e-02    1.152579188e-01   -9.175838386e-06    3.020081749e-05    0.000000000e+00    0.000000000e+00    0.000000000e+00    0.000000000e+00
      533500000   -1.532244962e-02    1.139123738e-01    4.655783050e-05    9.996170775e-06    0.000000000e+00    0.000000000e+00    0.000000000e+00    0.000000000e+00
      540750000   -1.419845130e-02    1.116522625e-01    2.044756548e-05   -6.255741027e-06    0.000000000e+00    0.000000000e+00    0.000000000e+00    0.000000000e+00
      548000000   -1.500882395e-02    1.107495204e-01    6.371559266e-06    1.694371895e-05    0.000000000e+00    0.000000000e+00    0.000000000e+00    0.000000000e+00
      555250000   -1.370748971e-02    1.088991612e-01    1.268345477e-05   -2.631033112e-06    0.000000000e+00    0.000000000e+00    0.000000000e+00    0.000000000e+00
      562500000   -1.336339116e-02    1.077967286e-01    2.626246169e-05   -1.396215339e-05    0.000000000e+00    0.000000000e+00    0.000000000e+00    0.000000000e+00
      569750000   -1.283203065e-02    1.068843901e-01   -5.936902198e-06    6.387269309e-07    0.000000000e+00    0.000000000e+00    0.000000000e+00    0.000000000e+00
      577000000   -1.467306446e-02    1.051304936e-01   -1.252363563e-05    9.766129551e-06    0.000000000e+00    0.000000000e+00    0.000000000e+00    0.000000000e+00
      584250000   -1.249989122e-02    1.045751944e-01   -3.650390136e-05    9.350024811e-06    0.000000000e+00    0.000000000e+00    0.000000000e+00    0.000000000e+00
      591500000   -1.192337647e-02    1.023084074e-01    4.533295578e-05   -2.941168532e-06    0.000000000e+00    0.000000000e+00    0.000000000e+00    0.000000000e+00
      598750000   -1.247695927e-02    1.008188799e-01    2.778904673e-05   -8.388411516e-06    0.000000000e+00    0.000000000e+00    0.000000000e+00    0.000000000e+00
      606000000   -1.181221195e-02    1.004473120e-01    4.859198725e-06    9.359532669e-06    0.000000000e+00    0.000000000e+00    0.000000000e+00    0.000000000e+00
      613250000   -1.101702824e-02    9.908518195e-02    2.379585203e-05    5.164056347e-06    0.000000000e+00    0.000000000e+00    0.000000000e+00    0.000000000e+00
      620500000   -1.082637534e-02    9.792601317e-02   -1.685101597e-05   -2.771155778e-05    0.000000000e+00    0.000000000e+00    0.000000000e+00    0.000000000e+00
      627750000   -1.140195969e-02    9.664973617e-02    1.342733231e-05   -3.923763870e-06    0.000000000e+00    0.000000000e+00    0.000000000e+00    0.000000000e+00
      635000000   -1.131588407e-02    9.635961801e-02   -3.691082020e-05   -2.772476910e-05    0.000000000e+00    0.000000000e+00    0.000000000e+00    0.000000000e+00
      642250000   -9.555918165e-03    9.493274987e-02   -1.007927222e-05    1.836582851e-05    0.000000000e+00    0.000000000e+00    0.000000000e+00    0.000000000e+00
      649500000   -1.033071149e-02    9.421448410e-02    1.207944661e-05    3.203996675e-05    0.000000000e+00    0.000000000e+00    0.000000000e+00    0.000000000e+00
      656750000   -1.086886227e-02    9.302214533e-02   -1.841670019e-05   -6.403452062e-06    0.000000000e+00    0.000000000e+00    0.000000000e+00    0.000000000e+00
      664000000   -9.033338167e-03    9.158346057e-02   -4.947540674e-06    4.041972261e-06    0.000000000e+00    0.000000000e+00    0.000000000e+00    0.000000000e+00
      671250000   -9.417441674e-03    9.085639566e-02    2.321334023e-06   -5.439163488e-06    0.000000000e+00    0.000000000e+00    0.000000000e+00    0.000000000e+00
      678500000   -9.226854891e-03    9.002814442e-02    2.025727372e-05   -6.421090347e-06    0.000000000e+00    0.000000000e+00    0.000000000e+00    0.000000000e+00
      685750000   -9.231640026e-03    8.940645307e-02   -2.114796735e-05   -1.669315679e-05    0.000000000e+00    0.000000000e+00    0.000000000e+00    0.000000000e+00
      693000000   -8.814734407e-03    8.821700513e-02    1.274517490e-05   -1.256774908e-06    0.000000000e+00    0.000000000e+00    0.000000000e+00    0.000000000e+00
      700250000   -8.891551755e-03    8.778110892e-02    4.063668894e-05    2.008152660e-05    0.000000000e+00    0.000000000e+00    0.000000000e+00    0.000000000e+00
      707500000   -8.740157820e-03    8.709149808e-02    3.610065323e-05    8.765340681e-06    0.000000000e+00    0.000000000e+00    0.000000000e+00    0.000000000e+00
      714750000   -9.560993873e-03    8.588530868e-02    6.593589660e-06    8.915225408e-06    0.000000000e+00    0.000000000e+00    0.000000000e+00    0.000000000e+00
      722000000   -7.932126522e-03    8.526486903e-02   -2.964940359e-05    3.863666279e-05    0.000000000e+00    0.000000000e+00    0.000000000e+00    0.000000000e+00
      729250000   -7.333304267e-03    8.451405913e-02   -6.909942840e-06    2.675747783e-05    0.000000000e+00    0.000000000e+00    0.000000000e+00    0.000000000e+00
      736500000   -7.833340205e-03    8.373304456e-02    4.684483770e-07    1.635315243e-06    0.000000000e+00    0.000000000e+00    0.000000000e+00    0.000000000e+00
      743750000   -7.894137874e-03    8.318532258e-02    4.836539119e-06    1.339753817e-05    0.000000000e+00    0.000000000e+00    0.000000000e+00    0.000000000e+00
      751000000   -7.560537662e-03    8.232711256e-02   -1.836100637e-05   -5.878954653e-06    0.000000000e+00    0.000000000e+00    0.000000000e+00    0.000000000e+00
      758250000   -7.029561792e-03    8.175168186e-02    7.234411896e-06    1.025179608e-05    0.000000000e+00    0.000000000e+00    0.000000000e+00    0.000000000e+00
      765500000   -6.918272004e-03    8.109524846e-02   -1.697480184e-05   -8.021363101e-06    0.000000000e+00    0.000000000e+00    0.000000000e+00    0.000000000e+00
      772750000   -7.848590612e-03    7.999322563e-02    2.464087993e-05   -4.080867802e-05    0.000000000e+00    0.000000000e+00    0.000000000e+00    0.000000000e+00
      780000000   -7.046325598e-03    7.950049639e-02    4.296026418e-06    9.924532606e-06    0.000000000e+00    0.000000000e+00    0.000000000e+00    0.000000000e+00
      787250000   -7.569141686e-03    7.896708697e-02   -1.751184027e-05    4.312932651e-05    0.000000000e+00    0.000000000e+00    0.000000000e+00    0.000000000e+00
      794500000   -6.847091019e-03    7.808522135e-02    2.926940215e-05   -4.506592813e-05    0.000000000e+00    0.000000000e+00    0.000000000e+00    0.000000000e+00
      801750000   -6.978487130e-03    7.749487460e-02   -1.915183930e-05    1.274047645e-05    0.000000000e+00    0.000000000e+00    0.000000000e+00    0.000000000e+00
      809000000   -6.831016392e-03    7.650041580e-02    9.153209248e-06   -2.572137601e-05    0.000000000e+00    0.000000000e+00    0.000000000e+00    0.000000000e+00
      816250000   -6.482794415e-03    7.584709674e-02    9.731238606e-06    1.645240991e-05    0.000000000e+00    0.000000000e+00    0.000000000e+00    0.000000000e+00
      823500000   -6.310240366e-03    7.540105283e-02   -2.701957055e-05   -1.855110668e-06    0.000000000e+00    0.000000000e+00    0.000000000e+00    0.000000000e+00
      830750000   -6.526808720e-03    7.430379838e-02    2.616346319e-05    5.803870226e-05    0.000000000e+00    0.000000000e+00    0.000000000e+00    0.000000000e+00
      838000000   -6.699346472e-03    7.421294600e-02    5.627209612e-05   -4.378737867e-05    0.000000000e+00    0.000000000e+00    0.000000000e+00    0.000000000e+00
      845250000   -6.319791544e-03    7.339479029e-02   -5.936492380e-05    2.945073447e-06    0.000000000e+00    0.000000000e+00    0.000000000e+00    0.000000000e+00
      852500000   -5.668661557e-03    7.297260314e-02    5.455437349e-05    3.035353620e-05    0.000000000e+00    0.000000000e+00    0.000000000e+00    0.000000000e+00
      859750000   -5.685100332e-03    7.243520021e-02    6.307793956e-05    3.922788164e-05    0.000000000e+00    0.000000000e+00    0.000000000e+00    0.000000000e+00
      867000000   -5.427421071e-03    7.203699648e-02   -3.617666880e-05    3.253921932e-06    0.000000000e+00    0.000000000e+00    0.000000000e+00    0.000000000e+00
      874250000   -5.788234528e-03    7.116506994e-02   -7.521492080e-06   -7.444109542e-06    0.000000000e+00    0.000000000e+00    0.000000000e+00    0.000000000e+00
      881500000   -5.977998953e-03    7.046055794e-02    5.133096693e-06   -3.422076770e-05    0.000000000e+00    0.000000000e+00    0.000000000e+00    0.000000000e+00
      888750000   -4.493834917e-03    6.955315173e-02    2.348278031e-05    1.233272269e-05    0.000000000e+00    0.000000000e+00    0.000000000e+00    0.000000000e+00
      896000000   -4.363259301e-03    6.924578547e-02   -2.044410394e-05   -9.292433134e-08    0.000000000e+00    0.000000000e+00    0.000000000e+00    0.000000000e+00
      903250000   -4.308856558e-03    6.864046305e-02    7.006001852e-06    4.459662250e-06    0.000000000e+00    0.000000000e+00    0.000000000e+00    0.000000000e+00
      910500000   -5.530932918e-03    6.856342405e-02   -2.264045543e-05    4.164249913e-05    0.000000000e+00    0.000000000e+00    0.000000000e+00    0.000000000e+00
      917750000   -4.849065095e-03    6.748066843e-02   -4.640683926e-07   -3.285816274e-05    0.000000000e+00    0.000000000e+00    0.000000000e+00    0.000000000e+00
      925000000   -4.570567980e-03    6.684006751e-02    2.696213051e-05   -1.195336699e-05    0.000000000e+00    0.000000000e+00    0.000000000e+00    0.000000000e+00
      932250000   -4.753366113e-03    6.631093472e-02    9.535981008e-06    6.508226420e-07    0.000000000e+00    0.000000000e+00    0.000000000e+00    0.000000000e+00
      939500000   -4.437623080e-03    6.653418392e-02    1.303208251e-06    4.210754469e-06    0.000000000e+00    0.000000000e+00    0.000000000e+00    0.000000000e+00
      946750000   -5.538221914e-03    6.547755748e-02    2.233894884e-05   -2.710988338e-05    0.000000000e+00    0.000000000e+00    0.000000000e+00    0.000000000e+00
      954000000   -3.173335921e-03    6.447524577e-02    8.990540664e-06   -2.596056765e-05    0.000000000e+00    0.000000000e+00    0.000000000e+00    0.000000000e+00
      961250000   -4.891422112e-03    6.486401707e-02    7.948722669e-06   -5.343830344e-05    0.000000000e+00    0.000000000e+00    0.000000000e+00    0.000000000e+00
      968500000   -4.358355422e-03    6.455063820e-02    5.933213743e-06   -4.113666819e-06    0.000000000e+00    0.000000000e+00    0.000000000e+00    0.000000000e+00
      975750000   -4.854245111e-03    6.409171969e-02   -2.238686830e-05    4.443708531e-05    0.000000000e+00    0.000000000e+00    0.000000000e+00    0.000000000e+00
      983000000   -3.812929848e-03    6.385999173e-02    4.613844430e-05   -3.894979454e-05    0.000000000e+00    0.000000000e+00    0.000000000e+00    0.000000000e+00
      990250000   -4.706755280e-03    6.342338026e-02   -3.987340733e-06    8.088423783e-05    0.000000000e+00    0.000000000e+00    0.000000000e+00    0.000000000e+00
      997500000   -4.553508945e-03    6.246870011e-02    3.173966434e-06    7.468013905e-07    0.000000000e+00    0.000000000e+00    0.000000000e+00    0.000000000e+00
     1004750000   -3.703705966e-03    6.227636710e-02   -9.394057088e-06    1.135349521e-05    0.000000000e+00    0.000000000e+00    0.000000000e+00    0.000000000e+00
     1012000000   -4.530108999e-03    6.159496680e-02    8.371606782e-06   -2.642906622e-07    0.000000000e+00    0.000000000e+00    0.000000000e+00    0.000000000e+00
     1019250000   -4.615717102e-03    6.124983355e-02   -3.915410343e-05   -8.312719729e-06    0.000000000e+00    0.000000000e+00    0.000000000e+00    0.000000000e+00
     1026500000   -4.707241897e-03    6.093110144e-02   -2.037267586e-05   -1.171752274e-06    0.000000000e+00    0.000000000e+00    0.000000000e+00    0.000000000e+00
     1033750000   -4.213447217e-03    6.037167087e-02    3.348231530e-06    1.403992337e-05    0.000000000e+00    0.000000000e+00    0.000000000e+00    0.000000000e+00
     1041000000   -2.894439735e-03    6.003909931e-02    4.234565131e-05    1.936545777e-05    0.000000000e+00    0.000000000e+00    0.000000000e+00    0.000000000e+00
