! NanoVNA-App by OneOfEleven et al v1.1.209 (+OD15) 
! Date: 2024-07-30 15:25:41
! Start: 200MHz Stop: 6GHz Points: 801
! S-Parameter data: F S11 S21 S12 S22
# Hz S RI R 50
!     Frequency           S11_Real           S11_Imag           S21_Real           S21_Imag           S12_Real           S12_Imag           S22_Real           S22_Imag
      200000000   -9.058500081e-02    2.741883397e-01    9.020735888e-06    2.229906022e-05    0.000000000e+00    0.000000000e+00    0.000000000e+00    0.000000000e+00
      207250000   -8.518303186e-02    2.665064931e-01   -3.027292678e-06   -3.289089364e-05    0.000000000e+00    0.000000000e+00    0.000000000e+00    0.000000000e+00
      214500000   -8.064758778e-02    2.587008774e-01   -2.079202568e-05    6.514457596e-07    0.000000000e+00    0.000000000e+00    0.000000000e+00    0.000000000e+00
      221750000   -7.654616982e-02    2.528886497e-01   -1.915691610e-05   -1.108901051e-05    0.000000000e+00    0.000000000e+00    0.000000000e+00    0.000000000e+00
      229000000   -7.024108618e-02    2.447053790e-01    5.322840479e-07    3.524383646e-05    0.000000000e+00    0.000000000e+00    0.000000000e+00    0.000000000e+00
      236250000   -6.701046228e-02    2.380205393e-01    4.987070042e-06   -2.100075562e-06    0.000000000e+00    0.000000000e+00    0.000000000e+00    0.000000000e+00
      243500000   -6.497394294e-02    2.333053350e-01    1.392704689e-05    1.374093017e-06    0.000000000e+00    0.000000000e+00    0.000000000e+00    0.000000000e+00
      250750000   -6.060048565e-02    2.277064174e-01   -6.372217740e-06   -3.099175728e-06    0.000000000e+00    0.000000000e+00    0.000000000e+00    0.000000000e+00
      258000000   -5.740316957e-02    2.215643376e-01   -3.549659596e-05    5.866469655e-05    0.000000000e+00    0.000000000e+00    0.000000000e+00    0.000000000e+00
      265250000   -5.592095479e-02    2.172200382e-01   -8.041620276e-06   -2.938435318e-05    0.000000000e+00    0.000000000e+00    0.000000000e+00    0.000000000e+00
      272500000   -5.036832765e-02    2.104404122e-01    3.963157269e-06   -2.483545904e-05    0.000000000e+00    0.000000000e+00    0.000000000e+00    0.000000000e+00
      279750000   -5.002999678e-02    2.059144378e-01   -9.156408851e-06   -1.957673885e-05    0.000000000e+00    0.000000000e+00    0.000000000e+00    0.000000000e+00
      287000000   -4.770782590e-02    2.011596113e-01    9.297093129e-06   -9.625498933e-06    0.000000000e+00    0.000000000e+00    0.000000000e+00    0.000000000e+00
      294250000   -4.581056535e-02    1.969686002e-01    2.157150084e-05    3.554638624e-06    0.000000000e+00    0.000000000e+00    0.000000000e+00    0.000000000e+00
      301500000   -4.352356866e-02    1.919900030e-01   -4.549535515e-05    2.312536890e-05    0.000000000e+00    0.000000000e+00    0.000000000e+00    0.000000000e+00
      308750000   -4.147732630e-02    1.887606978e-01   -1.364599484e-06    1.035538480e-05    0.000000000e+00    0.000000000e+00    0.000000000e+00    0.000000000e+00
      316000000   -3.940436989e-02    1.837864965e-01    1.915597750e-05    4.621323023e-05    0.000000000e+00    0.000000000e+00    0.000000000e+00    0.000000000e+00
      323250000   -3.734418750e-02    1.811262965e-01    1.196641006e-05    1.539872756e-05    0.000000000e+00    0.000000000e+00    0.000000000e+00    0.000000000e+00
      330500000   -3.592767566e-02    1.776126176e-01    2.022689478e-05   -3.570893114e-06    0.000000000e+00    0.000000000e+00    0.000000000e+00    0.000000000e+00
      337750000   -3.427366540e-02    1.742345542e-01    1.474468900e-05   -1.951082049e-05    0.000000000e+00    0.000000000e+00    0.000000000e+00    0.000000000e+00
      345000000   -3.400950506e-02    1.698789448e-01   -1.641337440e-05   -1.074282045e-05    0.000000000e+00    0.000000000e+00    0.000000000e+00    0.000000000e+00
      352250000   -3.235811740e-02    1.667543948e-01   -3.106239456e-05    2.722396675e-05    0.000000000e+00    0.000000000e+00    0.000000000e+00    0.000000000e+00
      359500000   -3.109597974e-02    1.641835719e-01    8.869987141e-06   -2.977703116e-05    0.000000000e+00    0.000000000e+00    0.000000000e+00    0.000000000e+00
      366750000   -3.038989939e-02    1.615966111e-01    3.604786252e-05    5.922463515e-06    0.000000000e+00    0.000000000e+00    0.000000000e+00    0.000000000e+00
      374000000   -2.938783541e-02    1.589327455e-01    1.606805927e-05    1.960587360e-05    0.000000000e+00    0.000000000e+00    0.000000000e+00    0.000000000e+00
      381250000   -2.805506624e-02    1.557490379e-01   -1.502590112e-05   -3.479654697e-05    0.000000000e+00    0.000000000e+00    0.000000000e+00    0.000000000e+00
      388500000   -2.719255909e-02    1.537186205e-01   -9.151308404e-06   -4.141786121e-06    0.000000000e+00    0.000000000e+00    0.000000000e+00    0.000000000e+00
      395750000   -2.576327510e-02    1.502341926e-01    1.071175575e-06   -2.928390859e-05    0.000000000e+00    0.000000000e+00    0.000000000e+00    0.000000000e+00
      403000000   -2.542221174e-02    1.482798606e-01   -4.830740636e-06   -3.839641067e-05    0.000000000e+00    0.000000000e+00    0.000000000e+00    0.000000000e+00
      410250000   -2.463600971e-02    1.464391351e-01    1.728792449e-05   -1.396852440e-05    0.000000000e+00    0.000000000e+00    0.000000000e+00    0.000000000e+00
      417500000   -2.436166629e-02    1.430817544e-01    1.165093545e-05    1.645767225e-05    0.000000000e+00    0.000000000e+00    0.000000000e+00    0.000000000e+00
      424750000   -2.173456177e-02    1.407980174e-01    2.749565465e-05    4.565758900e-06    0.000000000e+00    0.000000000e+00    0.000000000e+00    0.000000000e+00
      432000000   -2.324538864e-02    1.397856623e-01   -2.890864380e-05   -1.040008920e-05    0.000000000e+00    0.000000000e+00    0.000000000e+00    0.000000000e+00
      439250000   -2.221562341e-02    1.366155297e-01    1.120581601e-05   -4.236524546e-05    0.000000000e+00    0.000000000e+00    0.000000000e+00    0.000000000e+00
      446500000   -2.063054033e-02    1.346929818e-01   -2.217895826e-06   -2.443907078e-06    0.000000000e+00    0.000000000e+00    0.000000000e+00    0.000000000e+00
      453750000   -2.093769237e-02    1.329033673e-01   -4.387956142e-05    1.277834826e-06    0.000000000e+00    0.000000000e+00    0.000000000e+00    0.000000000e+00
      461000000   -1.944596879e-02    1.305143982e-01    4.658116814e-05    2.191416024e-05    0.000000000e+00    0.000000000e+00    0.000000000e+00    0.000000000e+00
      468250000   -2.064812183e-02    1.291954964e-01   -4.441117926e-05    5.497452094e-06    0.000000000e+00    0.000000000e+00    0.000000000e+00    0.000000000e+00
      475500000   -1.938735880e-02    1.265394092e-01   -1.051003528e-05    4.592772257e-06    0.000000000e+00    0.000000000e+00    0.000000000e+00    0.000000000e+00
      482750000   -1.751282997e-02    1.250648797e-01   -3.219258360e-05   -2.728241100e-07    0.000000000e+00    0.000000000e+00    0.000000000e+00    0.000000000e+00
      490000000   -1.732901856e-02    1.230820790e-01    2.310273203e-06   -3.646323421e-06    0.000000000e+00    0.000000000e+00    0.000000000e+00    0.000000000e+00
      497250000   -1.748281531e-02    1.216846257e-01   -9.518809748e-06    4.928512499e-05    0.000000000e+00    0.000000000e+00    0.000000000e+00    0.000000000e+00
      504500000   -1.742202230e-02    1.199784055e-01   -1.230445105e-05    2.685510299e-05    0.000000000e+00    0.000000000e+00    0.000000000e+00    0.000000000e+00
      511750000   -1.628907956e-02    1.182112992e-01    2.475320616e-05    2.614309051e-05    0.000000000e+00    0.000000000e+00    0.000000000e+00    0.000000000e+00
      519000000   -1.652203687e-02    1.170597970e-01    5.397560744e-05   -2.152628258e-05    0.000000000e+00    0.000000000e+00    0.000000000e+00    0.000000000e+00
      526250000   -1.510262582e-02    1.153820455e-01   -1.639356378e-05    3.028844185e-05    0.000000000e+00    0.000000000e+00    0.000000000e+00    0.000000000e+00
      533500000   -1.526731532e-02    1.135565788e-01    1.816490112e-05   -4.086747867e-05    0.000000000e+00    0.000000000e+00    0.000000000e+00    0.000000000e+00
      540750000   -1.449564379e-02    1.122909114e-01    1.315270038e-05   -2.420215787e-05    0.000000000e+00    0.000000000e+00    0.000000000e+00    0.000000000e+00
      548000000   -1.437483262e-02    1.107051224e-01   -1.205103399e-05    1.687492295e-05    0.000000000e+00    0.000000000e+00    0.000000000e+00    0.000000000e+00
      555250000   -1.471951138e-02    1.099008098e-01   -2.732419125e-05   -3.214605613e-06    0.000000000e+00    0.000000000e+00    0.000000000e+00    0.000000000e+00
      562500000   -1.355126034e-02    1.076144725e-01    3.420589564e-05   -1.811974130e-06    0.000000000e+00    0.000000000e+00    0.000000000e+00    0.000000000e+00
      569750000   -1.305703074e-02    1.065379307e-01   -6.321664387e-06    2.056513222e-05    0.000000000e+00    0.000000000e+00    0.000000000e+00    0.000000000e+00
      577000000   -1.411742251e-02    1.057583839e-01    8.904306924e-06    1.446742954e-05    0.000000000e+00    0.000000000e+00    0.000000000e+00    0.000000000e+00
      584250000   -1.214046031e-02    1.042968854e-01   -3.021425300e-06    2.977368695e-06    0.000000000e+00    0.000000000e+00    0.000000000e+00    0.000000000e+00
      591500000   -1.247878000e-02    1.027636081e-01   -7.607380326e-07   -2.155676520e-05    0.000000000e+00    0.000000000e+00    0.000000000e+00    0.000000000e+00
      598750000   -1.184904389e-02    1.009530202e-01    2.473136192e-05    1.175434954e-05    0.000000000e+00    0.000000000e+00    0.000000000e+00    0.000000000e+00
      606000000   -1.238901261e-02    1.001374722e-01    1.225385586e-05   -2.050109060e-06    0.000000000e+00    0.000000000e+00    0.000000000e+00    0.000000000e+00
      613250000   -1.141208969e-02    9.861086309e-02    1.229284408e-06    5.902430712e-05    0.000000000e+00    0.000000000e+00    0.000000000e+00    0.000000000e+00
      620500000   -1.051812898e-02    9.793105721e-02   -3.242995444e-05    3.372200808e-05    0.000000000e+00    0.000000000e+00    0.000000000e+00    0.000000000e+00
      627750000   -1.100495271e-02    9.714407474e-02    1.020590571e-05   -1.138172320e-05    0.000000000e+00    0.000000000e+00    0.000000000e+00    0.000000000e+00
      635000000   -1.072062831e-02    9.629198909e-02    3.427165939e-05   -1.303541285e-05    0.000000000e+00    0.000000000e+00    0.000000000e+00    0.000000000e+00
      642250000   -9.581880644e-03    9.463267773e-02   -4.339020234e-05   -2.578096428e-05    0.000000000e+00    0.000000000e+00    0.000000000e+00    0.000000000e+00
      649500000   -1.073629409e-02    9.419347346e-02   -4.491743312e-06    1.592095578e-05    0.000000000e+00    0.000000000e+00    0.000000000e+00    0.000000000e+00
      656750000   -1.000002492e-02    9.325402230e-02    2.252212471e-05   -2.257533015e-05    0.000000000e+00    0.000000000e+00    0.000000000e+00    0.000000000e+00
      664000000   -9.687104262e-03    9.236016870e-02    2.571544974e-05    5.805801720e-06    0.000000000e+00    0.000000000e+00    0.000000000e+00    0.000000000e+00
      671250000   -9.745197371e-03    9.094915539e-02    2.354856633e-06   -2.016546659e-06    0.000000000e+00    0.000000000e+00    0.000000000e+00    0.000000000e+00
      678500000   -9.655592963e-03    9.041136503e-02    9.630944078e-06    2.002600013e-06    0.000000000e+00    0.000000000e+00    0.000000000e+00    0.000000000e+00
      685750000   -8.707921952e-03    8.887512237e-02   -2.291293640e-05   -8.057806554e-06    0.000000000e+00    0.000000000e+00    0.000000000e+00    0.000000000e+00
      693000000   -9.072324261e-03    8.879698068e-02   -9.083084478e-06   -3.253630712e-05    0.000000000e+00    0.000000000e+00    0.000000000e+00    0.000000000e+00
      700250000   -9.112786502e-03    8.771539479e-02    3.252711031e-05    5.561105354e-05    0.000000000e+00    0.000000000e+00    0.000000000e+00    0.000000000e+00
      707500000   -8.050231263e-03    8.667391539e-02   -7.899236152e-06   -9.569794202e-06    0.000000000e+00    0.000000000e+00    0.000000000e+00    0.000000000e+00
      714750000   -8.795705624e-03    8.619916439e-02   -1.220812828e-05   -1.761322892e-05    0.000000000e+00    0.000000000e+00    0.000000000e+00    0.000000000e+00
      722000000   -7.060371805e-03    8.541889489e-02    6.503993973e-06   -1.842929669e-05    0.000000000e+00    0.000000000e+00    0.000000000e+00    0.000000000e+00
      729250000   -7.963675074e-03    8.461167663e-02    6.158434189e-06    1.385718747e-06    0.000000000e+00    0.000000000e+00    0.000000000e+00    0.000000000e+00
      736500000   -7.314693648e-03    8.361321688e-02   -2.517817302e-05   -6.047948773e-05    0.000000000e+00    0.000000000e+00    0.000000000e+00    0.000000000e+00
      743750000   -8.169852197e-03    8.301466703e-02   -1.100229929e-05    2.245563701e-05    0.000000000e+00    0.000000000e+00    0.000000000e+00    0.000000000e+00
      751000000   -7.641550153e-03    8.223284781e-02    1.796606557e-05   -1.878118019e-05    0.000000000e+00    0.000000000e+00    0.000000000e+00    0.000000000e+00
      758250000   -7.335742470e-03    8.175012469e-02   -1.232722980e-06   -1.421863908e-05    0.000000000e+00    0.000000000e+00    0.000000000e+00    0.000000000e+00
      765500000   -7.085903082e-03    8.073240519e-02    4.441636520e-06   -1.510732091e-06    0.000000000e+00    0.000000000e+00    0.000000000e+00    0.000000000e+00
      772750000   -6.977546494e-03    8.014360070e-02    3.404366453e-06   -3.137206704e-06    0.000000000e+00    0.000000000e+00    0.000000000e+00    0.000000000e+00
      780000000   -7.340031676e-03    7.964764535e-02   -1.328631515e-05   -8.306168638e-06    0.000000000e+00    0.000000000e+00    0.000000000e+00    0.000000000e+00
      787250000   -7.708040532e-03    7.869935036e-02   -2.034116005e-05   -3.959615788e-05    0.000000000e+00    0.000000000e+00    0.000000000e+00    0.000000000e+00
      794500000   -6.419793237e-03    7.749457657e-02   -2.118946213e-05   -9.848975424e-06    0.000000000e+00    0.000000000e+00    0.000000000e+00    0.000000000e+00
      801750000   -6.801232230e-03    7.696529478e-02   -3.268204819e-05    3.613168155e-05    0.000000000e+00    0.000000000e+00    0.000000000e+00    0.000000000e+00
      809000000   -6.766205654e-03    7.665207982e-02    4.981248367e-06    6.000454960e-06    0.000000000e+00    0.000000000e+00    0.000000000e+00    0.000000000e+00
      816250000   -6.600145251e-03    7.581281662e-02   -3.154456181e-06   -1.292544130e-05    0.000000000e+00    0.000000000e+00    0.000000000e+00    0.000000000e+00
      823500000   -5.406232085e-03    7.530774921e-02    3.436859697e-05   -3.638091221e-05    0.000000000e+00    0.000000000e+00    0.000000000e+00    0.000000000e+00
      830750000   -6.855960935e-03    7.512679696e-02    5.937134119e-06    2.925847730e-05    0.000000000e+00    0.000000000e+00    0.000000000e+00    0.000000000e+00
      838000000   -6.079433486e-03    7.403095812e-02    5.594436880e-05   -4.976575838e-06    0.000000000e+00    0.000000000e+00    0.000000000e+00    0.000000000e+00
      845250000   -6.257771980e-03    7.340278476e-02    6.180636774e-06   -5.175730257e-05    0.000000000e+00    0.000000000e+00    0.000000000e+00    0.000000000e+00
      852500000   -5.727915559e-03    7.282508910e-02    1.177436661e-05   -2.584232243e-05    0.000000000e+00    0.000000000e+00    0.000000000e+00    0.000000000e+00
      859750000   -5.604306236e-03    7.209996879e-02    4.108732173e-05    1.912032167e-05    0.000000000e+00    0.000000000e+00    0.000000000e+00    0.000000000e+00
      867000000   -5.108663812e-03    7.132545859e-02   -1.432488261e-05    2.984230014e-05    0.000000000e+00    0.000000000e+00    0.000000000e+00    0.000000000e+00
      874250000   -5.468740594e-03    7.132466137e-02    1.380489266e-05    1.910246829e-05    0.000000000e+00    0.000000000e+00    0.000000000e+00    0.000000000e+00
      881500000   -5.703230388e-03    7.063032687e-02    2.164129364e-05    9.386097190e-06    0.000000000e+00    0.000000000e+00    0.000000000e+00    0.000000000e+00
      888750000   -4.327022936e-03    6.984161586e-02   -5.349538696e-06   -3.917135109e-05    0.000000000e+00    0.000000000e+00    0.000000000e+00    0.000000000e+00
      896000000   -5.006966181e-03    6.939939409e-02   -6.185578059e-06   -3.239712169e-05    0.000000000e+00    0.000000000e+00    0.000000000e+00    0.000000000e+00
      903250000   -4.615500104e-03    6.850028038e-02    4.768889994e-06   -2.861557959e-06    0.000000000e+00    0.000000000e+00    0.000000000e+00    0.000000000e+00
      910500000   -4.903698806e-03    6.845477968e-02    3.880473014e-05   -7.696533430e-06    0.000000000e+00    0.000000000e+00    0.000000000e+00    0.000000000e+00
      917750000   -4.822326824e-03    6.769514084e-02   -1.836974775e-06   -1.811350558e-05    0.000000000e+00    0.000000000e+00    0.000000000e+00    0.000000000e+00
      925000000   -4.219835624e-03    6.675893068e-02   -2.687454253e-05    4.841949703e-06    0.000000000e+00    0.000000000e+00    0.000000000e+00    0.000000000e+00
      932250000   -4.819668364e-03    6.662405282e-02   -5.089413662e-06   -8.364110613e-07    0.000000000e+00    0.000000000e+00    0.000000000e+00    0.000000000e+00
      939500000   -4.269295838e-03    6.566364318e-02   -9.991492334e-06   -2.156465052e-05    0.000000000e+00    0.000000000e+00    0.000000000e+00    0.000000000e+00
      946750000   -4.916772712e-03    6.549533457e-02    4.328800969e-06    1.402600674e-06    0.000000000e+00    0.000000000e+00    0.000000000e+00    0.000000000e+00
      954000000   -3.153219819e-03    6.515635550e-02    6.377413229e-06    2.958157711e-05    0.000000000e+00    0.000000000e+00    0.000000000e+00    0.000000000e+00
      961250000   -4.632622469e-03    6.462227553e-02    1.269039331e-05   -1.169909683e-05    0.000000000e+00    0.000000000e+00    0.000000000e+00    0.000000000e+00
      968500000   -4.081360064e-03    6.429268420e-02   -1.356208395e-05    2.825263800e-05    0.000000000e+00    0.000000000e+00    0.000000000e+00    0.000000000e+00
      975750000   -5.099600181e-03    6.414529681e-02   -2.028495874e-05   -2.677378143e-05    0.000000000e+00    0.000000000e+00    0.000000000e+00    0.000000000e+00
      983000000   -3.611095250e-03    6.404946744e-02   -8.236747817e-06    2.582003981e-05    0.000000000e+00    0.000000000e+00    0.000000000e+00    0.000000000e+00
      990250000   -4.793491215e-03    6.331353635e-02   -2.553793638e-05   -2.362454507e-05    0.000000000e+00    0.000000000e+00    0.000000000e+00    0.000000000e+00
      997500000   -4.287989810e-03    6.307279319e-02    3.016744449e-05   -5.558368139e-05    0.000000000e+00    0.000000000e+00    0.000000000e+00    0.000000000e+00
     1004750000   -3.977984190e-03    6.222292408e-02   -1.846420128e-05    2.241605671e-06    0.000000000e+00    0.000000000e+00    0.000000000e+00    0.000000000e+00
     1012000000   -3.967950121e-03    6.163272262e-02   -2.635004967e-05   -1.584580787e-05    0.000000000e+00    0.000000000e+00    0.000000000e+00    0.000000000e+00
     1019250000   -4.387284163e-03    6.134526804e-02   -2.511707862e-05   -1.661733404e-05    0.000000000e+00    0.000000000e+00    0.000000000e+00    0.000000000e+00
     1026500000   -3.188906703e-03    6.071105972e-02    3.182747378e-06    4.290747893e-05    0.000000000e+00    0.000000000e+00    0.000000000e+00    0.000000000e+00
     1033750000   -4.225294571e-03    5.993494764e-02    1.259253622e-05    4.615860689e-06    0.000000000e+00    0.000000000e+00    0.000000000e+00    0.000000000e+00
     1041000000   -4.295032471e-03    5.949524418e-02    3.280227247e-05   -1.914921449e-05    0.000000000e+00    0.000000000e+00    0.000000000e+00    0.000000000e+00
