! NanoVNA-App
! Date: 2024-06-25 16:23:21
! Start: 200.00MHz  Stop: 6.00GHz  Points: 801
! S-Parameter data: F S11
# Hz S RI R 50
Frequency           S1_Real           S1_Imag           S11_Real           S11_Imag           S21_Real           S21_Imag
2.00000000E+8      1.07374182E+9      0.00000000E+0      5.29326351E-1      1.20740395E-1      -1.70469284E-5      1.85472891E-5
2.07250000E+8      1.07374182E+9      0.00000000E+0      5.30327865E-1      2.33909033E-2      8.63708556E-6      2.48653814E-5
2.14500000E+8      1.07374182E+9      0.00000000E+0      5.30020431E-1      -7.33179451E-2      -1.42427161E-5      1.23111531E-5
2.21750000E+8      1.07374182E+9      0.00000000E+0      5.27122120E-1      -1.78336524E-1      -1.94180757E-6      1.33197755E-5
2.29000000E+8      1.07374182E+9      0.00000000E+0      5.23296394E-1      -3.03435126E-1      -2.38595530E-5      -1.38990581E-5
2.36250000E+8      1.07374182E+9      0.00000000E+0      5.14705226E-1      -4.72762390E-1      -1.32247806E-5      -3.30554321E-5
2.43500000E+8      1.07374182E+9      0.00000000E+0      4.91117579E-1      -7.41109921E-1      1.26957893E-5      1.11320987E-5
2.50750000E+8      1.07374182E+9      0.00000000E+0      4.12788082E-1      -1.31439151E+0      1.92224979E-5      1.29956752E-5
2.58000000E+8      1.07374182E+9      0.00000000E+0      -5.25981169E-1      -3.80457778E+0      1.13528222E-5      3.15923244E-5
2.65250000E+8      1.07374182E+9      0.00000000E+0      -5.42703933E-1      3.82230478E+0      1.16266310E-5      1.09001994E-5
2.72500000E+8      1.07374182E+9      0.00000000E+0      4.05407833E-1      1.29923447E+0      1.09206885E-5      -9.76305455E-6
2.79750000E+8      1.07374182E+9      0.00000000E+0      4.88004808E-1      7.20769198E-1      -4.76557761E-6      1.42231584E-5
2.87000000E+8      1.07374182E+9      0.00000000E+0      5.09913525E-1      4.46005660E-1      -1.05807558E-5      -5.74160367E-6
2.94250000E+8      1.07374182E+9      0.00000000E+0      5.18992746E-1      2.71836927E-1      1.75181776E-6      1.54515728E-5
3.01500000E+8      1.07374182E+9      0.00000000E+0      5.22948584E-1      1.39760721E-1      -2.33855098E-5      -9.41194594E-6
3.08750000E+8      1.07374182E+9      0.00000000E+0      5.25883293E-1      2.36549930E-2      2.28816643E-5      3.59266996E-5
3.16000000E+8      1.07374182E+9      0.00000000E+0      5.26683422E-1      -8.97021827E-2      -6.52391464E-6      5.57862222E-7
3.23250000E+8      1.07374182E+9      0.00000000E+0      5.26119873E-1      -2.15031359E-1      -3.93111259E-6      2.58293003E-5
3.30500000E+8      1.07374182E+9      0.00000000E+0      5.22512972E-1      -3.72561452E-1      -1.57710165E-5      6.77164644E-6
3.37750000E+8      1.07374182E+9      0.00000000E+0      5.08315640E-1      -6.07262054E-1      4.92762774E-6      -4.33083624E-5
3.45000000E+8      1.07374182E+9      0.00000000E+0      4.49086719E-1      -1.06425801E+0      1.27647072E-5      -5.76488674E-6
3.52250000E+8      1.07374182E+9      0.00000000E+0      -1.45544066E-1      -2.58140571E+0      -1.99442729E-5      6.57793134E-6
3.59500000E+8      1.07374182E+9      0.00000000E+0      -2.40751133E+0      3.60687340E+0      -6.05732203E-6      -2.59438530E-5
3.66750000E+8      1.07374182E+9      0.00000000E+0      1.59185307E-1      1.28684536E+0      3.52626666E-5      6.62170351E-7
3.74000000E+8      1.07374182E+9      0.00000000E+0      3.58477224E-1      6.86772159E-1      -7.73090869E-6      9.99495387E-6
3.81250000E+8      1.07374182E+9      0.00000000E+0      4.13371747E-1      4.08341626E-1      -1.85584649E-5      2.09389254E-5
3.88500000E+8      1.07374182E+9      0.00000000E+0      4.33232029E-1      2.33192960E-1      5.26849180E-6      1.65645033E-5
3.95750000E+8      1.07374182E+9      0.00000000E+0      4.40353417E-1      9.91850065E-2      -1.87475234E-5      -4.45116311E-5
4.03000000E+8      1.07374182E+9      0.00000000E+0      4.38463230E-1      -1.99846045E-2      4.68362123E-6      2.45496631E-5
4.10250000E+8      1.07374182E+9      0.00000000E+0      4.28031890E-1      -1.38799892E-1      -4.90434468E-6      -7.81752169E-6
4.17500000E+8      1.07374182E+9      0.00000000E+0      4.04843407E-1      -2.71762452E-1      5.46686351E-7      2.48197466E-6
4.24750000E+8      1.07374182E+9      0.00000000E+0      3.57931471E-1      -4.41366460E-1      1.39744952E-5      -1.43777579E-5
4.32000000E+8      1.07374182E+9      0.00000000E+0      2.45317325E-1      -6.89333827E-1      -5.41368499E-5      -3.20328400E-5
4.39250000E+8      1.07374182E+9      0.00000000E+0      -9.31616225E-2      -1.11110639E+0      -2.03056261E-5      3.13809142E-5
4.46500000E+8      1.07374182E+9      0.00000000E+0      -1.67961958E+0      -1.43600256E+0      2.63750553E-5      -1.75042078E-5
4.53750000E+8      1.07374182E+9      0.00000000E+0      -1.43989538E+0      1.75788455E+0      5.89527190E-7      2.48029828E-5
4.61000000E+8      1.07374182E+9      0.00000000E+0      7.95414432E-2      1.21513653E+0      1.60336494E-5      2.14250758E-5
4.68250000E+8      1.07374182E+9      0.00000000E+0      3.67130133E-1      7.55809018E-1      3.70303169E-5      -3.82512808E-5
4.75500000E+8      1.07374182E+9      0.00000000E+0      4.54730630E-1      4.95114647E-1      -1.03684142E-5      3.27434391E-5
4.82750000E+8      1.07374182E+9      0.00000000E+0      4.90982999E-1      3.27697778E-1      -2.31927261E-5      4.04566526E-6
4.90000000E+8      1.07374182E+9      0.00000000E+0      5.09825141E-1      2.00657866E-1      1.72294676E-7      1.07903033E-5
4.97250000E+8      1.07374182E+9      0.00000000E+0      5.22064461E-1      9.39037679E-2      1.07688829E-5      -6.54095784E-5
5.04500000E+8      1.07374182E+9      0.00000000E+0      5.31155180E-1      -4.73011646E-3      1.76737085E-5      7.82776624E-6
5.11750000E+8      1.07374182E+9      0.00000000E+0      5.40365117E-1      -1.04403661E-1      1.89458951E-5      1.29304826E-5
5.19000000E+8      1.07374182E+9      0.00000000E+0      5.52025859E-1      -2.15186806E-1      3.88631597E-5      3.49236652E-5
5.26250000E+8      1.07374182E+9      0.00000000E+0      5.69901265E-1      -3.49580517E-1      -4.06242907E-6      -1.88704580E-5
5.33500000E+8      1.07374182E+9      0.00000000E+0      6.06016176E-1      -5.35855903E-1      -5.10364771E-6      1.29789114E-5
5.40750000E+8      1.07374182E+9      0.00000000E+0      7.00339377E-1      -8.39887552E-1      -1.69742852E-5      1.90054998E-5
5.48000000E+8      1.07374182E+9      0.00000000E+0      1.08064747E+0      -1.44934642E+0      -1.78478658E-5      -2.45934352E-5
5.55250000E+8      1.07374182E+9      0.00000000E+0      3.77007840E+0      -1.67412102E+0      2.45030969E-5      4.44399193E-5
5.62500000E+8      1.07374182E+9      0.00000000E+0      1.99572735E+0      1.76929463E+0      6.64684922E-6      2.12760642E-5
5.69750000E+8      1.07374182E+9      0.00000000E+0      9.66053336E-1      1.03723258E+0      4.65940684E-6      -1.00331381E-5
5.77000000E+8      1.07374182E+9      0.00000000E+0      7.49252122E-1      6.53218482E-1      -1.57076865E-5      2.31107697E-5
5.84250000E+8      1.07374182E+9      0.00000000E+0      6.71433827E-1      4.31199557E-1      1.47446990E-5      1.31223351E-6
5.91500000E+8      1.07374182E+9      0.00000000E+0      6.36458830E-1      2.81206935E-1      1.09616667E-5      9.34116542E-7
5.98750000E+8      1.07374182E+9      0.00000000E+0      6.17197333E-1      1.63762125E-1      3.04384157E-5      -4.50760126E-7
6.06000000E+8      1.07374182E+9      0.00000000E+0      6.07443309E-1      6.35748409E-2      -1.90353021E-5      -8.89785588E-6
6.13250000E+8      1.07374182E+9      0.00000000E+0      6.02302534E-1      -3.11234670E-2      2.20164657E-5      2.91708857E-5
6.20500000E+8      1.07374182E+9      0.00000000E+0      6.01030668E-1      -1.31166665E-1      -2.29980797E-5      1.72564760E-5
6.27750000E+8      1.07374182E+9      0.00000000E+0      6.03470039E-1      -2.44835124E-1      -1.59423798E-5      4.11113724E-5
6.35000000E+8      1.07374182E+9      0.00000000E+0      6.10204116E-1      -3.87550299E-1      9.41753387E-6      -1.03963539E-5
6.42250000E+8      1.07374182E+9      0.00000000E+0      6.23865576E-1      -6.01154634E-1      -2.44611874E-5      6.45872205E-6
6.49500000E+8      1.07374182E+9      0.00000000E+0      6.51189531E-1      -9.93204128E-1      1.94488093E-5      3.84636223E-6
6.56750000E+8      1.07374182E+9      0.00000000E+0      6.91686550E-1      -2.14780868E+0      -6.55557960E-5      -2.98283994E-5
6.64000000E+8      1.07374182E+9      0.00000000E+0      -1.49495657E+1      1.55384080E+1      5.53950667E-6      3.70386988E-6
6.71250000E+8      1.07374182E+9      0.00000000E+0      1.74745371E-1      1.79798773E+0      -3.63579020E-5      -2.52276659E-5
6.78500000E+8      1.07374182E+9      0.00000000E+0      3.65299365E-1      8.71496136E-1      -1.09514222E-5      -1.00228935E-5
6.85750000E+8      1.07374182E+9      0.00000000E+0      4.18293090E-1      5.21928375E-1      -1.88900158E-5      1.66045502E-5
6.93000000E+8      1.07374182E+9      0.00000000E+0      4.38634888E-1      3.21219820E-1      1.27172098E-5      -3.16090882E-6
7.00250000E+8      1.07374182E+9      0.00000000E+0      4.46157427E-1      1.78333844E-1      2.91187316E-5      -3.90755013E-5
7.07500000E+8      1.07374182E+9      0.00000000E+0      4.44639253E-1      6.32157422E-2      8.85594636E-6      -1.77426264E-5
7.14750000E+8      1.07374182E+9      0.00000000E+0      4.34530634E-1      -4.47825804E-2      -3.26400623E-5      1.56192109E-5
7.22000000E+8      1.07374182E+9      0.00000000E+0      4.13792182E-1      -1.52975450E-1      1.16340816E-5      2.00755894E-5
7.29250000E+8      1.07374182E+9      0.00000000E+0      3.74252812E-1      -2.71247763E-1      3.20561230E-5      1.42445788E-5
7.36500000E+8      1.07374182E+9      0.00000000E+0      2.97129387E-1      -4.09712019E-1      -1.76019967E-7      -1.46403909E-6
7.43750000E+8      1.07374182E+9      0.00000000E+0      1.34541356E-1      -5.71272121E-1      -1.99489295E-6      -7.85375014E-5
7.51000000E+8      1.07374182E+9      0.00000000E+0      -2.22884634E-1      -6.88549147E-1      3.74363735E-5      2.44211406E-5
7.58250000E+8      1.07374182E+9      0.00000000E+0      -7.74371931E-1      -3.88290491E-1      -2.16839835E-5      -1.29407272E-5
7.65500000E+8      1.07374182E+9      0.00000000E+0      -7.02909859E-1      3.68094339E-1      -4.74508852E-6      1.13938004E-5
7.72750000E+8      1.07374182E+9      0.00000000E+0      -1.97443288E-1      5.68088675E-1      -2.66125426E-5      -5.88223338E-6
7.80000000E+8      1.07374182E+9      0.00000000E+0      9.27547356E-2      4.69566023E-1      2.98749655E-5      6.60503283E-5
7.87250000E+8      1.07374182E+9      0.00000000E+0      2.41840174E-1      3.36327519E-1      5.04683703E-6      1.65821984E-5
7.94500000E+8      1.07374182E+9      0.00000000E+0      3.16674862E-1      2.19379294E-1      3.03946435E-5      -1.89542770E-5
8.01750000E+8      1.07374182E+9      0.00000000E+0      3.58873308E-1      1.15588789E-1      -4.01632860E-5      -2.68230215E-5
8.09000000E+8      1.07374182E+9      0.00000000E+0      3.82122259E-1      1.82476346E-2      -2.89427117E-5      4.39677387E-6
8.16250000E+8      1.07374182E+9      0.00000000E+0      3.94190618E-1      -7.88522782E-2      3.50829214E-5      9.16421413E-6
8.23500000E+8      1.07374182E+9      0.00000000E+0      3.97013469E-1      -1.85855115E-1      -1.47456303E-5      7.24382699E-6
8.30750000E+8      1.07374182E+9      0.00000000E+0      3.89980787E-1      -3.11469348E-1      -1.75666064E-5      3.33664939E-5
8.38000000E+8      1.07374182E+9      0.00000000E+0      3.65623358E-1      -4.81633644E-1      -1.71195716E-5      2.56160274E-5
8.45250000E+8      1.07374182E+9      0.00000000E+0      3.04293867E-1      -7.49662122E-1      -2.99056992E-5      -1.75153837E-5
8.52500000E+8      1.07374182E+9      0.00000000E+0      1.02304741E-1      -1.30931789E+0      2.66795978E-5      6.81541860E-6
8.59750000E+8      1.07374182E+9      0.00000000E+0      -1.61588633E+0      -3.23642069E+0      1.77090988E-5      2.11922452E-5
8.67000000E+8      1.07374182E+9      0.00000000E+0      -5.82237952E-1      3.38552142E+0      1.15642324E-5      2.20621005E-5
8.74250000E+8      1.07374182E+9      0.00000000E+0      4.60725984E-1      1.27344559E+0      5.55068254E-6      -9.50414687E-6
8.81500000E+8      1.07374182E+9      0.00000000E+0      5.30672926E-1      7.01035620E-1      -1.65384263E-5      5.62658533E-5
8.88750000E+8      1.07374182E+9      0.00000000E+0      5.42276430E-1      4.29342158E-1      4.24915925E-5      5.00241295E-5
8.96000000E+8      1.07374182E+9      0.00000000E+0      5.46356692E-1      2.51065154E-1      -8.72649252E-7      3.30135226E-5
9.03250000E+8      1.07374182E+9      0.00000000E+0      5.47606169E-1      1.15008123E-1      -1.63614750E-5      -2.06120312E-5
9.10500000E+8      1.07374182E+9      0.00000000E+0      5.48663337E-1      -8.41694431E-3      -1.05760992E-5      -7.82310963E-6
9.17750000E+8      1.07374182E+9      0.00000000E+0      5.51070844E-1      -1.30697214E-1      1.99340284E-5      2.84342095E-5
9.25000000E+8      1.07374182E+9      0.00000000E+0      5.55798821E-1      -2.70463875E-1      7.42077827E-6      2.92453915E-5
9.32250000E+8      1.07374182E+9      0.00000000E+0      5.64510700E-1      -4.60413044E-1      -3.48528847E-5      1.98706985E-5
9.39500000E+8      1.07374182E+9      0.00000000E+0      5.83979926E-1      -7.61848805E-1      -1.59237534E-5      2.95108184E-5
9.46750000E+8      1.07374182E+9      0.00000000E+0      6.43839159E-1      -1.45024459E+0      -2.03903764E-5      2.88635492E-5
9.54000000E+8      1.07374182E+9      0.00000000E+0      1.39065305E+0      -5.86459412E+0      -3.33702192E-5      2.90963799E-5
9.61250000E+8      1.07374182E+9      0.00000000E+0      4.82840536E-1      3.16708038E+0      -6.55278563E-6      2.38614157E-5
9.68500000E+8      1.07374182E+9      0.00000000E+0      4.66490898E-1      1.19854988E+0      3.24919820E-5      -4.77107242E-5
9.75750000E+8      1.07374182E+9      0.00000000E+0      4.75682315E-1      7.02913599E-1      2.40383670E-5      3.24007124E-5
9.83000000E+8      1.07374182E+9      0.00000000E+0      4.79515497E-1      4.51169508E-1      3.95150855E-5      -1.26175582E-5
9.90250000E+8      1.07374182E+9      0.00000000E+0      4.79025681E-1      2.92069748E-1      1.41877681E-5      -7.21216202E-6
9.97500000E+8      1.07374182E+9      0.00000000E+0      4.76089877E-1      1.71107314E-1      2.30912119E-5      2.34004110E-5
1.00475000E+9      1.07374182E+9      0.00000000E+0      4.69519651E-1      6.99868650E-2      1.33151188E-5      3.73460352E-6
1.01200000E+9      1.07374182E+9      0.00000000E+0      4.58923548E-1      -2.38946477E-2      3.10875475E-6      -2.62130052E-5
1.01925000E+9      1.07374182E+9      0.00000000E+0      4.41884675E-1      -1.16880398E-1      5.27203083E-5      8.64639878E-6
1.02650000E+9      1.07374182E+9      0.00000000E+0      4.14519238E-1      -2.16268354E-1      2.41231173E-5      -2.58609653E-5
1.03375000E+9      1.07374182E+9      0.00000000E+0      3.66722171E-1      -3.30595372E-1      1.30478293E-6      -1.07698143E-5
1.04100000E+9      1.07374182E+9      0.00000000E+0      2.80069816E-1      -4.64901845E-1      1.26482919E-5      4.18303534E-5
1.04825000E+9      1.07374182E+9      0.00000000E+0      1.07380801E-1      -6.17053807E-1      2.24234536E-5      -8.51880759E-6
1.05550000E+9      1.07374182E+9      0.00000000E+0      -2.46492328E-1      -7.13815380E-1      5.55068254E-6      -5.22471964E-6
1.06275000E+9      1.07374182E+9      0.00000000E+0      -7.52947754E-1      -4.26315095E-1      5.07570803E-6      1.61621720E-5
1.07000000E+9      1.07374182E+9      0.00000000E+0      -7.48212775E-1      2.41489496E-1      -1.27190724E-5      2.29738653E-5
1.07725000E+9      1.07374182E+9      0.00000000E+0      -3.21612966E-1      4.96648414E-1      -2.12900341E-5      -4.14066017E-6
1.08450000E+9      1.07374182E+9      0.00000000E+0      -2.29678317E-2      4.45461398E-1      -1.72480941E-6      -1.47223473E-5
1.09175000E+9      1.07374182E+9      0.00000000E+0      1.28219284E-1      3.40430138E-1      2.88793817E-5      -6.53509051E-6
1.09900000E+9      1.07374182E+9      0.00000000E+0      2.06226107E-1      2.35158532E-1      -3.44235450E-5      -5.54621220E-5
1.10625000E+9      1.07374182E+9      0.00000000E+0      2.43432584E-1      1.42430845E-1      6.85453415E-7      -8.41170549E-6
1.11350000E+9      1.07374182E+9      0.00000000E+0      2.56976935E-1      5.63248984E-2      5.10066748E-5      1.40462071E-5
1.12075000E+9      1.07374182E+9      0.00000000E+0      2.51355193E-1      -2.09260805E-2      -1.40173361E-5      -1.66129321E-5
1.12800000E+9      1.07374182E+9      0.00000000E+0      2.27560825E-1      -9.63037407E-2      -5.65387309E-5      1.70655549E-5
1.13525000E+9      1.07374182E+9      0.00000000E+0      1.82631568E-1      -1.66230293E-1      4.13227826E-5      -3.42298299E-5
1.14250000E+9      1.07374182E+9      0.00000000E+0      1.10328230E-1      -2.28085132E-1      -1.11600384E-5      1.73961744E-5
1.14975000E+9      1.07374182E+9      0.00000000E+0      -1.16585518E-3      -2.67436001E-1      2.55266204E-5      -1.66753307E-5
1.15700000E+9      1.07374182E+9      0.00000000E+0      -1.47069258E-1      -2.50640669E-1      2.74796039E-5      4.86718491E-5
1.16425000E+9      1.07374182E+9      0.00000000E+0      -2.92817878E-1      -1.30035842E-1      3.30843031E-5      6.20447099E-6
1.17150000E+9      1.07374182E+9      0.00000000E+0      -3.31910820E-1      8.04583658E-2      7.49994069E-6      -1.33365393E-5
1.17875000E+9      1.07374182E+9      0.00000000E+0      -2.20657687E-1      2.67775012E-1      -3.41050327E-6      -1.90697610E-5
1.18600000E+9      1.07374182E+9      0.00000000E+0      -4.76215208E-2      3.34667467E-1      3.52524221E-5      -8.77585262E-6
1.19325000E+9      1.07374182E+9      0.00000000E+0      1.00090426E-1      3.11225462E-1      -1.67051330E-5      -1.07036904E-5
1.20050000E+9      1.07374182E+9      0.00000000E+0      2.05350975E-1      2.44863517E-1      2.15675682E-5      2.53319740E-6
1.20775000E+9      1.07374182E+9      0.00000000E+0      2.71678022E-1      1.67788750E-1      4.08254564E-5      -2.19047070E-5
1.21500000E+9      1.07374182E+9      0.00000000E+0      3.14645162E-1      8.29866658E-2      1.58865005E-5      -5.09247184E-6
1.22225000E+9      1.07374182E+9      0.00000000E+0      3.40129974E-1      -3.66320630E-3      2.39219517E-5      -8.41915607E-7
1.22950000E+9      1.07374182E+9      0.00000000E+0      3.53059684E-1      -9.66149397E-2      -3.24156135E-5      1.31614506E-5
1.23675000E+9      1.07374182E+9      0.00000000E+0      3.54064273E-1      -2.02639394E-1      -1.92923471E-5      -3.32146883E-5
1.24400000E+9      1.07374182E+9      0.00000000E+0      3.40931439E-1      -3.31904516E-1      -1.03050843E-5      -1.02799386E-5
1.25125000E+9      1.07374182E+9      0.00000000E+0      3.01216810E-1      -5.10117248E-1      -3.07299197E-5      1.97160989E-6
1.25850000E+9      1.07374182E+9      0.00000000E+0      1.96243149E-1      -7.86727330E-1      -4.14522365E-5      4.13693488E-6
1.26575000E+9      1.07374182E+9      0.00000000E+0      -1.63903237E-1      -1.30406868E+0      -1.45463273E-5      3.37371603E-5
1.27300000E+9      1.07374182E+9      0.00000000E+0      -2.33392369E+0      -1.77638881E+0      -1.73300505E-5      -4.09781933E-6
1.28025000E+9      1.07374182E+9      0.00000000E+0      -1.24702434E+0      1.99578627E+0      -1.99275091E-5      -1.75768510E-5
1.28750000E+9      1.07374182E+9      0.00000000E+0      5.45817047E-2      1.17243259E+0      2.95573846E-5      2.75587663E-5
1.29475000E+9      1.07374182E+9      0.00000000E+0      2.82610891E-1      7.07154034E-1      -4.90471721E-5      3.51555645E-5
