! NanoVNA-App
! Date: 2024-06-25 16:30:05
! Start: 200.00MHz  Stop: 6.00GHz  Points: 801
! S-Parameter data: F S11
# Hz S RI R 50
Frequency           S1_Real           S1_Imag           S11_Real           S11_Imag           S21_Real           S21_Imag
2.00000000E+8      1.07374182E+9      0.00000000E+0      5.28882035E-1      1.17923747E-1      1.03572384E-5      2.42888927E-6
2.07250000E+8      1.07374182E+9      0.00000000E+0      5.29918234E-1      2.01606939E-2      1.48061663E-5      2.84519047E-6
2.14500000E+8      1.07374182E+9      0.00000000E+0      5.29336897E-1      -7.66226099E-2      2.17193738E-5      1.80900097E-5
2.21750000E+8      1.07374182E+9      0.00000000E+0      5.26817503E-1      -1.82275347E-1      2.93757766E-5      5.92125580E-5
2.29000000E+8      1.07374182E+9      0.00000000E+0      5.22324434E-1      -3.08722230E-1      8.61287117E-6      1.20941550E-5
2.36250000E+8      1.07374182E+9      0.00000000E+0      5.12998636E-1      -4.80190416E-1      -2.49277800E-5      -4.06708568E-6
2.43500000E+8      1.07374182E+9      0.00000000E+0      4.89304331E-1      -7.54274239E-1      2.38120556E-5      4.48618084E-6
2.50750000E+8      1.07374182E+9      0.00000000E+0      3.98775358E-1      -1.35007223E+0      -2.46064737E-5      -1.18389726E-5
2.58000000E+8      1.07374182E+9      0.00000000E+0      -7.22438181E-1      -4.04011407E+0      7.67782331E-6      -5.55720180E-6
2.65250000E+8      1.07374182E+9      0.00000000E+0      -4.53573244E-1      3.54117402E+0      -6.91227615E-6      -7.70110637E-6
2.72500000E+8      1.07374182E+9      0.00000000E+0      4.06474553E-1      1.26073413E+0      -1.90678984E-5      -4.49921936E-6
2.79750000E+8      1.07374182E+9      0.00000000E+0      4.87271808E-1      7.05414545E-1      -9.14093107E-6      -9.65222716E-6
2.87000000E+8      1.07374182E+9      0.00000000E+0      5.08777892E-1      4.37211865E-1      6.74277544E-7      -3.76570970E-5
2.94250000E+8      1.07374182E+9      0.00000000E+0      5.17820100E-1      2.65467709E-1      -1.68494880E-5      2.15955079E-5
3.01500000E+8      1.07374182E+9      0.00000000E+0      5.22606965E-1      1.33934788E-1      -1.44252554E-5      -1.08871609E-5
3.08750000E+8      1.07374182E+9      0.00000000E+0      5.25106774E-1      1.84634908E-2      2.64719129E-5      -4.65353951E-5
3.16000000E+8      1.07374182E+9      0.00000000E+0      5.25892560E-1      -9.50739846E-2      1.70590356E-5      4.79631126E-7
3.23250000E+8      1.07374182E+9      0.00000000E+0      5.24794415E-1      -2.21493481E-1      -1.18752941E-5      4.88385558E-6
3.30500000E+8      1.07374182E+9      0.00000000E+0      5.20725676E-1      -3.81445161E-1      1.54254958E-5      1.01020560E-5
3.37750000E+8      1.07374182E+9      0.00000000E+0      5.04658186E-1      -6.22186802E-1      -1.45388767E-5      7.45803118E-6
3.45000000E+8      1.07374182E+9      0.00000000E+0      4.36071521E-1      -1.09814714E+0      -3.00910324E-5      -8.52160156E-6
3.52250000E+8      1.07374182E+9      0.00000000E+0      -2.97925837E-1      -2.72365792E+0      7.50925392E-6      -8.84756446E-8
3.59500000E+8      1.07374182E+9      0.00000000E+0      -1.97051072E+0      3.31293309E+0      9.99215990E-6      1.74622983E-6
3.66750000E+8      1.07374182E+9      0.00000000E+0      1.68369683E-1      1.22930429E+0      2.90200114E-6      1.10780820E-5
3.74000000E+8      1.07374182E+9      0.00000000E+0      3.56962381E-1      6.65116208E-1      1.04214996E-6      6.54347241E-6
3.81250000E+8      1.07374182E+9      0.00000000E+0      4.11524353E-1      3.95919310E-1      2.56206840E-5      1.26641244E-5
3.88500000E+8      1.07374182E+9      0.00000000E+0      4.31517974E-1      2.24201453E-1      3.59006226E-5      1.86394900E-5
3.95750000E+8      1.07374182E+9      0.00000000E+0      4.38328123E-1      9.14570802E-2      -1.55419111E-5      2.37254426E-5
4.03000000E+8      1.07374182E+9      0.00000000E+0      4.36319876E-1      -2.72196338E-2      -7.67782331E-6      4.19933349E-6
4.10250000E+8      1.07374182E+9      0.00000000E+0      4.25483517E-1      -1.45902242E-1      -7.24196434E-6      1.03535131E-5
4.17500000E+8      1.07374182E+9      0.00000000E+0      4.00963204E-1      -2.80744407E-1      1.36820599E-5      -7.66571611E-6
4.24750000E+8      1.07374182E+9      0.00000000E+0      3.50432227E-1      -4.53280249E-1      -2.79806554E-5      -7.87898898E-7
4.32000000E+8      1.07374182E+9      0.00000000E+0      2.29578054E-1      -7.06369149E-1      1.52634457E-5      -1.48173422E-6
4.39250000E+8      1.07374182E+9      0.00000000E+0      -1.43695073E-1      -1.13492923E+0      4.12855297E-5      1.97077170E-5
4.46500000E+8      1.07374182E+9      0.00000000E+0      -1.84649392E+0      -1.30627817E+0      -1.24350190E-5      1.57384202E-5
4.53750000E+8      1.07374182E+9      0.00000000E+0      -1.25444304E+0      1.72627697E+0      1.69062987E-5      2.70614401E-5
4.61000000E+8      1.07374182E+9      0.00000000E+0      9.94681521E-2      1.16506068E+0      8.75536352E-6      -1.69686973E-5
4.68250000E+8      1.07374182E+9      0.00000000E+0      3.67194653E-1      7.31132203E-1      -3.66065651E-5      -2.35252082E-6
4.75500000E+8      1.07374182E+9      0.00000000E+0      4.52644808E-1      4.81517300E-1      -1.87270343E-5      2.99094245E-5
4.82750000E+8      1.07374182E+9      0.00000000E+0      4.88916903E-1      3.17337767E-1      1.70599669E-5      -1.12978742E-5
4.90000000E+8      1.07374182E+9      0.00000000E+0      5.07851907E-1      1.92132461E-1      3.23234126E-5      -9.07760113E-6
4.97250000E+8      1.07374182E+9      0.00000000E+0      5.20576581E-1      8.63744828E-2      -1.54478475E-5      -1.71707943E-5
5.04500000E+8      1.07374182E+9      0.00000000E+0      5.29250168E-1      -1.22149703E-2      4.08012420E-5      2.55824998E-5
5.11750000E+8      1.07374182E+9      0.00000000E+0      5.38743931E-1      -1.12025159E-1      2.56402418E-5      9.99681652E-6
5.19000000E+8      1.07374182E+9      0.00000000E+0      5.50211344E-1      -2.24187778E-1      -6.71017915E-6      1.73849985E-5
5.26250000E+8      1.07374182E+9      0.00000000E+0      5.68268103E-1      -3.61529393E-1      6.04707748E-6      5.34206629E-6
5.33500000E+8      1.07374182E+9      0.00000000E+0      6.04780698E-1      -5.53495470E-1      2.36881897E-5      2.33668834E-6
5.40750000E+8      1.07374182E+9      0.00000000E+0      7.02882635E-1      -8.73220562E-1      -1.80853531E-5      3.62927094E-5
5.48000000E+8      1.07374182E+9      0.00000000E+0      1.12033898E+0      -1.53486764E+0      -1.52373686E-5      3.99723649E-6
5.55250000E+8      1.07374182E+9      0.00000000E+0      4.18188604E+0      -1.49415887E+0      -1.49039552E-5      2.35345215E-5
5.62500000E+8      1.07374182E+9      0.00000000E+0      1.82636933E+0      1.77099121E+0      -8.17701221E-6      -1.21872872E-5
5.69750000E+8      1.07374182E+9      0.00000000E+0      9.27229704E-1      1.01128160E+0      -2.87964940E-6      -1.82259828E-6
5.77000000E+8      1.07374182E+9      0.00000000E+0      7.32058069E-1      6.35592583E-1      -2.01351941E-6      -7.48317689E-6
5.84250000E+8      1.07374182E+9      0.00000000E+0      6.63194482E-1      4.20655384E-1      -8.10530037E-6      -2.30222940E-6
5.91500000E+8      1.07374182E+9      0.00000000E+0      6.30421810E-1      2.72651751E-1      -2.20583752E-5      1.09337270E-5
5.98750000E+8      1.07374182E+9      0.00000000E+0      6.13669393E-1      1.56718982E-1      1.57207251E-6      3.39737162E-5
6.06000000E+8      1.07374182E+9      0.00000000E+0      6.04156961E-1      5.68448827E-2      5.51249832E-6      6.95977360E-6
6.13250000E+8      1.07374182E+9      0.00000000E+0      5.99283045E-1      -3.88365408E-2      9.03941691E-6      -3.14787030E-7
6.20500000E+8      1.07374182E+9      0.00000000E+0      5.98127530E-1      -1.39266653E-1      -5.28804958E-6      -2.62260437E-6
6.27750000E+8      1.07374182E+9      0.00000000E+0      6.00049719E-1      -2.55146936E-1      -1.00620091E-5      -8.06991011E-6
6.35000000E+8      1.07374182E+9      0.00000000E+0      6.06083610E-1      -4.01517070E-1      -6.90389425E-6      2.15936452E-5
6.42250000E+8      1.07374182E+9      0.00000000E+0      6.16887863E-1      -6.23779148E-1      3.31820920E-5      -8.09226185E-6
6.49500000E+8      1.07374182E+9      0.00000000E+0      6.35589104E-1      -1.04097782E+0      5.55068254E-6      3.65208834E-5
6.56750000E+8      1.07374182E+9      0.00000000E+0      6.10014884E-1      -2.35294584E+0      -4.68641520E-6      1.81868672E-5
6.64000000E+8      1.07374182E+9      0.00000000E+0      -6.68539804E+0      8.99600132E+0      1.67079270E-6      -2.37682834E-5
6.71250000E+8      1.07374182E+9      0.00000000E+0      1.53095992E-1      1.65277049E+0      -3.43592837E-5      -2.37673521E-6
6.78500000E+8      1.07374182E+9      0.00000000E+0      3.55620992E-1      8.30291080E-1      -3.48538160E-5      8.39121640E-6
6.85750000E+8      1.07374182E+9      0.00000000E+0      4.11400301E-1      5.00244440E-1      -9.91299748E-6      -7.47106969E-6
6.93000000E+8      1.07374182E+9      0.00000000E+0      4.33357272E-1      3.07442755E-1      2.42898241E-5      -1.34781003E-5
7.00250000E+8      1.07374182E+9      0.00000000E+0      4.41413085E-1      1.67938886E-1      -7.30715692E-6      -1.24545768E-5
7.07500000E+8      1.07374182E+9      0.00000000E+0      4.39632985E-1      5.29306457E-2      1.00191683E-5      -1.88257545E-5
7.14750000E+8      1.07374182E+9      0.00000000E+0      4.29543262E-1      -5.37643901E-2      -3.39169055E-5      3.13436612E-5
7.22000000E+8      1.07374182E+9      0.00000000E+0      4.07879684E-1      -1.60728849E-1      1.88127160E-7      -1.20652840E-5
7.29250000E+8      1.07374182E+9      0.00000000E+0      3.64610332E-1      -2.80702004E-1      -1.28187239E-5      2.47098505E-5
7.36500000E+8      1.07374182E+9      0.00000000E+0      2.82319439E-1      -4.19397302E-1      -2.17808411E-5      -6.80796802E-7
7.43750000E+8      1.07374182E+9      0.00000000E+0      1.08144512E-1      -5.77412744E-1      -1.36066228E-5      2.31629238E-5
7.51000000E+8      1.07374182E+9      0.00000000E+0      -2.65419234E-1      -6.69062004E-1      -8.14348459E-6      -9.26759094E-6
7.58250000E+8      1.07374182E+9      0.00000000E+0      -7.81831840E-1      -3.14241388E-1      -1.74259767E-5      8.49738717E-6
7.65500000E+8      1.07374182E+9      0.00000000E+0      -6.40713425E-1      3.91855100E-1      -3.28598544E-5      -1.82390213E-5
7.72750000E+8      1.07374182E+9      0.00000000E+0      -1.67713023E-1      5.47724416E-1      3.90494242E-5      -1.92811713E-5
7.80000000E+8      1.07374182E+9      0.00000000E+0      1.04089658E-1      4.48562147E-1      -3.60319391E-5      -8.01868737E-7
7.87250000E+8      1.07374182E+9      0.00000000E+0      2.44896239E-1      3.20670387E-1      -1.00312755E-5      1.63633376E-5
7.94500000E+8      1.07374182E+9      0.00000000E+0      3.16484516E-1      2.07042399E-1      4.50555235E-5      -3.74410301E-5
8.01750000E+8      1.07374182E+9      0.00000000E+0      3.56794500E-1      1.04724169E-1      1.88415870E-5      4.43793833E-5
8.09000000E+8      1.07374182E+9      0.00000000E+0      3.79311346E-1      7.13135251E-3      9.00309533E-6      -1.83843076E-5
8.16250000E+8      1.07374182E+9      0.00000000E+0      3.90354353E-1      -9.00225360E-2      3.20523977E-5      4.77014109E-5
8.23500000E+8      1.07374182E+9      0.00000000E+0      3.91757099E-1      -1.96699534E-1      -1.74921006E-5      -1.72154978E-5
8.30750000E+8      1.07374182E+9      0.00000000E+0      3.81428687E-1      -3.24921971E-1      3.77288088E-5      1.50334090E-5
8.38000000E+8      1.07374182E+9      0.00000000E+0      3.52955921E-1      -5.00455940E-1      -1.70497224E-5      4.09930944E-5
8.45250000E+8      1.07374182E+9      0.00000000E+0      2.77157631E-1      -7.78883784E-1      -2.23703682E-5      -1.83805823E-5
8.52500000E+8      1.07374182E+9      0.00000000E+0      1.81865546E-2      -1.36765732E+0      -4.09316272E-6      1.95670873E-6
8.59750000E+8      1.07374182E+9      0.00000000E+0      -2.42133097E+0      -3.10694157E+0      -7.30156898E-7      -3.76738608E-5
8.67000000E+8      1.07374182E+9      0.00000000E+0      -4.62516066E-1      2.84241745E+0      -3.63998115E-5      -3.71467322E-5
8.74250000E+8      1.07374182E+9      0.00000000E+0      4.29799579E-1      1.18842268E+0      -2.27065757E-5      3.71849164E-5
8.81500000E+8      1.07374182E+9      0.00000000E+0      5.12736038E-1      6.65343240E-1      5.64940274E-6      1.91824511E-5
8.88750000E+8      1.07374182E+9      0.00000000E+0      5.31339951E-1      4.08952833E-1      1.87773257E-5      2.45226547E-5
8.96000000E+8      1.07374182E+9      0.00000000E+0      5.37611138E-1      2.35769347E-1      -4.50015068E-5      2.93087214E-6
9.03250000E+8      1.07374182E+9      0.00000000E+0      5.39852836E-1      1.01916187E-1      -2.56868079E-5      2.12565064E-5
9.10500000E+8      1.07374182E+9      0.00000000E+0      5.41932776E-1      -2.03733394E-2      3.68524343E-6      2.61347741E-5
9.17750000E+8      1.07374182E+9      0.00000000E+0      5.44175593E-1      -1.43403671E-1      1.81710348E-5      1.99461356E-5
9.25000000E+8      1.07374182E+9      0.00000000E+0      5.48006017E-1      -2.86744004E-1      1.91451982E-5      1.36978924E-5
9.32250000E+8      1.07374182E+9      0.00000000E+0      5.53879076E-1      -4.83637431E-1      -1.33085996E-6      -1.33290887E-5
9.39500000E+8      1.07374182E+9      0.00000000E+0      5.64040504E-1      -8.05894249E-1      -9.05618072E-6      2.00793147E-5
9.46750000E+8      1.07374182E+9      0.00000000E+0      5.85131710E-1      -1.57667396E+0      2.74926424E-6      -3.20598483E-5
9.54000000E+8      1.07374182E+9      0.00000000E+0      1.85201336E-1      -8.51947919E+0      9.59821045E-6      -3.99788842E-5
9.61250000E+8      1.07374182E+9      0.00000000E+0      2.79756800E-1      2.73689438E+0      2.33734027E-5      -1.64182857E-5
9.68500000E+8      1.07374182E+9      0.00000000E+0      4.28382763E-1      1.12312453E+0      2.54642218E-5      -2.49408185E-6
9.75750000E+8      1.07374182E+9      0.00000000E+0      4.58738247E-1      6.70137754E-1      4.60259616E-6      -1.86879188E-5
9.83000000E+8      1.07374182E+9      0.00000000E+0      4.68264510E-1      4.33012623E-1      -4.10061330E-6      -1.20596960E-5
9.90250000E+8      1.07374182E+9      0.00000000E+0      4.70709113E-1      2.79392780E-1      -1.63521618E-5      -2.38511711E-5
9.97500000E+8      1.07374182E+9      0.00000000E+0      4.68938480E-1      1.61078455E-1      -7.14138150E-6      -4.78234142E-6
1.00475000E+9      1.07374182E+9      0.00000000E+0      4.62526653E-1      6.10642214E-2      -3.19043174E-5      -1.72881410E-5
1.01200000E+9      1.07374182E+9      0.00000000E+0      4.51659706E-1      -3.22080957E-2      -1.96928158E-5      8.18166882E-6
1.01925000E+9      1.07374182E+9      0.00000000E+0      4.33342898E-1      -1.25117021E-1      3.49115580E-5      5.64754009E-6
1.02650000E+9      1.07374182E+9      0.00000000E+0      4.03829274E-1      -2.25363634E-1      -3.81013379E-5      -1.86003745E-5
1.03375000E+9      1.07374182E+9      0.00000000E+0      3.53185285E-1      -3.38924058E-1      5.40316105E-5      -7.54185021E-6
1.04100000E+9      1.07374182E+9      0.00000000E+0      2.59270575E-1      -4.71246434E-1      1.64713711E-5      -7.81659037E-6
1.04825000E+9      1.07374182E+9      0.00000000E+0      7.41386053E-2      -6.15938351E-1      -2.39461660E-5      4.76883724E-5
1.05550000E+9      1.07374182E+9      0.00000000E+0      -2.92012743E-1      -6.80220231E-1      1.92923471E-5      1.29016116E-5
1.06275000E+9      1.07374182E+9      0.00000000E+0      -7.47545517E-1      -3.49060231E-1      -2.02339143E-5      1.78068876E-6
1.07000000E+9      1.07374182E+9      0.00000000E+0      -6.80737768E-1      2.65073728E-1      -2.52192840E-5      -3.00882384E-5
1.07725000E+9      1.07374182E+9      0.00000000E+0      -2.85330601E-1      4.74446459E-1      -1.94692984E-5      2.69152224E-7
1.08450000E+9      1.07374182E+9      0.00000000E+0      -1.04211490E-2      4.23706453E-1      -1.80825591E-5      -3.65423039E-5
1.09175000E+9      1.07374182E+9      0.00000000E+0      1.31775514E-1      3.21908440E-1      2.69059092E-6      3.62638384E-5
1.09900000E+9      1.07374182E+9      0.00000000E+0      2.04836307E-1      2.22384948E-1      7.01565295E-6      2.83494592E-6
1.10625000E+9      1.07374182E+9      0.00000000E+0      2.39836447E-1      1.32236813E-1      -5.85522503E-6      2.57855281E-5
1.11350000E+9      1.07374182E+9      0.00000000E+0      2.51655751E-1      4.80589308E-2      2.22949311E-5      1.98557973E-5
1.12075000E+9      1.07374182E+9      0.00000000E+0      2.44666612E-1      -2.78979724E-2      1.01830810E-5      -2.91615725E-5
1.12800000E+9      1.07374182E+9      0.00000000E+0      2.19415218E-1      -1.00959437E-1      -3.03275883E-5      1.43656507E-5
1.13525000E+9      1.07374182E+9      0.00000000E+0      1.72118284E-1      -1.68996285E-1      -1.04745850E-5      -1.75349414E-5
1.14250000E+9      1.07374182E+9      0.00000000E+0      9.73707528E-2      -2.27256788E-1      -1.34361908E-5      7.10692257E-6
1.14975000E+9      1.07374182E+9      0.00000000E+0      -1.51918590E-2      -2.59942282E-1      3.96901742E-5      -1.63670629E-5
1.15700000E+9      1.07374182E+9      0.00000000E+0      -1.57183475E-1      -2.32762298E-1      -3.30572948E-5      3.30517069E-5
1.16425000E+9      1.07374182E+9      0.00000000E+0      -2.88093382E-1      -1.05340743E-1      2.64551491E-5      6.56396151E-6
1.17150000E+9      1.07374182E+9      0.00000000E+0      -3.10554425E-1      9.78238537E-2      2.02562660E-5      1.23130158E-5
1.17875000E+9      1.07374182E+9      0.00000000E+0      -1.94656817E-1      2.66394163E-1      -5.21447510E-6      -3.48193571E-5
1.18600000E+9      1.07374182E+9      0.00000000E+0      -2.96717993E-2      3.21399778E-1      1.09029934E-5      2.24392861E-5
1.19325000E+9      1.07374182E+9      0.00000000E+0      1.08371336E-1      2.95810007E-1      2.37869099E-5      1.28420070E-5
1.20050000E+9      1.07374182E+9      0.00000000E+0      2.07262570E-1      2.30961043E-1      4.97885048E-6      2.21226364E-5
1.20775000E+9      1.07374182E+9      0.00000000E+0      2.70446681E-1      1.55557004E-1      -5.44795766E-5      3.47057357E-5
1.21500000E+9      1.07374182E+9      0.00000000E+0      3.11683562E-1      7.07918039E-2      9.10833478E-6      -2.23796815E-6
1.22225000E+9      1.07374182E+9      0.00000000E+0      3.35215240E-1      -1.45939244E-2      1.88872218E-6      -2.85161659E-5
1.22950000E+9      1.07374182E+9      0.00000000E+0      3.46370878E-1      -1.08966396E-1      -2.48420984E-5      6.76140189E-6
1.23675000E+9      1.07374182E+9      0.00000000E+0      3.44536137E-1      -2.15613715E-1      -4.59840521E-5      7.93579966E-6
1.24400000E+9      1.07374182E+9      0.00000000E+0      3.26876742E-1      -3.45132953E-1      1.53006986E-5      2.09826976E-5
1.25125000E+9      1.07374182E+9      0.00000000E+0      2.76761638E-1      -5.27558858E-1      -1.97002664E-5      -6.21844083E-6
1.25850000E+9      1.07374182E+9      0.00000000E+0      1.46054095E-1      -8.12248007E-1      -4.11365181E-6      3.49245965E-7
1.26575000E+9      1.07374182E+9      0.00000000E+0      -3.05057454E-1      -1.31776386E+0      1.62106007E-5      2.06287950E-6
1.27300000E+9      1.07374182E+9      0.00000000E+0      -2.50862560E+0      -1.17885411E+0      -1.37286261E-5      2.71284953E-5
1.28025000E+9      1.07374182E+9      0.00000000E+0      -1.00333585E+0      1.73132156E+0      -2.45077536E-5      4.94373962E-5
1.28750000E+9      1.07374182E+9      0.00000000E+0      4.11997986E-2      1.07385914E+0      -8.46572220E-7      2.94083729E-5
1.29475000E+9      1.07374182E+9      0.00000000E+0      2.66252243E-1      6.61768830E-1      -9.68948007E-6      -5.02448529E-6
