! NanoVNA-App
! Date: 2024-06-25 16:30:02
! Start: 200.00MHz  Stop: 6.00GHz  Points: 801
! S-Parameter data: F S11
# Hz S RI R 50
Frequency           S1_Real           S1_Imag           S11_Real           S11_Imag           S21_Real           S21_Imag
2.00000000E+8      1.07374182E+9      0.00000000E+0      5.28955864E-1      1.17555276E-1      3.55672091E-6      -4.73391265E-6
2.07250000E+8      1.07374182E+9      0.00000000E+0      5.29972516E-1      2.01298635E-2      3.72342765E-6      1.29174441E-5
2.14500000E+8      1.07374182E+9      0.00000000E+0      5.29402544E-1      -7.66294889E-2      1.03870407E-5      -1.42874196E-5
2.21750000E+8      1.07374182E+9      0.00000000E+0      5.26434107E-1      -1.82295388E-1      -1.09709799E-6      2.64057890E-5
2.29000000E+8      1.07374182E+9      0.00000000E+0      5.22841619E-1      -3.08253493E-1      1.66641548E-5      -1.30012631E-5
2.36250000E+8      1.07374182E+9      0.00000000E+0      5.12959103E-1      -4.80515236E-1      -6.49038702E-6      -1.64229423E-5
2.43500000E+8      1.07374182E+9      0.00000000E+0      4.88413643E-1      -7.54987643E-1      1.55055895E-5      -7.35837966E-6
2.50750000E+8      1.07374182E+9      0.00000000E+0      4.00684486E-1      -1.34930699E+0      -1.84252858E-5      -7.41053373E-6
2.58000000E+8      1.07374182E+9      0.00000000E+0      -7.08470432E-1      -4.03206948E+0      6.72694296E-6      2.00597569E-5
2.65250000E+8      1.07374182E+9      0.00000000E+0      -4.44648976E-1      3.56033623E+0      1.58976763E-5      3.81935388E-6
2.72500000E+8      1.07374182E+9      0.00000000E+0      4.05242640E-1      1.26173654E+0      3.49190086E-5      -2.42544338E-5
2.79750000E+8      1.07374182E+9      0.00000000E+0      4.87050046E-1      7.05480239E-1      -9.29087400E-6      1.09430403E-6
2.87000000E+8      1.07374182E+9      0.00000000E+0      5.08768794E-1      4.36611060E-1      -2.12825835E-5      2.82479450E-5
2.94250000E+8      1.07374182E+9      0.00000000E+0      5.18018565E-1      2.65179903E-1      -1.06208026E-5      -4.56506386E-5
3.01500000E+8      1.07374182E+9      0.00000000E+0      5.22604531E-1      1.33790632E-1      -1.20522454E-5      3.20374966E-6
3.08750000E+8      1.07374182E+9      0.00000000E+0      5.25106527E-1      1.85014478E-2      1.97840855E-5      7.71135092E-7
3.16000000E+8      1.07374182E+9      0.00000000E+0      5.25504859E-1      -9.53060864E-2      3.49683687E-5      -1.14506111E-5
3.23250000E+8      1.07374182E+9      0.00000000E+0      5.24614801E-1      -2.21695635E-1      1.09430403E-6      -1.19693577E-5
3.30500000E+8      1.07374182E+9      0.00000000E+0      5.20366905E-1      -3.81843774E-1      -3.30470502E-5      1.22617930E-5
3.37750000E+8      1.07374182E+9      0.00000000E+0      5.04464236E-1      -6.21485300E-1      -2.53422186E-5      -2.76975334E-5
3.45000000E+8      1.07374182E+9      0.00000000E+0      4.33976478E-1      -1.09940657E+0      -8.87922943E-6      -2.01761723E-5
3.52250000E+8      1.07374182E+9      0.00000000E+0      -3.15463959E-1      -2.72265419E+0      1.59321353E-5      -1.91889703E-5
3.59500000E+8      1.07374182E+9      0.00000000E+0      -1.97816836E+0      3.32021111E+0      -4.29796055E-5      -1.12857670E-5
3.66750000E+8      1.07374182E+9      0.00000000E+0      1.68069890E-1      1.23296776E+0      -3.42288986E-5      1.58939511E-5
3.74000000E+8      1.07374182E+9      0.00000000E+0      3.57144725E-1      6.65892833E-1      5.02914190E-8      4.71156090E-6
3.81250000E+8      1.07374182E+9      0.00000000E+0      4.11285094E-1      3.95631862E-1      -2.38372013E-5      3.31597403E-5
3.88500000E+8      1.07374182E+9      0.00000000E+0      4.31842228E-1      2.24490526E-1      -5.65312803E-7      2.40933150E-5
3.95750000E+8      1.07374182E+9      0.00000000E+0      4.38320236E-1      9.17444264E-2      -6.83497638E-6      -1.71987340E-5
4.03000000E+8      1.07374182E+9      0.00000000E+0      4.36276261E-1      -2.70388964E-2      -5.05521894E-6      -1.88620761E-5
4.10250000E+8      1.07374182E+9      0.00000000E+0      4.25135479E-1      -1.46304861E-1      -6.80051744E-6      1.55214220E-5
4.17500000E+8      1.07374182E+9      0.00000000E+0      4.00910423E-1      -2.80326244E-1      -1.89859420E-5      -3.71225178E-6
4.24750000E+8      1.07374182E+9      0.00000000E+0      3.50148707E-1      -4.53221305E-1      -2.29198486E-6      -1.40853226E-5
4.32000000E+8      1.07374182E+9      0.00000000E+0      2.29594045E-1      -7.06243381E-1      2.71415338E-5      3.35276127E-6
4.39250000E+8      1.07374182E+9      0.00000000E+0      -1.44270522E-1      -1.13451043E+0      2.09026039E-5      -4.90806997E-6
4.46500000E+8      1.07374182E+9      0.00000000E+0      -1.85304819E+0      -1.30246193E+0      -8.96584243E-6      4.98574227E-5
4.53750000E+8      1.07374182E+9      0.00000000E+0      -1.26212669E+0      1.72017258E+0      5.70658594E-5      2.47573480E-5
4.61000000E+8      1.07374182E+9      0.00000000E+0      9.88805936E-2      1.16610747E+0      1.95046887E-5      1.34464353E-5
4.68250000E+8      1.07374182E+9      0.00000000E+0      3.67599427E-1      7.30392656E-1      1.32750720E-5      3.49711627E-6
4.75500000E+8      1.07374182E+9      0.00000000E+0      4.52817303E-1      4.81580934E-1      5.49387187E-6      5.05093485E-5
4.82750000E+8      1.07374182E+9      0.00000000E+0      4.89026177E-1      3.17428652E-1      -1.28317624E-5      5.17033041E-5
4.90000000E+8      1.07374182E+9      0.00000000E+0      5.08005731E-1      1.92362542E-1      -1.21286139E-5      4.31481749E-5
4.97250000E+8      1.07374182E+9      0.00000000E+0      5.20128858E-1      8.66011728E-2      1.72276050E-5      -6.74556941E-6
5.04500000E+8      1.07374182E+9      0.00000000E+0      5.29304665E-1      -1.22828903E-2      -1.27516687E-5      1.15837902E-5
5.11750000E+8      1.07374182E+9      0.00000000E+0      5.38677344E-1      -1.12307173E-1      7.87992030E-6      8.25617462E-6
5.19000000E+8      1.07374182E+9      0.00000000E+0      5.50051012E-1      -2.24079324E-1      -3.28356400E-5      7.90506601E-6
5.26250000E+8      1.07374182E+9      0.00000000E+0      5.68067125E-1      -3.61290866E-1      5.03566116E-6      1.97039917E-5
5.33500000E+8      1.07374182E+9      0.00000000E+0      6.04440735E-1      -5.54413197E-1      1.39782205E-5      -4.22876328E-5
5.40750000E+8      1.07374182E+9      0.00000000E+0      7.03156235E-1      -8.72950462E-1      2.99401581E-5      -2.97799706E-5
5.48000000E+8      1.07374182E+9      0.00000000E+0      1.12250236E+0      -1.53144059E+0      -8.72276723E-6      -4.09753993E-5
5.55250000E+8      1.07374182E+9      0.00000000E+0      4.22251754E+0      -1.48456406E+0      -1.68764964E-5      8.53184611E-6
5.62500000E+8      1.07374182E+9      0.00000000E+0      1.82587014E+0      1.76765443E+0      -8.61939043E-6      -7.42916018E-6
5.69750000E+8      1.07374182E+9      0.00000000E+0      9.27422047E-1      1.01222068E+0      6.78375363E-6      3.24230641E-5
5.77000000E+8      1.07374182E+9      0.00000000E+0      7.33163736E-1      6.35766531E-1      2.74647027E-6      -1.16508454E-5
5.84250000E+8      1.07374182E+9      0.00000000E+0      6.62459282E-1      4.19252772E-1      9.28528607E-6      -1.01178885E-5
5.91500000E+8      1.07374182E+9      0.00000000E+0      6.30921719E-1      2.72800097E-1      -3.52971256E-6      2.36071646E-5
5.98750000E+8      1.07374182E+9      0.00000000E+0      6.13289774E-1      1.56891191E-1      8.07922333E-6      -1.71596184E-5
6.06000000E+8      1.07374182E+9      0.00000000E+0      6.04150370E-1      5.68310159E-2      4.68920916E-6      4.27942723E-5
6.13250000E+8      1.07374182E+9      0.00000000E+0      5.99374673E-1      -3.85673004E-2      -2.42982060E-5      3.70442867E-5
6.20500000E+8      1.07374182E+9      0.00000000E+0      5.98203363E-1      -1.39485663E-1      2.74293125E-5      1.83470547E-6
6.27750000E+8      1.07374182E+9      0.00000000E+0      6.00652061E-1      -2.54380656E-1      2.50525773E-6      -1.05043873E-5
6.35000000E+8      1.07374182E+9      0.00000000E+0      6.06582266E-1      -4.01797935E-1      -1.23614445E-5      -2.40541995E-5
6.42250000E+8      1.07374182E+9      0.00000000E+0      6.17179945E-1      -6.23321785E-1      1.27898529E-5      4.19970602E-5
6.49500000E+8      1.07374182E+9      0.00000000E+0      6.36556778E-1      -1.04065919E+0      -1.16229057E-5      -1.90399587E-5
6.56750000E+8      1.07374182E+9      0.00000000E+0      6.09597794E-1      -2.35461255E+0      1.49207190E-5      -4.81959432E-6
6.64000000E+8      1.07374182E+9      0.00000000E+0      -6.60969555E+0      8.93069029E+0      -2.83904374E-5      -9.91672277E-6
6.71250000E+8      1.07374182E+9      0.00000000E+0      1.58496659E-1      1.65358000E+0      2.08010897E-5      -2.50479206E-5
6.78500000E+8      1.07374182E+9      0.00000000E+0      3.54728418E-1      8.29861825E-1      5.58793545E-6      1.14478171E-5
6.85750000E+8      1.07374182E+9      0.00000000E+0      4.11647456E-1      5.01792423E-1      1.52103603E-5      -9.02451575E-7
6.93000000E+8      1.07374182E+9      0.00000000E+0      4.33850606E-1      3.06718411E-1      -2.58730724E-5      -4.29861248E-5
7.00250000E+8      1.07374182E+9      0.00000000E+0      4.41160781E-1      1.68253828E-1      2.46278942E-5      -3.56519595E-5
7.07500000E+8      1.07374182E+9      0.00000000E+0      4.39790811E-1      5.30286226E-2      -2.95974314E-6      -9.04034823E-6
7.14750000E+8      1.07374182E+9      0.00000000E+0      4.29538711E-1      -5.35466936E-2      2.52379104E-5      3.18456441E-5
7.22000000E+8      1.07374182E+9      0.00000000E+0      4.07484776E-1      -1.61832586E-1      -2.68267468E-5      -1.34492293E-5
7.29250000E+8      1.07374182E+9      0.00000000E+0      3.64918110E-1      -2.80387476E-1      2.96002254E-5      2.17016786E-5
7.36500000E+8      1.07374182E+9      0.00000000E+0      2.81834695E-1      -4.18685620E-1      9.01427120E-6      -1.29612163E-5
7.43750000E+8      1.07374182E+9      0.00000000E+0      1.08658006E-1      -5.76517582E-1      3.17562371E-5      3.98010015E-5
7.51000000E+8      1.07374182E+9      0.00000000E+0      -2.64739891E-1      -6.69996142E-1      3.31550837E-6      -8.49552453E-6
7.58250000E+8      1.07374182E+9      0.00000000E+0      -7.81832025E-1      -3.14640427E-1      -3.58214602E-5      2.60835513E-5
7.65500000E+8      1.07374182E+9      0.00000000E+0      -6.39348006E-1      3.92437207E-1      7.58934766E-6      -4.92511317E-5
7.72750000E+8      1.07374182E+9      0.00000000E+0      -1.67287223E-1      5.47670771E-1      -1.82613730E-5      1.07651576E-5
7.80000000E+8      1.07374182E+9      0.00000000E+0      1.04813329E-1      4.48065980E-1      2.20723450E-7      -8.75256956E-6
7.87250000E+8      1.07374182E+9      0.00000000E+0      2.44413035E-1      3.21389515E-1      4.54951078E-6      -3.55718657E-5
7.94500000E+8      1.07374182E+9      0.00000000E+0      3.16239771E-1      2.06566987E-1      6.13927841E-6      1.75610185E-5
8.01750000E+8      1.07374182E+9      0.00000000E+0      3.56941894E-1      1.03886056E-1      -1.97561458E-5      1.71037391E-5
8.09000000E+8      1.07374182E+9      0.00000000E+0      3.79385029E-1      7.65382916E-3      1.39810145E-5      -1.36829913E-5
8.16250000E+8      1.07374182E+9      0.00000000E+0      3.90263171E-1      -8.97109211E-2      1.02557242E-5      1.49002299E-5
8.23500000E+8      1.07374182E+9      0.00000000E+0      3.91233594E-1      -1.96869597E-1      -3.23578715E-5      3.20766121E-5
8.30750000E+8      1.07374182E+9      0.00000000E+0      3.81867291E-1      -3.24769273E-1      -1.41523778E-5      -5.20050526E-6
8.38000000E+8      1.07374182E+9      0.00000000E+0      3.52218629E-1      -5.00858109E-1      -4.93554398E-5      1.06366351E-5
8.45250000E+8      1.07374182E+9      0.00000000E+0      2.75179740E-1      -7.82333752E-1      4.47221100E-6      -2.78465450E-7
8.52500000E+8      1.07374182E+9      0.00000000E+0      1.65532820E-2      -1.37104106E+0      -3.16342339E-5      -1.45938247E-6
8.59750000E+8      1.07374182E+9      0.00000000E+0      -2.42370072E+0      -3.12589116E+0      -1.43349171E-5      2.75708735E-5
8.67000000E+8      1.07374182E+9      0.00000000E+0      -4.44920717E-1      2.82174471E+0      2.22735107E-5      7.93393701E-6
8.74250000E+8      1.07374182E+9      0.00000000E+0      4.27102904E-1      1.18671955E+0      3.56975943E-6      3.26037407E-5
8.81500000E+8      1.07374182E+9      0.00000000E+0      5.13179086E-1      6.65141060E-1      9.01054591E-6      8.72742385E-6
8.88750000E+8      1.07374182E+9      0.00000000E+0      5.31317381E-1      4.08460700E-1      2.54316255E-5      -1.16918236E-5
8.96000000E+8      1.07374182E+9      0.00000000E+0      5.37437753E-1      2.36240246E-1      6.64275140E-5      2.42488459E-5
9.03250000E+8      1.07374182E+9      0.00000000E+0      5.39982590E-1      1.01520106E-1      -4.40236181E-5      6.25299290E-5
9.10500000E+8      1.07374182E+9      0.00000000E+0      5.42429892E-1      -1.95361289E-2      -3.18046659E-6      -6.00516796E-6
9.17750000E+8      1.07374182E+9      0.00000000E+0      5.44476395E-1      -1.43953091E-1      2.80272216E-5      8.28504562E-6
9.25000000E+8      1.07374182E+9      0.00000000E+0      5.47715745E-1      -2.86569041E-1      7.56327063E-6      2.04565004E-5
9.32250000E+8      1.07374182E+9      0.00000000E+0      5.53480182E-1      -4.84391948E-1      -6.13518059E-5      5.71832061E-6
9.39500000E+8      1.07374182E+9      0.00000000E+0      5.63886137E-1      -8.06157149E-1      -3.09012830E-5      -4.18648124E-5
9.46750000E+8      1.07374182E+9      0.00000000E+0      5.86414025E-1      -1.58113837E+0      -9.29459929E-7      4.51039523E-6
9.54000000E+8      1.07374182E+9      0.00000000E+0      1.28291293E-1      -8.55251484E+0      2.25752592E-6      3.19965184E-5
9.61250000E+8      1.07374182E+9      0.00000000E+0      2.81817485E-1      2.72900735E+0      -5.99958003E-6      -4.69833612E-5
9.68500000E+8      1.07374182E+9      0.00000000E+0      4.29195574E-1      1.12457221E+0      4.82983887E-6      2.63629481E-5
9.75750000E+8      1.07374182E+9      0.00000000E+0      4.58752275E-1      6.69807428E-1      6.61239028E-7      3.26847658E-5
9.83000000E+8      1.07374182E+9      0.00000000E+0      4.68518709E-1      4.33249364E-1      1.33924186E-5      6.92717731E-6
9.90250000E+8      1.07374182E+9      0.00000000E+0      4.70616419E-1      2.79203262E-1      -1.17998570E-6      1.38925388E-5
9.97500000E+8      1.07374182E+9      0.00000000E+0      4.68649131E-1      1.61228716E-1      7.24568963E-6      6.13676384E-5
1.00475000E+9      1.07374182E+9      0.00000000E+0      4.62367058E-1      6.07301567E-2      7.67689198E-6      4.91114333E-5
1.01200000E+9      1.07374182E+9      0.00000000E+0      4.51414157E-1      -3.25749363E-2      -2.38744542E-5      -1.33933499E-5
1.01925000E+9      1.07374182E+9      0.00000000E+0      4.33573270E-1      -1.25529190E-1      1.50259584E-5      -3.00724059E-5
1.02650000E+9      1.07374182E+9      0.00000000E+0      4.03967541E-1      -2.24552150E-1      7.30808824E-6      -1.75274909E-5
1.03375000E+9      1.07374182E+9      0.00000000E+0      3.52900101E-1      -3.39099969E-1      4.92334366E-5      -3.00258398E-6
1.04100000E+9      1.07374182E+9      0.00000000E+0      2.59284039E-1      -4.71729101E-1      -3.85111198E-5      -5.07226214E-5
1.04825000E+9      1.07374182E+9      0.00000000E+0      7.32158581E-2      -6.16949947E-1      5.92600554E-6      -1.46906823E-5
1.05550000E+9      1.07374182E+9      0.00000000E+0      -2.90153750E-1      -6.80722463E-1      3.24863940E-5      -6.63381070E-6
1.06275000E+9      1.07374182E+9      0.00000000E+0      -7.47080802E-1      -3.52106261E-1      -2.14800239E-5      -3.76347452E-6
1.07000000E+9      1.07374182E+9      0.00000000E+0      -6.78510532E-1      2.65525341E-1      -2.09752470E-5      2.10432336E-5
1.07725000E+9      1.07374182E+9      0.00000000E+0      -2.83674970E-1      4.74616511E-1      1.89710408E-5      -1.25691295E-5
1.08450000E+9      1.07374182E+9      0.00000000E+0      -9.98532235E-3      4.22981623E-1      1.92653388E-5      2.11372972E-5
1.09175000E+9      1.07374182E+9      0.00000000E+0      1.30460337E-1      3.22185937E-1      -7.07060099E-6      -3.04458663E-5
1.09900000E+9      1.07374182E+9      0.00000000E+0      2.04628705E-1      2.21817002E-1      -1.82501972E-5      1.06506050E-5
1.10625000E+9      1.07374182E+9      0.00000000E+0      2.39992294E-1      1.31267337E-1      1.39279291E-5      1.67293474E-5
1.11350000E+9      1.07374182E+9      0.00000000E+0      2.51734974E-1      4.86082905E-2      -1.58539042E-5      1.21071935E-6
1.12075000E+9      1.07374182E+9      0.00000000E+0      2.44846720E-1      -2.78779315E-2      -8.72090459E-6      -1.49598345E-5
1.12800000E+9      1.07374182E+9      0.00000000E+0      2.19344820E-1      -1.01126747E-1      -5.85801899E-6      1.25076622E-6
1.13525000E+9      1.07374182E+9      0.00000000E+0      1.72013612E-1      -1.69191708E-1      -3.34084034E-5      -1.65561214E-5
1.14250000E+9      1.07374182E+9      0.00000000E+0      9.75903951E-2      -2.27076097E-1      1.59554183E-5      1.58697367E-6
1.14975000E+9      1.07374182E+9      0.00000000E+0      -1.40841863E-2      -2.59992664E-1      -3.60421836E-7      -2.31387094E-5
1.15700000E+9      1.07374182E+9      0.00000000E+0      -1.57963745E-1      -2.32445971E-1      1.73086300E-5      -2.06176192E-5
1.16425000E+9      1.07374182E+9      0.00000000E+0      -2.88284688E-1      -1.05048234E-1      4.34927642E-6      -2.61161476E-5
1.17150000E+9      1.07374182E+9      0.00000000E+0      -3.10546601E-1      9.78469304E-2      -5.32446429E-5      -3.75788659E-6
1.17875000E+9      1.07374182E+9      0.00000000E+0      -1.95747001E-1      2.65585222E-1      3.76068056E-6      1.84103847E-5
1.18600000E+9      1.07374182E+9      0.00000000E+0      -3.06609526E-2      3.21845869E-1      -2.52360478E-5      2.68686563E-6
1.19325000E+9      1.07374182E+9      0.00000000E+0      1.08191104E-1      2.95797551E-1      -2.96421349E-5      5.22397459E-5
1.20050000E+9      1.07374182E+9      0.00000000E+0      2.07783307E-1      2.30703255E-1      3.37837264E-5      -3.81423160E-5
1.20775000E+9      1.07374182E+9      0.00000000E+0      2.70657145E-1      1.54842003E-1      6.42333180E-6      -3.59509140E-5
1.21500000E+9      1.07374182E+9      0.00000000E+0      3.11420509E-1      7.15475964E-2      -1.28056854E-5      3.98186967E-5
1.22225000E+9      1.07374182E+9      0.00000000E+0      3.35120985E-1      -1.49065043E-2      4.07081097E-6      -8.08602199E-5
1.22950000E+9      1.07374182E+9      0.00000000E+0      3.46429735E-1      -1.08416599E-1      4.41819429E-6      -3.58624384E-5
1.23675000E+9      1.07374182E+9      0.00000000E+0      3.44442006E-1      -2.15408989E-1      3.92431393E-5      6.73625618E-6
1.24400000E+9      1.07374182E+9      0.00000000E+0      3.26218312E-1      -3.47140541E-1      -1.34371221E-5      1.69686973E-6
1.25125000E+9      1.07374182E+9      0.00000000E+0      2.77652939E-1      -5.27263952E-1      -2.20946968E-5      5.24334610E-7
1.25850000E+9      1.07374182E+9      0.00000000E+0      1.46331859E-1      -8.11784727E-1      -1.01849437E-5      7.71880150E-6
1.26575000E+9      1.07374182E+9      0.00000000E+0      -3.08508962E-1      -1.31108785E+0      -5.19836321E-5      1.17439777E-5
1.27300000E+9      1.07374182E+9      0.00000000E+0      -2.53119507E+0      -1.14424385E+0      5.06080687E-6      -1.27814710E-5
1.28025000E+9      1.07374182E+9      0.00000000E+0      -1.00536921E+0      1.70995722E+0      4.46941704E-6      3.73190269E-5
1.28750000E+9      1.07374182E+9      0.00000000E+0      4.23222932E-2      1.07486645E+0      1.02072954E-5      -3.13576311E-6
1.29475000E+9      1.07374182E+9      0.00000000E+0      2.66302977E-1      6.61878863E-1      1.98716298E-5      1.94087625E-6
