! NanoVNA-App
! Date: 2024-06-25 16:30:00
! Start: 200.00MHz  Stop: 6.00GHz  Points: 801
! S-Parameter data: F S11
# Hz S RI R 50
Frequency           S1_Real           S1_Imag           S11_Real           S11_Imag           S21_Real           S21_Imag
2.00000000E+8      1.07374182E+9      0.00000000E+0      5.28913736E-1      1.17625165E-1      4.39584255E-6      6.53974712E-6
2.07250000E+8      1.07374182E+9      0.00000000E+0      5.29858701E-1      2.02157012E-2      7.31274486E-6      8.79913568E-6
2.14500000E+8      1.07374182E+9      0.00000000E+0      5.29341740E-1      -7.67417344E-2      -3.06889415E-5      -1.26007944E-6
2.21750000E+8      1.07374182E+9      0.00000000E+0      5.26483873E-1      -1.82191163E-1      3.27387825E-5      -5.95115125E-6
2.29000000E+8      1.07374182E+9      0.00000000E+0      5.22414044E-1      -3.08513065E-1      -1.67516991E-5      1.60420313E-5
2.36250000E+8      1.07374182E+9      0.00000000E+0      5.13047609E-1      -4.80324027E-1      -1.05248764E-5      1.72285363E-5
2.43500000E+8      1.07374182E+9      0.00000000E+0      4.88607079E-1      -7.54733568E-1      -2.85357237E-6      -1.32191926E-5
2.50750000E+8      1.07374182E+9      0.00000000E+0      3.99397322E-1      -1.34965077E+0      6.92158937E-6      -6.92531466E-6
2.58000000E+8      1.07374182E+9      0.00000000E+0      -7.21377765E-1      -4.04122789E+0      -2.48271972E-5      9.70903784E-6
2.65250000E+8      1.07374182E+9      0.00000000E+0      -4.65138777E-1      3.54351631E+0      -3.38852406E-5      1.55763701E-5
2.72500000E+8      1.07374182E+9      0.00000000E+0      4.04478006E-1      1.26030845E+0      -9.16700810E-6      2.57715583E-5
2.79750000E+8      1.07374182E+9      0.00000000E+0      4.86018606E-1      7.05745319E-1      7.00447708E-6      -5.17256558E-6
2.87000000E+8      1.07374182E+9      0.00000000E+0      5.08773201E-1      4.36482422E-1      -8.47689807E-6      -3.64203006E-5
2.94250000E+8      1.07374182E+9      0.00000000E+0      5.17954802E-1      2.65452798E-1      2.12341547E-6      -4.12110239E-6
3.01500000E+8      1.07374182E+9      0.00000000E+0      5.22545870E-1      1.33724911E-1      -2.31275335E-5      1.50380656E-5
3.08750000E+8      1.07374182E+9      0.00000000E+0      5.24963839E-1      1.85573542E-2      4.46848571E-6      7.29877502E-6
3.16000000E+8      1.07374182E+9      0.00000000E+0      5.25448801E-1      -9.52341398E-2      -2.06194818E-5      1.34129077E-5
3.23250000E+8      1.07374182E+9      0.00000000E+0      5.24897416E-1      -2.21429830E-1      -2.28239223E-5      4.42489982E-5
3.30500000E+8      1.07374182E+9      0.00000000E+0      5.20360101E-1      -3.81557584E-1      2.45776027E-5      -2.93375924E-5
3.37750000E+8      1.07374182E+9      0.00000000E+0      5.05247461E-1      -6.21507167E-1      -1.53938308E-5      2.76826322E-5
3.45000000E+8      1.07374182E+9      0.00000000E+0      4.36616492E-1      -1.09965082E+0      2.61990353E-5      3.62191349E-6
3.52250000E+8      1.07374182E+9      0.00000000E+0      -3.01715458E-1      -2.72846691E+0      -1.45286322E-6      -3.53483483E-5
3.59500000E+8      1.07374182E+9      0.00000000E+0      -1.96494763E+0      3.32441701E+0      5.07384539E-6      -9.94838774E-6
3.66750000E+8      1.07374182E+9      0.00000000E+0      1.66440937E-1      1.23131659E+0      1.17430463E-5      2.12499872E-5
3.74000000E+8      1.07374182E+9      0.00000000E+0      3.56353261E-1      6.65521121E-1      -1.61258504E-5      1.99014321E-5
3.81250000E+8      1.07374182E+9      0.00000000E+0      4.11363470E-1      3.95833562E-1      2.33110040E-5      -3.73143703E-5
3.88500000E+8      1.07374182E+9      0.00000000E+0      4.31860151E-1      2.24269120E-1      3.05278227E-5      -1.70916319E-5
3.95750000E+8      1.07374182E+9      0.00000000E+0      4.38404472E-1      9.16902523E-2      -1.84280798E-5      -1.63679942E-5
4.03000000E+8      1.07374182E+9      0.00000000E+0      4.36234869E-1      -2.72028179E-2      1.56369060E-6      2.64775008E-5
4.10250000E+8      1.07374182E+9      0.00000000E+0      4.25276787E-1      -1.46069985E-1      -1.75461173E-6      -1.05053186E-5
4.17500000E+8      1.07374182E+9      0.00000000E+0      4.01000621E-1      -2.80213757E-1      1.06543303E-6      3.51294875E-5
4.24750000E+8      1.07374182E+9      0.00000000E+0      3.50354442E-1      -4.52939394E-1      -2.96104699E-5      3.98335978E-5
4.32000000E+8      1.07374182E+9      0.00000000E+0      2.28879201E-1      -7.05857135E-1      -2.10935250E-5      -9.12044197E-6
4.39250000E+8      1.07374182E+9      0.00000000E+0      -1.42592677E-1      -1.13508676E+0      -4.65689227E-5      9.73418355E-6
4.46500000E+8      1.07374182E+9      0.00000000E+0      -1.84696684E+0      -1.30143985E+0      -5.76209277E-6      -2.22772360E-5
4.53750000E+8      1.07374182E+9      0.00000000E+0      -1.25440221E+0      1.72725598E+0      4.36352566E-5      -5.80027699E-6
4.61000000E+8      1.07374182E+9      0.00000000E+0      9.88930037E-2      1.16580227E+0      -3.59481201E-5      -2.12620944E-5
4.68250000E+8      1.07374182E+9      0.00000000E+0      3.68057899E-1      7.29677177E-1      -8.67992640E-6      -9.31043178E-6
4.75500000E+8      1.07374182E+9      0.00000000E+0      4.52708247E-1      4.81189314E-1      -5.54760918E-5      -6.55371696E-6
4.82750000E+8      1.07374182E+9      0.00000000E+0      4.89124365E-1      3.17358634E-1      2.15880573E-6      2.53403559E-5
4.90000000E+8      1.07374182E+9      0.00000000E+0      5.08240489E-1      1.92348695E-1      3.02828848E-5      5.37466258E-6
4.97250000E+8      1.07374182E+9      0.00000000E+0      5.20266306E-1      8.65204768E-2      3.69781628E-5      1.20708719E-5
5.04500000E+8      1.07374182E+9      0.00000000E+0      5.29720712E-1      -1.18861059E-2      1.30198896E-5      8.56071711E-6
5.11750000E+8      1.07374182E+9      0.00000000E+0      5.38857030E-1      -1.12130685E-1      1.46199018E-5      -2.30781734E-5
5.19000000E+8      1.07374182E+9      0.00000000E+0      5.50104834E-1      -2.23885792E-1      -4.84865159E-5      -3.59741971E-5
5.26250000E+8      1.07374182E+9      0.00000000E+0      5.68219529E-1      -3.61507784E-1      1.92020088E-5      -1.52606517E-5
5.33500000E+8      1.07374182E+9      0.00000000E+0      6.04776875E-1      -5.53385085E-1      -1.48219988E-5      4.97419387E-6
5.40750000E+8      1.07374182E+9      0.00000000E+0      7.03770444E-1      -8.72543400E-1      3.23969871E-5      3.95160168E-6
5.48000000E+8      1.07374182E+9      0.00000000E+0      1.12087407E+0      -1.53384462E+0      2.50702724E-5      2.68034637E-6
5.55250000E+8      1.07374182E+9      0.00000000E+0      4.21581225E+0      -1.46920563E+0      -2.62390822E-5      -1.97449699E-5
5.62500000E+8      1.07374182E+9      0.00000000E+0      1.82812540E+0      1.77102490E+0      -1.06990337E-5      3.85530293E-5
5.69750000E+8      1.07374182E+9      0.00000000E+0      9.27176195E-1      1.01225589E+0      -1.38487667E-6      4.10526991E-6
5.77000000E+8      1.07374182E+9      0.00000000E+0      7.32510061E-1      6.35652978E-1      -9.02451575E-6      1.37919560E-5
5.84250000E+8      1.07374182E+9      0.00000000E+0      6.63597245E-1      4.20296586E-1      1.25877559E-5      -2.45776027E-6
5.91500000E+8      1.07374182E+9      0.00000000E+0      6.30837803E-1      2.72575098E-1      1.25234947E-5      2.07107514E-5
5.98750000E+8      1.07374182E+9      0.00000000E+0      6.13373588E-1      1.56433382E-1      5.61494380E-6      3.81581485E-5
6.06000000E+8      1.07374182E+9      0.00000000E+0      6.04130603E-1      5.67298129E-2      4.09297645E-5      -2.30791047E-5
6.13250000E+8      1.07374182E+9      0.00000000E+0      5.99357167E-1      -3.90086360E-2      2.41119415E-5      2.41398811E-5
6.20500000E+8      1.07374182E+9      0.00000000E+0      5.98009158E-1      -1.39024130E-1      3.51322815E-5      4.10806388E-6
6.27750000E+8      1.07374182E+9      0.00000000E+0      6.00513094E-1      -2.54393371E-1      -2.75792554E-5      1.52131543E-5
6.35000000E+8      1.07374182E+9      0.00000000E+0      6.06525470E-1      -4.02490397E-1      -1.28978863E-5      9.88133252E-6
6.42250000E+8      1.07374182E+9      0.00000000E+0      6.17894485E-1      -6.22563542E-1      -2.02795491E-5      2.76071951E-5
6.49500000E+8      1.07374182E+9      0.00000000E+0      6.35131483E-1      -1.04109634E+0      -8.57096165E-6      5.15114516E-6
6.56750000E+8      1.07374182E+9      0.00000000E+0      6.10612912E-1      -2.35073544E+0      2.16513872E-5      1.20522454E-5
6.64000000E+8      1.07374182E+9      0.00000000E+0      -6.62529932E+0      9.00292473E+0      -7.00978562E-5      -2.89808959E-5
6.71250000E+8      1.07374182E+9      0.00000000E+0      1.53822912E-1      1.64603197E+0      3.38722020E-6      -1.26557425E-5
6.78500000E+8      1.07374182E+9      0.00000000E+0      3.54512546E-1      8.29464652E-1      9.42591578E-6      6.84522092E-6
6.85750000E+8      1.07374182E+9      0.00000000E+0      4.11371102E-1      5.01428169E-1      -7.65267760E-6      2.04518437E-6
6.93000000E+8      1.07374182E+9      0.00000000E+0      4.33772221E-1      3.06371299E-1      9.92603600E-6      1.76066533E-5
7.00250000E+8      1.07374182E+9      0.00000000E+0      4.41163217E-1      1.68633357E-1      9.26665962E-7      6.17932528E-6
7.07500000E+8      1.07374182E+9      0.00000000E+0      4.39709075E-1      5.30158964E-2      -1.85575336E-5      1.27637759E-5
7.14750000E+8      1.07374182E+9      0.00000000E+0      4.29593180E-1      -5.37226714E-2      1.92057341E-5      -3.27397138E-5
7.22000000E+8      1.07374182E+9      0.00000000E+0      4.07690432E-1      -1.61762230E-1      4.38569114E-5      1.97123736E-5
7.29250000E+8      1.07374182E+9      0.00000000E+0      3.64946202E-1      -2.80218920E-1      2.40933150E-5      -2.25761905E-5
7.36500000E+8      1.07374182E+9      0.00000000E+0      2.81814033E-1      -4.19984518E-1      -3.13296914E-5      -3.87337059E-6
7.43750000E+8      1.07374182E+9      0.00000000E+0      1.08700157E-1      -5.77199567E-1      1.44168735E-6      -1.40257180E-6
7.51000000E+8      1.07374182E+9      0.00000000E+0      -2.65089335E-1      -6.69254036E-1      3.68962064E-5      7.55768269E-6
7.58250000E+8      1.07374182E+9      0.00000000E+0      -7.78451003E-1      -3.12789817E-1      2.79061496E-5      8.27293843E-6
7.65500000E+8      1.07374182E+9      0.00000000E+0      -6.39723917E-1      3.93554983E-1      -9.94745642E-6      -2.42413953E-5
7.72750000E+8      1.07374182E+9      0.00000000E+0      -1.67605013E-1      5.48291840E-1      4.27309424E-5      -1.00480393E-5
7.80000000E+8      1.07374182E+9      0.00000000E+0      1.03970750E-1      4.48255226E-1      -3.86107713E-5      2.57026404E-5
7.87250000E+8      1.07374182E+9      0.00000000E+0      2.44240806E-1      3.21112258E-1      1.49104744E-6      8.44709575E-6
7.94500000E+8      1.07374182E+9      0.00000000E+0      3.16258793E-1      2.06728728E-1      -4.16794792E-5      3.05287540E-6
8.01750000E+8      1.07374182E+9      0.00000000E+0      3.56963895E-1      1.04049761E-1      6.03497028E-7      -1.02352351E-6
8.09000000E+8      1.07374182E+9      0.00000000E+0      3.79159408E-1      7.75451995E-3      -5.31692058E-6      -1.24750659E-5
8.16250000E+8      1.07374182E+9      0.00000000E+0      3.90209706E-1      -8.98931326E-2      2.10292637E-6      -4.17195261E-5
8.23500000E+8      1.07374182E+9      0.00000000E+0      3.91627283E-1      -1.96733914E-1      1.16704032E-5      -4.85349447E-5
8.30750000E+8      1.07374182E+9      0.00000000E+0      3.81851274E-1      -3.25269607E-1      1.42436475E-5      -9.48365778E-6
8.38000000E+8      1.07374182E+9      0.00000000E+0      3.52347201E-1      -5.00731926E-1      -1.06459484E-5      -1.54180452E-5
8.45250000E+8      1.07374182E+9      0.00000000E+0      2.76247361E-1      -7.78851048E-1      -2.16951594E-5      -7.13579357E-6
8.52500000E+8      1.07374182E+9      0.00000000E+0      1.52730712E-2      -1.37208447E+0      2.07852572E-5      2.44965777E-5
8.59750000E+8      1.07374182E+9      0.00000000E+0      -2.47135657E+0      -3.11002445E+0      -3.09022143E-5      -1.62608922E-6
8.67000000E+8      1.07374182E+9      0.00000000E+0      -4.54231448E-1      2.81527700E+0      -2.92621553E-5      2.16737390E-5
8.74250000E+8      1.07374182E+9      0.00000000E+0      4.31099408E-1      1.19099605E+0      2.13645399E-5      4.89894301E-5
8.81500000E+8      1.07374182E+9      0.00000000E+0      5.13075212E-1      6.65934558E-1      -1.97468325E-5      -2.82237306E-5
8.88750000E+8      1.07374182E+9      0.00000000E+0      5.31389855E-1      4.08406255E-1      -2.32867897E-5      1.88266858E-5
8.96000000E+8      1.07374182E+9      0.00000000E+0      5.37271426E-1      2.36117084E-1      3.48361209E-5      -1.47391111E-5
9.03250000E+8      1.07374182E+9      0.00000000E+0      5.40277684E-1      1.02319741E-1      -3.00239772E-5      -2.53431499E-5
9.10500000E+8      1.07374182E+9      0.00000000E+0      5.42127568E-1      -2.00885495E-2      1.44969672E-5      -1.09598041E-5
9.17750000E+8      1.07374182E+9      0.00000000E+0      5.44093949E-1      -1.43491857E-1      -3.42093408E-5      2.20956281E-5
9.25000000E+8      1.07374182E+9      0.00000000E+0      5.47933451E-1      -2.86454975E-1      2.98311934E-5      8.52160156E-6
9.32250000E+8      1.07374182E+9      0.00000000E+0      5.53737336E-1      -4.82601180E-1      8.42846930E-7      -8.78516585E-6
9.39500000E+8      1.07374182E+9      0.00000000E+0      5.64676459E-1      -8.05330189E-1      1.49803236E-5      3.35304067E-5
9.46750000E+8      1.07374182E+9      0.00000000E+0      5.91403895E-1      -1.58366151E+0      -2.98954546E-7      1.33318827E-5
9.54000000E+8      1.07374182E+9      0.00000000E+0      3.17166933E-1      -8.11268155E+0      -1.24247745E-5      1.62003562E-5
9.61250000E+8      1.07374182E+9      0.00000000E+0      2.87445689E-1      2.74961946E+0      -9.53301787E-6      1.90790743E-5
9.68500000E+8      1.07374182E+9      0.00000000E+0      4.29005583E-1      1.12152958E+0      5.74784353E-5      5.27314842E-6
9.75750000E+8      1.07374182E+9      0.00000000E+0      4.58449508E-1      6.70083023E-1      1.65635720E-5      -7.26021826E-5
9.83000000E+8      1.07374182E+9      0.00000000E+0      4.68208630E-1      4.32254755E-1      6.13462180E-6      -1.82017684E-5
9.90250000E+8      1.07374182E+9      0.00000000E+0      4.70591836E-1      2.78494481E-1      -9.50880349E-6      5.72577119E-6
9.97500000E+8      1.07374182E+9      0.00000000E+0      4.68660558E-1      1.60624936E-1      1.40061602E-5      -1.45453960E-5
1.00475000E+9      1.07374182E+9      0.00000000E+0      4.62297138E-1      6.12146385E-2      -1.91573054E-6      -3.61194834E-5
1.01200000E+9      1.07374182E+9      0.00000000E+0      4.51628316E-1      -3.25201354E-2      8.65943730E-6      2.17519701E-5
1.01925000E+9      1.07374182E+9      0.00000000E+0      4.33271732E-1      -1.25657524E-1      1.12112612E-5      -4.73260880E-5
1.02650000E+9      1.07374182E+9      0.00000000E+0      4.04400070E-1      -2.24594304E-1      3.30880284E-5      3.09385359E-6
1.03375000E+9      1.07374182E+9      0.00000000E+0      3.52699102E-1      -3.39169471E-1      4.10825014E-5      9.93628055E-6
1.04100000E+9      1.07374182E+9      0.00000000E+0      2.59031538E-1      -4.70696368E-1      -5.96884638E-6      -8.38004053E-6
1.04825000E+9      1.07374182E+9      0.00000000E+0      7.60604266E-2      -6.14886036E-1      4.37907875E-6      -1.92234293E-5
1.05550000E+9      1.07374182E+9      0.00000000E+0      -2.89291025E-1      -6.81529206E-1      -3.72342765E-6      2.42237002E-6
1.06275000E+9      1.07374182E+9      0.00000000E+0      -7.46342697E-1      -3.52278273E-1      1.21193007E-5      -4.87398356E-5
1.07000000E+9      1.07374182E+9      0.00000000E+0      -6.79559932E-1      2.68500238E-1      1.36513263E-5      -7.08363950E-6
1.07725000E+9      1.07374182E+9      0.00000000E+0      -2.82502001E-1      4.75396386E-1      -3.13753262E-5      -1.09421089E-5
1.08450000E+9      1.07374182E+9      0.00000000E+0      -9.78243185E-3      4.22394573E-1      -7.13299960E-6      3.03937122E-5
1.09175000E+9      1.07374182E+9      0.00000000E+0      1.32096202E-1      3.21261861E-1      -1.81309879E-5      2.04658136E-5
1.09900000E+9      1.07374182E+9      0.00000000E+0      2.04384806E-1      2.22061755E-1      8.79075378E-6      2.55778432E-5
1.10625000E+9      1.07374182E+9      0.00000000E+0      2.39827551E-1      1.31419754E-1      2.05282122E-5      -3.65749002E-5
1.11350000E+9      1.07374182E+9      0.00000000E+0      2.51665557E-1      4.84826410E-2      1.08750537E-5      -2.72952020E-5
1.12075000E+9      1.07374182E+9      0.00000000E+0      2.44753519E-1      -2.78060009E-2      -2.83122063E-7      -6.49504364E-5
1.12800000E+9      1.07374182E+9      0.00000000E+0      2.19454580E-1      -1.00918147E-1      -8.44150782E-6      -2.51922756E-6
1.13525000E+9      1.07374182E+9      0.00000000E+0      1.72387218E-1      -1.68679731E-1      -2.41212547E-5      -1.66017562E-5
1.14250000E+9      1.07374182E+9      0.00000000E+0      9.72936616E-2      -2.27513828E-1      3.74699011E-5      -2.61152163E-5
1.14975000E+9      1.07374182E+9      0.00000000E+0      -1.56951613E-2      -2.59943344E-1      4.55696136E-6      -3.18344682E-5
1.15700000E+9      1.07374182E+9      0.00000000E+0      -1.57101979E-1      -2.33073235E-1      -1.01793557E-6      -3.94973904E-6
1.16425000E+9      1.07374182E+9      0.00000000E+0      -2.87699312E-1      -1.05284232E-1      -3.89236957E-5      -2.35177577E-5
1.17150000E+9      1.07374182E+9      0.00000000E+0      -3.10372347E-1      9.73216864E-2      1.00694597E-5      5.08222729E-6
1.17875000E+9      1.07374182E+9      0.00000000E+0      -1.94864374E-1      2.65745720E-1      -2.40942463E-5      -1.48359686E-6
1.18600000E+9      1.07374182E+9      0.00000000E+0      -3.03019269E-2      3.21519709E-1      -6.72219321E-5      1.50948763E-5
1.19325000E+9      1.07374182E+9      0.00000000E+0      1.08118572E-1      2.95783591E-1      -8.46879557E-5      -3.46591696E-5
1.20050000E+9      1.07374182E+9      0.00000000E+0      2.07690696E-1      2.30816491E-1      -9.91765410E-6      4.53740358E-6
1.20775000E+9      1.07374182E+9      0.00000000E+0      2.70573827E-1      1.55314859E-1      -1.41458586E-5      1.05164945E-5
1.21500000E+9      1.07374182E+9      0.00000000E+0      3.11347151E-1      7.16325530E-2      -1.10883266E-5      -1.96192414E-5
1.22225000E+9      1.07374182E+9      0.00000000E+0      3.35211008E-1      -1.41583072E-2      3.27909365E-5      4.14261594E-5
1.22950000E+9      1.07374182E+9      0.00000000E+0      3.46241211E-1      -1.08530328E-1      6.15324825E-6      -6.81076199E-6
1.23675000E+9      1.07374182E+9      0.00000000E+0      3.44514196E-1      -2.15007855E-1      -4.06354666E-5      -1.05667859E-5
1.24400000E+9      1.07374182E+9      0.00000000E+0      3.26736863E-1      -3.45281478E-1      -3.72054055E-5      -1.07008964E-5
1.25125000E+9      1.07374182E+9      0.00000000E+0      2.77583282E-1      -5.28059144E-1      1.27218664E-6      5.46872616E-6
1.25850000E+9      1.07374182E+9      0.00000000E+0      1.44721980E-1      -8.13003154E-1      4.77675349E-6      -1.63447112E-5
1.26575000E+9      1.07374182E+9      0.00000000E+0      -3.03499524E-1      -1.31420307E+0      -7.48131424E-6      -4.73177060E-5
1.27300000E+9      1.07374182E+9      0.00000000E+0      -2.51848894E+0      -1.16571681E+0      4.64916229E-5      1.65663660E-5
1.28025000E+9      1.07374182E+9      0.00000000E+0      -9.91981280E-1      1.71405977E+0      -2.36881897E-5      2.18795612E-5
1.28750000E+9      1.07374182E+9      0.00000000E+0      4.47567500E-2      1.07338968E+0      3.61539423E-6      -3.30721959E-5
1.29475000E+9      1.07374182E+9      0.00000000E+0      2.66245003E-1      6.62694248E-1      3.74093652E-5      1.37304887E-5
