! NanoVNA-App
! Date: 2024-06-25 16:23:15
! Start: 200.00MHz  Stop: 6.00GHz  Points: 801
! S-Parameter data: F S11
# Hz S RI R 50
Frequency           S1_Real           S1_Imag           S11_Real           S11_Imag           S21_Real           S21_Imag
2.00000000E+8      1.07374182E+9      0.00000000E+0      5.29208902E-1      1.20907771E-1      -3.04337591E-5      1.76765025E-6
2.07250000E+8      1.07374182E+9      0.00000000E+0      5.30417686E-1      2.32527593E-2      -9.30763781E-6      1.68690458E-5
2.14500000E+8      1.07374182E+9      0.00000000E+0      5.29626481E-1      -7.32890004E-2      1.18734315E-5      3.18419188E-6
2.21750000E+8      1.07374182E+9      0.00000000E+0      5.27249679E-1      -1.78317893E-1      -2.94297934E-7      -7.48131424E-6
2.29000000E+8      1.07374182E+9      0.00000000E+0      5.23630710E-1      -3.03226875E-1      2.34739855E-5      -1.83898956E-5
2.36250000E+8      1.07374182E+9      0.00000000E+0      5.14305401E-1      -4.73018684E-1      9.84407961E-6      -7.71507621E-6
2.43500000E+8      1.07374182E+9      0.00000000E+0      4.92269374E-1      -7.42151138E-1      1.77323818E-6      -7.72904605E-6
2.50750000E+8      1.07374182E+9      0.00000000E+0      4.11150840E-1      -1.31644202E+0      2.74777412E-5      2.84621492E-5
2.58000000E+8      1.07374182E+9      0.00000000E+0      -5.19845668E-1      -3.80569572E+0      -7.57351518E-6      -1.31409615E-5
2.65250000E+8      1.07374182E+9      0.00000000E+0      -5.56000438E-1      3.81560293E+0      2.67606229E-5      1.68019906E-5
2.72500000E+8      1.07374182E+9      0.00000000E+0      4.07541262E-1      1.29812853E+0      2.43261456E-5      3.01748514E-7
2.79750000E+8      1.07374182E+9      0.00000000E+0      4.88257684E-1      7.21015533E-1      -2.71014869E-7      -2.98162922E-5
2.87000000E+8      1.07374182E+9      0.00000000E+0      5.09925800E-1      4.45891544E-1      3.18577513E-5      2.01519579E-5
2.94250000E+8      1.07374182E+9      0.00000000E+0      5.18992217E-1      2.72209028E-1      2.16970220E-5      -6.79306686E-6
3.01500000E+8      1.07374182E+9      0.00000000E+0      5.23656496E-1      1.39639257E-1      2.70875171E-5      -1.17346644E-7
3.08750000E+8      1.07374182E+9      0.00000000E+0      5.25981434E-1      2.39716746E-2      5.28898090E-6      -1.65179372E-5
3.16000000E+8      1.07374182E+9      0.00000000E+0      5.27005531E-1      -8.94900976E-2      -8.91368836E-6      -1.35898590E-5
3.23250000E+8      1.07374182E+9      0.00000000E+0      5.26179105E-1      -2.14901651E-1      -2.66302377E-5      2.47349963E-5
3.30500000E+8      1.07374182E+9      0.00000000E+0      5.22442424E-1      -3.72702774E-1      -1.70152634E-5      9.13720578E-6
3.37750000E+8      1.07374182E+9      0.00000000E+0      5.09539153E-1      -6.06749759E-1      1.05984509E-5      -2.16839835E-5
3.45000000E+8      1.07374182E+9      0.00000000E+0      4.48699269E-1      -1.06619172E+0      -2.71750614E-5      1.79000199E-6
3.52250000E+8      1.07374182E+9      0.00000000E+0      -1.47403276E-1      -2.58575674E+0      -2.42339447E-5      -1.72667205E-5
3.59500000E+8      1.07374182E+9      0.00000000E+0      -2.40889836E+0      3.62040924E+0      -8.08015466E-6      -3.13855708E-6
3.66750000E+8      1.07374182E+9      0.00000000E+0      1.59146554E-1      1.28696911E+0      5.00101596E-5      -3.76133248E-5
3.74000000E+8      1.07374182E+9      0.00000000E+0      3.57599663E-1      6.87698418E-1      -2.60099769E-5      7.31647015E-6
3.81250000E+8      1.07374182E+9      0.00000000E+0      4.13259544E-1      4.08049857E-1      1.65030360E-6      -6.75208867E-7
3.88500000E+8      1.07374182E+9      0.00000000E+0      4.33349513E-1      2.33495535E-1      2.69906595E-5      -2.61310488E-5
3.95750000E+8      1.07374182E+9      0.00000000E+0      4.40434607E-1      9.89783114E-2      -6.20791689E-5      -1.47940591E-5
4.03000000E+8      1.07374182E+9      0.00000000E+0      4.38385472E-1      -1.98902893E-2      -8.64267349E-6      -1.66520476E-5
4.10250000E+8      1.07374182E+9      0.00000000E+0      4.28058051E-1      -1.38581275E-1      1.75572932E-5      1.13118440E-5
4.17500000E+8      1.07374182E+9      0.00000000E+0      4.05025336E-1      -2.71623041E-1      -6.08898699E-6      -1.14580616E-5
4.24750000E+8      1.07374182E+9      0.00000000E+0      3.57149292E-1      -4.41555951E-1      -4.29991633E-6      -1.62608922E-6
4.32000000E+8      1.07374182E+9      0.00000000E+0      2.46647398E-1      -6.88548297E-1      -4.00133431E-5      -4.20995057E-5
4.39250000E+8      1.07374182E+9      0.00000000E+0      -9.22373077E-2      -1.11065900E+0      -4.33791429E-5      1.17029995E-5
4.46500000E+8      1.07374182E+9      0.00000000E+0      -1.68494007E+0      -1.43538129E+0      -4.07602638E-5      -2.15712935E-5
4.53750000E+8      1.07374182E+9      0.00000000E+0      -1.45255568E+0      1.76308291E+0      -1.75442547E-5      9.02451575E-7
4.61000000E+8      1.07374182E+9      0.00000000E+0      7.71781315E-2      1.21535730E+0      -4.40981239E-6      1.81263313E-5
4.68250000E+8      1.07374182E+9      0.00000000E+0      3.66630962E-1      7.55759303E-1      -3.93725932E-5      1.25914812E-6
4.75500000E+8      1.07374182E+9      0.00000000E+0      4.54445097E-1      4.95615414E-1      -1.47912651E-5      -1.11637637E-5
4.82750000E+8      1.07374182E+9      0.00000000E+0      4.91087045E-1      3.27562360E-1      4.74043190E-7      -1.11795962E-5
4.90000000E+8      1.07374182E+9      0.00000000E+0      5.09795401E-1      2.00609602E-1      -5.93066216E-6      -5.92600554E-6
4.97250000E+8      1.07374182E+9      0.00000000E+0      5.22057555E-1      9.41321341E-2      -1.78189948E-5      6.22589141E-6
5.04500000E+8      1.07374182E+9      0.00000000E+0      5.31497409E-1      -4.61231963E-3      -1.23744830E-5      -1.06096268E-5
5.11750000E+8      1.07374182E+9      0.00000000E+0      5.40646252E-1      -1.04545005E-1      -3.05790454E-5      -2.94782221E-5
5.19000000E+8      1.07374182E+9      0.00000000E+0      5.51970924E-1      -2.14740721E-1      1.04121864E-6      -6.63474202E-6
5.26250000E+8      1.07374182E+9      0.00000000E+0      5.70234487E-1      -3.49718619E-1      -2.07126141E-6      -9.07015055E-6
5.33500000E+8      1.07374182E+9      0.00000000E+0      6.06534512E-1      -5.36232281E-1      1.27740204E-5      -2.23750249E-5
5.40750000E+8      1.07374182E+9      0.00000000E+0      7.01247834E-1      -8.40350726E-1      -5.92824072E-5      -3.74065712E-5
5.48000000E+8      1.07374182E+9      0.00000000E+0      1.08374472E+0      -1.44462774E+0      -1.00955367E-5      -4.29796055E-5
5.55250000E+8      1.07374182E+9      0.00000000E+0      3.75342823E+0      -1.67858096E+0      -6.13182783E-6      1.08191743E-5
5.62500000E+8      1.07374182E+9      0.00000000E+0      2.00891061E+0      1.76868231E+0      5.38080931E-5      -2.60202214E-5
5.69750000E+8      1.07374182E+9      0.00000000E+0      9.65113609E-1      1.03711642E+0      -9.76212323E-6      2.89902091E-5
5.77000000E+8      1.07374182E+9      0.00000000E+0      7.47911575E-1      6.51512893E-1      -7.66012818E-6      -2.82796100E-5
5.84250000E+8      1.07374182E+9      0.00000000E+0      6.71109157E-1      4.30458929E-1      -2.11438164E-5      8.41543078E-6
5.91500000E+8      1.07374182E+9      0.00000000E+0      6.36629142E-1      2.81480093E-1      1.17067248E-5      2.38511711E-6
5.98750000E+8      1.07374182E+9      0.00000000E+0      6.17741921E-1      1.64087251E-1      -1.69826671E-5      -1.64024532E-5
6.06000000E+8      1.07374182E+9      0.00000000E+0      6.07560146E-1      6.35264804E-2      5.41005284E-6      3.30451876E-5
6.13250000E+8      1.07374182E+9      0.00000000E+0      6.02431208E-1      -3.16893340E-2      1.89505517E-5      1.74846500E-5
6.20500000E+8      1.07374182E+9      0.00000000E+0      6.01174501E-1      -1.30935656E-1      1.21314079E-5      2.69105658E-5
6.27750000E+8      1.07374182E+9      0.00000000E+0      6.03505955E-1      -2.44710471E-1      4.39770520E-6      1.85798854E-6
6.35000000E+8      1.07374182E+9      0.00000000E+0      6.10794410E-1      -3.87547782E-1      3.60142440E-6      -1.32983550E-5
6.42250000E+8      1.07374182E+9      0.00000000E+0      6.23873036E-1      -6.00055460E-1      1.32899731E-6      -3.54656950E-5
6.49500000E+8      1.07374182E+9      0.00000000E+0      6.51694447E-1      -9.93405261E-1      -1.49458647E-5      -3.16882506E-5
6.56750000E+8      1.07374182E+9      0.00000000E+0      6.93740440E-1      -2.15502099E+0      2.39908695E-6      -2.69096345E-5
6.64000000E+8      1.07374182E+9      0.00000000E+0      -1.50400053E+1      1.54685092E+1      2.57976353E-5      -1.55018643E-5
6.71250000E+8      1.07374182E+9      0.00000000E+0      1.77367143E-1      1.80080359E+0      -2.24681571E-5      5.28246164E-6
6.78500000E+8      1.07374182E+9      0.00000000E+0      3.66368627E-1      8.71333480E-1      2.72868201E-5      2.31433660E-6
6.85750000E+8      1.07374182E+9      0.00000000E+0      4.17930190E-1      5.22159158E-1      -6.47455454E-6      2.91625038E-5
6.93000000E+8      1.07374182E+9      0.00000000E+0      4.38724871E-1      3.21733734E-1      -7.51391053E-6      1.15958974E-5
7.00250000E+8      1.07374182E+9      0.00000000E+0      4.45527119E-1      1.78381621E-1      -8.08946788E-6      -1.67805701E-5
7.07500000E+8      1.07374182E+9      0.00000000E+0      4.44500121E-1      6.26093522E-2      1.09774992E-5      3.01320106E-5
7.14750000E+8      1.07374182E+9      0.00000000E+0      4.34691939E-1      -4.52746422E-2      -2.42600217E-5      1.97282061E-5
7.22000000E+8      1.07374182E+9      0.00000000E+0      4.14277950E-1      -1.52316266E-1      -9.00588930E-7      1.06319785E-5
7.29250000E+8      1.07374182E+9      0.00000000E+0      3.74224816E-1      -2.71932133E-1      5.90365380E-6      -8.81403685E-6
7.36500000E+8      1.07374182E+9      0.00000000E+0      2.96871158E-1      -4.09912004E-1      9.05245543E-7      3.28980386E-5
7.43750000E+8      1.07374182E+9      0.00000000E+0      1.34101750E-1      -5.71652390E-1      -3.37921083E-5      -5.03174961E-5
7.51000000E+8      1.07374182E+9      0.00000000E+0      -2.22628183E-1      -6.86906741E-1      -2.13729218E-5      1.12848356E-5
7.58250000E+8      1.07374182E+9      0.00000000E+0      -7.72582578E-1      -3.88321718E-1      3.07401642E-5      7.79144466E-6
7.65500000E+8      1.07374182E+9      0.00000000E+0      -7.00481083E-1      3.73264198E-1      2.06883997E-5      4.28408384E-6
7.72750000E+8      1.07374182E+9      0.00000000E+0      -2.00213318E-1      5.68513773E-1      1.25812367E-5      -2.34246254E-5
7.80000000E+8      1.07374182E+9      0.00000000E+0      9.37974189E-2      4.69274403E-1      -8.33254308E-6      -2.81976536E-5
7.87250000E+8      1.07374182E+9      0.00000000E+0      2.41913918E-1      3.37576567E-1      4.86550853E-5      8.40518624E-6
7.94500000E+8      1.07374182E+9      0.00000000E+0      3.16364779E-1      2.19775006E-1      -1.54925510E-5      5.68106771E-8
8.01750000E+8      1.07374182E+9      0.00000000E+0      3.58921262E-1      1.15471296E-1      1.51498243E-5      -1.47204846E-5
8.09000000E+8      1.07374182E+9      0.00000000E+0      3.82345271E-1      1.81429625E-2      3.69828194E-6      5.40632755E-6
8.16250000E+8      1.07374182E+9      0.00000000E+0      3.94063691E-1      -7.96561312E-2      4.42378223E-7      6.29322603E-5
8.23500000E+8      1.07374182E+9      0.00000000E+0      3.97008274E-1      -1.85433547E-1      6.10388815E-6      -1.67125836E-5
8.30750000E+8      1.07374182E+9      0.00000000E+0      3.89951143E-1      -3.10797276E-1      2.47517601E-5      6.06756657E-6
8.38000000E+8      1.07374182E+9      0.00000000E+0      3.66669492E-1      -4.81079016E-1      8.09598714E-6      -3.23783606E-5
8.45250000E+8      1.07374182E+9      0.00000000E+0      3.04615855E-1      -7.48188679E-1      5.20143658E-6      6.07753173E-5
8.52500000E+8      1.07374182E+9      0.00000000E+0      1.02620246E-1      -1.30780108E+0      2.25678086E-5      -1.35591254E-5
8.59750000E+8      1.07374182E+9      0.00000000E+0      -1.60315278E+0      -3.24354033E+0      -3.90559435E-5      1.13146380E-5
8.67000000E+8      1.07374182E+9      0.00000000E+0      -5.79699357E-1      3.37462978E+0      2.38772482E-5      3.65795568E-5
8.74250000E+8      1.07374182E+9      0.00000000E+0      4.61396894E-1      1.27617324E+0      1.57756731E-5      1.38469040E-5
8.81500000E+8      1.07374182E+9      0.00000000E+0      5.29990177E-1      7.01498509E-1      -3.16556543E-6      -2.12527812E-5
8.88750000E+8      1.07374182E+9      0.00000000E+0      5.42378690E-1      4.27470301E-1      -2.87778676E-6      1.85342506E-5
8.96000000E+8      1.07374182E+9      0.00000000E+0      5.46348797E-1      2.51057775E-1      1.09681860E-5      5.07012010E-6
9.03250000E+8      1.07374182E+9      0.00000000E+0      5.47496291E-1      1.14997573E-1      -2.76090577E-5      -1.61100179E-5
9.10500000E+8      1.07374182E+9      0.00000000E+0      5.48585602E-1      -9.12834802E-3      -6.96443021E-6      -2.34507024E-5
9.17750000E+8      1.07374182E+9      0.00000000E+0      5.51228540E-1      -1.31103808E-1      -4.32785600E-6      -3.29250470E-5
9.25000000E+8      1.07374182E+9      0.00000000E+0      5.55965655E-1      -2.71327494E-1      -8.63242894E-6      4.87919897E-6
9.32250000E+8      1.07374182E+9      0.00000000E+0      5.64973367E-1      -4.59775641E-1      1.07623637E-5      3.57422978E-5
9.39500000E+8      1.07374182E+9      0.00000000E+0      5.82686403E-1      -7.60400999E-1      -3.35276127E-8      2.63191760E-5
9.46750000E+8      1.07374182E+9      0.00000000E+0      6.45607431E-1      -1.44686063E+0      -7.60611147E-6      -3.09478492E-6
9.54000000E+8      1.07374182E+9      0.00000000E+0      1.35685211E+0      -5.95965982E+0      -2.89548188E-6      -4.66965139E-6
9.61250000E+8      1.07374182E+9      0.00000000E+0      4.76275350E-1      3.15860519E+0      1.24974176E-5      -9.61124897E-6
9.68500000E+8      1.07374182E+9      0.00000000E+0      4.65775668E-1      1.19568554E+0      1.14925206E-5      -1.94665045E-5
9.75750000E+8      1.07374182E+9      0.00000000E+0      4.74949776E-1      7.01572281E-1      -2.38995999E-5      -1.28755346E-5
9.83000000E+8      1.07374182E+9      0.00000000E+0      4.79168219E-1      4.51771345E-1      9.22288746E-6      1.48890540E-5
9.90250000E+8      1.07374182E+9      0.00000000E+0      4.79142863E-1      2.91987722E-1      9.66526568E-6      1.46254897E-5
9.97500000E+8      1.07374182E+9      0.00000000E+0      4.76070059E-1      1.71511219E-1      -1.28690153E-5      -7.53263012E-5
1.00475000E+9      1.07374182E+9      0.00000000E+0      4.69389961E-1      7.02193449E-2      -1.29314139E-5      -4.51663509E-5
1.01200000E+9      1.07374182E+9      0.00000000E+0      4.58849032E-1      -2.46694479E-2      4.04315069E-5      1.75656751E-5
1.01925000E+9      1.07374182E+9      0.00000000E+0      4.41903432E-1      -1.17257261E-1      1.64927915E-5      5.50132245E-6
1.02650000E+9      1.07374182E+9      0.00000000E+0      4.14413878E-1      -2.15988755E-1      -2.63471156E-6      1.53938308E-5
1.03375000E+9      1.07374182E+9      0.00000000E+0      3.67159127E-1      -3.30583257E-1      -2.21058726E-5      1.26613304E-5
1.04100000E+9      1.07374182E+9      0.00000000E+0      2.80881655E-1      -4.63985213E-1      6.85174018E-6      -4.18135896E-5
1.04825000E+9      1.07374182E+9      0.00000000E+0      1.07313491E-1      -6.17457638E-1      7.30436295E-6      1.36485323E-5
1.05550000E+9      1.07374182E+9      0.00000000E+0      -2.45256840E-1      -7.13571544E-1      2.16783956E-5      -2.29664147E-6
1.06275000E+9      1.07374182E+9      0.00000000E+0      -7.49628884E-1      -4.30183520E-1      1.62469223E-5      -3.92552465E-6
1.07000000E+9      1.07374182E+9      0.00000000E+0      -7.44733585E-1      2.41643460E-1      -2.12416053E-5      -2.56402418E-5
1.07725000E+9      1.07374182E+9      0.00000000E+0      -3.20774958E-1      4.97153318E-1      2.41473317E-5      2.18870118E-5
1.08450000E+9      1.07374182E+9      0.00000000E+0      -2.31415088E-2      4.46594176E-1      -1.29127875E-5      8.48155469E-6
1.09175000E+9      1.07374182E+9      0.00000000E+0      1.28731008E-1      3.39699960E-1      -1.35144219E-5      3.74503434E-5
1.09900000E+9      1.07374182E+9      0.00000000E+0      2.06126543E-1      2.34810500E-1      -2.07349658E-5      1.79344788E-5
1.10625000E+9      1.07374182E+9      0.00000000E+0      2.43754069E-1      1.42082030E-1      1.16424635E-5      -1.37789175E-5
1.11350000E+9      1.07374182E+9      0.00000000E+0      2.57253874E-1      5.65102137E-2      2.31619924E-6      3.18270177E-5
1.12075000E+9      1.07374182E+9      0.00000000E+0      2.51440150E-1      -2.08649001E-2      -6.83404505E-6      3.59704718E-5
1.12800000E+9      1.07374182E+9      0.00000000E+0      2.27749992E-1      -9.56635904E-2      -1.69081613E-5      -2.76304781E-5
1.13525000E+9      1.07374182E+9      0.00000000E+0      1.82465390E-1      -1.66698237E-1      1.38850883E-5      2.49976292E-5
1.14250000E+9      1.07374182E+9      0.00000000E+0      1.09931156E-1      -2.28483248E-1      -8.70972872E-6      -1.83889642E-5
1.14975000E+9      1.07374182E+9      0.00000000E+0      -1.71934882E-3      -2.67658293E-1      -1.05202198E-5      -4.11188230E-5
1.15700000E+9      1.07374182E+9      0.00000000E+0      -1.47452900E-1      -2.50959895E-1      -7.00829551E-5      6.45406544E-6
1.16425000E+9      1.07374182E+9      0.00000000E+0      -2.92506830E-1      -1.30140403E-1      1.03870407E-5      -2.26218253E-5
1.17150000E+9      1.07374182E+9      0.00000000E+0      -3.31252647E-1      8.26105522E-2      -1.24508515E-5      -2.49585137E-5
1.17875000E+9      1.07374182E+9      0.00000000E+0      -2.21329213E-1      2.67160437E-1      -5.29531389E-5      -5.60758635E-5
1.18600000E+9      1.07374182E+9      0.00000000E+0      -4.69641942E-2      3.34582447E-1      1.10249966E-5      -3.21883708E-5
1.19325000E+9      1.07374182E+9      0.00000000E+0      1.00423591E-1      3.11380683E-1      -3.35313380E-5      -1.85184181E-5
1.20050000E+9      1.07374182E+9      0.00000000E+0      2.04930930E-1      2.45220487E-1      1.42492354E-7      3.53949144E-5
1.20775000E+9      1.07374182E+9      0.00000000E+0      2.71309451E-1      1.68440189E-1      -2.05216929E-5      -2.31415033E-5
1.21500000E+9      1.07374182E+9      0.00000000E+0      3.14786452E-1      8.24868804E-2      -2.79098749E-5      1.62990764E-5
1.22225000E+9      1.07374182E+9      0.00000000E+0      3.40163662E-1      -3.25982970E-3      -6.44018874E-5      -1.65440142E-5
1.22950000E+9      1.07374182E+9      0.00000000E+0      3.53102020E-1      -9.73451258E-2      -9.63732600E-6      -1.38850883E-5
1.23675000E+9      1.07374182E+9      0.00000000E+0      3.54184363E-1      -2.03167779E-1      -1.22897327E-5      3.17376107E-5
1.24400000E+9      1.07374182E+9      0.00000000E+0      3.41281307E-1      -3.31365810E-1      7.78306276E-6      -2.35037878E-5
1.25125000E+9      1.07374182E+9      0.00000000E+0      3.02188434E-1      -5.09359078E-1      4.79165465E-6      -2.58544460E-5
1.25850000E+9      1.07374182E+9      0.00000000E+0      1.95316852E-1      -7.89983774E-1      -6.69620931E-6      9.31695104E-6
1.26575000E+9      1.07374182E+9      0.00000000E+0      -1.59246378E-1      -1.30859075E+0      2.50274315E-5      1.38925388E-5
1.27300000E+9      1.07374182E+9      0.00000000E+0      -2.32810270E+0      -1.77296922E+0      -5.27966768E-6      -1.27041712E-5
1.28025000E+9      1.07374182E+9      0.00000000E+0      -1.25006982E+0      2.00772355E+0      2.53999606E-5      2.30325386E-5
1.28750000E+9      1.07374182E+9      0.00000000E+0      5.34618602E-2      1.17256588E+0      -1.22096390E-6      -2.23089010E-5
1.29475000E+9      1.07374182E+9      0.00000000E+0      2.83372438E-1      7.04278024E-1      -1.21193007E-5      2.41585076E-5
