! NanoVNA-App
! Date: 2024-06-25 16:23:23
! Start: 200.00MHz  Stop: 6.00GHz  Points: 801
! S-Parameter data: F S11
# Hz S RI R 50
Frequency           S1_Real           S1_Imag           S11_Real           S11_Imag           S21_Real           S21_Imag
2.00000000E+8      1.07374182E+9      0.00000000E+0      5.29313413E-1      1.20800439E-1      -1.60783529E-5      -2.33789906E-5
2.07250000E+8      1.07374182E+9      0.00000000E+0      5.30418961E-1      2.33668213E-2      -1.69146806E-5      -2.61142850E-6
2.14500000E+8      1.07374182E+9      0.00000000E+0      5.29589372E-1      -7.33735057E-2      1.97477639E-5      7.62753189E-7
2.21750000E+8      1.07374182E+9      0.00000000E+0      5.27346421E-1      -1.78273437E-1      -1.42622739E-5      -5.03305346E-5
2.29000000E+8      1.07374182E+9      0.00000000E+0      5.22987140E-1      -3.03031609E-1      1.87009573E-6      2.67485157E-5
2.36250000E+8      1.07374182E+9      0.00000000E+0      5.14107102E-1      -4.72752615E-1      1.16806477E-5      -5.24157658E-5
2.43500000E+8      1.07374182E+9      0.00000000E+0      4.92681370E-1      -7.41249984E-1      -3.34559008E-5      1.67749822E-5
2.50750000E+8      1.07374182E+9      0.00000000E+0      4.11901576E-1      -1.31534609E+0      -3.67779285E-5      8.07922333E-6
2.58000000E+8      1.07374182E+9      0.00000000E+0      -5.14137402E-1      -3.79966333E+0      4.53274697E-6      -6.00581989E-5
2.65250000E+8      1.07374182E+9      0.00000000E+0      -5.57990136E-1      3.80296487E+0      -4.43365425E-5      1.50781125E-5
2.72500000E+8      1.07374182E+9      0.00000000E+0      4.05422578E-1      1.29902828E+0      -5.00492752E-6      1.07493252E-5
2.79750000E+8      1.07374182E+9      0.00000000E+0      4.88471249E-1      7.21687897E-1      1.40601769E-5      -2.50404701E-5
2.87000000E+8      1.07374182E+9      0.00000000E+0      5.09801176E-1      4.45569713E-1      -1.20680779E-5      3.39932740E-5
2.94250000E+8      1.07374182E+9      0.00000000E+0      5.19073812E-1      2.72072494E-1      -1.08256936E-5      -3.82754952E-5
3.01500000E+8      1.07374182E+9      0.00000000E+0      5.23583540E-1      1.39528816E-1      2.87909061E-5      3.16454098E-5
3.08750000E+8      1.07374182E+9      0.00000000E+0      5.25815377E-1      2.36574801E-2      -2.56225467E-5      -6.05359674E-7
3.16000000E+8      1.07374182E+9      0.00000000E+0      5.26519783E-1      -8.96333819E-2      2.99429521E-5      -2.21524388E-5
3.23250000E+8      1.07374182E+9      0.00000000E+0      5.26084721E-1      -2.14851589E-1      -1.98576599E-5      2.37524509E-5
3.30500000E+8      1.07374182E+9      0.00000000E+0      5.22483159E-1      -3.72534072E-1      2.19633803E-5      3.91900539E-6
3.37750000E+8      1.07374182E+9      0.00000000E+0      5.08472663E-1      -6.07211751E-1      -2.00513750E-6      2.17780471E-5
3.45000000E+8      1.07374182E+9      0.00000000E+0      4.50720900E-1      -1.06395561E+0      -6.79492950E-6      2.45468691E-5
3.52250000E+8      1.07374182E+9      0.00000000E+0      -1.39947283E-1      -2.58038399E+0      -2.03093514E-5      -1.37612224E-5
3.59500000E+8      1.07374182E+9      0.00000000E+0      -2.43025842E+0      3.60890796E+0      3.72054055E-5      3.37231904E-5
3.66750000E+8      1.07374182E+9      0.00000000E+0      1.59668978E-1      1.28664145E+0      -3.04169953E-6      1.23269856E-5
3.74000000E+8      1.07374182E+9      0.00000000E+0      3.57578649E-1      6.87013954E-1      5.79934567E-6      3.36579978E-6
3.81250000E+8      1.07374182E+9      0.00000000E+0      4.13311897E-1      4.07764157E-1      -3.63457948E-5      -2.04136595E-5
3.88500000E+8      1.07374182E+9      0.00000000E+0      4.33547143E-1      2.33330330E-1      -1.71046704E-5      -2.57417560E-6
3.95750000E+8      1.07374182E+9      0.00000000E+0      4.40130167E-1      9.91582941E-2      -5.78938052E-5      -1.18743628E-6
4.03000000E+8      1.07374182E+9      0.00000000E+0      4.38403781E-1      -1.98025375E-2      5.96046448E-7      -3.32016498E-6
4.10250000E+8      1.07374182E+9      0.00000000E+0      4.28118863E-1      -1.38844936E-1      -2.27373093E-5      -3.48221511E-6
4.17500000E+8      1.07374182E+9      0.00000000E+0      4.04947351E-1      -2.71580513E-1      2.21058726E-5      -6.21564686E-6
4.24750000E+8      1.07374182E+9      0.00000000E+0      3.57005117E-1      -4.41385672E-1      1.81933865E-5      2.28621066E-5
4.32000000E+8      1.07374182E+9      0.00000000E+0      2.46958430E-1      -6.89361571E-1      -7.10971653E-6      1.43377110E-5
4.39250000E+8      1.07374182E+9      0.00000000E+0      -9.42957010E-2      -1.11028455E+0      -2.38409266E-5      -1.02985650E-5
4.46500000E+8      1.07374182E+9      0.00000000E+0      -1.67892493E+0      -1.43596044E+0      -2.87452713E-5      -2.35131010E-5
4.53750000E+8      1.07374182E+9      0.00000000E+0      -1.44349823E+0      1.76544946E+0      -2.87573785E-5      -3.20300460E-5
4.61000000E+8      1.07374182E+9      0.00000000E+0      7.88508485E-2      1.21219558E+0      1.55698508E-5      3.25376168E-5
4.68250000E+8      1.07374182E+9      0.00000000E+0      3.67520241E-1      7.55369677E-1      -1.17905438E-6      8.02800059E-6
4.75500000E+8      1.07374182E+9      0.00000000E+0      4.54624523E-1      4.95663602E-1      -2.51783058E-5      1.78907067E-6
4.82750000E+8      1.07374182E+9      0.00000000E+0      4.90961177E-1      3.27487882E-1      2.56933272E-5      -4.73018736E-6
4.90000000E+8      1.07374182E+9      0.00000000E+0      5.10012119E-1      2.00689606E-1      1.49682164E-5      -2.31610611E-5
4.97250000E+8      1.07374182E+9      0.00000000E+0      5.22172210E-1      9.41014417E-2      1.80033967E-5      1.59842893E-5
5.04500000E+8      1.07374182E+9      0.00000000E+0      5.31232142E-1      -4.74783042E-3      9.11857933E-6      -1.60830095E-5
5.11750000E+8      1.07374182E+9      0.00000000E+0      5.40450556E-1      -1.04395303E-1      3.34540382E-5      1.73561275E-5
5.19000000E+8      1.07374182E+9      0.00000000E+0      5.52309380E-1      -2.14508933E-1      4.00841236E-6      -2.14856118E-6
5.26250000E+8      1.07374182E+9      0.00000000E+0      5.69977457E-1      -3.49841286E-1      -2.14474276E-5      1.09188259E-5
5.33500000E+8      1.07374182E+9      0.00000000E+0      6.06413456E-1      -5.36723732E-1      2.27708369E-6      2.73063779E-6
5.40750000E+8      1.07374182E+9      0.00000000E+0      7.00474304E-1      -8.40390087E-1      1.97933987E-5      -1.52327120E-5
5.48000000E+8      1.07374182E+9      0.00000000E+0      1.08383295E+0      -1.44866160E+0      3.39401886E-5      1.50222331E-6
5.55250000E+8      1.07374182E+9      0.00000000E+0      3.77342663E+0      -1.68584762E+0      4.37721610E-6      6.26780093E-6
5.62500000E+8      1.07374182E+9      0.00000000E+0      1.99599471E+0      1.76483928E+0      5.26756048E-5      1.19144097E-5
5.69750000E+8      1.07374182E+9      0.00000000E+0      9.66155068E-1      1.03801772E+0      -2.95145437E-5      -6.44475222E-6
5.77000000E+8      1.07374182E+9      0.00000000E+0      7.48515384E-1      6.51752327E-1      -4.02703881E-6      -5.51808625E-6
5.84250000E+8      1.07374182E+9      0.00000000E+0      6.71753846E-1      4.31468029E-1      6.26128167E-6      1.61752105E-5
5.91500000E+8      1.07374182E+9      0.00000000E+0      6.36421312E-1      2.80994340E-1      1.67442486E-5      -1.97319314E-5
5.98750000E+8      1.07374182E+9      0.00000000E+0      6.17268356E-1      1.63857864E-1      -5.71832061E-7      3.02214175E-6
6.06000000E+8      1.07374182E+9      0.00000000E+0      6.07477658E-1      6.39643370E-2      3.50680202E-5      3.77269462E-5
6.13250000E+8      1.07374182E+9      0.00000000E+0      6.02359607E-1      -3.16959560E-2      -1.81915238E-5      2.73091719E-5
6.20500000E+8      1.07374182E+9      0.00000000E+0      6.01068659E-1      -1.31558886E-1      -4.05032188E-5      -2.08616257E-6
6.27750000E+8      1.07374182E+9      0.00000000E+0      6.03643095E-1      -2.44236666E-1      4.89540398E-5      2.29291618E-6
6.35000000E+8      1.07374182E+9      0.00000000E+0      6.10304878E-1      -3.88046289E-1      -5.63729554E-6      3.32556665E-5
6.42250000E+8      1.07374182E+9      0.00000000E+0      6.23512529E-1      -5.99468393E-1      3.90820205E-5      -2.67839059E-5
6.49500000E+8      1.07374182E+9      0.00000000E+0      6.51791432E-1      -9.96293621E-1      -2.45030969E-5      -2.93608755E-5
6.56750000E+8      1.07374182E+9      0.00000000E+0      6.93618719E-1      -2.15326498E+0      1.66157261E-5      -7.29877502E-6
6.64000000E+8      1.07374182E+9      0.00000000E+0      -1.59540278E+1      1.55109253E+1      6.34696335E-6      5.98840415E-6
6.71250000E+8      1.07374182E+9      0.00000000E+0      1.76142962E-1      1.79002889E+0      -9.35979187E-7      -4.75347042E-5
6.78500000E+8      1.07374182E+9      0.00000000E+0      3.65971373E-1      8.72065632E-1      -3.25217843E-6      -4.04007733E-5
6.85750000E+8      1.07374182E+9      0.00000000E+0      4.18109955E-1      5.21657696E-1      2.69617885E-6      3.76161188E-6
6.93000000E+8      1.07374182E+9      0.00000000E+0      4.38854829E-1      3.21730865E-1      6.12344593E-6      -3.74531373E-5
7.00250000E+8      1.07374182E+9      0.00000000E+0      4.46083233E-1      1.79004132E-1      1.21640041E-5      3.19080427E-5
7.07500000E+8      1.07374182E+9      0.00000000E+0      4.44282775E-1      6.24189194E-2      -5.96325845E-6      2.56299973E-6
7.14750000E+8      1.07374182E+9      0.00000000E+0      4.34688471E-1      -4.48662288E-2      -5.74514270E-5      1.61221251E-5
7.22000000E+8      1.07374182E+9      0.00000000E+0      4.14362710E-1      -1.52228935E-1      1.27973035E-5      -3.07355076E-5
7.29250000E+8      1.07374182E+9      0.00000000E+0      3.73819483E-1      -2.71517598E-1      2.96924263E-5      2.42320821E-5
7.36500000E+8      1.07374182E+9      0.00000000E+0      2.97080718E-1      -4.09951972E-1      5.99483028E-5      1.83247030E-5
7.43750000E+8      1.07374182E+9      0.00000000E+0      1.34896699E-1      -5.71041579E-1      6.06942922E-6      -1.58613548E-5
7.51000000E+8      1.07374182E+9      0.00000000E+0      -2.23450489E-1      -6.88457431E-1      3.03890556E-6      -7.02589750E-6
7.58250000E+8      1.07374182E+9      0.00000000E+0      -7.76328218E-1      -3.86242941E-1      -6.18491322E-6      4.75691631E-5
7.65500000E+8      1.07374182E+9      0.00000000E+0      -7.03414223E-1      3.68302742E-1      -4.19560820E-6      -2.37375498E-5
7.72750000E+8      1.07374182E+9      0.00000000E+0      -1.98261730E-1      5.68176389E-1      -1.85882673E-5      1.90054998E-5
7.80000000E+8      1.07374182E+9      0.00000000E+0      9.30547324E-2      4.69324047E-1      -2.00960785E-5      -1.57356262E-5
7.87250000E+8      1.07374182E+9      0.00000000E+0      2.41256197E-1      3.36866766E-1      -5.81052154E-6      9.32905823E-6
7.94500000E+8      1.07374182E+9      0.00000000E+0      3.16471348E-1      2.19840130E-1      6.98864460E-6      -7.29691237E-6
8.01750000E+8      1.07374182E+9      0.00000000E+0      3.59110075E-1      1.14945872E-1      -4.52781096E-5      1.09924003E-5
8.09000000E+8      1.07374182E+9      0.00000000E+0      3.82340049E-1      1.82377973E-2      5.54136932E-7      -1.04149804E-5
8.16250000E+8      1.07374182E+9      0.00000000E+0      3.94256590E-1      -7.92123527E-2      8.08993354E-5      3.21986154E-5
8.23500000E+8      1.07374182E+9      0.00000000E+0      3.96917008E-1      -1.85375970E-1      -6.26780093E-7      5.33834100E-6
8.30750000E+8      1.07374182E+9      0.00000000E+0      3.89648569E-1      -3.11045415E-1      -2.65771523E-5      1.29556283E-5
8.38000000E+8      1.07374182E+9      0.00000000E+0      3.65708110E-1      -4.81016225E-1      -2.12360173E-5      8.64733011E-6
8.45250000E+8      1.07374182E+9      0.00000000E+0      3.05479958E-1      -7.47479820E-1      1.52867287E-5      2.28174031E-5
8.52500000E+8      1.07374182E+9      0.00000000E+0      1.03584542E-1      -1.30646710E+0      2.59047374E-5      4.86709177E-6
8.59750000E+8      1.07374182E+9      0.00000000E+0      -1.60770274E+0      -3.23529019E+0      -3.04393470E-5      -6.22868538E-6
8.67000000E+8      1.07374182E+9      0.00000000E+0      -5.74051559E-1      3.36287003E+0      2.68006697E-5      2.70437449E-5
8.74250000E+8      1.07374182E+9      0.00000000E+0      4.60550507E-1      1.27348232E+0      -3.17133963E-5      9.69786197E-6
8.81500000E+8      1.07374182E+9      0.00000000E+0      5.29964924E-1      6.99012980E-1      1.51190907E-5      3.24426219E-5
8.88750000E+8      1.07374182E+9      0.00000000E+0      5.42300193E-1      4.28404446E-1      -2.35829502E-5      2.22111121E-5
8.96000000E+8      1.07374182E+9      0.00000000E+0      5.45759837E-1      2.50408090E-1      2.22232193E-5      1.34762377E-6
9.03250000E+8      1.07374182E+9      0.00000000E+0      5.47612576E-1      1.14860519E-1      -4.93368134E-5      3.32584605E-5
9.10500000E+8      1.07374182E+9      0.00000000E+0      5.49019722E-1      -8.73140123E-3      -2.70064920E-5      6.35627657E-5
9.17750000E+8      1.07374182E+9      0.00000000E+0      5.51358958E-1      -1.30413276E-1      2.63415277E-5      5.98840415E-7
9.25000000E+8      1.07374182E+9      0.00000000E+0      5.55879358E-1      -2.71203862E-1      2.44723633E-5      -2.89408490E-5
9.32250000E+8      1.07374182E+9      0.00000000E+0      5.64374900E-1      -4.59811533E-1      -1.07754022E-6      -1.48173422E-6
9.39500000E+8      1.07374182E+9      0.00000000E+0      5.82613015E-1      -7.60787145E-1      1.25179067E-5      -9.90647823E-6
9.46750000E+8      1.07374182E+9      0.00000000E+0      6.43903222E-1      -1.44906901E+0      -4.75905836E-6      2.19698995E-5
9.54000000E+8      1.07374182E+9      0.00000000E+0      1.41160660E+0      -5.85541318E+0      9.78074968E-6      -2.45021656E-5
9.61250000E+8      1.07374182E+9      0.00000000E+0      4.86400508E-1      3.17159727E+0      1.71922147E-5      1.36448070E-5
9.68500000E+8      1.07374182E+9      0.00000000E+0      4.66271110E-1      1.19553629E+0      4.12603840E-5      -3.93576920E-6
9.75750000E+8      1.07374182E+9      0.00000000E+0      4.75597845E-1      7.00906122E-1      3.19937244E-5      1.92411244E-6
9.83000000E+8      1.07374182E+9      0.00000000E+0      4.79042004E-1      4.51004653E-1      2.56048515E-5      -3.10987234E-5
9.90250000E+8      1.07374182E+9      0.00000000E+0      4.78904907E-1      2.92217587E-1      3.62815335E-5      -8.68178904E-6
9.97500000E+8      1.07374182E+9      0.00000000E+0      4.76126487E-1      1.71470703E-1      -1.80071220E-5      1.36503950E-5
1.00475000E+9      1.07374182E+9      0.00000000E+0      4.69193192E-1      6.99786436E-2      1.13984570E-5      -2.38753855E-5
1.01200000E+9      1.07374182E+9      0.00000000E+0      4.58694977E-1      -2.40255397E-2      2.72123143E-5      -6.54263422E-5
1.01925000E+9      1.07374182E+9      0.00000000E+0      4.41709241E-1      -1.16879368E-1      -1.72974542E-5      -2.32551247E-6
1.02650000E+9      1.07374182E+9      0.00000000E+0      4.14116246E-1      -2.16863748E-1      -4.15518880E-5      4.72087413E-6
1.03375000E+9      1.07374182E+9      0.00000000E+0      3.66933035E-1      -3.31250184E-1      -3.13995406E-5      8.00844282E-6
1.04100000E+9      1.07374182E+9      0.00000000E+0      2.80760233E-1      -4.64260650E-1      2.05896795E-5      -1.83684751E-5
1.04825000E+9      1.07374182E+9      0.00000000E+0      1.08923726E-1      -6.16009722E-1      -2.00094655E-5      -1.32899731E-5
1.05550000E+9      1.07374182E+9      0.00000000E+0      -2.45709553E-1      -7.14205900E-1      -2.32923776E-6      2.52798200E-5
1.06275000E+9      1.07374182E+9      0.00000000E+0      -7.49762787E-1      -4.30485558E-1      1.88136473E-5      -6.67106360E-6
1.07000000E+9      1.07374182E+9      0.00000000E+0      -7.47018397E-1      2.40392218E-1      -8.61752778E-6      2.89697200E-5
1.07725000E+9      1.07374182E+9      0.00000000E+0      -3.21990842E-1      4.95909385E-1      -2.28360295E-5      -2.48597935E-5
1.08450000E+9      1.07374182E+9      0.00000000E+0      -2.26229062E-2      4.46481004E-1      -7.46827573E-6      1.91750005E-5
1.09175000E+9      1.07374182E+9      0.00000000E+0      1.28258162E-1      3.39528462E-1      -1.33365393E-6      1.99740753E-5
1.09900000E+9      1.07374182E+9      0.00000000E+0      2.06551745E-1      2.35063332E-1      3.62563878E-6      1.27321109E-5
1.10625000E+9      1.07374182E+9      0.00000000E+0      2.43760740E-1      1.41798689E-1      -1.75228342E-5      -4.01195139E-5
1.11350000E+9      1.07374182E+9      0.00000000E+0      2.56939011E-1      5.68288352E-2      2.41855159E-5      -8.40146095E-6
1.12075000E+9      1.07374182E+9      0.00000000E+0      2.51247637E-1      -2.05669934E-2      -6.86012208E-6      4.60473821E-5
1.12800000E+9      1.07374182E+9      0.00000000E+0      2.27975112E-1      -9.54201807E-2      -2.94307247E-5      1.18277967E-6
1.13525000E+9      1.07374182E+9      0.00000000E+0      1.82238691E-1      -1.66904045E-1      3.72529030E-9      1.46562234E-5
1.14250000E+9      1.07374182E+9      0.00000000E+0      1.09813504E-1      -2.28238913E-1      -5.55068254E-6      -2.66032293E-5
1.14975000E+9      1.07374182E+9      0.00000000E+0      -1.73498524E-3      -2.67468030E-1      -3.05417925E-5      1.33784488E-5
1.15700000E+9      1.07374182E+9      0.00000000E+0      -1.47287265E-1      -2.50587555E-1      2.69869342E-5      5.46406955E-6
1.16425000E+9      1.07374182E+9      0.00000000E+0      -2.92374144E-1      -1.30121231E-1      -1.36494637E-5      -3.94061208E-5
1.17150000E+9      1.07374182E+9      0.00000000E+0      -3.31597491E-1      8.16645233E-2      1.85510144E-5      1.88443810E-5
1.17875000E+9      1.07374182E+9      0.00000000E+0      -2.20535602E-1      2.67900713E-1      -1.71940774E-5      -4.49921936E-6
1.18600000E+9      1.07374182E+9      0.00000000E+0      -4.75545234E-2      3.34389507E-1      -2.09575519E-5      -4.85330820E-5
1.19325000E+9      1.07374182E+9      0.00000000E+0      1.01441988E-1      3.10699225E-1      -1.06291845E-5      -1.63409859E-5
1.20050000E+9      1.07374182E+9      0.00000000E+0      2.05211016E-1      2.45327240E-1      3.45259905E-5      -4.45283949E-5
1.20775000E+9      1.07374182E+9      0.00000000E+0      2.71239501E-1      1.68383907E-1      -1.57486647E-6      1.39819458E-5
1.21500000E+9      1.07374182E+9      0.00000000E+0      3.14794299E-1      8.30810846E-2      -6.46244735E-6      -4.25325707E-5
1.22225000E+9      1.07374182E+9      0.00000000E+0      3.40122465E-1      -3.81178647E-3      -1.76411122E-5      -1.99712813E-5
1.22950000E+9      1.07374182E+9      0.00000000E+0      3.53169436E-1      -9.67862515E-2      -4.78299335E-5      -3.76394019E-5
1.23675000E+9      1.07374182E+9      0.00000000E+0      3.53924308E-1      -2.03074564E-1      -1.13686547E-5      -1.13053247E-5
1.24400000E+9      1.07374182E+9      0.00000000E+0      3.40793318E-1      -3.32014030E-1      3.12626362E-5      2.43745744E-5
1.25125000E+9      1.07374182E+9      0.00000000E+0      3.01344706E-1      -5.09976543E-1      -4.16301191E-5      1.63605437E-5
1.25850000E+9      1.07374182E+9      0.00000000E+0      1.95529101E-1      -7.90245114E-1      2.19224021E-5      -2.62660906E-5
1.26575000E+9      1.07374182E+9      0.00000000E+0      -1.59861532E-1      -1.29945738E+0      3.10838223E-5      -7.61402771E-5
1.27300000E+9      1.07374182E+9      0.00000000E+0      -2.37183199E+0      -1.75230129E+0      1.09998509E-5      -4.45693731E-5
1.28025000E+9      1.07374182E+9      0.00000000E+0      -1.25449721E+0      2.01122985E+0      4.06103209E-5      -7.45430589E-6
1.28750000E+9      1.07374182E+9      0.00000000E+0      5.39243893E-2      1.17668793E+0      9.87295061E-6      1.58678740E-5
1.29475000E+9      1.07374182E+9      0.00000000E+0      2.83464750E-1      7.05263275E-1      8.28690827E-6      -4.03421000E-5
