! NanoVNA-App by OneOfEleven et al v1.1.209 (+OD15) 
! Date: 2024-07-30 15:20:46
! Start: 200MHz Stop: 6GHz Points: 801
! S-Parameter data: F S11 S21 S12 S22
# Hz S RI R 50
!     Frequency           S11_Real           S11_Imag           S21_Real           S21_Imag           S12_Real           S12_Imag           S22_Real           S22_Imag
      200000000   -3.582572192e-02    4.940966610e-03    1.151320521e-05   -4.095346412e-06    0.000000000e+00    0.000000000e+00    0.000000000e+00    0.000000000e+00
      207250000   -3.681528196e-02    4.969685338e-03   -1.227827397e-06   -1.075613554e-07    0.000000000e+00    0.000000000e+00    0.000000000e+00    0.000000000e+00
      214500000   -3.692913055e-02    5.376102868e-03   -2.637534453e-05   -3.191273663e-06    0.000000000e+00    0.000000000e+00    0.000000000e+00    0.000000000e+00
      221750000   -3.682329506e-02    6.175609306e-03    1.124707251e-05   -1.312358222e-06    0.000000000e+00    0.000000000e+00    0.000000000e+00    0.000000000e+00
      229000000   -3.671981394e-02    5.598573945e-03    2.055001642e-05   -3.234861651e-05    0.000000000e+00    0.000000000e+00    0.000000000e+00    0.000000000e+00
      236250000   -3.662255406e-02    4.835698754e-03    2.301735003e-05   -1.618138958e-05    0.000000000e+00    0.000000000e+00    0.000000000e+00    0.000000000e+00
      243500000   -3.565811366e-02    6.669861265e-03   -5.134365892e-06   -1.299166433e-05    0.000000000e+00    0.000000000e+00    0.000000000e+00    0.000000000e+00
      250750000   -3.706995398e-02    6.624860689e-03   -4.885145972e-05   -3.337441740e-05    0.000000000e+00    0.000000000e+00    0.000000000e+00    0.000000000e+00
      258000000   -3.658320010e-02    6.884850562e-03    1.803030386e-06    1.974700172e-05    0.000000000e+00    0.000000000e+00    0.000000000e+00    0.000000000e+00
      265250000   -3.681501374e-02    6.755226757e-03    2.814779464e-06   -2.531159043e-05    0.000000000e+00    0.000000000e+00    0.000000000e+00    0.000000000e+00
      272500000   -3.543535620e-02    5.446926691e-03    2.860788300e-05    8.402500917e-09    0.000000000e+00    0.000000000e+00    0.000000000e+00    0.000000000e+00
      279750000   -3.622153029e-02    6.684693508e-03   -9.199278793e-06   -6.982409104e-06    0.000000000e+00    0.000000000e+00    0.000000000e+00    0.000000000e+00
      287000000   -3.660845757e-02    5.549774505e-03   -8.849778169e-06   -1.263484319e-05    0.000000000e+00    0.000000000e+00    0.000000000e+00    0.000000000e+00
      294250000   -3.611058742e-02    6.593060680e-03   -8.207517567e-06   -4.573796105e-06    0.000000000e+00    0.000000000e+00    0.000000000e+00    0.000000000e+00
      301500000   -3.617287055e-02    6.244914606e-03   -3.775121877e-05    6.933228633e-06    0.000000000e+00    0.000000000e+00    0.000000000e+00    0.000000000e+00
      308750000   -3.601853549e-02    6.303207017e-03    3.201679647e-05    9.740969062e-07    0.000000000e+00    0.000000000e+00    0.000000000e+00    0.000000000e+00
      316000000   -3.644660488e-02    6.908188574e-03   -3.735495284e-06    1.771103416e-05    0.000000000e+00    0.000000000e+00    0.000000000e+00    0.000000000e+00
      323250000   -3.543856740e-02    6.541145500e-03   -2.385767402e-05   -4.161818288e-05    0.000000000e+00    0.000000000e+00    0.000000000e+00    0.000000000e+00
      330500000   -3.601418436e-02    6.803180091e-03    1.127968699e-05    4.477570656e-06    0.000000000e+00    0.000000000e+00    0.000000000e+00    0.000000000e+00
      337750000   -3.585122153e-02    6.726924330e-03    1.186489681e-05    7.192730664e-06    0.000000000e+00    0.000000000e+00    0.000000000e+00    0.000000000e+00
      345000000   -3.515535966e-02    6.367071532e-03   -2.758086157e-05    1.484912718e-05    0.000000000e+00    0.000000000e+00    0.000000000e+00    0.000000000e+00
      352250000   -3.625722975e-02    6.954796612e-03   -4.176798029e-05    3.767260569e-05    0.000000000e+00    0.000000000e+00    0.000000000e+00    0.000000000e+00
      359500000   -3.524383530e-02    6.835461594e-03   -1.524276377e-05    3.017656672e-05    0.000000000e+00    0.000000000e+00    0.000000000e+00    0.000000000e+00
      366750000   -3.585361317e-02    7.863956504e-03    1.316899215e-05    1.066005643e-05    0.000000000e+00    0.000000000e+00    0.000000000e+00    0.000000000e+00
      374000000   -3.621564433e-02    8.161386475e-03   -6.425807805e-05    4.109988367e-05    0.000000000e+00    0.000000000e+00    0.000000000e+00    0.000000000e+00
      381250000   -3.517870232e-02    8.299745619e-03    1.961642192e-05   -2.376365410e-05    0.000000000e+00    0.000000000e+00    0.000000000e+00    0.000000000e+00
      388500000   -3.552299365e-02    8.593507111e-03   -2.302321491e-06    5.850344678e-06    0.000000000e+00    0.000000000e+00    0.000000000e+00    0.000000000e+00
      395750000   -3.474731743e-02    8.008847013e-03   -1.831199552e-05   -2.613189281e-06    0.000000000e+00    0.000000000e+00    0.000000000e+00    0.000000000e+00
      403000000   -3.582913056e-02    7.985625416e-03   -1.337869071e-05   -8.054071259e-06    0.000000000e+00    0.000000000e+00    0.000000000e+00    0.000000000e+00
      410250000   -3.493698686e-02    8.560281247e-03   -2.087309622e-05    4.561135938e-05    0.000000000e+00    0.000000000e+00    0.000000000e+00    0.000000000e+00
      417500000   -3.507503867e-02    8.324624039e-03    4.219959919e-06   -7.946739970e-06    0.000000000e+00    0.000000000e+00    0.000000000e+00    0.000000000e+00
      424750000   -3.522646427e-02    8.414436132e-03    2.572240919e-05    1.047308251e-05    0.000000000e+00    0.000000000e+00    0.000000000e+00    0.000000000e+00
      432000000   -3.458697349e-02    8.633469231e-03   -8.749932022e-06   -1.274637179e-05    0.000000000e+00    0.000000000e+00    0.000000000e+00    0.000000000e+00
      439250000   -3.579611704e-02    9.149472229e-03    6.192311503e-06    9.023120583e-06    0.000000000e+00    0.000000000e+00    0.000000000e+00    0.000000000e+00
      446500000   -3.465573490e-02    9.464272298e-03    2.578531621e-06   -1.735604383e-05    0.000000000e+00    0.000000000e+00    0.000000000e+00    0.000000000e+00
      453750000   -3.553189710e-02    9.589963593e-03   -4.387211084e-05    2.692530870e-06    0.000000000e+00    0.000000000e+00    0.000000000e+00    0.000000000e+00
      461000000   -3.592468426e-02    1.027244236e-02    4.925119356e-06   -3.127002492e-05    0.000000000e+00    0.000000000e+00    0.000000000e+00    0.000000000e+00
      468250000   -3.489854187e-02    9.975885041e-03    1.822679042e-05    1.605124453e-05    0.000000000e+00    0.000000000e+00    0.000000000e+00    0.000000000e+00
      475500000   -3.490563482e-02    1.011438388e-02    4.341563181e-05   -4.613073543e-06    0.000000000e+00    0.000000000e+00    0.000000000e+00    0.000000000e+00
      482750000   -3.441302106e-02    1.041049603e-02    3.273273478e-06    5.843137387e-06    0.000000000e+00    0.000000000e+00    0.000000000e+00    0.000000000e+00
      490000000   -3.454373777e-02    1.014516782e-02    3.197634214e-05    1.182026062e-05    0.000000000e+00    0.000000000e+00    0.000000000e+00    0.000000000e+00
      497250000   -3.503607959e-02    9.977863170e-03   -1.100983991e-05    6.666039098e-06    0.000000000e+00    0.000000000e+00    0.000000000e+00    0.000000000e+00
      504500000   -3.533285111e-02    9.995377623e-03   -4.006765084e-05    1.101024463e-05    0.000000000e+00    0.000000000e+00    0.000000000e+00    0.000000000e+00
      511750000   -3.440481052e-02    9.861448780e-03    6.273984127e-06    2.104509622e-05    0.000000000e+00    0.000000000e+00    0.000000000e+00    0.000000000e+00
      519000000   -3.423338011e-02    1.062010042e-02    7.174848179e-06    7.874331459e-06    0.000000000e+00    0.000000000e+00    0.000000000e+00    0.000000000e+00
      526250000   -3.464151174e-02    1.097783819e-02    8.731365597e-06    1.145129136e-05    0.000000000e+00    0.000000000e+00    0.000000000e+00    0.000000000e+00
      533500000   -3.429952264e-02    1.077338215e-02   -3.776984886e-05   -8.477341908e-06    0.000000000e+00    0.000000000e+00    0.000000000e+00    0.000000000e+00
      540750000   -3.438226879e-02    1.043999381e-02    2.229057463e-05    4.250397069e-06    0.000000000e+00    0.000000000e+00    0.000000000e+00    0.000000000e+00
      548000000   -3.420634940e-02    1.139201224e-02   -6.153888990e-06    1.360499300e-05    0.000000000e+00    0.000000000e+00    0.000000000e+00    0.000000000e+00
      555250000   -3.443247825e-02    1.168843918e-02    2.492398380e-05   -1.584163692e-05    0.000000000e+00    0.000000000e+00    0.000000000e+00    0.000000000e+00
      562500000   -3.470669314e-02    1.121641230e-02   -3.226745321e-05   -2.500285154e-05    0.000000000e+00    0.000000000e+00    0.000000000e+00    0.000000000e+00
      569750000   -3.386745602e-02    1.143778674e-02   -1.758675353e-05    6.334571481e-06    0.000000000e+00    0.000000000e+00    0.000000000e+00    0.000000000e+00
      577000000   -3.478661180e-02    1.193849929e-02   -4.674614684e-05   -9.053113899e-06    0.000000000e+00    0.000000000e+00    0.000000000e+00    0.000000000e+00
      584250000   -3.458089009e-02    1.234394684e-02    1.485333360e-05   -1.362585317e-05    0.000000000e+00    0.000000000e+00    0.000000000e+00    0.000000000e+00
      591500000   -3.431172669e-02    1.216522045e-02    1.145968690e-05    4.775894558e-05    0.000000000e+00    0.000000000e+00    0.000000000e+00    0.000000000e+00
      598750000   -3.434631974e-02    1.181286294e-02   -3.086909783e-05    3.027904495e-05    0.000000000e+00    0.000000000e+00    0.000000000e+00    0.000000000e+00
      606000000   -3.438305855e-02    1.200453378e-02    3.106839358e-05   -8.091649761e-06    0.000000000e+00    0.000000000e+00    0.000000000e+00    0.000000000e+00
      613250000   -3.383762017e-02    1.259514876e-02   -1.303414956e-05    6.728856533e-06    0.000000000e+00    0.000000000e+00    0.000000000e+00    0.000000000e+00
      620500000   -3.374990448e-02    1.233070064e-02   -2.583936475e-05   -2.407383181e-05    0.000000000e+00    0.000000000e+00    0.000000000e+00    0.000000000e+00
      627750000   -3.408554569e-02    1.252861042e-02    1.703341695e-05    1.936560511e-05    0.000000000e+00    0.000000000e+00    0.000000000e+00    0.000000000e+00
      635000000   -3.352355957e-02    1.281776838e-02   -9.923013749e-06    2.595637125e-05    0.000000000e+00    0.000000000e+00    0.000000000e+00    0.000000000e+00
      642250000   -3.306757286e-02    1.218285225e-02    1.576599971e-05   -1.375604029e-06    0.000000000e+00    0.000000000e+00    0.000000000e+00    0.000000000e+00
      649500000   -3.421745822e-02    1.283241622e-02   -2.895793659e-05    4.746600825e-05    0.000000000e+00    0.000000000e+00    0.000000000e+00    0.000000000e+00
      656750000   -3.380991146e-02    1.292509865e-02    4.662429546e-06    5.588601084e-07    0.000000000e+00    0.000000000e+00    0.000000000e+00    0.000000000e+00
      664000000   -3.309350461e-02    1.262412779e-02   -1.807079207e-05    2.385411972e-05    0.000000000e+00    0.000000000e+00    0.000000000e+00    0.000000000e+00
      671250000   -3.302530199e-02    1.249409840e-02   -2.311967182e-05    7.729725439e-06    0.000000000e+00    0.000000000e+00    0.000000000e+00    0.000000000e+00
      678500000   -3.270598873e-02    1.280854642e-02    4.139255907e-05   -1.602191514e-05    0.000000000e+00    0.000000000e+00    0.000000000e+00    0.000000000e+00
      685750000   -3.260388225e-02    1.283440646e-02   -1.577066359e-05    8.590861398e-06    0.000000000e+00    0.000000000e+00    0.000000000e+00    0.000000000e+00
      693000000   -3.282525763e-02    1.302234922e-02   -3.503078915e-05   -1.009335483e-05    0.000000000e+00    0.000000000e+00    0.000000000e+00    0.000000000e+00
      700250000   -3.289104998e-02    1.340273861e-02    3.630680294e-05   -1.010032793e-05    0.000000000e+00    0.000000000e+00    0.000000000e+00    0.000000000e+00
      707500000   -3.253671899e-02    1.323502138e-02   -3.337617954e-06   -1.408571188e-05    0.000000000e+00    0.000000000e+00    0.000000000e+00    0.000000000e+00
      714750000   -3.278543055e-02    1.304254029e-02   -7.918175470e-06    1.442597568e-05    0.000000000e+00    0.000000000e+00    0.000000000e+00    0.000000000e+00
      722000000   -3.153589368e-02    1.374443620e-02   -2.649587987e-05    2.592685996e-05    0.000000000e+00    0.000000000e+00    0.000000000e+00    0.000000000e+00
      729250000   -3.177718446e-02    1.365816034e-02   -4.851150152e-05   -2.630635754e-05    0.000000000e+00    0.000000000e+00    0.000000000e+00    0.000000000e+00
      736500000   -3.181922063e-02    1.345717628e-02    2.497195237e-05   -1.918455609e-06    0.000000000e+00    0.000000000e+00    0.000000000e+00    0.000000000e+00
      743750000   -3.211952001e-02    1.408797037e-02   -8.726506167e-06   -2.613675861e-05    0.000000000e+00    0.000000000e+00    0.000000000e+00    0.000000000e+00
      751000000   -3.255577385e-02    1.427876484e-02    3.399565230e-06   -5.357624468e-05    0.000000000e+00    0.000000000e+00    0.000000000e+00    0.000000000e+00
      758250000   -3.209358454e-02    1.425521728e-02    1.303745830e-05   -5.089546903e-05    0.000000000e+00    0.000000000e+00    0.000000000e+00    0.000000000e+00
      765500000   -3.249996901e-02    1.420856174e-02    6.080642925e-05    1.029693613e-05    0.000000000e+00    0.000000000e+00    0.000000000e+00    0.000000000e+00
      772750000   -3.156439215e-02    1.420287415e-02    2.065424997e-05   -3.910856776e-06    0.000000000e+00    0.000000000e+00    0.000000000e+00    0.000000000e+00
      780000000   -3.175894916e-02    1.438581198e-02    1.636698835e-05   -1.248208355e-05    0.000000000e+00    0.000000000e+00    0.000000000e+00    0.000000000e+00
      787250000   -3.136175498e-02    1.464355551e-02   -6.193313311e-05   -5.123421033e-06    0.000000000e+00    0.000000000e+00    0.000000000e+00    0.000000000e+00
      794500000   -3.174205869e-02    1.415325515e-02   -1.791587238e-05    5.887271254e-05    0.000000000e+00    0.000000000e+00    0.000000000e+00    0.000000000e+00
      801750000   -3.163634986e-02    1.433039643e-02    1.659426562e-05    9.243226486e-06    0.000000000e+00    0.000000000e+00    0.000000000e+00    0.000000000e+00
      809000000   -3.088211827e-02    1.481732074e-02   -2.123014383e-05    6.547595694e-05    0.000000000e+00    0.000000000e+00    0.000000000e+00    0.000000000e+00
      816250000   -3.042811155e-02    1.492826641e-02    3.161840141e-05    8.141358194e-06    0.000000000e+00    0.000000000e+00    0.000000000e+00    0.000000000e+00
      823500000   -3.142993525e-02    1.492431201e-02   -2.043735731e-05   -5.538338883e-05    0.000000000e+00    0.000000000e+00    0.000000000e+00    0.000000000e+00
      830750000   -3.092065267e-02    1.496295165e-02   -7.089141582e-05    3.687123899e-05    0.000000000e+00    0.000000000e+00    0.000000000e+00    0.000000000e+00
      838000000   -3.014298528e-02    1.535911299e-02    3.517413006e-06   -3.523435589e-05    0.000000000e+00    0.000000000e+00    0.000000000e+00    0.000000000e+00
      845250000   -3.114192188e-02    1.554025616e-02   -5.408720426e-06   -2.998012860e-05    0.000000000e+00    0.000000000e+00    0.000000000e+00    0.000000000e+00
      852500000   -3.048712388e-02    1.550959237e-02    1.323550168e-05    2.413317270e-05    0.000000000e+00    0.000000000e+00    0.000000000e+00    0.000000000e+00
      859750000   -3.104009666e-02    1.587055624e-02    2.199219580e-06    1.300611348e-05    0.000000000e+00    0.000000000e+00    0.000000000e+00    0.000000000e+00
      867000000   -3.031542338e-02    1.550426800e-02    9.194860468e-06    3.879787255e-05    0.000000000e+00    0.000000000e+00    0.000000000e+00    0.000000000e+00
      874250000   -3.041625582e-02    1.595402882e-02   -1.404268460e-05    1.224877360e-05    0.000000000e+00    0.000000000e+00    0.000000000e+00    0.000000000e+00
      881500000   -3.085087053e-02    1.584322751e-02    4.210512270e-05   -1.617176895e-05    0.000000000e+00    0.000000000e+00    0.000000000e+00    0.000000000e+00
      888750000   -3.017757088e-02    1.583386585e-02    9.968700397e-06   -2.562052759e-05    0.000000000e+00    0.000000000e+00    0.000000000e+00    0.000000000e+00
      896000000   -3.035119735e-02    1.617584936e-02   -2.579808461e-05    5.259898899e-05    0.000000000e+00    0.000000000e+00    0.000000000e+00    0.000000000e+00
      903250000   -2.969437465e-02    1.593334600e-02   -1.159362455e-05    1.943193092e-05    0.000000000e+00    0.000000000e+00    0.000000000e+00    0.000000000e+00
      910500000   -2.981154807e-02    1.589928754e-02    2.374810538e-05   -6.901052529e-06    0.000000000e+00    0.000000000e+00    0.000000000e+00    0.000000000e+00
      917750000   -2.989104949e-02    1.644587703e-02    5.165633752e-07   -2.769863568e-05    0.000000000e+00    0.000000000e+00    0.000000000e+00    0.000000000e+00
      925000000   -3.071638197e-02    1.618216373e-02    6.576228316e-06   -1.564342529e-05    0.000000000e+00    0.000000000e+00    0.000000000e+00    0.000000000e+00
      932250000   -2.954822592e-02    1.656636223e-02    2.611250238e-05    5.785079338e-06    0.000000000e+00    0.000000000e+00    0.000000000e+00    0.000000000e+00
      939500000   -2.974702977e-02    1.667532697e-02    1.078587843e-06    1.641385279e-05    0.000000000e+00    0.000000000e+00    0.000000000e+00    0.000000000e+00
      946750000   -2.994415164e-02    1.655465923e-02   -7.234696568e-06    2.885154208e-05    0.000000000e+00    0.000000000e+00    0.000000000e+00    0.000000000e+00
      954000000   -2.883089706e-02    1.637905650e-02   -1.963689283e-05   -2.751720604e-05    0.000000000e+00    0.000000000e+00    0.000000000e+00    0.000000000e+00
      961250000   -3.010168672e-02    1.675871387e-02    2.028359813e-05    4.181674012e-05    0.000000000e+00    0.000000000e+00    0.000000000e+00    0.000000000e+00
      968500000   -2.978810482e-02    1.712443493e-02   -1.016656097e-05   -3.828642548e-06    0.000000000e+00    0.000000000e+00    0.000000000e+00    0.000000000e+00
      975750000   -3.072178550e-02    1.706025191e-02    2.859185406e-05   -1.086031534e-05    0.000000000e+00    0.000000000e+00    0.000000000e+00    0.000000000e+00
      983000000   -2.927992865e-02    1.738194376e-02   -1.844978942e-05    3.773427352e-06    0.000000000e+00    0.000000000e+00    0.000000000e+00    0.000000000e+00
      990250000   -3.048574179e-02    1.749142632e-02    1.309809250e-05   -1.580875505e-05    0.000000000e+00    0.000000000e+00    0.000000000e+00    0.000000000e+00
      997500000   -2.973916568e-02    1.733493805e-02    2.453669731e-05   -2.822871284e-05    0.000000000e+00    0.000000000e+00    0.000000000e+00    0.000000000e+00
     1004750000   -2.920084447e-02    1.737749949e-02   -4.917083970e-06    2.783956734e-05    0.000000000e+00    0.000000000e+00    0.000000000e+00    0.000000000e+00
     1012000000   -2.942598239e-02    1.730987616e-02    2.286225936e-05   -9.330626199e-06    0.000000000e+00    0.000000000e+00    0.000000000e+00    0.000000000e+00
     1019250000   -2.887827531e-02    1.741554029e-02   -2.528081922e-08    5.201008662e-06    0.000000000e+00    0.000000000e+00    0.000000000e+00    0.000000000e+00
     1026500000   -2.914694510e-02    1.766555198e-02   -4.180652468e-06    5.189948297e-06    0.000000000e+00    0.000000000e+00    0.000000000e+00    0.000000000e+00
     1033750000   -2.977404185e-02    1.741750538e-02    1.902241092e-05    3.691785969e-05    0.000000000e+00    0.000000000e+00    0.000000000e+00    0.000000000e+00
     1041000000   -2.939923666e-02    1.805073768e-02   -2.313900404e-05    5.332999353e-05    0.000000000e+00    0.000000000e+00    0.000000000e+00    0.000000000e+00
