! NanoVNA-App by OneOfEleven et al v1.1.209 (+OD15) 
! Date: 2024-07-30 15:20:52
! Start: 200MHz Stop: 6GHz Points: 801
! S-Parameter data: F S11 S21 S12 S22
# Hz S RI R 50
!     Frequency           S11_Real           S11_Imag           S21_Real           S21_Imag           S12_Real           S12_Imag           S22_Real           S22_Imag
      200000000   -3.657795489e-02    3.314573783e-03    1.066290952e-05   -3.677194172e-06    0.000000000e+00    0.000000000e+00    0.000000000e+00    0.000000000e+00
      207250000   -3.695925698e-02    5.130459554e-03    1.215527482e-05    1.159066505e-05    0.000000000e+00    0.000000000e+00    0.000000000e+00    0.000000000e+00
      214500000   -3.778348491e-02    5.490080453e-03    2.144192149e-05    2.580518412e-05    0.000000000e+00    0.000000000e+00    0.000000000e+00    0.000000000e+00
      221750000   -3.602924943e-02    4.210943822e-03    2.770592982e-05    4.855685256e-05    0.000000000e+00    0.000000000e+00    0.000000000e+00    0.000000000e+00
      229000000   -3.611044213e-02    4.810736515e-03    3.039379180e-06    1.583325684e-05    0.000000000e+00    0.000000000e+00    0.000000000e+00    0.000000000e+00
      236250000   -3.597435728e-02    4.763934296e-03    2.337304977e-05   -6.525550361e-06    0.000000000e+00    0.000000000e+00    0.000000000e+00    0.000000000e+00
      243500000   -3.602650389e-02    5.491216201e-03    1.001274768e-06   -3.658213973e-05    0.000000000e+00    0.000000000e+00    0.000000000e+00    0.000000000e+00
      250750000   -3.703293204e-02    6.109801587e-03   -8.042230547e-06    2.773842425e-05    0.000000000e+00    0.000000000e+00    0.000000000e+00    0.000000000e+00
      258000000   -3.649083152e-02    5.331712309e-03   -3.225115870e-05    3.121968348e-06    0.000000000e+00    0.000000000e+00    0.000000000e+00    0.000000000e+00
      265250000   -3.713701665e-02    7.125043310e-03    1.212877669e-05   -4.990978141e-06    0.000000000e+00    0.000000000e+00    0.000000000e+00    0.000000000e+00
      272500000   -3.619311750e-02    6.214779336e-03    2.374827091e-05    7.898578588e-06    0.000000000e+00    0.000000000e+00    0.000000000e+00    0.000000000e+00
      279750000   -3.594604880e-02    5.547614302e-03   -1.753568540e-05    3.791310155e-05    0.000000000e+00    0.000000000e+00    0.000000000e+00    0.000000000e+00
      287000000   -3.724829108e-02    6.199128926e-03   -6.509849868e-07   -3.827976616e-05    0.000000000e+00    0.000000000e+00    0.000000000e+00    0.000000000e+00
      294250000   -3.632516786e-02    6.141825113e-03   -1.294378080e-06   -1.678530498e-05    0.000000000e+00    0.000000000e+00    0.000000000e+00    0.000000000e+00
      301500000   -3.614316508e-02    6.185983308e-03   -3.964556163e-05    8.700891158e-06    0.000000000e+00    0.000000000e+00    0.000000000e+00    0.000000000e+00
      308750000   -3.682656586e-02    7.872004993e-03    4.583022019e-05    1.948784120e-05    0.000000000e+00    0.000000000e+00    0.000000000e+00    0.000000000e+00
      316000000   -3.593746573e-02    6.346391980e-03   -5.323243022e-05   -2.454662899e-05    0.000000000e+00    0.000000000e+00    0.000000000e+00    0.000000000e+00
      323250000   -3.550555184e-02    6.633428391e-03    1.673600491e-05   -3.556527736e-05    0.000000000e+00    0.000000000e+00    0.000000000e+00    0.000000000e+00
      330500000   -3.533697873e-02    7.074622437e-03   -1.286666065e-05   -1.719466013e-06    0.000000000e+00    0.000000000e+00    0.000000000e+00    0.000000000e+00
      337750000   -3.622421995e-02    6.429885514e-03   -2.757036600e-05   -4.053178054e-05    0.000000000e+00    0.000000000e+00    0.000000000e+00    0.000000000e+00
      345000000   -3.463029861e-02    6.491346285e-03    1.047872320e-05    8.998457815e-06    0.000000000e+00    0.000000000e+00    0.000000000e+00    0.000000000e+00
      352250000   -3.582534194e-02    7.299172226e-03   -4.956056728e-05    6.598825621e-06    0.000000000e+00    0.000000000e+00    0.000000000e+00    0.000000000e+00
      359500000   -3.557936475e-02    7.239604834e-03   -9.759163731e-06    2.033626151e-05    0.000000000e+00    0.000000000e+00    0.000000000e+00    0.000000000e+00
      366750000   -3.621301427e-02    7.633094676e-03    7.643425306e-06    2.744899211e-05    0.000000000e+00    0.000000000e+00    0.000000000e+00    0.000000000e+00
      374000000   -3.612491116e-02    7.983214222e-03   -3.131040648e-05   -1.874534610e-05    0.000000000e+00    0.000000000e+00    0.000000000e+00    0.000000000e+00
      381250000   -3.435235098e-02    8.214888163e-03    2.107258661e-05    1.069628343e-05    0.000000000e+00    0.000000000e+00    0.000000000e+00    0.000000000e+00
      388500000   -3.516516462e-02    8.273964748e-03    2.772731386e-05    2.297165338e-05    0.000000000e+00    0.000000000e+00    0.000000000e+00    0.000000000e+00
      395750000   -3.611337021e-02    8.378631435e-03   -2.644853703e-05    2.131363726e-05    0.000000000e+00    0.000000000e+00    0.000000000e+00    0.000000000e+00
      403000000   -3.521176800e-02    8.456031792e-03    1.144705129e-05   -5.644710836e-05    0.000000000e+00    0.000000000e+00    0.000000000e+00    0.000000000e+00
      410250000   -3.502939641e-02    8.086739108e-03   -2.193719865e-06    3.609487976e-05    0.000000000e+00    0.000000000e+00    0.000000000e+00    0.000000000e+00
      417500000   -3.614256158e-02    8.084636182e-03    1.506520130e-05    6.354281368e-07    0.000000000e+00    0.000000000e+00    0.000000000e+00    0.000000000e+00
      424750000   -3.457393497e-02    8.791444823e-03   -4.246218396e-06   -2.927368587e-05    0.000000000e+00    0.000000000e+00    0.000000000e+00    0.000000000e+00
      432000000   -3.577615321e-02    9.056388400e-03   -2.191816566e-05   -2.013635094e-05    0.000000000e+00    0.000000000e+00    0.000000000e+00    0.000000000e+00
      439250000   -3.540202975e-02    8.986025117e-03   -3.663716416e-05   -9.894959476e-06    0.000000000e+00    0.000000000e+00    0.000000000e+00    0.000000000e+00
      446500000   -3.484472632e-02    9.123809636e-03    3.240343176e-06    1.472398344e-05    0.000000000e+00    0.000000000e+00    0.000000000e+00    0.000000000e+00
      453750000   -3.492582589e-02    9.285429493e-03   -5.957515896e-06   -5.500452062e-06    0.000000000e+00    0.000000000e+00    0.000000000e+00    0.000000000e+00
      461000000   -3.490846604e-02    9.718022309e-03    2.072929783e-05   -2.020978172e-05    0.000000000e+00    0.000000000e+00    0.000000000e+00    0.000000000e+00
      468250000   -3.464043140e-02    1.010714192e-02    1.312504082e-05   -3.771961201e-05    0.000000000e+00    0.000000000e+00    0.000000000e+00    0.000000000e+00
      475500000   -3.522634879e-02    1.017407887e-02    1.763466207e-05   -2.189911584e-06    0.000000000e+00    0.000000000e+00    0.000000000e+00    0.000000000e+00
      482750000   -3.428156301e-02    1.014251448e-02    1.051151048e-05   -1.394011360e-05    0.000000000e+00    0.000000000e+00    0.000000000e+00    0.000000000e+00
      490000000   -3.495044634e-02    9.732349776e-03   -3.569025648e-05   -3.933427251e-06    0.000000000e+00    0.000000000e+00    0.000000000e+00    0.000000000e+00
      497250000   -3.459285572e-02    1.009152271e-02    2.309975935e-05    4.407719462e-05    0.000000000e+00    0.000000000e+00    0.000000000e+00    0.000000000e+00
      504500000   -3.461856022e-02    9.897666983e-03    2.686510379e-05    4.856144642e-06    0.000000000e+00    0.000000000e+00    0.000000000e+00    0.000000000e+00
      511750000   -3.452326357e-02    9.941643104e-03    1.054496443e-05    2.142974722e-07    0.000000000e+00    0.000000000e+00    0.000000000e+00    0.000000000e+00
      519000000   -3.456344828e-02    1.114400476e-02    4.127326974e-05   -2.224750006e-06    0.000000000e+00    0.000000000e+00    0.000000000e+00    0.000000000e+00
      526250000   -3.394046053e-02    1.083292253e-02   -2.410910747e-05   -1.383273684e-05    0.000000000e+00    0.000000000e+00    0.000000000e+00    0.000000000e+00
      533500000   -3.399294615e-02    1.065604575e-02   -4.506553523e-06   -1.673141924e-05    0.000000000e+00    0.000000000e+00    0.000000000e+00    0.000000000e+00
      540750000   -3.440340236e-02    1.115581021e-02    3.598187959e-06    9.317561307e-06    0.000000000e+00    0.000000000e+00    0.000000000e+00    0.000000000e+00
      548000000   -3.460432217e-02    1.065417472e-02   -1.382161463e-05   -1.969548748e-06    0.000000000e+00    0.000000000e+00    0.000000000e+00    0.000000000e+00
      555250000   -3.355924040e-02    1.087370142e-02    2.943749496e-05    2.642825893e-05    0.000000000e+00    0.000000000e+00    0.000000000e+00    0.000000000e+00
      562500000   -3.429878131e-02    1.125915628e-02   -1.688071825e-05   -1.375847432e-06    0.000000000e+00    0.000000000e+00    0.000000000e+00    0.000000000e+00
      569750000   -3.458156437e-02    1.172496937e-02    1.192437708e-06   -1.883222285e-05    0.000000000e+00    0.000000000e+00    0.000000000e+00    0.000000000e+00
      577000000   -3.408737108e-02    1.194946188e-02    3.322673729e-05   -3.088815720e-05    0.000000000e+00    0.000000000e+00    0.000000000e+00    0.000000000e+00
      584250000   -3.443725035e-02    1.205605827e-02    9.720362186e-07    2.021880391e-06    0.000000000e+00    0.000000000e+00    0.000000000e+00    0.000000000e+00
      591500000   -3.363307938e-02    1.161717437e-02    2.207498710e-06   -6.813163964e-06    0.000000000e+00    0.000000000e+00    0.000000000e+00    0.000000000e+00
      598750000   -3.420602530e-02    1.191717759e-02    4.324917973e-05   -1.932862870e-05    0.000000000e+00    0.000000000e+00    0.000000000e+00    0.000000000e+00
      606000000   -3.414624557e-02    1.211910415e-02    3.646544792e-05    6.956626294e-06    0.000000000e+00    0.000000000e+00    0.000000000e+00    0.000000000e+00
      613250000   -3.494339436e-02    1.190116629e-02    4.295587132e-06   -5.006223728e-05    0.000000000e+00    0.000000000e+00    0.000000000e+00    0.000000000e+00
      620500000   -3.307763860e-02    1.260219701e-02   -3.454830949e-05   -2.107220644e-05    0.000000000e+00    0.000000000e+00    0.000000000e+00    0.000000000e+00
      627750000   -3.389567509e-02    1.299562026e-02    4.628261195e-06   -1.366809101e-05    0.000000000e+00    0.000000000e+00    0.000000000e+00    0.000000000e+00
      635000000   -3.317115456e-02    1.223873440e-02   -2.400639642e-05   -1.000333032e-05    0.000000000e+00    0.000000000e+00    0.000000000e+00    0.000000000e+00
      642250000   -3.380581364e-02    1.225750521e-02    2.301917266e-05   -1.045421322e-05    0.000000000e+00    0.000000000e+00    0.000000000e+00    0.000000000e+00
      649500000   -3.335249424e-02    1.294266433e-02    1.935394721e-05    3.019398355e-05    0.000000000e+00    0.000000000e+00    0.000000000e+00    0.000000000e+00
      656750000   -3.287767619e-02    1.309173647e-02   -6.495291018e-05   -4.624143912e-06    0.000000000e+00    0.000000000e+00    0.000000000e+00    0.000000000e+00
      664000000   -3.266602010e-02    1.307175588e-02   -1.860720658e-05    3.293269037e-05    0.000000000e+00    0.000000000e+00    0.000000000e+00    0.000000000e+00
      671250000   -3.249489516e-02    1.235708222e-02   -1.129201905e-06   -1.966235504e-05    0.000000000e+00    0.000000000e+00    0.000000000e+00    0.000000000e+00
      678500000   -3.288593516e-02    1.306649391e-02    2.438757838e-05    1.089392026e-05    0.000000000e+00    0.000000000e+00    0.000000000e+00    0.000000000e+00
      685750000   -3.309334442e-02    1.301159337e-02   -4.716414696e-05    1.984580877e-06    0.000000000e+00    0.000000000e+00    0.000000000e+00    0.000000000e+00
      693000000   -3.226228803e-02    1.338261366e-02   -2.954344745e-05   -4.271626949e-06    0.000000000e+00    0.000000000e+00    0.000000000e+00    0.000000000e+00
      700250000   -3.497461975e-02    1.362213120e-02    7.966133126e-06   -7.621898931e-06    0.000000000e+00    0.000000000e+00    0.000000000e+00    0.000000000e+00
      707500000   -3.103645146e-02    1.356221270e-02    3.334255553e-06   -3.891479537e-06    0.000000000e+00    0.000000000e+00    0.000000000e+00    0.000000000e+00
      714750000   -3.293718398e-02    1.367897261e-02    3.918677976e-06   -8.721142876e-06    0.000000000e+00    0.000000000e+00    0.000000000e+00    0.000000000e+00
      722000000   -3.126048297e-02    1.337815449e-02   -1.607324157e-05   -1.409406286e-05    0.000000000e+00    0.000000000e+00    0.000000000e+00    0.000000000e+00
      729250000   -3.275271133e-02    1.356700528e-02    2.293501439e-06   -3.267158718e-06    0.000000000e+00    0.000000000e+00    0.000000000e+00    0.000000000e+00
      736500000   -3.187483177e-02    1.377636101e-02   -3.540829084e-06   -1.322699336e-05    0.000000000e+00    0.000000000e+00    0.000000000e+00    0.000000000e+00
      743750000   -3.210952505e-02    1.436626259e-02    6.254967047e-06    1.800754580e-05    0.000000000e+00    0.000000000e+00    0.000000000e+00    0.000000000e+00
      751000000   -3.194732592e-02    1.395072322e-02   -5.624145342e-05   -2.142770199e-06    0.000000000e+00    0.000000000e+00    0.000000000e+00    0.000000000e+00
      758250000   -3.227484226e-02    1.399874780e-02    1.017402337e-05   -1.417841486e-05    0.000000000e+00    0.000000000e+00    0.000000000e+00    0.000000000e+00
      765500000   -3.183992207e-02    1.422822848e-02   -6.573106475e-06   -2.196220885e-05    0.000000000e+00    0.000000000e+00    0.000000000e+00    0.000000000e+00
      772750000   -3.226036206e-02    1.420932263e-02   -4.276640175e-05   -1.879805495e-05    0.000000000e+00    0.000000000e+00    0.000000000e+00    0.000000000e+00
      780000000   -3.204700723e-02    1.489977818e-02    1.389236331e-05    1.052248444e-05    0.000000000e+00    0.000000000e+00    0.000000000e+00    0.000000000e+00
      787250000   -3.184854612e-02    1.457284205e-02    4.176015864e-06    3.738278610e-05    0.000000000e+00    0.000000000e+00    0.000000000e+00    0.000000000e+00
      794500000   -3.159879521e-02    1.462106500e-02    1.089568832e-05   -1.107036860e-05    0.000000000e+00    0.000000000e+00    0.000000000e+00    0.000000000e+00
      801750000   -3.170998767e-02    1.483967807e-02   -1.221243565e-05    4.184994759e-05    0.000000000e+00    0.000000000e+00    0.000000000e+00    0.000000000e+00
      809000000   -3.106772900e-02    1.463572029e-02    4.428541433e-05   -3.267224020e-05    0.000000000e+00    0.000000000e+00    0.000000000e+00    0.000000000e+00
      816250000   -3.162387758e-02    1.464414690e-02    1.158389387e-05   -3.184341767e-05    0.000000000e+00    0.000000000e+00    0.000000000e+00    0.000000000e+00
      823500000   -3.114588931e-02    1.511033718e-02   -1.182664278e-06    1.153116682e-05    0.000000000e+00    0.000000000e+00    0.000000000e+00    0.000000000e+00
      830750000   -3.123669885e-02    1.551432069e-02   -2.832435257e-06    2.103975748e-05    0.000000000e+00    0.000000000e+00    0.000000000e+00    0.000000000e+00
      838000000   -3.097803891e-02    1.518370397e-02    2.078838043e-05   -2.025001231e-05    0.000000000e+00    0.000000000e+00    0.000000000e+00    0.000000000e+00
      845250000   -3.075459599e-02    1.543957368e-02    1.823119783e-05    3.320458200e-05    0.000000000e+00    0.000000000e+00    0.000000000e+00    0.000000000e+00
      852500000   -3.125237301e-02    1.546300855e-02   -4.389154128e-05    2.302012035e-06    0.000000000e+00    0.000000000e+00    0.000000000e+00    0.000000000e+00
      859750000   -3.083352558e-02    1.581457444e-02    4.982112296e-05    1.587264524e-05    0.000000000e+00    0.000000000e+00    0.000000000e+00    0.000000000e+00
      867000000   -3.021183610e-02    1.548357867e-02    4.532543699e-06    3.889905202e-06    0.000000000e+00    0.000000000e+00    0.000000000e+00    0.000000000e+00
      874250000   -3.057314456e-02    1.591653004e-02   -1.737128150e-05    2.780378054e-05    0.000000000e+00    0.000000000e+00    0.000000000e+00    0.000000000e+00
      881500000   -3.134846315e-02    1.584210806e-02    3.125237708e-05    1.877841896e-05    0.000000000e+00    0.000000000e+00    0.000000000e+00    0.000000000e+00
      888750000   -3.019353189e-02    1.601738110e-02   -5.341250016e-06   -2.746745486e-05    0.000000000e+00    0.000000000e+00    0.000000000e+00    0.000000000e+00
      896000000   -3.022710606e-02    1.587339677e-02   -1.095923199e-05    4.442463251e-05    0.000000000e+00    0.000000000e+00    0.000000000e+00    0.000000000e+00
      903250000   -2.963666618e-02    1.583772711e-02    1.266012441e-05    1.176669457e-06    0.000000000e+00    0.000000000e+00    0.000000000e+00    0.000000000e+00
      910500000   -3.048598953e-02    1.649171114e-02    2.781624244e-05    8.430282833e-06    0.000000000e+00    0.000000000e+00    0.000000000e+00    0.000000000e+00
      917750000   -2.970856801e-02    1.593714207e-02   -1.681152207e-05   -3.483644105e-05    0.000000000e+00    0.000000000e+00    0.000000000e+00    0.000000000e+00
      925000000   -3.013482504e-02    1.611315645e-02   -4.984630505e-05   -7.339658623e-05    0.000000000e+00    0.000000000e+00    0.000000000e+00    0.000000000e+00
      932250000   -3.015721776e-02    1.651776023e-02   -3.982881481e-06    2.332191980e-05    0.000000000e+00    0.000000000e+00    0.000000000e+00    0.000000000e+00
      939500000   -2.992667444e-02    1.635147817e-02    1.612432243e-05   -6.374948498e-07    0.000000000e+00    0.000000000e+00    0.000000000e+00    0.000000000e+00
      946750000   -2.954912744e-02    1.687958091e-02    4.103701212e-05    9.882521226e-06    0.000000000e+00    0.000000000e+00    0.000000000e+00    0.000000000e+00
      954000000   -2.924404480e-02    1.647916809e-02   -7.050755084e-05   -2.238526940e-05    0.000000000e+00    0.000000000e+00    0.000000000e+00    0.000000000e+00
      961250000   -3.022571094e-02    1.679923013e-02    1.778119440e-05   -2.408469300e-05    0.000000000e+00    0.000000000e+00    0.000000000e+00    0.000000000e+00
      968500000   -2.956021577e-02    1.707520150e-02   -1.469186282e-05   -5.988368684e-06    0.000000000e+00    0.000000000e+00    0.000000000e+00    0.000000000e+00
      975750000   -3.074165992e-02    1.704723202e-02    1.764691478e-05   -2.997013144e-05    0.000000000e+00    0.000000000e+00    0.000000000e+00    0.000000000e+00
      983000000   -2.907937951e-02    1.734003611e-02    2.250575926e-05    3.122365888e-05    0.000000000e+00    0.000000000e+00    0.000000000e+00    0.000000000e+00
      990250000   -2.980077267e-02    1.761807129e-02   -1.910594705e-07    7.867373824e-06    0.000000000e+00    0.000000000e+00    0.000000000e+00    0.000000000e+00
      997500000   -2.943769284e-02    1.753025502e-02    6.985983418e-06    4.283907765e-05    0.000000000e+00    0.000000000e+00    0.000000000e+00    0.000000000e+00
     1004750000   -2.874372527e-02    1.730576716e-02    2.016594226e-05    2.330104871e-05    0.000000000e+00    0.000000000e+00    0.000000000e+00    0.000000000e+00
     1012000000   -2.938077413e-02    1.738510281e-02   -2.504545409e-05    2.338414106e-06    0.000000000e+00    0.000000000e+00    0.000000000e+00    0.000000000e+00
     1019250000   -2.938269265e-02    1.721251942e-02   -7.120890587e-06   -4.780004019e-05    0.000000000e+00    0.000000000e+00    0.000000000e+00    0.000000000e+00
     1026500000   -2.910537831e-02    1.716342382e-02   -1.108178822e-05    9.869605719e-07    0.000000000e+00    0.000000000e+00    0.000000000e+00    0.000000000e+00
     1033750000   -2.959135920e-02    1.745044068e-02   -9.604613297e-06    5.736256753e-06    0.000000000e+00    0.000000000e+00    0.000000000e+00    0.000000000e+00
     1041000000   -2.870345674e-02    1.777917147e-02    1.916028668e-05   -2.468958155e-05    0.000000000e+00    0.000000000e+00    0.000000000e+00    0.000000000e+00
