! NanoVNA-App by OneOfEleven et al v1.1.209 (+OD15) 
! Date: 2024-07-30 15:20:38
! Start: 200MHz Stop: 6GHz Points: 801
! S-Parameter data: F S11 S21 S12 S22
# Hz S RI R 50
!     Frequency           S11_Real           S11_Imag           S21_Real           S21_Imag           S12_Real           S12_Imag           S22_Real           S22_Imag
      200000000   -3.587263823e-02    4.356756806e-03   -4.395340966e-06   -2.360658073e-05    0.000000000e+00    0.000000000e+00    0.000000000e+00    0.000000000e+00
      207250000   -3.626368940e-02    4.508665297e-03    1.210874325e-05    1.871897621e-05    0.000000000e+00    0.000000000e+00    0.000000000e+00    0.000000000e+00
      214500000   -3.727130219e-02    5.920129828e-03   -1.403355691e-05    3.348658720e-05    0.000000000e+00    0.000000000e+00    0.000000000e+00    0.000000000e+00
      221750000   -3.691265732e-02    4.767369013e-03   -2.983873173e-06   -3.414588718e-05    0.000000000e+00    0.000000000e+00    0.000000000e+00    0.000000000e+00
      229000000   -3.685677424e-02    5.222935695e-03   -2.884811329e-05   -1.412901042e-06    0.000000000e+00    0.000000000e+00    0.000000000e+00    0.000000000e+00
      236250000   -3.611079603e-02    4.521024879e-03    3.436724000e-05   -1.549773515e-05    0.000000000e+00    0.000000000e+00    0.000000000e+00    0.000000000e+00
      243500000   -3.594153747e-02    5.841660779e-03   -7.332354471e-06    8.773421541e-06    0.000000000e+00    0.000000000e+00    0.000000000e+00    0.000000000e+00
      250750000   -3.723572195e-02    6.316035055e-03   -2.564900933e-05   -2.606609996e-05    0.000000000e+00    0.000000000e+00    0.000000000e+00    0.000000000e+00
      258000000   -3.640509397e-02    6.312615704e-03    1.397717733e-05   -2.634369048e-05    0.000000000e+00    0.000000000e+00    0.000000000e+00    0.000000000e+00
      265250000   -3.742734343e-02    6.912319921e-03   -1.559815701e-06   -4.196670488e-06    0.000000000e+00    0.000000000e+00    0.000000000e+00    0.000000000e+00
      272500000   -3.509632871e-02    5.509786308e-03   -2.262221278e-05    1.884642370e-05    0.000000000e+00    0.000000000e+00    0.000000000e+00    0.000000000e+00
      279750000   -3.650700301e-02    6.303628907e-03   -1.821255319e-05   -5.189099829e-05    0.000000000e+00    0.000000000e+00    0.000000000e+00    0.000000000e+00
      287000000   -3.652152419e-02    6.392084993e-03   -1.744332621e-06   -4.071706280e-05    0.000000000e+00    0.000000000e+00    0.000000000e+00    0.000000000e+00
      294250000   -3.621723875e-02    6.843442097e-03   -3.107142038e-05    7.087575113e-07    0.000000000e+00    0.000000000e+00    0.000000000e+00    0.000000000e+00
      301500000   -3.633128852e-02    6.610075478e-03   -2.165870683e-05    1.002814224e-05    0.000000000e+00    0.000000000e+00    0.000000000e+00    0.000000000e+00
      308750000   -3.573048115e-02    7.617828436e-03    1.759891347e-05   -3.221263978e-05    0.000000000e+00    0.000000000e+00    0.000000000e+00    0.000000000e+00
      316000000   -3.589510173e-02    5.991980433e-03    6.205314094e-06   -2.280079116e-06    0.000000000e+00    0.000000000e+00    0.000000000e+00    0.000000000e+00
      323250000   -3.589065000e-02    7.072929759e-03   -2.164483885e-05   -4.231386993e-05    0.000000000e+00    0.000000000e+00    0.000000000e+00    0.000000000e+00
      330500000   -3.615307435e-02    6.555577740e-03    1.971277925e-05    1.880129457e-05    0.000000000e+00    0.000000000e+00    0.000000000e+00    0.000000000e+00
      337750000   -3.559798002e-02    6.296139676e-03   -7.238195849e-06    3.539995532e-06    0.000000000e+00    0.000000000e+00    0.000000000e+00    0.000000000e+00
      345000000   -3.530618921e-02    6.764250342e-03   -3.460398148e-05    2.149788270e-05    0.000000000e+00    0.000000000e+00    0.000000000e+00    0.000000000e+00
      352250000   -3.597110882e-02    7.345830090e-03    1.806959517e-06    1.319425701e-05    0.000000000e+00    0.000000000e+00    0.000000000e+00    0.000000000e+00
      359500000   -3.484537452e-02    7.307186723e-03    5.365800462e-05   -6.212825610e-06    0.000000000e+00    0.000000000e+00    0.000000000e+00    0.000000000e+00
      366750000   -3.571787849e-02    7.441003341e-03    1.122381718e-06   -1.144024372e-05    0.000000000e+00    0.000000000e+00    0.000000000e+00    0.000000000e+00
      374000000   -3.497768566e-02    7.191726938e-03    1.236046319e-05    4.170969078e-06    0.000000000e+00    0.000000000e+00    0.000000000e+00    0.000000000e+00
      381250000   -3.489439189e-02    7.267397828e-03   -2.715508708e-05   -6.539720926e-05    0.000000000e+00    0.000000000e+00    0.000000000e+00    0.000000000e+00
      388500000   -3.532735258e-02    8.693515323e-03    1.096624055e-05    8.153449926e-06    0.000000000e+00    0.000000000e+00    0.000000000e+00    0.000000000e+00
      395750000   -3.511645272e-02    8.107803762e-03   -3.158792970e-05   -4.678382902e-05    0.000000000e+00    0.000000000e+00    0.000000000e+00    0.000000000e+00
      403000000   -3.558230028e-02    8.237292990e-03   -9.575937838e-07   -1.594782407e-05    0.000000000e+00    0.000000000e+00    0.000000000e+00    0.000000000e+00
      410250000   -3.500742465e-02    8.528671227e-03    2.014156416e-05   -8.495189832e-06    0.000000000e+00    0.000000000e+00    0.000000000e+00    0.000000000e+00
      417500000   -3.566358611e-02    8.474471048e-03   -1.397744313e-06   -2.556366417e-05    0.000000000e+00    0.000000000e+00    0.000000000e+00    0.000000000e+00
      424750000   -3.484941274e-02    8.436301723e-03   -2.370625771e-05    2.753830631e-05    0.000000000e+00    0.000000000e+00    0.000000000e+00    0.000000000e+00
      432000000   -3.473642841e-02    8.258421905e-03   -9.152959137e-06    6.677551028e-06    0.000000000e+00    0.000000000e+00    0.000000000e+00    0.000000000e+00
      439250000   -3.510497883e-02    9.078614414e-03   -2.198279071e-05   -2.241370566e-05    0.000000000e+00    0.000000000e+00    0.000000000e+00    0.000000000e+00
      446500000   -3.428739682e-02    9.385130368e-03    3.273504262e-06   -3.674691106e-05    0.000000000e+00    0.000000000e+00    0.000000000e+00    0.000000000e+00
      453750000   -3.506781161e-02    9.739754722e-03    1.567830623e-05   -1.142762699e-06    0.000000000e+00    0.000000000e+00    0.000000000e+00    0.000000000e+00
      461000000   -3.497403860e-02    9.944660589e-03    2.230527571e-05   -6.429025962e-05    0.000000000e+00    0.000000000e+00    0.000000000e+00    0.000000000e+00
      468250000   -3.449418396e-02    9.353854693e-03    1.812346090e-05   -5.279399920e-05    0.000000000e+00    0.000000000e+00    0.000000000e+00    0.000000000e+00
      475500000   -3.536007926e-02    9.900008328e-03    4.396883014e-05   -3.337154340e-06    0.000000000e+00    0.000000000e+00    0.000000000e+00    0.000000000e+00
      482750000   -3.440024331e-02    1.036407426e-02   -1.374578096e-05    1.003786110e-05    0.000000000e+00    0.000000000e+00    0.000000000e+00    0.000000000e+00
      490000000   -3.414998204e-02    9.558652528e-03   -2.054899414e-05    9.576360753e-06    0.000000000e+00    0.000000000e+00    0.000000000e+00    0.000000000e+00
      497250000   -3.460044786e-02    1.000735071e-02    1.160075863e-05    6.132399903e-06    0.000000000e+00    0.000000000e+00    0.000000000e+00    0.000000000e+00
      504500000   -3.438668698e-02    9.928585030e-03   -5.166668416e-06    1.390713442e-05    0.000000000e+00    0.000000000e+00    0.000000000e+00    0.000000000e+00
      511750000   -3.444410115e-02    1.061183028e-02   -1.199571034e-05    6.931009921e-06    0.000000000e+00    0.000000000e+00    0.000000000e+00    0.000000000e+00
      519000000   -3.464647382e-02    1.105703693e-02   -1.868419167e-05    1.745004556e-05    0.000000000e+00    0.000000000e+00    0.000000000e+00    0.000000000e+00
      526250000   -3.405761346e-02    1.099435240e-02    9.508499716e-06   -3.491166717e-05    0.000000000e+00    0.000000000e+00    0.000000000e+00    0.000000000e+00
      533500000   -3.392421454e-02    1.066027302e-02   -2.163199315e-05    1.121287551e-05    0.000000000e+00    0.000000000e+00    0.000000000e+00    0.000000000e+00
      540750000   -3.458260000e-02    1.037731115e-02    3.953035775e-05   -4.529249782e-05    0.000000000e+00    0.000000000e+00    0.000000000e+00    0.000000000e+00
      548000000   -3.474470228e-02    1.141209155e-02   -1.242531926e-05    3.300459139e-05    0.000000000e+00    0.000000000e+00    0.000000000e+00    0.000000000e+00
      555250000   -3.418872505e-02    1.125619654e-02    1.335829802e-05   -4.275323226e-05    0.000000000e+00    0.000000000e+00    0.000000000e+00    0.000000000e+00
      562500000   -3.426860645e-02    1.140137948e-02    4.547581284e-06    1.893091030e-05    0.000000000e+00    0.000000000e+00    0.000000000e+00    0.000000000e+00
      569750000   -3.445643187e-02    1.145250071e-02    2.712126275e-07    5.053198493e-06    0.000000000e+00    0.000000000e+00    0.000000000e+00    0.000000000e+00
      577000000   -3.367689624e-02    1.191211212e-02   -1.426520521e-05    1.577318108e-05    0.000000000e+00    0.000000000e+00    0.000000000e+00    0.000000000e+00
      584250000   -3.413005173e-02    1.120665483e-02   -1.544458974e-05   -5.410360245e-05    0.000000000e+00    0.000000000e+00    0.000000000e+00    0.000000000e+00
      591500000   -3.345014527e-02    1.131260488e-02   -2.841603600e-05   -1.451111439e-05    0.000000000e+00    0.000000000e+00    0.000000000e+00    0.000000000e+00
      598750000   -3.404136747e-02    1.149186771e-02    3.518848462e-05   -1.259983128e-05    0.000000000e+00    0.000000000e+00    0.000000000e+00    0.000000000e+00
      606000000   -3.437571228e-02    1.186384540e-02    2.585101902e-05   -4.410583279e-05    0.000000000e+00    0.000000000e+00    0.000000000e+00    0.000000000e+00
      613250000   -3.378081694e-02    1.205977611e-02    4.014538263e-06   -7.383530374e-06    0.000000000e+00    0.000000000e+00    0.000000000e+00    0.000000000e+00
      620500000   -3.255148605e-02    1.194008719e-02   -2.028303925e-06    2.578354361e-05    0.000000000e+00    0.000000000e+00    0.000000000e+00    0.000000000e+00
      627750000   -3.427572176e-02    1.289384440e-02    1.748600516e-05   -4.425177735e-07    0.000000000e+00    0.000000000e+00    0.000000000e+00    0.000000000e+00
      635000000   -3.303265199e-02    1.263112109e-02    3.776272933e-05    7.321890007e-05    0.000000000e+00    0.000000000e+00    0.000000000e+00    0.000000000e+00
      642250000   -3.264072910e-02    1.259193849e-02   -2.916501217e-05    1.053431970e-05    0.000000000e+00    0.000000000e+00    0.000000000e+00    0.000000000e+00
      649500000   -3.378799185e-02    1.264907978e-02   -3.327984086e-05    8.235216228e-06    0.000000000e+00    0.000000000e+00    0.000000000e+00    0.000000000e+00
      656750000   -3.312207758e-02    1.315712463e-02   -7.656775779e-06    2.965530803e-05    0.000000000e+00    0.000000000e+00    0.000000000e+00    0.000000000e+00
      664000000   -3.312323615e-02    1.288425364e-02   -3.049288898e-05    3.596883971e-06    0.000000000e+00    0.000000000e+00    0.000000000e+00    0.000000000e+00
      671250000   -3.338965029e-02    1.246027742e-02   -6.704112366e-06   -1.773731492e-05    0.000000000e+00    0.000000000e+00    0.000000000e+00    0.000000000e+00
      678500000   -3.335486725e-02    1.310565788e-02   -6.274957286e-06   -1.073599606e-06    0.000000000e+00    0.000000000e+00    0.000000000e+00    0.000000000e+00
      685750000   -3.286228701e-02    1.285226550e-02   -3.067318346e-07    9.306277207e-06    0.000000000e+00    0.000000000e+00    0.000000000e+00    0.000000000e+00
      693000000   -3.296539560e-02    1.313404460e-02   -1.217333465e-05   -8.070372814e-07    0.000000000e+00    0.000000000e+00    0.000000000e+00    0.000000000e+00
      700250000   -3.375792876e-02    1.309191808e-02    1.925625656e-05   -2.695318108e-05    0.000000000e+00    0.000000000e+00    0.000000000e+00    0.000000000e+00
      707500000   -3.301532194e-02    1.378283463e-02   -1.163944671e-05   -3.229422191e-06    0.000000000e+00    0.000000000e+00    0.000000000e+00    0.000000000e+00
      714750000   -3.454669565e-02    1.312013716e-02   -1.048489412e-05    1.417733711e-05    0.000000000e+00    0.000000000e+00    0.000000000e+00    0.000000000e+00
      722000000   -3.081506677e-02    1.379413716e-02    6.528971880e-06    2.296630737e-05    0.000000000e+00    0.000000000e+00    0.000000000e+00    0.000000000e+00
      729250000   -3.215766698e-02    1.351321116e-02   -2.064462569e-05   -3.365892917e-05    0.000000000e+00    0.000000000e+00    0.000000000e+00    0.000000000e+00
      736500000   -3.195489570e-02    1.367613487e-02   -2.707109707e-05   -8.422429346e-06    0.000000000e+00    0.000000000e+00    0.000000000e+00    0.000000000e+00
      743750000   -3.225703537e-02    1.355380658e-02    2.196150126e-05    9.559571481e-07    0.000000000e+00    0.000000000e+00    0.000000000e+00    0.000000000e+00
      751000000   -3.227962926e-02    1.426874753e-02   -1.116566455e-05   -2.962948656e-06    0.000000000e+00    0.000000000e+00    0.000000000e+00    0.000000000e+00
      758250000   -3.250213340e-02    1.415085979e-02   -3.560083996e-06   -1.392717422e-05    0.000000000e+00    0.000000000e+00    0.000000000e+00    0.000000000e+00
      765500000   -3.172163665e-02    1.400618348e-02   -2.667153967e-05   -3.407846805e-07    0.000000000e+00    0.000000000e+00    0.000000000e+00    0.000000000e+00
      772750000   -3.158058971e-02    1.412534434e-02    2.491726264e-05   -2.706428495e-05    0.000000000e+00    0.000000000e+00    0.000000000e+00    0.000000000e+00
      780000000   -3.171851858e-02    1.440946199e-02   -2.075355223e-05   -3.096526052e-05    0.000000000e+00    0.000000000e+00    0.000000000e+00    0.000000000e+00
      787250000   -3.161156923e-02    1.474821568e-02    6.607286196e-06   -4.296184670e-06    0.000000000e+00    0.000000000e+00    0.000000000e+00    0.000000000e+00
      794500000   -3.091671877e-02    1.455490477e-02   -3.606153041e-05    1.301251814e-05    0.000000000e+00    0.000000000e+00    0.000000000e+00    0.000000000e+00
      801750000   -3.171316162e-02    1.479184907e-02    1.170942414e-05   -2.604142082e-06    0.000000000e+00    0.000000000e+00    0.000000000e+00    0.000000000e+00
      809000000   -3.119772859e-02    1.480058208e-02    1.104297644e-05   -1.588104169e-05    0.000000000e+00    0.000000000e+00    0.000000000e+00    0.000000000e+00
      816250000   -3.093650192e-02    1.446626242e-02   -2.250747639e-05   -5.040923043e-06    0.000000000e+00    0.000000000e+00    0.000000000e+00    0.000000000e+00
      823500000   -3.100389242e-02    1.486431994e-02   -2.569321805e-05   -1.669588346e-05    0.000000000e+00    0.000000000e+00    0.000000000e+00    0.000000000e+00
      830750000   -3.136912733e-02    1.535424683e-02    1.876486749e-05    1.601749864e-05    0.000000000e+00    0.000000000e+00    0.000000000e+00    0.000000000e+00
      838000000   -3.084143996e-02    1.551134326e-02   -4.380094651e-06   -3.838517296e-05    0.000000000e+00    0.000000000e+00    0.000000000e+00    0.000000000e+00
      845250000   -3.050963767e-02    1.515146531e-02   -3.371437560e-05    1.229179452e-05    0.000000000e+00    0.000000000e+00    0.000000000e+00    0.000000000e+00
      852500000   -3.100016154e-02    1.539409719e-02   -4.832938885e-06   -1.108840661e-05    0.000000000e+00    0.000000000e+00    0.000000000e+00    0.000000000e+00
      859750000   -3.083470836e-02    1.559985522e-02    1.910061837e-05    5.319013144e-05    0.000000000e+00    0.000000000e+00    0.000000000e+00    0.000000000e+00
      867000000   -3.050341271e-02    1.544324402e-02    1.642285315e-05    2.701098310e-05    0.000000000e+00    0.000000000e+00    0.000000000e+00    0.000000000e+00
      874250000   -3.131313995e-02    1.595052890e-02   -6.383787695e-05   -6.480314369e-06    0.000000000e+00    0.000000000e+00    0.000000000e+00    0.000000000e+00
      881500000   -3.079609387e-02    1.569267549e-02    1.439745938e-05    2.806909106e-05    0.000000000e+00    0.000000000e+00    0.000000000e+00    0.000000000e+00
      888750000   -2.973738499e-02    1.589212194e-02   -3.048777762e-05   -3.206465044e-05    0.000000000e+00    0.000000000e+00    0.000000000e+00    0.000000000e+00
      896000000   -3.034606390e-02    1.609427668e-02    1.642355528e-05    1.548845034e-06    0.000000000e+00    0.000000000e+00    0.000000000e+00    0.000000000e+00
      903250000   -3.047142178e-02    1.637236029e-02    5.263593266e-06    2.526665230e-05    0.000000000e+00    0.000000000e+00    0.000000000e+00    0.000000000e+00
      910500000   -3.020276502e-02    1.616846025e-02    3.773754725e-05    4.587572676e-06    0.000000000e+00    0.000000000e+00    0.000000000e+00    0.000000000e+00
      917750000   -2.934014797e-02    1.599532925e-02    1.764071749e-05   -2.346934707e-05    0.000000000e+00    0.000000000e+00    0.000000000e+00    0.000000000e+00
      925000000   -3.007512353e-02    1.616851427e-02   -9.052436508e-05   -2.729217704e-05    0.000000000e+00    0.000000000e+00    0.000000000e+00    0.000000000e+00
      932250000   -2.933207527e-02    1.608143933e-02   -8.536438145e-06   -4.281266956e-05    0.000000000e+00    0.000000000e+00    0.000000000e+00    0.000000000e+00
      939500000   -2.940989286e-02    1.631774008e-02    1.500971734e-06   -1.872209759e-05    0.000000000e+00    0.000000000e+00    0.000000000e+00    0.000000000e+00
      946750000   -2.978728339e-02    1.691440307e-02    6.801442851e-06    7.459032986e-06    0.000000000e+00    0.000000000e+00    0.000000000e+00    0.000000000e+00
      954000000   -2.984953485e-02    1.634334400e-02   -2.837047759e-05    5.604768376e-06    0.000000000e+00    0.000000000e+00    0.000000000e+00    0.000000000e+00
      961250000   -3.000208363e-02    1.679143310e-02   -2.747976941e-05    8.784762031e-06    0.000000000e+00    0.000000000e+00    0.000000000e+00    0.000000000e+00
      968500000   -3.021386266e-02    1.685014740e-02    1.869977496e-05   -8.297200111e-06    0.000000000e+00    0.000000000e+00    0.000000000e+00    0.000000000e+00
      975750000   -2.930852212e-02    1.742048934e-02    7.214237030e-06   -2.299450352e-05    0.000000000e+00    0.000000000e+00    0.000000000e+00    0.000000000e+00
      983000000   -2.893183380e-02    1.750459336e-02   -1.381173024e-05    1.612575215e-05    0.000000000e+00    0.000000000e+00    0.000000000e+00    0.000000000e+00
      990250000   -3.010936640e-02    1.747321710e-02   -2.183596916e-05   -4.244576303e-06    0.000000000e+00    0.000000000e+00    0.000000000e+00    0.000000000e+00
      997500000   -2.910720557e-02    1.741123386e-02    3.116217158e-06   -2.418781378e-06    0.000000000e+00    0.000000000e+00    0.000000000e+00    0.000000000e+00
     1004750000   -2.935061604e-02    1.750157028e-02    1.612092456e-05   -1.256566065e-05    0.000000000e+00    0.000000000e+00    0.000000000e+00    0.000000000e+00
     1012000000   -2.920781448e-02    1.719598286e-02   -1.825214167e-05   -1.563989645e-05    0.000000000e+00    0.000000000e+00    0.000000000e+00    0.000000000e+00
     1019250000   -2.927901968e-02    1.745089516e-02   -1.798222729e-05    1.294018148e-06    0.000000000e+00    0.000000000e+00    0.000000000e+00    0.000000000e+00
     1026500000   -2.982031368e-02    1.726458780e-02    9.769323697e-06   -2.471679363e-05    0.000000000e+00    0.000000000e+00    0.000000000e+00    0.000000000e+00
     1033750000   -2.897923253e-02    1.732950099e-02   -4.245704258e-05   -1.817543671e-05    0.000000000e+00    0.000000000e+00    0.000000000e+00    0.000000000e+00
     1041000000   -2.913958021e-02    1.796885207e-02   -1.851349771e-05   -3.902337266e-05    0.000000000e+00    0.000000000e+00    0.000000000e+00    0.000000000e+00
