! NanoVNA-App by OneOfEleven et al v1.1.209 (+OD15) 
! Date: 2024-07-30 15:21:13
! Start: 200MHz Stop: 6GHz Points: 801
! S-Parameter data: F S11 S21 S12 S22
# Hz S RI R 50
!     Frequency           S11_Real           S11_Imag           S21_Real           S21_Imag           S12_Real           S12_Imag           S22_Real           S22_Imag
      200000000   -3.586326540e-02    5.324197002e-03    3.384817319e-05   -1.838244316e-05    0.000000000e+00    0.000000000e+00    0.000000000e+00    0.000000000e+00
      207250000   -3.632269055e-02    4.454085138e-03    3.734642814e-05   -4.858402463e-06    0.000000000e+00    0.000000000e+00    0.000000000e+00    0.000000000e+00
      214500000   -3.760245442e-02    4.065268207e-03    3.531647280e-06   -4.554546649e-06    0.000000000e+00    0.000000000e+00    0.000000000e+00    0.000000000e+00
      221750000   -3.569694981e-02    5.900212564e-03    1.759957922e-05   -3.800917966e-06    0.000000000e+00    0.000000000e+00    0.000000000e+00    0.000000000e+00
      229000000   -3.642264009e-02    5.348075647e-03    4.356243153e-06   -7.906098290e-06    0.000000000e+00    0.000000000e+00    0.000000000e+00    0.000000000e+00
      236250000   -3.681433573e-02    5.907471757e-03    1.727042581e-05   -4.738129064e-05    0.000000000e+00    0.000000000e+00    0.000000000e+00    0.000000000e+00
      243500000   -3.633967787e-02    5.738676060e-03    9.727611541e-06    3.324406134e-05    0.000000000e+00    0.000000000e+00    0.000000000e+00    0.000000000e+00
      250750000   -3.608939052e-02    5.820673425e-03    3.130287269e-06   -1.362980311e-05    0.000000000e+00    0.000000000e+00    0.000000000e+00    0.000000000e+00
      258000000   -3.688820451e-02    6.368870847e-03   -7.537435067e-06   -1.267817333e-05    0.000000000e+00    0.000000000e+00    0.000000000e+00    0.000000000e+00
      265250000   -3.550351411e-02    5.511014257e-03   -7.503882671e-07   -1.749875082e-05    0.000000000e+00    0.000000000e+00    0.000000000e+00    0.000000000e+00
      272500000   -3.701195493e-02    6.806842051e-03   -1.392177273e-05    2.796869376e-05    0.000000000e+00    0.000000000e+00    0.000000000e+00    0.000000000e+00
      279750000   -3.617259860e-02    7.335618138e-03    2.069536276e-05   -2.229781103e-06    0.000000000e+00    0.000000000e+00    0.000000000e+00    0.000000000e+00
      287000000   -3.675768897e-02    5.818179809e-03   -1.082466952e-05    2.560542271e-05    0.000000000e+00    0.000000000e+00    0.000000000e+00    0.000000000e+00
      294250000   -3.595586494e-02    6.594218314e-03   -1.252493257e-05    3.756849037e-05    0.000000000e+00    0.000000000e+00    0.000000000e+00    0.000000000e+00
      301500000   -3.604893014e-02    7.133841980e-03    9.918270734e-06   -4.223896667e-06    0.000000000e+00    0.000000000e+00    0.000000000e+00    0.000000000e+00
      308750000   -3.675939143e-02    7.559343707e-03   -1.425313803e-05    3.046826532e-05    0.000000000e+00    0.000000000e+00    0.000000000e+00    0.000000000e+00
      316000000   -3.617043793e-02    6.512923166e-03    1.976497742e-06    3.124227442e-05    0.000000000e+00    0.000000000e+00    0.000000000e+00    0.000000000e+00
      323250000   -3.545863554e-02    6.201506592e-03   -1.251790218e-05   -3.136235682e-05    0.000000000e+00    0.000000000e+00    0.000000000e+00    0.000000000e+00
      330500000   -3.596864268e-02    7.126853336e-03    4.521237497e-05   -8.925958355e-06    0.000000000e+00    0.000000000e+00    0.000000000e+00    0.000000000e+00
      337750000   -3.531906009e-02    7.266298868e-03    1.000991415e-05   -2.365426735e-05    0.000000000e+00    0.000000000e+00    0.000000000e+00    0.000000000e+00
      345000000   -3.602049500e-02    6.684716325e-03   -4.247465404e-05    5.819013495e-06    0.000000000e+00    0.000000000e+00    0.000000000e+00    0.000000000e+00
      352250000   -3.601422906e-02    7.656121161e-03   -5.630739452e-06   -7.519413430e-06    0.000000000e+00    0.000000000e+00    0.000000000e+00    0.000000000e+00
      359500000   -3.552495688e-02    7.015539799e-03    1.402855924e-05   -6.312474397e-06    0.000000000e+00    0.000000000e+00    0.000000000e+00    0.000000000e+00
      366750000   -3.574845567e-02    7.406430785e-03    4.862644346e-06   -4.918952254e-05    0.000000000e+00    0.000000000e+00    0.000000000e+00    0.000000000e+00
      374000000   -3.590175137e-02    8.348912932e-03    5.618531759e-06    3.996562009e-05    0.000000000e+00    0.000000000e+00    0.000000000e+00    0.000000000e+00
      381250000   -3.491397947e-02    7.596503943e-03   -2.004391490e-06   -1.351842548e-05    0.000000000e+00    0.000000000e+00    0.000000000e+00    0.000000000e+00
      388500000   -3.554628417e-02    8.024426177e-03   -3.700333036e-05    2.243548079e-05    0.000000000e+00    0.000000000e+00    0.000000000e+00    0.000000000e+00
      395750000   -3.555986285e-02    8.099394850e-03   -4.637729944e-06    2.687324013e-05    0.000000000e+00    0.000000000e+00    0.000000000e+00    0.000000000e+00
      403000000   -3.550624102e-02    8.306951262e-03   -1.695413266e-05    2.688675977e-06    0.000000000e+00    0.000000000e+00    0.000000000e+00    0.000000000e+00
      410250000   -3.464752063e-02    8.995789103e-03    4.988620276e-06    3.564216240e-05    0.000000000e+00    0.000000000e+00    0.000000000e+00    0.000000000e+00
      417500000   -3.599820286e-02    9.014007635e-03    1.636710840e-05    3.902085518e-05    0.000000000e+00    0.000000000e+00    0.000000000e+00    0.000000000e+00
      424750000   -3.468910977e-02    8.930523880e-03    5.187032912e-06   -1.971649726e-05    0.000000000e+00    0.000000000e+00    0.000000000e+00    0.000000000e+00
      432000000   -3.562516347e-02    8.603566326e-03   -1.375792090e-05    4.602929766e-05    0.000000000e+00    0.000000000e+00    0.000000000e+00    0.000000000e+00
      439250000   -3.534884006e-02    9.257718921e-03   -4.798897135e-05   -2.321754073e-05    0.000000000e+00    0.000000000e+00    0.000000000e+00    0.000000000e+00
      446500000   -3.474430740e-02    9.233184159e-03    3.043310971e-05   -1.075458931e-05    0.000000000e+00    0.000000000e+00    0.000000000e+00    0.000000000e+00
      453750000   -3.499013558e-02    9.059946053e-03   -2.046580812e-05    2.168240462e-05    0.000000000e+00    0.000000000e+00    0.000000000e+00    0.000000000e+00
      461000000   -3.552049398e-02    1.046078559e-02    1.360849092e-05   -8.675614481e-06    0.000000000e+00    0.000000000e+00    0.000000000e+00    0.000000000e+00
      468250000   -3.519853950e-02    9.851922281e-03    2.070040136e-05   -1.003883062e-05    0.000000000e+00    0.000000000e+00    0.000000000e+00    0.000000000e+00
      475500000   -3.457881510e-02    1.001387369e-02   -1.251679805e-05   -3.814949378e-05    0.000000000e+00    0.000000000e+00    0.000000000e+00    0.000000000e+00
      482750000   -3.555100411e-02    1.053101756e-02    1.425927894e-05    5.153958773e-05    0.000000000e+00    0.000000000e+00    0.000000000e+00    0.000000000e+00
      490000000   -3.495295346e-02    1.056819595e-02    2.494883847e-05   -1.970393896e-05    0.000000000e+00    0.000000000e+00    0.000000000e+00    0.000000000e+00
      497250000   -3.438356519e-02    1.012327988e-02   -2.943507934e-05   -6.419950751e-06    0.000000000e+00    0.000000000e+00    0.000000000e+00    0.000000000e+00
      504500000   -3.468317166e-02    1.061658561e-02    9.232296065e-07    1.178941147e-05    0.000000000e+00    0.000000000e+00    0.000000000e+00    0.000000000e+00
      511750000   -3.429407254e-02    1.045142114e-02   -1.043856082e-05   -1.013753916e-07    0.000000000e+00    0.000000000e+00    0.000000000e+00    0.000000000e+00
      519000000   -3.460616618e-02    1.114712004e-02    1.705343675e-05   -1.363071260e-05    0.000000000e+00    0.000000000e+00    0.000000000e+00    0.000000000e+00
      526250000   -3.467354178e-02    1.083061472e-02   -1.474965188e-06    1.152032291e-05    0.000000000e+00    0.000000000e+00    0.000000000e+00    0.000000000e+00
      533500000   -3.420270979e-02    1.085923612e-02   -1.481262552e-05   -1.404742034e-05    0.000000000e+00    0.000000000e+00    0.000000000e+00    0.000000000e+00
      540750000   -3.491611406e-02    1.111093163e-02   -1.596576476e-05   -1.120400157e-05    0.000000000e+00    0.000000000e+00    0.000000000e+00    0.000000000e+00
      548000000   -3.469954059e-02    1.101824548e-02   -4.902190631e-05    2.316256541e-05    0.000000000e+00    0.000000000e+00    0.000000000e+00    0.000000000e+00
      555250000   -3.438178822e-02    1.186529081e-02   -2.774179484e-05   -4.280782741e-05    0.000000000e+00    0.000000000e+00    0.000000000e+00    0.000000000e+00
      562500000   -3.467382118e-02    1.091516297e-02   -3.244220716e-05    4.124965562e-05    0.000000000e+00    0.000000000e+00    0.000000000e+00    0.000000000e+00
      569750000   -3.426450863e-02    1.167421415e-02   -3.143797585e-05   -2.749459054e-05    0.000000000e+00    0.000000000e+00    0.000000000e+00    0.000000000e+00
      577000000   -3.405014426e-02    1.184040494e-02    2.352443062e-06    2.170476910e-05    0.000000000e+00    0.000000000e+00    0.000000000e+00    0.000000000e+00
      584250000   -3.407967463e-02    1.148614381e-02    2.918967220e-05    1.301343491e-05    0.000000000e+00    0.000000000e+00    0.000000000e+00    0.000000000e+00
      591500000   -3.416513652e-02    1.229970064e-02    3.300609751e-05   -1.633487386e-06    0.000000000e+00    0.000000000e+00    0.000000000e+00    0.000000000e+00
      598750000   -3.344160691e-02    1.152549032e-02   -8.539961527e-06   -4.893685036e-05    0.000000000e+00    0.000000000e+00    0.000000000e+00    0.000000000e+00
      606000000   -3.430902585e-02    1.205014903e-02    1.617837916e-05   -2.340159699e-05    0.000000000e+00    0.000000000e+00    0.000000000e+00    0.000000000e+00
      613250000   -3.390450031e-02    1.171491574e-02   -3.120315523e-05    3.336937516e-05    0.000000000e+00    0.000000000e+00    0.000000000e+00    0.000000000e+00
      620500000   -3.271226212e-02    1.247144397e-02    1.368084668e-05   -1.375338979e-05    0.000000000e+00    0.000000000e+00    0.000000000e+00    0.000000000e+00
      627750000   -3.398155794e-02    1.279464550e-02    3.757354352e-05    1.346569752e-05    0.000000000e+00    0.000000000e+00    0.000000000e+00    0.000000000e+00
      635000000   -3.369084001e-02    1.260297373e-02    1.478164722e-05   -4.820252343e-06    0.000000000e+00    0.000000000e+00    0.000000000e+00    0.000000000e+00
      642250000   -3.368008509e-02    1.267078519e-02   -4.884305599e-05    1.371112194e-05    0.000000000e+00    0.000000000e+00    0.000000000e+00    0.000000000e+00
      649500000   -3.348020837e-02    1.264255214e-02   -2.005015449e-05    2.888141535e-05    0.000000000e+00    0.000000000e+00    0.000000000e+00    0.000000000e+00
      656750000   -3.306658193e-02    1.266132109e-02    2.888202971e-06   -5.287952263e-06    0.000000000e+00    0.000000000e+00    0.000000000e+00    0.000000000e+00
      664000000   -3.276356682e-02    1.237001922e-02   -1.519295165e-05    3.657882189e-05    0.000000000e+00    0.000000000e+00    0.000000000e+00    0.000000000e+00
      671250000   -3.267320618e-02    1.284881216e-02   -2.751174543e-05   -2.806759585e-05    0.000000000e+00    0.000000000e+00    0.000000000e+00    0.000000000e+00
      678500000   -3.285102919e-02    1.293113083e-02    7.695623026e-06    1.338045604e-05    0.000000000e+00    0.000000000e+00    0.000000000e+00    0.000000000e+00
      685750000   -3.282552585e-02    1.283055265e-02    4.590987737e-05    2.138058517e-05    0.000000000e+00    0.000000000e+00    0.000000000e+00    0.000000000e+00
      693000000   -3.296146542e-02    1.329507492e-02   -3.572832793e-05   -1.614416942e-05    0.000000000e+00    0.000000000e+00    0.000000000e+00    0.000000000e+00
      700250000   -3.317287192e-02    1.304061525e-02    3.002602170e-05   -1.364763921e-05    0.000000000e+00    0.000000000e+00    0.000000000e+00    0.000000000e+00
      707500000   -3.269002214e-02    1.333371829e-02   -3.985431977e-05   -4.088179776e-05    0.000000000e+00    0.000000000e+00    0.000000000e+00    0.000000000e+00
      714750000   -3.192032129e-02    1.305463444e-02    1.723863352e-05    1.591399086e-05    0.000000000e+00    0.000000000e+00    0.000000000e+00    0.000000000e+00
      722000000   -3.291627020e-02    1.372993365e-02    9.501858585e-06    2.195987889e-07    0.000000000e+00    0.000000000e+00    0.000000000e+00    0.000000000e+00
      729250000   -3.176509216e-02    1.385182329e-02   -6.359333383e-06   -6.733568625e-06    0.000000000e+00    0.000000000e+00    0.000000000e+00    0.000000000e+00
      736500000   -3.162616864e-02    1.367952581e-02   -4.870802513e-05    4.106660072e-06    0.000000000e+00    0.000000000e+00    0.000000000e+00    0.000000000e+00
      743750000   -3.173314035e-02    1.366407517e-02   -3.317432856e-05   -1.855296659e-06    0.000000000e+00    0.000000000e+00    0.000000000e+00    0.000000000e+00
      751000000   -3.199779242e-02    1.425743196e-02    2.989503173e-06   -1.288138537e-05    0.000000000e+00    0.000000000e+00    0.000000000e+00    0.000000000e+00
      758250000   -3.212273866e-02    1.412553433e-02    2.729176776e-05   -2.531295104e-05    0.000000000e+00    0.000000000e+00    0.000000000e+00    0.000000000e+00
      765500000   -3.185503557e-02    1.392889209e-02   -1.314714154e-05   -1.113755116e-05    0.000000000e+00    0.000000000e+00    0.000000000e+00    0.000000000e+00
      772750000   -3.133215010e-02    1.431249734e-02    3.561196081e-06   -2.621991916e-05    0.000000000e+00    0.000000000e+00    0.000000000e+00    0.000000000e+00
      780000000   -3.234544396e-02    1.428316720e-02    3.957927674e-06    1.648010584e-05    0.000000000e+00    0.000000000e+00    0.000000000e+00    0.000000000e+00
      787250000   -3.097700514e-02    1.484580990e-02   -1.275754221e-05    2.879608655e-05    0.000000000e+00    0.000000000e+00    0.000000000e+00    0.000000000e+00
      794500000   -3.103235178e-02    1.420659665e-02   -1.233463809e-05    4.276998516e-05    0.000000000e+00    0.000000000e+00    0.000000000e+00    0.000000000e+00
      801750000   -3.237483278e-02    1.503853220e-02    1.106957461e-05   -1.102611168e-05    0.000000000e+00    0.000000000e+00    0.000000000e+00    0.000000000e+00
      809000000   -3.140563145e-02    1.497281808e-02   -2.664658859e-05   -4.332206572e-06    0.000000000e+00    0.000000000e+00    0.000000000e+00    0.000000000e+00
      816250000   -3.127573058e-02    1.490963344e-02   -3.484250783e-06    7.714631465e-06    0.000000000e+00    0.000000000e+00    0.000000000e+00    0.000000000e+00
      823500000   -3.091422282e-02    1.512123551e-02   -4.216899924e-06    6.467484127e-06    0.000000000e+00    0.000000000e+00    0.000000000e+00    0.000000000e+00
      830750000   -3.134031221e-02    1.512755733e-02    1.553687071e-05    1.507601064e-05    0.000000000e+00    0.000000000e+00    0.000000000e+00    0.000000000e+00
      838000000   -3.137030825e-02    1.539495867e-02   -3.281624595e-05   -2.802207928e-05    0.000000000e+00    0.000000000e+00    0.000000000e+00    0.000000000e+00
      845250000   -3.080823831e-02    1.564995199e-02    1.941016853e-05   -1.260911722e-05    0.000000000e+00    0.000000000e+00    0.000000000e+00    0.000000000e+00
      852500000   -3.094254248e-02    1.526330970e-02   -4.288118362e-06   -1.068235088e-05    0.000000000e+00    0.000000000e+00    0.000000000e+00    0.000000000e+00
      859750000   -3.088196367e-02    1.543199923e-02    5.569148470e-06    7.891797577e-05    0.000000000e+00    0.000000000e+00    0.000000000e+00    0.000000000e+00
      867000000   -3.053856827e-02    1.578483172e-02   -3.076648136e-05    4.327486749e-05    0.000000000e+00    0.000000000e+00    0.000000000e+00    0.000000000e+00
      874250000   -3.069241531e-02    1.594267040e-02    1.761125168e-05    6.758676136e-06    0.000000000e+00    0.000000000e+00    0.000000000e+00    0.000000000e+00
      881500000   -3.107176907e-02    1.589522511e-02    2.941422463e-05   -3.133916471e-05    0.000000000e+00    0.000000000e+00    0.000000000e+00    0.000000000e+00
      888750000   -3.016885556e-02    1.597277634e-02   -1.921795047e-05   -2.294042133e-05    0.000000000e+00    0.000000000e+00    0.000000000e+00    0.000000000e+00
      896000000   -3.105957434e-02    1.608136669e-02   -3.473714605e-05    1.927695303e-05    0.000000000e+00    0.000000000e+00    0.000000000e+00    0.000000000e+00
      903250000   -2.992312424e-02    1.598141901e-02   -3.846015716e-06   -1.081977462e-05    0.000000000e+00    0.000000000e+00    0.000000000e+00    0.000000000e+00
      910500000   -3.030180186e-02    1.618769579e-02    2.595634760e-05    2.747391591e-06    0.000000000e+00    0.000000000e+00    0.000000000e+00    0.000000000e+00
      917750000   -2.949084900e-02    1.613537222e-02   -4.935657216e-06    7.103180906e-07    0.000000000e+00    0.000000000e+00    0.000000000e+00    0.000000000e+00
      925000000   -3.045357205e-02    1.612785459e-02    1.864625301e-05   -9.381077689e-06    0.000000000e+00    0.000000000e+00    0.000000000e+00    0.000000000e+00
      932250000   -2.943101898e-02    1.639179327e-02    9.047952517e-06   -2.977581971e-06    0.000000000e+00    0.000000000e+00    0.000000000e+00    0.000000000e+00
      939500000   -2.989404462e-02    1.632477529e-02    4.448738400e-05   -4.342478860e-05    0.000000000e+00    0.000000000e+00    0.000000000e+00    0.000000000e+00
      946750000   -3.010727279e-02    1.698434167e-02    6.158833003e-06    6.303253031e-06    0.000000000e+00    0.000000000e+00    0.000000000e+00    0.000000000e+00
      954000000   -2.951418795e-02    1.612645388e-02   -1.460518160e-05   -4.115422144e-06    0.000000000e+00    0.000000000e+00    0.000000000e+00    0.000000000e+00
      961250000   -3.026388958e-02    1.689421944e-02   -1.792493458e-05   -1.673708903e-05    0.000000000e+00    0.000000000e+00    0.000000000e+00    0.000000000e+00
      968500000   -2.977793291e-02    1.709862798e-02    1.890747626e-05   -1.465948571e-06    0.000000000e+00    0.000000000e+00    0.000000000e+00    0.000000000e+00
      975750000   -3.015712835e-02    1.726887189e-02    9.001510989e-06    2.934774056e-05    0.000000000e+00    0.000000000e+00    0.000000000e+00    0.000000000e+00
      983000000   -2.849580161e-02    1.748187281e-02    1.472723579e-05   -2.938030957e-05    0.000000000e+00    0.000000000e+00    0.000000000e+00    0.000000000e+00
      990250000   -2.944578230e-02    1.739709452e-02   -1.007801347e-05    7.541383184e-06    0.000000000e+00    0.000000000e+00    0.000000000e+00    0.000000000e+00
      997500000   -2.908882871e-02    1.728730462e-02   -3.460249354e-05    2.446314465e-05    0.000000000e+00    0.000000000e+00    0.000000000e+00    0.000000000e+00
     1004750000   -2.975586988e-02    1.741976477e-02   -3.632843436e-05    2.690388101e-05    0.000000000e+00    0.000000000e+00    0.000000000e+00    0.000000000e+00
     1012000000   -2.978355624e-02    1.747728325e-02   -1.829045141e-05   -4.050433290e-06    0.000000000e+00    0.000000000e+00    0.000000000e+00    0.000000000e+00
     1019250000   -2.971885912e-02    1.755604520e-02   -1.117331158e-05    1.046670513e-05    0.000000000e+00    0.000000000e+00    0.000000000e+00    0.000000000e+00
     1026500000   -2.877402119e-02    1.772690006e-02    2.710975650e-06   -1.040696588e-05    0.000000000e+00    0.000000000e+00    0.000000000e+00    0.000000000e+00
     1033750000   -2.963230759e-02    1.765202545e-02    4.302722300e-05   -1.927911035e-05    0.000000000e+00    0.000000000e+00    0.000000000e+00    0.000000000e+00
     1041000000   -2.845806070e-02    1.802359521e-02    1.878496914e-05   -2.345558096e-05    0.000000000e+00    0.000000000e+00    0.000000000e+00    0.000000000e+00
