! NanoVNA-App
! Date: 2024-06-25 16:14:15
! Start: 200MHz Stop: 6GHz Points: 801
! S-Parameter data: F S11 S21 S12 S22
# Hz S RI R 50
!     Frequency           S11_Real           S11_Imag           S21_Real           S21_Imag           S12_Real           S12_Imag           S22_Real           S22_Imag
      200000000   -9.983334541e-01   -1.149719730e-01    1.168809831e-05   -3.186333925e-05    0.000000000e+00    0.000000000e+00    0.000000000e+00    0.000000000e+00
      207250000   -1.009847879e+00   -1.600304432e-02    9.266659617e-06    2.022366971e-05    0.000000000e+00    0.000000000e+00    0.000000000e+00    0.000000000e+00
      214500000   -1.011349082e+00    8.499064296e-02    1.403875649e-05    3.788061440e-05    0.000000000e+00    0.000000000e+00    0.000000000e+00    0.000000000e+00
      221750000   -1.001262665e+00    1.881214678e-01   -3.433506936e-05   -1.384504139e-05    0.000000000e+00    0.000000000e+00    0.000000000e+00    0.000000000e+00
      229000000   -9.822045565e-01    2.909773588e-01    1.085456461e-05    2.260319889e-06    0.000000000e+00    0.000000000e+00    0.000000000e+00    0.000000000e+00
      236250000   -9.495077133e-01    3.936595917e-01    5.166046321e-06    7.401220500e-06    0.000000000e+00    0.000000000e+00    0.000000000e+00    0.000000000e+00
      243500000   -9.055844545e-01    4.932875335e-01   -1.136492938e-05    1.991260797e-05    0.000000000e+00    0.000000000e+00    0.000000000e+00    0.000000000e+00
      250750000   -8.491734862e-01    5.897994041e-01    1.254305243e-05   -1.339428127e-05    0.000000000e+00    0.000000000e+00    0.000000000e+00    0.000000000e+00
      258000000   -7.807280421e-01    6.810501218e-01   -3.033410758e-05    1.770351082e-05    0.000000000e+00    0.000000000e+00    0.000000000e+00    0.000000000e+00
      265250000   -7.010457516e-01    7.647427917e-01    4.673376679e-06    5.912408233e-05    0.000000000e+00    0.000000000e+00    0.000000000e+00    0.000000000e+00
      272500000   -6.095578074e-01    8.397664428e-01   -2.199131995e-05    1.068320125e-05    0.000000000e+00    0.000000000e+00    0.000000000e+00    0.000000000e+00
      279750000   -5.081674457e-01    9.035059810e-01    3.044214100e-05    3.418885171e-06    0.000000000e+00    0.000000000e+00    0.000000000e+00    0.000000000e+00
      287000000   -3.974994421e-01    9.551483393e-01    2.814549953e-05   -9.752810001e-06    0.000000000e+00    0.000000000e+00    0.000000000e+00    0.000000000e+00
      294250000   -2.798701525e-01    9.923278689e-01   -3.881379962e-05   -2.541765571e-05    0.000000000e+00    0.000000000e+00    0.000000000e+00    0.000000000e+00
      301500000   -1.574010402e-01    1.015170097e+00   -2.328399569e-05    3.148801625e-06    0.000000000e+00    0.000000000e+00    0.000000000e+00    0.000000000e+00
      308750000   -3.217329830e-02    1.022355556e+00    4.431232810e-06   -2.826564014e-06    0.000000000e+00    0.000000000e+00    0.000000000e+00    0.000000000e+00
      316000000    9.341939539e-02    1.013628960e+00   -8.273869753e-06    5.893409252e-06    0.000000000e+00    0.000000000e+00    0.000000000e+00    0.000000000e+00
      323250000    2.179840654e-01    9.873300195e-01    1.320987940e-05    4.290696234e-05    0.000000000e+00    0.000000000e+00    0.000000000e+00    0.000000000e+00
      330500000    3.379588127e-01    9.463031888e-01    3.017298877e-05   -1.263339072e-05    0.000000000e+00    0.000000000e+00    0.000000000e+00    0.000000000e+00
      337750000    4.514377415e-01    8.903611898e-01    2.846959978e-05   -2.538785338e-05    0.000000000e+00    0.000000000e+00    0.000000000e+00    0.000000000e+00
      345000000    5.567323565e-01    8.193969131e-01    2.172123641e-05    2.191402018e-05    0.000000000e+00    0.000000000e+00    0.000000000e+00    0.000000000e+00
      352250000    6.516469717e-01    7.374722958e-01   -3.256276250e-05   -3.771856427e-06    0.000000000e+00    0.000000000e+00    0.000000000e+00    0.000000000e+00
      359500000    7.344061136e-01    6.444878578e-01   -1.374166459e-05    1.298636198e-05    0.000000000e+00    0.000000000e+00    0.000000000e+00    0.000000000e+00
      366750000    8.048542738e-01    5.430336595e-01    2.213194966e-05   -4.939176142e-05    0.000000000e+00    0.000000000e+00    0.000000000e+00    0.000000000e+00
      374000000    8.617669940e-01    4.348838925e-01   -2.123415470e-06    2.000108361e-05    0.000000000e+00    0.000000000e+00    0.000000000e+00    0.000000000e+00
      381250000    9.049474001e-01    3.216576874e-01    3.132969141e-06    4.133209586e-06    0.000000000e+00    0.000000000e+00    0.000000000e+00    0.000000000e+00
      388500000    9.351115227e-01    2.060282975e-01    2.230517566e-06   -1.311209053e-05    0.000000000e+00    0.000000000e+00    0.000000000e+00    0.000000000e+00
      395750000    9.502294064e-01    8.922819048e-02    2.795830369e-06   -2.212822437e-05    0.000000000e+00    0.000000000e+00    0.000000000e+00    0.000000000e+00
      403000000    9.526862502e-01   -2.817608230e-02   -1.943018287e-05    2.824049443e-05    0.000000000e+00    0.000000000e+00    0.000000000e+00    0.000000000e+00
      410250000    9.423044920e-01   -1.435452104e-01    1.097563654e-05    5.341134965e-06    0.000000000e+00    0.000000000e+00    0.000000000e+00    0.000000000e+00
      417500000    9.193375111e-01   -2.550866306e-01   -1.516565681e-05   -2.550892532e-06    0.000000000e+00    0.000000000e+00    0.000000000e+00    0.000000000e+00
      424750000    8.849880695e-01   -3.637193143e-01    5.904585123e-07    2.085417509e-05    0.000000000e+00    0.000000000e+00    0.000000000e+00    0.000000000e+00
      432000000    8.392133117e-01   -4.657714963e-01    1.532491297e-05    8.106231689e-06    0.000000000e+00    0.000000000e+00    0.000000000e+00    0.000000000e+00
      439250000    7.836781144e-01   -5.628434420e-01    1.180917025e-05   -2.760160714e-05    0.000000000e+00    0.000000000e+00    0.000000000e+00    0.000000000e+00
      446500000    7.185084224e-01   -6.516070366e-01    2.773292363e-05    1.651234925e-05    0.000000000e+00    0.000000000e+00    0.000000000e+00    0.000000000e+00
      453750000    6.452676654e-01   -7.338712215e-01   -9.262003005e-06    2.277176827e-05    0.000000000e+00    0.000000000e+00    0.000000000e+00    0.000000000e+00
      461000000    5.641012192e-01   -8.075253963e-01    4.634261131e-06    9.535811841e-06    0.000000000e+00    0.000000000e+00    0.000000000e+00    0.000000000e+00
      468250000    4.763992727e-01   -8.715618253e-01   -1.408904791e-05    4.524551332e-05    0.000000000e+00    0.000000000e+00    0.000000000e+00    0.000000000e+00
      475500000    3.804562688e-01   -9.266863465e-01    1.380220056e-06   -3.904663026e-05    0.000000000e+00    0.000000000e+00    0.000000000e+00    0.000000000e+00
      482750000    2.816974521e-01   -9.708456993e-01   -9.735114872e-06    2.519879490e-05    0.000000000e+00    0.000000000e+00    0.000000000e+00    0.000000000e+00
      490000000    1.770773530e-01   -1.005919456e+00    1.616775990e-06   -8.784234524e-06    0.000000000e+00    0.000000000e+00    0.000000000e+00    0.000000000e+00
      497250000    6.995280087e-02   -1.028366327e+00   -4.101078957e-05    9.667128325e-07    0.000000000e+00    0.000000000e+00    0.000000000e+00    0.000000000e+00
      504500000   -3.997160122e-02   -1.040530086e+00   -8.095055819e-06    7.441267371e-06    0.000000000e+00    0.000000000e+00    0.000000000e+00    0.000000000e+00
      511750000   -1.510623991e-01   -1.040966988e+00    3.626570106e-06   -4.516635090e-05    0.000000000e+00    0.000000000e+00    0.000000000e+00    0.000000000e+00
      519000000   -2.622400820e-01   -1.028992414e+00   -7.042661309e-06   -2.029631287e-05    0.000000000e+00    0.000000000e+00    0.000000000e+00    0.000000000e+00
      526250000   -3.731926084e-01   -1.003900766e+00   -8.917413652e-06   -1.225993037e-05    0.000000000e+00    0.000000000e+00    0.000000000e+00    0.000000000e+00
      533500000   -4.799247384e-01   -9.678877592e-01   -1.941435039e-05    1.711212099e-05    0.000000000e+00    0.000000000e+00    0.000000000e+00    0.000000000e+00
      540750000   -5.832596421e-01   -9.186578989e-01    1.995358616e-05   -6.650574505e-06    0.000000000e+00    0.000000000e+00    0.000000000e+00    0.000000000e+00
      548000000   -6.816412807e-01   -8.570479751e-01   -1.417379826e-05   -9.372830391e-06    0.000000000e+00    0.000000000e+00    0.000000000e+00    0.000000000e+00
      555250000   -7.717581391e-01   -7.858918309e-01   -6.126239896e-06    2.616643906e-05    0.000000000e+00    0.000000000e+00    0.000000000e+00    0.000000000e+00
      562500000   -8.549984097e-01   -7.024276853e-01   -1.420173794e-05   -1.133047044e-05    0.000000000e+00    0.000000000e+00    0.000000000e+00    0.000000000e+00
      569750000   -9.271486402e-01   -6.089991331e-01   -1.017004251e-05    1.527834684e-05    0.000000000e+00    0.000000000e+00    0.000000000e+00    0.000000000e+00
      577000000   -9.877783060e-01   -5.087984800e-01    3.536418080e-05    1.900363714e-05    0.000000000e+00    0.000000000e+00    0.000000000e+00    0.000000000e+00
      584250000   -1.037297010e+00   -3.995593488e-01    8.461996913e-06   -4.414469004e-06    0.000000000e+00    0.000000000e+00    0.000000000e+00    0.000000000e+00
      591500000   -1.072209954e+00   -2.869286537e-01    4.601292312e-05   -2.168305218e-05    0.000000000e+00    0.000000000e+00    0.000000000e+00    0.000000000e+00
      598750000   -1.093744874e+00   -1.674354225e-01   -1.139007509e-05    5.019828677e-07    0.000000000e+00    0.000000000e+00    0.000000000e+00    0.000000000e+00
      606000000   -1.100525260e+00   -4.777823016e-02    5.150213838e-07    2.255477011e-05    0.000000000e+00    0.000000000e+00    0.000000000e+00    0.000000000e+00
      613250000   -1.092617512e+00    7.145628333e-02   -1.731328666e-05   -6.193295121e-06    0.000000000e+00    0.000000000e+00    0.000000000e+00    0.000000000e+00
      620500000   -1.069898248e+00    1.881683618e-01   -1.171138138e-05   -2.139247954e-05    0.000000000e+00    0.000000000e+00    0.000000000e+00    0.000000000e+00
      627750000   -1.033918500e+00    3.022927940e-01    3.946013749e-06   -1.224689186e-06    0.000000000e+00    0.000000000e+00    0.000000000e+00    0.000000000e+00
      635000000   -9.848244190e-01    4.076477587e-01   -4.305411130e-05    3.025680780e-05    0.000000000e+00    0.000000000e+00    0.000000000e+00    0.000000000e+00
      642250000   -9.228945374e-01    5.092733502e-01    1.754052937e-05   -1.763086766e-05    0.000000000e+00    0.000000000e+00    0.000000000e+00    0.000000000e+00
      649500000   -8.522646427e-01    5.985678434e-01    4.897825420e-06    3.821309656e-05    0.000000000e+00    0.000000000e+00    0.000000000e+00    0.000000000e+00
      656750000   -7.696160674e-01    6.800801754e-01    2.725049853e-06   -1.736916602e-05    0.000000000e+00    0.000000000e+00    0.000000000e+00    0.000000000e+00
      664000000   -6.798336506e-01    7.499080300e-01    1.339986920e-05   -2.923794091e-05    0.000000000e+00    0.000000000e+00    0.000000000e+00    0.000000000e+00
      671250000   -5.831868649e-01    8.077400923e-01   -9.748153389e-06    2.201925963e-05    0.000000000e+00    0.000000000e+00    0.000000000e+00    0.000000000e+00
      678500000   -4.830781519e-01    8.542913198e-01    2.683605999e-05   -6.271526217e-06    0.000000000e+00    0.000000000e+00    0.000000000e+00    0.000000000e+00
      685750000   -3.788516223e-01    8.890155554e-01   -2.365466207e-05    1.810211688e-05    0.000000000e+00    0.000000000e+00    0.000000000e+00    0.000000000e+00
      693000000   -2.737088203e-01    9.113781452e-01   -4.149414599e-05   -1.957267523e-05    0.000000000e+00    0.000000000e+00    0.000000000e+00    0.000000000e+00
      700250000   -1.659156084e-01    9.230110049e-01    1.705065370e-05   -1.205131412e-06    0.000000000e+00    0.000000000e+00    0.000000000e+00    0.000000000e+00
      707500000   -6.050707027e-02    9.219866991e-01    7.906928658e-06   -4.793517292e-06    0.000000000e+00    0.000000000e+00    0.000000000e+00    0.000000000e+00
      714750000    4.491639510e-02    9.099453092e-01   -1.238659024e-06    3.334134817e-06    0.000000000e+00    0.000000000e+00    0.000000000e+00    0.000000000e+00
      722000000    1.454237998e-01    8.878048062e-01   -2.088304609e-05    3.855675459e-07    0.000000000e+00    0.000000000e+00    0.000000000e+00    0.000000000e+00
      729250000    2.442041337e-01    8.555112481e-01   -3.514904529e-05   -1.117121428e-05    0.000000000e+00    0.000000000e+00    0.000000000e+00    0.000000000e+00
      736500000    3.361877799e-01    8.139983416e-01    7.450580597e-09   -1.104641706e-05    0.000000000e+00    0.000000000e+00    0.000000000e+00    0.000000000e+00
      743750000    4.242036343e-01    7.636139393e-01    1.172255725e-05    1.742970198e-05    0.000000000e+00    0.000000000e+00    0.000000000e+00    0.000000000e+00
      751000000    5.057008862e-01    7.050485611e-01   -1.185014844e-05   -2.337619662e-07    0.000000000e+00    0.000000000e+00    0.000000000e+00    0.000000000e+00
      758250000    5.803187490e-01    6.383805275e-01   -3.090407699e-05   -1.762993634e-06    0.000000000e+00    0.000000000e+00    0.000000000e+00    0.000000000e+00
      765500000    6.491975188e-01    5.653952956e-01   -1.903623343e-05    1.514609903e-05    0.000000000e+00    0.000000000e+00    0.000000000e+00    0.000000000e+00
      772750000    7.098497152e-01    4.855106771e-01    2.740882337e-06    1.237820834e-05    0.000000000e+00    0.000000000e+00    0.000000000e+00    0.000000000e+00
      780000000    7.612000108e-01    4.009125531e-01    1.235865057e-06    1.345481724e-05    0.000000000e+00    0.000000000e+00    0.000000000e+00    0.000000000e+00
      787250000    8.067469597e-01    3.102747798e-01   -1.547392458e-05   -4.609115422e-06    0.000000000e+00    0.000000000e+00    0.000000000e+00    0.000000000e+00
      794500000    8.416787386e-01    2.156743258e-01    8.299015462e-06   -5.846284330e-05    0.000000000e+00    0.000000000e+00    0.000000000e+00    0.000000000e+00
      801750000    8.670232892e-01    1.180450171e-01   -5.095265806e-05    1.038238406e-05    0.000000000e+00    0.000000000e+00    0.000000000e+00    0.000000000e+00
      809000000    8.831403852e-01    1.638677903e-02    4.267040640e-05    3.020837903e-05    0.000000000e+00    0.000000000e+00    0.000000000e+00    0.000000000e+00
      816250000    8.881523013e-01   -8.720769733e-02    2.982467413e-05    3.254134208e-05    0.000000000e+00    0.000000000e+00    0.000000000e+00    0.000000000e+00
      823500000    8.821883202e-01   -1.927375793e-01   -3.539025784e-08    8.891336620e-06    0.000000000e+00    0.000000000e+00    0.000000000e+00    0.000000000e+00
      830750000    8.655229807e-01   -2.974325716e-01    2.516806126e-05    1.513492316e-05    0.000000000e+00    0.000000000e+00    0.000000000e+00    0.000000000e+00
      838000000    8.363797069e-01   -3.999562860e-01   -2.589076757e-05   -6.116647273e-05    0.000000000e+00    0.000000000e+00    0.000000000e+00    0.000000000e+00
      845250000    7.966989279e-01   -5.010719299e-01    1.497752964e-05   -1.958385110e-05    0.000000000e+00    0.000000000e+00    0.000000000e+00    0.000000000e+00
      852500000    7.438789606e-01   -5.994124413e-01    6.141141057e-06    2.276152372e-05    0.000000000e+00    0.000000000e+00    0.000000000e+00    0.000000000e+00
      859750000    6.800026298e-01   -6.912845969e-01   -3.443099558e-05   -8.787028491e-06    0.000000000e+00    0.000000000e+00    0.000000000e+00    0.000000000e+00
      867000000    6.033987403e-01   -7.774971128e-01   -2.326443791e-05    1.602713019e-05    0.000000000e+00    0.000000000e+00    0.000000000e+00    0.000000000e+00
      874250000    5.169733763e-01   -8.533810377e-01   -4.881341010e-05    4.021450877e-05    0.000000000e+00    0.000000000e+00    0.000000000e+00    0.000000000e+00
      881500000    4.175425768e-01   -9.212639332e-01    9.808689356e-06    2.569518983e-06    0.000000000e+00    0.000000000e+00    0.000000000e+00    0.000000000e+00
      888750000    3.113443851e-01   -9.746966362e-01   -3.251247108e-06    3.957096487e-05    0.000000000e+00    0.000000000e+00    0.000000000e+00    0.000000000e+00
      896000000    1.974435151e-01   -1.015301824e+00    6.560236216e-06    1.631304622e-05    0.000000000e+00    0.000000000e+00    0.000000000e+00    0.000000000e+00
      903250000    7.857879996e-02   -1.040671229e+00    1.755729318e-05    1.156516373e-05    0.000000000e+00    0.000000000e+00    0.000000000e+00    0.000000000e+00
      910500000   -4.704528674e-02   -1.049484611e+00    7.125549018e-06   -1.889932901e-05    0.000000000e+00    0.000000000e+00    0.000000000e+00    0.000000000e+00
      917750000   -1.701568216e-01   -1.042308211e+00    1.388508826e-05   -9.536743164e-07    0.000000000e+00    0.000000000e+00    0.000000000e+00    0.000000000e+00
      925000000   -2.901590466e-01   -1.017896652e+00    9.808689356e-06    3.569107503e-05    0.000000000e+00    0.000000000e+00    0.000000000e+00    0.000000000e+00
      932250000   -4.104453623e-01   -9.753357172e-01    6.896723062e-05   -2.500601113e-06    0.000000000e+00    0.000000000e+00    0.000000000e+00    0.000000000e+00
      939500000   -5.184867382e-01   -9.197129011e-01    1.252721995e-05   -2.621021122e-05    0.000000000e+00    0.000000000e+00    0.000000000e+00    0.000000000e+00
      946750000   -6.183478236e-01   -8.495324850e-01    7.326621562e-05    7.158145308e-06    0.000000000e+00    0.000000000e+00    0.000000000e+00    0.000000000e+00
      954000000   -7.091294527e-01   -7.654955983e-01   -1.528020948e-05   -9.774230421e-06    0.000000000e+00    0.000000000e+00    0.000000000e+00    0.000000000e+00
      961250000   -7.837028503e-01   -6.739249229e-01    3.464333713e-05    2.393964678e-05    0.000000000e+00    0.000000000e+00    0.000000000e+00    0.000000000e+00
      968500000   -8.448053002e-01   -5.748477578e-01   -2.089608461e-05   -2.160854638e-05    0.000000000e+00    0.000000000e+00    0.000000000e+00    0.000000000e+00
      975750000   -8.913601637e-01   -4.701030850e-01   -6.907619536e-06   -3.114808351e-05    0.000000000e+00    0.000000000e+00    0.000000000e+00    0.000000000e+00
      983000000   -9.253187776e-01   -3.607868254e-01   -7.403083146e-06   -2.095848322e-05    0.000000000e+00    0.000000000e+00    0.000000000e+00    0.000000000e+00
      990250000   -9.433143735e-01   -2.520120144e-01   -2.122391015e-05   -2.723932266e-05    0.000000000e+00    0.000000000e+00    0.000000000e+00    0.000000000e+00
      997500000   -9.484895468e-01   -1.462351382e-01    8.864328265e-06   -1.067575067e-05    0.000000000e+00    0.000000000e+00    0.000000000e+00    0.000000000e+00
     1004750000   -9.400492311e-01   -4.116535932e-02   -2.958811820e-05   -3.358907998e-05    0.000000000e+00    0.000000000e+00    0.000000000e+00    0.000000000e+00
     1012000000   -9.215695262e-01    5.873598158e-02    1.853425056e-05    4.543550313e-05    0.000000000e+00    0.000000000e+00    0.000000000e+00    0.000000000e+00
     1019250000   -8.928354383e-01    1.527363956e-01    4.999339581e-05   -2.181902528e-05    0.000000000e+00    0.000000000e+00    0.000000000e+00    0.000000000e+00
     1026500000   -8.538904190e-01    2.403533012e-01    1.179426908e-05   -4.080124199e-06    0.000000000e+00    0.000000000e+00    0.000000000e+00    0.000000000e+00
     1033750000   -8.069878221e-01    3.240173459e-01    1.241452992e-06   -3.600865602e-05    0.000000000e+00    0.000000000e+00    0.000000000e+00    0.000000000e+00
     1041000000   -7.550828457e-01    3.973937333e-01    3.332272172e-06   -7.368624210e-06    0.000000000e+00    0.000000000e+00    0.000000000e+00    0.000000000e+00
