! NanoVNA-App
! Date: 2024-06-25 16:14:20
! Start: 200MHz Stop: 6GHz Points: 801
! S-Parameter data: F S11 S21 S12 S22
# Hz S RI R 50
!     Frequency           S11_Real           S11_Imag           S21_Real           S21_Imag           S12_Real           S12_Imag           S22_Real           S22_Imag
      200000000   -9.984124303e-01   -1.155333593e-01   -3.153085709e-05    3.011897206e-06    0.000000000e+00    0.000000000e+00    0.000000000e+00    0.000000000e+00
      207250000   -1.009935856e+00   -1.608283445e-02    1.246016473e-05    1.980364323e-05    0.000000000e+00    0.000000000e+00    0.000000000e+00    0.000000000e+00
      214500000   -1.011851072e+00    8.470387757e-02   -1.896731555e-05    4.714354873e-06    0.000000000e+00    0.000000000e+00    0.000000000e+00    0.000000000e+00
      221750000   -1.002056479e+00    1.883432716e-01    1.560244709e-05   -3.469735384e-05    0.000000000e+00    0.000000000e+00    0.000000000e+00    0.000000000e+00
      229000000   -9.815874100e-01    2.909802496e-01    2.262555063e-05   -5.189236253e-05    0.000000000e+00    0.000000000e+00    0.000000000e+00    0.000000000e+00
      236250000   -9.500458241e-01    3.936236501e-01   -1.757033169e-05    1.159310341e-05    0.000000000e+00    0.000000000e+00    0.000000000e+00    0.000000000e+00
      243500000   -9.049091935e-01    4.934694171e-01   -2.599973232e-05    1.091230661e-05    0.000000000e+00    0.000000000e+00    0.000000000e+00    0.000000000e+00
      250750000   -8.491121531e-01    5.897752643e-01   -2.102646977e-05    3.282167017e-05    0.000000000e+00    0.000000000e+00    0.000000000e+00    0.000000000e+00
      258000000   -7.809616327e-01    6.813591123e-01    1.612585038e-05   -2.321042120e-05    0.000000000e+00    0.000000000e+00    0.000000000e+00    0.000000000e+00
      265250000   -7.011689544e-01    7.648871541e-01    4.437752068e-06    1.331884414e-05    0.000000000e+00    0.000000000e+00    0.000000000e+00    0.000000000e+00
      272500000   -6.094351411e-01    8.397142887e-01   -2.318993211e-05    4.327017814e-05    0.000000000e+00    0.000000000e+00    0.000000000e+00    0.000000000e+00
      279750000   -5.084397793e-01    9.032940865e-01    8.121132851e-06    5.326233804e-06    0.000000000e+00    0.000000000e+00    0.000000000e+00    0.000000000e+00
      287000000   -3.972450793e-01    9.550982118e-01   -1.541338861e-06   -1.837871969e-05    0.000000000e+00    0.000000000e+00    0.000000000e+00    0.000000000e+00
      294250000   -2.809005678e-01    9.927969575e-01   -8.717179298e-06    5.074776709e-06    0.000000000e+00    0.000000000e+00    0.000000000e+00    0.000000000e+00
      301500000   -1.578901857e-01    1.015250564e+00   -2.301950008e-05   -1.061428338e-05    0.000000000e+00    0.000000000e+00    0.000000000e+00    0.000000000e+00
      308750000   -3.252398968e-02    1.021934628e+00    2.821907401e-07   -2.371706069e-05    0.000000000e+00    0.000000000e+00    0.000000000e+00    0.000000000e+00
      316000000    9.340386838e-02    1.013001919e+00    2.871174365e-05   -5.912873894e-05    0.000000000e+00    0.000000000e+00    0.000000000e+00    0.000000000e+00
      323250000    2.181315720e-01    9.879606962e-01    2.755969763e-05    3.288500011e-06    0.000000000e+00    0.000000000e+00    0.000000000e+00    0.000000000e+00
      330500000    3.382177353e-01    9.462788701e-01   -9.683892131e-06    7.143244147e-07    0.000000000e+00    0.000000000e+00    0.000000000e+00    0.000000000e+00
      337750000    4.513300359e-01    8.903771043e-01   -1.748185605e-05   -2.049747854e-05    0.000000000e+00    0.000000000e+00    0.000000000e+00    0.000000000e+00
      345000000    5.563903451e-01    8.188062906e-01    7.197260857e-06   -1.970306039e-05    0.000000000e+00    0.000000000e+00    0.000000000e+00    0.000000000e+00
      352250000    6.508097053e-01    7.371131182e-01   -4.049856216e-05    6.143935025e-06    0.000000000e+00    0.000000000e+00    0.000000000e+00    0.000000000e+00
      359500000    7.345016003e-01    6.440894008e-01   -2.245604992e-05    1.913774759e-05    0.000000000e+00    0.000000000e+00    0.000000000e+00    0.000000000e+00
      366750000    8.051457405e-01    5.423414111e-01   -1.044198871e-05   -1.420173794e-05    0.000000000e+00    0.000000000e+00    0.000000000e+00    0.000000000e+00
      374000000    8.616235256e-01    4.352253675e-01    3.427267075e-06    2.358946949e-05    0.000000000e+00    0.000000000e+00    0.000000000e+00    0.000000000e+00
      381250000    9.054855704e-01    3.213342130e-01    9.620562196e-06    1.024454832e-08    0.000000000e+00    0.000000000e+00    0.000000000e+00    0.000000000e+00
      388500000    9.341333508e-01    2.059292644e-01   -1.769326627e-05   -1.593306661e-05    0.000000000e+00    0.000000000e+00    0.000000000e+00    0.000000000e+00
      395750000    9.504373074e-01    8.857589215e-02    8.659437299e-06   -1.477357000e-05    0.000000000e+00    0.000000000e+00    0.000000000e+00    0.000000000e+00
      403000000    9.526321292e-01   -2.800206281e-02   -2.792105079e-06   -6.621703506e-06    0.000000000e+00    0.000000000e+00    0.000000000e+00    0.000000000e+00
      410250000    9.423959255e-01   -1.439437717e-01    1.442618668e-06    2.288352698e-05    0.000000000e+00    0.000000000e+00    0.000000000e+00    0.000000000e+00
      417500000    9.190272689e-01   -2.554893494e-01   -5.531124771e-05    1.065712422e-05    0.000000000e+00    0.000000000e+00    0.000000000e+00    0.000000000e+00
      424750000    8.849571943e-01   -3.633294404e-01   -1.972634345e-05    8.828938007e-07    0.000000000e+00    0.000000000e+00    0.000000000e+00    0.000000000e+00
      432000000    8.389593363e-01   -4.663695991e-01    1.222174615e-05    2.127513289e-05    0.000000000e+00    0.000000000e+00    0.000000000e+00    0.000000000e+00
      439250000    7.834113836e-01   -5.627571940e-01    1.181941479e-05    2.537760884e-05    0.000000000e+00    0.000000000e+00    0.000000000e+00    0.000000000e+00
      446500000    7.189486623e-01   -6.512802243e-01    2.749171108e-05    1.267530024e-06    0.000000000e+00    0.000000000e+00    0.000000000e+00    0.000000000e+00
      453750000    6.449068785e-01   -7.340955138e-01    1.412630081e-05    1.476705074e-05    0.000000000e+00    0.000000000e+00    0.000000000e+00    0.000000000e+00
      461000000    5.638202429e-01   -8.068516850e-01   -1.398846507e-06   -6.156042218e-06    0.000000000e+00    0.000000000e+00    0.000000000e+00    0.000000000e+00
      468250000    4.767198861e-01   -8.708966970e-01   -8.995644748e-06    1.941993833e-05    0.000000000e+00    0.000000000e+00    0.000000000e+00    0.000000000e+00
      475500000    3.807388246e-01   -9.269183278e-01   -7.527880371e-06    1.932121813e-05    0.000000000e+00    0.000000000e+00    0.000000000e+00    0.000000000e+00
      482750000    2.818621099e-01   -9.711259604e-01   -1.606717706e-05    5.055591464e-05    0.000000000e+00    0.000000000e+00    0.000000000e+00    0.000000000e+00
      490000000    1.778654307e-01   -1.005697012e+00    2.313405275e-05   -4.912726581e-06    0.000000000e+00    0.000000000e+00    0.000000000e+00    0.000000000e+00
      497250000    6.960635632e-02   -1.028874397e+00    4.404596984e-05   -9.939074516e-06    0.000000000e+00    0.000000000e+00    0.000000000e+00    0.000000000e+00
      504500000   -3.949899599e-02   -1.040962338e+00    3.426708281e-05   -1.062545925e-05    0.000000000e+00    0.000000000e+00    0.000000000e+00    0.000000000e+00
      511750000   -1.513072848e-01   -1.041305065e+00   -3.773719072e-06    8.547678590e-06    0.000000000e+00    0.000000000e+00    0.000000000e+00    0.000000000e+00
      519000000   -2.622872591e-01   -1.028631210e+00    2.821069211e-05    3.810040653e-05    0.000000000e+00    0.000000000e+00    0.000000000e+00    0.000000000e+00
      526250000   -3.723093271e-01   -1.004808426e+00    1.049786806e-05   -2.045184374e-06    0.000000000e+00    0.000000000e+00    0.000000000e+00    0.000000000e+00
      533500000   -4.800746441e-01   -9.679915309e-01    2.842210233e-05    1.032836735e-05    0.000000000e+00    0.000000000e+00    0.000000000e+00    0.000000000e+00
      540750000   -5.832745433e-01   -9.193912745e-01   -5.543045700e-05   -1.639500260e-05    0.000000000e+00    0.000000000e+00    0.000000000e+00    0.000000000e+00
      548000000   -6.814303994e-01   -8.570780158e-01    3.168452531e-05   -1.154188067e-05    0.000000000e+00    0.000000000e+00    0.000000000e+00    0.000000000e+00
      555250000   -7.717972398e-01   -7.859720588e-01    1.988280565e-05    2.567190677e-05    0.000000000e+00    0.000000000e+00    0.000000000e+00    0.000000000e+00
      562500000   -8.547621369e-01   -7.011671066e-01   -1.051742584e-05    2.422276884e-05    0.000000000e+00    0.000000000e+00    0.000000000e+00    0.000000000e+00
      569750000   -9.267255664e-01   -6.094733477e-01    2.534687519e-05    3.104843199e-05    0.000000000e+00    0.000000000e+00    0.000000000e+00    0.000000000e+00
      577000000   -9.870303273e-01   -5.088309050e-01   -2.027861774e-05   -5.965121090e-06    0.000000000e+00    0.000000000e+00    0.000000000e+00    0.000000000e+00
      584250000   -1.036733985e+00   -3.997352719e-01    5.738809705e-06   -8.213333786e-06    0.000000000e+00    0.000000000e+00    0.000000000e+00    0.000000000e+00
      591500000   -1.072609186e+00   -2.859430313e-01    1.948792487e-05    6.882473826e-06    0.000000000e+00    0.000000000e+00    0.000000000e+00    0.000000000e+00
      598750000   -1.093779564e+00   -1.672195941e-01   -1.603737473e-05   -5.601905286e-06    0.000000000e+00    0.000000000e+00    0.000000000e+00    0.000000000e+00
      606000000   -1.100297451e+00   -4.741481319e-02   -1.971144229e-05   -3.927946091e-05    0.000000000e+00    0.000000000e+00    0.000000000e+00    0.000000000e+00
      613250000   -1.092414975e+00    7.127913088e-02    5.913898349e-06    4.079937935e-05    0.000000000e+00    0.000000000e+00    0.000000000e+00    0.000000000e+00
      620500000   -1.070106864e+00    1.885362267e-01    1.732166857e-05    5.205161870e-06    0.000000000e+00    0.000000000e+00    0.000000000e+00    0.000000000e+00
      627750000   -1.033221364e+00    3.030259609e-01    3.515463322e-05   -4.751235247e-05    0.000000000e+00    0.000000000e+00    0.000000000e+00    0.000000000e+00
      635000000   -9.848043323e-01    4.083611965e-01   -3.463588655e-06   -8.608214557e-06    0.000000000e+00    0.000000000e+00    0.000000000e+00    0.000000000e+00
      642250000   -9.233500957e-01    5.088797808e-01   -1.786276698e-06   -2.136453986e-06    0.000000000e+00    0.000000000e+00    0.000000000e+00    0.000000000e+00
      649500000   -8.511557579e-01    5.991786122e-01    1.137331128e-05   -2.182088792e-06    0.000000000e+00    0.000000000e+00    0.000000000e+00    0.000000000e+00
      656750000   -7.697880864e-01    6.796048284e-01    2.198107541e-05   -2.674851567e-05    0.000000000e+00    0.000000000e+00    0.000000000e+00    0.000000000e+00
      664000000   -6.800186038e-01    7.497970462e-01   -6.311107427e-05   -1.598149538e-06    0.000000000e+00    0.000000000e+00    0.000000000e+00    0.000000000e+00
      671250000   -5.843058825e-01    8.077340126e-01   -3.088731319e-05    8.981674910e-06    0.000000000e+00    0.000000000e+00    0.000000000e+00    0.000000000e+00
      678500000   -4.834868610e-01    8.544746041e-01    2.107117325e-05   -7.905997336e-06    0.000000000e+00    0.000000000e+00    0.000000000e+00    0.000000000e+00
      685750000   -3.782907426e-01    8.896744847e-01   -1.387670636e-07   -2.608634531e-06    0.000000000e+00    0.000000000e+00    0.000000000e+00    0.000000000e+00
      693000000   -2.733253837e-01    9.116550088e-01   -7.806345820e-06   -4.695728421e-06    0.000000000e+00    0.000000000e+00    0.000000000e+00    0.000000000e+00
      700250000   -1.668052971e-01    9.228879809e-01    9.058043361e-06   -3.130733967e-05    0.000000000e+00    0.000000000e+00    0.000000000e+00    0.000000000e+00
      707500000   -5.978891999e-02    9.215140343e-01   -1.831352711e-05    1.451838762e-05    0.000000000e+00    0.000000000e+00    0.000000000e+00    0.000000000e+00
      714750000    4.480102286e-02    9.103540778e-01   -1.731701195e-05    1.610442996e-05    0.000000000e+00    0.000000000e+00    0.000000000e+00    0.000000000e+00
      722000000    1.440892965e-01    8.880134821e-01   -1.100264490e-05   -3.073923290e-05    0.000000000e+00    0.000000000e+00    0.000000000e+00    0.000000000e+00
      729250000    2.441364527e-01    8.552780151e-01    1.498498023e-05    2.066418529e-05    0.000000000e+00    0.000000000e+00    0.000000000e+00    0.000000000e+00
      736500000    3.361527920e-01    8.140586615e-01    2.659671009e-05   -7.207505405e-06    0.000000000e+00    0.000000000e+00    0.000000000e+00    0.000000000e+00
      743750000    4.237722158e-01    7.632949948e-01    3.139674664e-05    1.024268568e-05    0.000000000e+00    0.000000000e+00    0.000000000e+00    0.000000000e+00
      751000000    5.059458017e-01    7.044088840e-01    7.254071534e-06   -9.220093489e-07    0.000000000e+00    0.000000000e+00    0.000000000e+00    0.000000000e+00
      758250000    5.805609822e-01    6.391633749e-01    1.515820622e-05   -6.753671914e-05    0.000000000e+00    0.000000000e+00    0.000000000e+00    0.000000000e+00
      765500000    6.496670842e-01    5.646639466e-01    3.008078784e-05    8.245930076e-06    0.000000000e+00    0.000000000e+00    0.000000000e+00    0.000000000e+00
      772750000    7.094308734e-01    4.865030050e-01    6.993301213e-06    1.058354974e-05    0.000000000e+00    0.000000000e+00    0.000000000e+00    0.000000000e+00
      780000000    7.608773112e-01    4.023779035e-01   -1.677777618e-05    1.382362098e-05    0.000000000e+00    0.000000000e+00    0.000000000e+00    0.000000000e+00
      787250000    8.070346117e-01    3.099054992e-01   -1.202709973e-05   -5.419645458e-05    0.000000000e+00    0.000000000e+00    0.000000000e+00    0.000000000e+00
      794500000    8.412210941e-01    2.163841873e-01    1.595914364e-05   -5.679391325e-05    0.000000000e+00    0.000000000e+00    0.000000000e+00    0.000000000e+00
      801750000    8.672862053e-01    1.181311831e-01   -4.218891263e-06   -2.548098564e-05    0.000000000e+00    0.000000000e+00    0.000000000e+00    0.000000000e+00
      809000000    8.832908869e-01    1.528756320e-02   -3.813765943e-06    2.781953663e-05    0.000000000e+00    0.000000000e+00    0.000000000e+00    0.000000000e+00
      816250000    8.882660866e-01   -8.675292134e-02   -2.574734390e-05    2.154801041e-05    0.000000000e+00    0.000000000e+00    0.000000000e+00    0.000000000e+00
      823500000    8.827909231e-01   -1.914944202e-01    2.294778824e-05   -4.565902054e-05    0.000000000e+00    0.000000000e+00    0.000000000e+00    0.000000000e+00
      830750000    8.653065562e-01   -2.975218892e-01   -2.680998296e-05   -2.142973244e-05    0.000000000e+00    0.000000000e+00    0.000000000e+00    0.000000000e+00
      838000000    8.369597197e-01   -4.001882076e-01   -2.567283809e-05   -2.139434218e-05    0.000000000e+00    0.000000000e+00    0.000000000e+00    0.000000000e+00
      845250000    7.962392569e-01   -5.012680888e-01    1.440756023e-05   -7.405877113e-06    0.000000000e+00    0.000000000e+00    0.000000000e+00    0.000000000e+00
      852500000    7.436245084e-01   -5.992829800e-01   -2.192426473e-05    7.369462401e-05    0.000000000e+00    0.000000000e+00    0.000000000e+00    0.000000000e+00
      859750000    6.803038716e-01   -6.907988191e-01    3.640633076e-05    1.566484571e-05    0.000000000e+00    0.000000000e+00    0.000000000e+00    0.000000000e+00
      867000000    6.029700637e-01   -7.773368359e-01    9.043142200e-07   -1.494307071e-05    0.000000000e+00    0.000000000e+00    0.000000000e+00    0.000000000e+00
      874250000    5.159100294e-01   -8.539664149e-01   -1.356657594e-05   -6.901100278e-07    0.000000000e+00    0.000000000e+00    0.000000000e+00    0.000000000e+00
      881500000    4.182730913e-01   -9.209176898e-01    2.229958773e-05    2.680439502e-05    0.000000000e+00    0.000000000e+00    0.000000000e+00    0.000000000e+00
      888750000    3.125523031e-01   -9.739609361e-01    1.690164208e-05   -2.131797373e-05    0.000000000e+00    0.000000000e+00    0.000000000e+00    0.000000000e+00
      896000000    1.974709928e-01   -1.015551329e+00   -1.709349453e-05   -2.007186413e-05    0.000000000e+00    0.000000000e+00    0.000000000e+00    0.000000000e+00
      903250000    7.867699116e-02   -1.040630341e+00   -2.380087972e-05    4.282034934e-05    0.000000000e+00    0.000000000e+00    0.000000000e+00    0.000000000e+00
      910500000   -4.703998566e-02   -1.049904704e+00    3.915280104e-06    1.029763371e-05    0.000000000e+00    0.000000000e+00    0.000000000e+00    0.000000000e+00
      917750000   -1.694717109e-01   -1.041481137e+00   -4.462897778e-06   -3.299675882e-05    0.000000000e+00    0.000000000e+00    0.000000000e+00    0.000000000e+00
      925000000   -2.902761400e-01   -1.017751694e+00   -2.942327410e-05   -9.596347809e-06    0.000000000e+00    0.000000000e+00    0.000000000e+00    0.000000000e+00
      932250000   -4.093701541e-01   -9.759722948e-01    1.280568540e-06    1.086387783e-05    0.000000000e+00    0.000000000e+00    0.000000000e+00    0.000000000e+00
      939500000   -5.186343789e-01   -9.197582006e-01    6.141141057e-06   -2.318620682e-05    0.000000000e+00    0.000000000e+00    0.000000000e+00    0.000000000e+00
      946750000   -6.197316051e-01   -8.485031128e-01    3.185402602e-05    3.306474537e-05    0.000000000e+00    0.000000000e+00    0.000000000e+00    0.000000000e+00
      954000000   -7.072414756e-01   -7.672309279e-01   -2.291053534e-06   -3.279559314e-05    0.000000000e+00    0.000000000e+00    0.000000000e+00    0.000000000e+00
      961250000   -7.825229764e-01   -6.751119494e-01   -1.255795360e-05   -2.869870514e-05    0.000000000e+00    0.000000000e+00    0.000000000e+00    0.000000000e+00
      968500000   -8.452107906e-01   -5.745027661e-01    1.342780888e-05    3.441609442e-05    0.000000000e+00    0.000000000e+00    0.000000000e+00    0.000000000e+00
      975750000   -8.917492032e-01   -4.697974622e-01    4.840083420e-05    3.279373050e-05    0.000000000e+00    0.000000000e+00    0.000000000e+00    0.000000000e+00
      983000000   -9.252318740e-01   -3.596843481e-01    3.005750477e-05    6.202608347e-06    0.000000000e+00    0.000000000e+00    0.000000000e+00    0.000000000e+00
      990250000   -9.432260990e-01   -2.537604570e-01    2.842955291e-05   -9.151175618e-06    0.000000000e+00    0.000000000e+00    0.000000000e+00    0.000000000e+00
      997500000   -9.483976960e-01   -1.467077285e-01    2.538505942e-05    1.680012792e-05    0.000000000e+00    0.000000000e+00    0.000000000e+00    0.000000000e+00
     1004750000   -9.406564236e-01   -4.202611372e-02   -1.293513924e-05   -6.114132702e-06    0.000000000e+00    0.000000000e+00    0.000000000e+00    0.000000000e+00
     1012000000   -9.215679169e-01    5.926503241e-02    2.354383469e-06    3.042630851e-06    0.000000000e+00    0.000000000e+00    0.000000000e+00    0.000000000e+00
     1019250000   -8.921710253e-01    1.524941921e-01    4.292465746e-06    8.599832654e-06    0.000000000e+00    0.000000000e+00    0.000000000e+00    0.000000000e+00
     1026500000   -8.540261984e-01    2.403286994e-01   -2.593081445e-05    5.539599806e-05    0.000000000e+00    0.000000000e+00    0.000000000e+00    0.000000000e+00
     1033750000   -8.077984452e-01    3.239622414e-01    1.223199069e-05    1.202803105e-05    0.000000000e+00    0.000000000e+00    0.000000000e+00    0.000000000e+00
     1041000000   -7.544776797e-01    3.974772394e-01    3.617722541e-05    7.546413690e-05    0.000000000e+00    0.000000000e+00    0.000000000e+00    0.000000000e+00
