! NanoVNA-App
! Date: 2024-06-25 16:14:26
! Start: 200MHz Stop: 6GHz Points: 801
! S-Parameter data: F S11 S21 S12 S22
# Hz S RI R 50
!     Frequency           S11_Real           S11_Imag           S21_Real           S21_Imag           S12_Real           S12_Imag           S22_Real           S22_Imag
      200000000   -9.982224703e-01   -1.148339659e-01    9.193085134e-06    3.548339009e-07    0.000000000e+00    0.000000000e+00    0.000000000e+00    0.000000000e+00
      207250000   -1.009775043e+00   -1.600035094e-02    3.656744957e-05   -7.137656212e-06    0.000000000e+00    0.000000000e+00    0.000000000e+00    0.000000000e+00
      214500000   -1.010986209e+00    8.539421856e-02    2.242345363e-05    1.685507596e-05    0.000000000e+00    0.000000000e+00    0.000000000e+00    0.000000000e+00
      221750000   -1.001885653e+00    1.880329400e-01   -1.755636185e-05   -1.935195178e-05    0.000000000e+00    0.000000000e+00    0.000000000e+00    0.000000000e+00
      229000000   -9.820731282e-01    2.909100652e-01   -7.589347661e-06    3.200862557e-05    0.000000000e+00    0.000000000e+00    0.000000000e+00    0.000000000e+00
      236250000   -9.491629601e-01    3.937636316e-01   -1.523829997e-05   -2.050399780e-05    0.000000000e+00    0.000000000e+00    0.000000000e+00    0.000000000e+00
      243500000   -9.051467776e-01    4.929999709e-01    3.147777170e-05    2.205558121e-05    0.000000000e+00    0.000000000e+00    0.000000000e+00    0.000000000e+00
      250750000   -8.493413329e-01    5.900936723e-01    2.720393240e-06   -1.062639058e-05    0.000000000e+00    0.000000000e+00    0.000000000e+00    0.000000000e+00
      258000000   -7.808331251e-01    6.810640097e-01   -3.864988685e-07    2.811383456e-05    0.000000000e+00    0.000000000e+00    0.000000000e+00    0.000000000e+00
      265250000   -7.004404664e-01    7.642695308e-01    3.797467798e-05    2.124905586e-05    0.000000000e+00    0.000000000e+00    0.000000000e+00    0.000000000e+00
      272500000   -6.087526083e-01    8.397724032e-01    2.129282802e-05   -2.648681402e-05    0.000000000e+00    0.000000000e+00    0.000000000e+00    0.000000000e+00
      279750000   -5.083286166e-01    9.037528634e-01    3.389082849e-06   -3.714673221e-05    0.000000000e+00    0.000000000e+00    0.000000000e+00    0.000000000e+00
      287000000   -3.973307014e-01    9.551732540e-01    6.773509085e-06   -1.159776002e-05    0.000000000e+00    0.000000000e+00    0.000000000e+00    0.000000000e+00
      294250000   -2.808389068e-01    9.925007820e-01    1.342687756e-05   -1.453608274e-05    0.000000000e+00    0.000000000e+00    0.000000000e+00    0.000000000e+00
      301500000   -1.578264832e-01    1.015147924e+00    1.017749310e-05   -1.712888479e-05    0.000000000e+00    0.000000000e+00    0.000000000e+00    0.000000000e+00
      308750000   -3.211741149e-02    1.022428632e+00   -3.971718252e-05   -3.796443343e-05    0.000000000e+00    0.000000000e+00    0.000000000e+00    0.000000000e+00
      316000000    9.380234778e-02    1.013751984e+00    1.484621316e-05    2.682209015e-06    0.000000000e+00    0.000000000e+00    0.000000000e+00    0.000000000e+00
      323250000    2.178617567e-01    9.879614115e-01   -3.407709301e-06   -1.688767225e-05    0.000000000e+00    0.000000000e+00    0.000000000e+00    0.000000000e+00
      330500000    3.377564549e-01    9.462841749e-01   -8.441507816e-06   -4.004687071e-08    0.000000000e+00    0.000000000e+00    0.000000000e+00    0.000000000e+00
      337750000    4.514043927e-01    8.898310661e-01   -2.537295222e-05   -2.537202090e-05    0.000000000e+00    0.000000000e+00    0.000000000e+00    0.000000000e+00
      345000000    5.561656356e-01    8.190771341e-01   -9.357929230e-06    8.727423847e-06    0.000000000e+00    0.000000000e+00    0.000000000e+00    0.000000000e+00
      352250000    6.512026191e-01    7.368531823e-01    1.252815127e-05    1.331884414e-05    0.000000000e+00    0.000000000e+00    0.000000000e+00    0.000000000e+00
      359500000    7.341818213e-01    6.447266340e-01    9.195879102e-06    3.442075104e-05    0.000000000e+00    0.000000000e+00    0.000000000e+00    0.000000000e+00
      366750000    8.047848940e-01    5.429135561e-01   -4.500430077e-05    2.559181303e-05    0.000000000e+00    0.000000000e+00    0.000000000e+00    0.000000000e+00
      374000000    8.620977402e-01    4.354546368e-01   -5.551893264e-05    2.405326813e-05    0.000000000e+00    0.000000000e+00    0.000000000e+00    0.000000000e+00
      381250000    9.049844146e-01    3.208184540e-01    1.049600542e-06    6.470829248e-06    0.000000000e+00    0.000000000e+00    0.000000000e+00    0.000000000e+00
      388500000    9.340876341e-01    2.062215358e-01   -1.551955938e-05   -7.069669664e-06    0.000000000e+00    0.000000000e+00    0.000000000e+00    0.000000000e+00
      395750000    9.501101971e-01    8.839096129e-02   -4.081986845e-06   -1.682806760e-05    0.000000000e+00    0.000000000e+00    0.000000000e+00    0.000000000e+00
      403000000    9.526553154e-01   -2.811203711e-02   -2.320390195e-05   -1.084711403e-05    0.000000000e+00    0.000000000e+00    0.000000000e+00    0.000000000e+00
      410250000    9.421485066e-01   -1.436675489e-01    2.791173756e-05    7.469207048e-06    0.000000000e+00    0.000000000e+00    0.000000000e+00    0.000000000e+00
      417500000    9.196019769e-01   -2.553167045e-01   -2.685561776e-05   -6.333924830e-06    0.000000000e+00    0.000000000e+00    0.000000000e+00    0.000000000e+00
      424750000    8.849119544e-01   -3.633190095e-01   -9.139999747e-06    6.001442671e-06    0.000000000e+00    0.000000000e+00    0.000000000e+00    0.000000000e+00
      432000000    8.388711810e-01   -4.671658576e-01   -2.376455814e-05   -3.498978913e-06    0.000000000e+00    0.000000000e+00    0.000000000e+00    0.000000000e+00
      439250000    7.837767601e-01   -5.628061891e-01   -2.263113856e-07   -1.020077616e-05    0.000000000e+00    0.000000000e+00    0.000000000e+00    0.000000000e+00
      446500000    7.187821269e-01   -6.516366005e-01   -1.620594412e-05    2.293940634e-05    0.000000000e+00    0.000000000e+00    0.000000000e+00    0.000000000e+00
      453750000    6.451267600e-01   -7.336097956e-01    2.456456423e-05   -1.729466021e-05    0.000000000e+00    0.000000000e+00    0.000000000e+00    0.000000000e+00
      461000000    5.644230843e-01   -8.076519370e-01   -8.661299944e-07   -1.568533480e-05    0.000000000e+00    0.000000000e+00    0.000000000e+00    0.000000000e+00
      468250000    4.763315618e-01   -8.714181781e-01    2.288632095e-05    1.596286893e-06    0.000000000e+00    0.000000000e+00    0.000000000e+00    0.000000000e+00
      475500000    3.808640242e-01   -9.259010553e-01    1.978594810e-05    2.759508789e-06    0.000000000e+00    0.000000000e+00    0.000000000e+00    0.000000000e+00
      482750000    2.818461061e-01   -9.712103009e-01   -3.871507943e-06    5.254149437e-05    0.000000000e+00    0.000000000e+00    0.000000000e+00    0.000000000e+00
      490000000    1.772818714e-01   -1.005237222e+00   -2.331193537e-05    6.523914635e-06    0.000000000e+00    0.000000000e+00    0.000000000e+00    0.000000000e+00
      497250000    7.009909302e-02   -1.028944850e+00    2.260878682e-05   -7.050111890e-06    0.000000000e+00    0.000000000e+00    0.000000000e+00    0.000000000e+00
      504500000   -4.001900181e-02   -1.040139318e+00    2.095662057e-05    1.781620085e-05    0.000000000e+00    0.000000000e+00    0.000000000e+00    0.000000000e+00
      511750000   -1.507939100e-01   -1.040943503e+00   -4.193745553e-05    2.549216151e-05    0.000000000e+00    0.000000000e+00    0.000000000e+00    0.000000000e+00
      519000000   -2.622169554e-01   -1.029228687e+00   -3.294087946e-06   -2.869684249e-05    0.000000000e+00    0.000000000e+00    0.000000000e+00    0.000000000e+00
      526250000   -3.723672926e-01   -1.004129052e+00   -1.482106745e-05    2.390984446e-05    0.000000000e+00    0.000000000e+00    0.000000000e+00    0.000000000e+00
      533500000   -4.793603420e-01   -9.673388600e-01   -5.271285772e-06    1.977663487e-05    0.000000000e+00    0.000000000e+00    0.000000000e+00    0.000000000e+00
      540750000   -5.827497840e-01   -9.185470939e-01    3.390479833e-05    1.989305019e-06    0.000000000e+00    0.000000000e+00    0.000000000e+00    0.000000000e+00
      548000000   -6.818189025e-01   -8.574086428e-01    5.449168384e-06    1.054350287e-05    0.000000000e+00    0.000000000e+00    0.000000000e+00    0.000000000e+00
      555250000   -7.720794082e-01   -7.849036455e-01   -5.887821317e-06    2.193730325e-05    0.000000000e+00    0.000000000e+00    0.000000000e+00    0.000000000e+00
      562500000   -8.540338874e-01   -7.021465302e-01   -3.424193710e-05    6.013549864e-06    0.000000000e+00    0.000000000e+00    0.000000000e+00    0.000000000e+00
      569750000   -9.272415042e-01   -6.094870567e-01    6.813555956e-06   -3.239419311e-05    0.000000000e+00    0.000000000e+00    0.000000000e+00    0.000000000e+00
      577000000   -9.882277250e-01   -5.086540580e-01   -2.155639231e-05   -2.141855657e-05    0.000000000e+00    0.000000000e+00    0.000000000e+00    0.000000000e+00
      584250000   -1.036631346e+00   -3.992803693e-01   -1.993030310e-07    3.507360816e-06    0.000000000e+00    0.000000000e+00    0.000000000e+00    0.000000000e+00
      591500000   -1.072429776e+00   -2.856098413e-01   -2.459343523e-05    2.543628216e-05    0.000000000e+00    0.000000000e+00    0.000000000e+00    0.000000000e+00
      598750000   -1.093867660e+00   -1.666801572e-01   -1.735426486e-05    1.119263470e-05    0.000000000e+00    0.000000000e+00    0.000000000e+00    0.000000000e+00
      606000000   -1.100391984e+00   -4.758642614e-02   -5.973502994e-06    1.695193350e-05    0.000000000e+00    0.000000000e+00    0.000000000e+00    0.000000000e+00
      613250000   -1.092574477e+00    7.148633152e-02   -2.501346171e-05    2.319179475e-05    0.000000000e+00    0.000000000e+00    0.000000000e+00    0.000000000e+00
      620500000   -1.070808530e+00    1.879490018e-01   -7.840804756e-06    3.348942846e-05    0.000000000e+00    0.000000000e+00    0.000000000e+00    0.000000000e+00
      627750000   -1.033886909e+00    3.031452298e-01   -8.584931493e-06   -2.392847091e-05    0.000000000e+00    0.000000000e+00    0.000000000e+00    0.000000000e+00
      635000000   -9.854531884e-01    4.087993503e-01   -1.502223313e-06   -1.007225364e-05    0.000000000e+00    0.000000000e+00    0.000000000e+00    0.000000000e+00
      642250000   -9.234778881e-01    5.082666874e-01   -8.109025657e-06   -4.336237907e-06    0.000000000e+00    0.000000000e+00    0.000000000e+00    0.000000000e+00
      649500000   -8.512772322e-01    5.993112922e-01   -1.090113074e-05    5.256850272e-05    0.000000000e+00    0.000000000e+00    0.000000000e+00    0.000000000e+00
      656750000   -7.697463632e-01    6.794269085e-01   -2.081226557e-05    1.283641905e-05    0.000000000e+00    0.000000000e+00    0.000000000e+00    0.000000000e+00
      664000000   -6.799975634e-01    7.493779659e-01   -1.159962267e-05   -2.340320498e-05    0.000000000e+00    0.000000000e+00    0.000000000e+00    0.000000000e+00
      671250000   -5.841648579e-01    8.073687553e-01    3.425683826e-05    5.340203643e-06    0.000000000e+00    0.000000000e+00    0.000000000e+00    0.000000000e+00
      678500000   -4.832315743e-01    8.550025225e-01   -3.580003977e-05   -2.389959991e-05    0.000000000e+00    0.000000000e+00    0.000000000e+00    0.000000000e+00
      685750000   -3.792944551e-01    8.887665868e-01    6.068032235e-05    1.421291381e-05    0.000000000e+00    0.000000000e+00    0.000000000e+00    0.000000000e+00
      693000000   -2.733356357e-01    9.120610952e-01   -2.150889486e-05    3.425404429e-06    0.000000000e+00    0.000000000e+00    0.000000000e+00    0.000000000e+00
      700250000   -1.660123318e-01    9.227343202e-01    2.532638609e-05   -1.579616219e-05    0.000000000e+00    0.000000000e+00    0.000000000e+00    0.000000000e+00
      707500000   -6.011067331e-02    9.221903086e-01   -1.102685928e-06   -2.898741513e-05    0.000000000e+00    0.000000000e+00    0.000000000e+00    0.000000000e+00
      714750000    4.434439540e-02    9.100257158e-01    1.746509224e-05   -2.214871347e-05    0.000000000e+00    0.000000000e+00    0.000000000e+00    0.000000000e+00
      722000000    1.450885683e-01    8.879325390e-01   -9.763054550e-06   -2.042204142e-05    0.000000000e+00    0.000000000e+00    0.000000000e+00    0.000000000e+00
      729250000    2.440683991e-01    8.554371595e-01   -4.631932825e-05   -2.723746002e-05    0.000000000e+00    0.000000000e+00    0.000000000e+00    0.000000000e+00
      736500000    3.358187377e-01    8.143944740e-01    2.630334347e-05   -8.651055396e-06    0.000000000e+00    0.000000000e+00    0.000000000e+00    0.000000000e+00
      743750000    4.238196313e-01    7.637507319e-01   -7.237307727e-05    1.095235348e-05    0.000000000e+00    0.000000000e+00    0.000000000e+00    0.000000000e+00
      751000000    5.056899786e-01    7.043370008e-01   -3.141909838e-05   -2.178270370e-05    0.000000000e+00    0.000000000e+00    0.000000000e+00    0.000000000e+00
      758250000    5.807261467e-01    6.389721036e-01   -4.373677075e-05    1.162197441e-05    0.000000000e+00    0.000000000e+00    0.000000000e+00    0.000000000e+00
      765500000    6.482733488e-01    5.658473372e-01   -4.635937512e-05   -1.689605415e-05    0.000000000e+00    0.000000000e+00    0.000000000e+00    0.000000000e+00
      772750000    7.100718617e-01    4.854153097e-01   -8.689239621e-06   -3.551971167e-05    0.000000000e+00    0.000000000e+00    0.000000000e+00    0.000000000e+00
      780000000    7.615308166e-01    4.021569788e-01   -1.422781497e-05   -2.618506551e-05    0.000000000e+00    0.000000000e+00    0.000000000e+00    0.000000000e+00
      787250000    8.070824742e-01    3.110151291e-01    2.476759255e-05    1.385621727e-05    0.000000000e+00    0.000000000e+00    0.000000000e+00    0.000000000e+00
      794500000    8.418235779e-01    2.166100740e-01   -6.614252925e-06   -3.679655492e-06    0.000000000e+00    0.000000000e+00    0.000000000e+00    0.000000000e+00
      801750000    8.675068021e-01    1.172540933e-01    1.842062920e-05   -2.617482096e-05    0.000000000e+00    0.000000000e+00    0.000000000e+00    0.000000000e+00
      809000000    8.830243349e-01    1.639442891e-02   -2.848636359e-05   -7.992610335e-06    0.000000000e+00    0.000000000e+00    0.000000000e+00    0.000000000e+00
      816250000    8.882278800e-01   -8.608856052e-02   -8.255243301e-06    6.416812539e-06    0.000000000e+00    0.000000000e+00    0.000000000e+00    0.000000000e+00
      823500000    8.823048472e-01   -1.933532655e-01   -1.118518412e-06   -1.525785774e-05    0.000000000e+00    0.000000000e+00    0.000000000e+00    0.000000000e+00
      830750000    8.649380803e-01   -2.965548933e-01    2.188328654e-05   -8.601695299e-06    0.000000000e+00    0.000000000e+00    0.000000000e+00    0.000000000e+00
      838000000    8.365682364e-01   -4.002006650e-01   -1.912936568e-05   -3.987271339e-05    0.000000000e+00    0.000000000e+00    0.000000000e+00    0.000000000e+00
      845250000    7.969338298e-01   -5.011982322e-01    7.491558790e-06   -2.867262810e-05    0.000000000e+00    0.000000000e+00    0.000000000e+00    0.000000000e+00
      852500000    7.441893220e-01   -5.989046097e-01   -2.158898860e-05   -1.431908458e-05    0.000000000e+00    0.000000000e+00    0.000000000e+00    0.000000000e+00
      859750000    6.796421409e-01   -6.910573244e-01   -1.114327461e-05   -4.925671965e-05    0.000000000e+00    0.000000000e+00    0.000000000e+00    0.000000000e+00
      867000000    6.034494042e-01   -7.774771452e-01    1.285038888e-05    2.983119339e-05    0.000000000e+00    0.000000000e+00    0.000000000e+00    0.000000000e+00
      874250000    5.169999599e-01   -8.536685705e-01    2.420227975e-05   -3.194529563e-05    0.000000000e+00    0.000000000e+00    0.000000000e+00    0.000000000e+00
      881500000    4.175421596e-01   -9.205673337e-01    1.729559153e-05    2.636481076e-05    0.000000000e+00    0.000000000e+00    0.000000000e+00    0.000000000e+00
      888750000    3.128594458e-01   -9.741562009e-01    1.103710383e-05    2.481974661e-05    0.000000000e+00    0.000000000e+00    0.000000000e+00    0.000000000e+00
      896000000    1.975844502e-01   -1.014854074e+00   -3.717932850e-05    5.405861884e-05    0.000000000e+00    0.000000000e+00    0.000000000e+00    0.000000000e+00
      903250000    7.863283902e-02   -1.040651083e+00    2.228841186e-05   -9.212642908e-06    0.000000000e+00    0.000000000e+00    0.000000000e+00    0.000000000e+00
      910500000   -4.728208855e-02   -1.049782753e+00    1.149252057e-05    4.031881690e-05    0.000000000e+00    0.000000000e+00    0.000000000e+00    0.000000000e+00
      917750000   -1.697362810e-01   -1.041984200e+00    3.873370588e-06    3.134179860e-05    0.000000000e+00    0.000000000e+00    0.000000000e+00    0.000000000e+00
      925000000   -2.905420363e-01   -1.017996073e+00    1.348648220e-05   -1.451093704e-05    0.000000000e+00    0.000000000e+00    0.000000000e+00    0.000000000e+00
      932250000   -4.101833999e-01   -9.761425853e-01   -1.280941069e-05   -2.071820199e-05    0.000000000e+00    0.000000000e+00    0.000000000e+00    0.000000000e+00
      939500000   -5.190316439e-01   -9.198864698e-01    2.991128713e-05    4.128552973e-06    0.000000000e+00    0.000000000e+00    0.000000000e+00    0.000000000e+00
      946750000   -6.198566556e-01   -8.485251069e-01    1.737847924e-06    1.823808998e-05    0.000000000e+00    0.000000000e+00    0.000000000e+00    0.000000000e+00
      954000000   -7.082759738e-01   -7.677928209e-01    7.319264114e-06   -2.136267722e-05    0.000000000e+00    0.000000000e+00    0.000000000e+00    0.000000000e+00
      961250000   -7.839469910e-01   -6.738054752e-01    1.865904778e-05    7.431954145e-07    0.000000000e+00    0.000000000e+00    0.000000000e+00    0.000000000e+00
      968500000   -8.448041081e-01   -5.748167038e-01   -4.038959742e-05    1.072697341e-05    0.000000000e+00    0.000000000e+00    0.000000000e+00    0.000000000e+00
      975750000   -8.925849199e-01   -4.685250223e-01    1.581106335e-05   -3.184471279e-05    0.000000000e+00    0.000000000e+00    0.000000000e+00    0.000000000e+00
      983000000   -9.251515269e-01   -3.610301614e-01   -3.158021718e-05   -5.196779966e-07    0.000000000e+00    0.000000000e+00    0.000000000e+00    0.000000000e+00
      990250000   -9.433608651e-01   -2.534456849e-01   -1.978129148e-06   -2.019014210e-05    0.000000000e+00    0.000000000e+00    0.000000000e+00    0.000000000e+00
      997500000   -9.480299354e-01   -1.459833682e-01   -3.476627171e-06    1.411326230e-05    0.000000000e+00    0.000000000e+00    0.000000000e+00    0.000000000e+00
     1004750000   -9.405596256e-01   -4.170779511e-02    4.727579653e-05    3.248825669e-05    0.000000000e+00    0.000000000e+00    0.000000000e+00    0.000000000e+00
     1012000000   -9.216637611e-01    5.864135548e-02   -5.768239498e-05    1.483503729e-05    0.000000000e+00    0.000000000e+00    0.000000000e+00    0.000000000e+00
     1019250000   -8.927546144e-01    1.523240954e-01    3.576092422e-05   -3.454275429e-05    0.000000000e+00    0.000000000e+00    0.000000000e+00    0.000000000e+00
     1026500000   -8.535670638e-01    2.410832196e-01    3.613904119e-05   -6.437301636e-06    0.000000000e+00    0.000000000e+00    0.000000000e+00    0.000000000e+00
     1033750000   -8.068211079e-01    3.235279620e-01    5.062669516e-05    6.449408829e-06    0.000000000e+00    0.000000000e+00    0.000000000e+00    0.000000000e+00
     1041000000   -7.554418445e-01    3.970004618e-01    2.211425453e-05   -3.159046173e-06    0.000000000e+00    0.000000000e+00    0.000000000e+00    0.000000000e+00
