! NanoVNA-App
! Date: 2024-06-25 16:14:28
! Start: 200MHz Stop: 6GHz Points: 801
! S-Parameter data: F S11 S21 S12 S22
# Hz S RI R 50
!     Frequency           S11_Real           S11_Imag           S21_Real           S21_Imag           S12_Real           S12_Imag           S22_Real           S22_Imag
      200000000   -9.982733130e-01   -1.149146855e-01   -2.138968557e-05   -2.711359411e-05    0.000000000e+00    0.000000000e+00    0.000000000e+00    0.000000000e+00
      207250000   -1.009919882e+00   -1.584860682e-02    3.241375089e-05    3.064051270e-06    0.000000000e+00    0.000000000e+00    0.000000000e+00    0.000000000e+00
      214500000   -1.011117339e+00    8.535440266e-02   -9.557232261e-06   -3.664754331e-06    0.000000000e+00    0.000000000e+00    0.000000000e+00    0.000000000e+00
      221750000   -1.001131773e+00    1.880721301e-01    1.473259181e-05   -7.752329111e-06    0.000000000e+00    0.000000000e+00    0.000000000e+00    0.000000000e+00
      229000000   -9.817661047e-01    2.909763455e-01   -1.306273043e-05    2.550892532e-06    0.000000000e+00    0.000000000e+00    0.000000000e+00    0.000000000e+00
      236250000   -9.494993091e-01    3.934576511e-01    1.490209252e-05    1.075025648e-05    0.000000000e+00    0.000000000e+00    0.000000000e+00    0.000000000e+00
      243500000   -9.059382081e-01    4.933030307e-01   -1.441501081e-05   -2.425536513e-05    0.000000000e+00    0.000000000e+00    0.000000000e+00    0.000000000e+00
      250750000   -8.489276767e-01    5.901875496e-01   -9.681098163e-06    1.266412437e-05    0.000000000e+00    0.000000000e+00    0.000000000e+00    0.000000000e+00
      258000000   -7.803275585e-01    6.811035275e-01   -1.764856279e-06    2.209097147e-06    0.000000000e+00    0.000000000e+00    0.000000000e+00    0.000000000e+00
      265250000   -7.006143928e-01    7.651742101e-01   -1.383014023e-06    9.079463780e-06    0.000000000e+00    0.000000000e+00    0.000000000e+00    0.000000000e+00
      272500000   -6.084918976e-01    8.391492963e-01    2.384558320e-05   -3.779120743e-05    0.000000000e+00    0.000000000e+00    0.000000000e+00    0.000000000e+00
      279750000   -5.078283548e-01    9.032275081e-01    1.713633537e-07    1.715403050e-05    0.000000000e+00    0.000000000e+00    0.000000000e+00    0.000000000e+00
      287000000   -3.973032236e-01    9.548161030e-01    2.279877663e-06    2.552755177e-06    0.000000000e+00    0.000000000e+00    0.000000000e+00    0.000000000e+00
      294250000   -2.806048095e-01    9.932276607e-01   -1.804158092e-05    2.716016024e-05    0.000000000e+00    0.000000000e+00    0.000000000e+00    0.000000000e+00
      301500000   -1.577263921e-01    1.015057206e+00    3.896187991e-05   -5.019828677e-06    0.000000000e+00    0.000000000e+00    0.000000000e+00    0.000000000e+00
      308750000   -3.287563846e-02    1.022834063e+00   -2.591684461e-05   -2.133287489e-05    0.000000000e+00    0.000000000e+00    0.000000000e+00    0.000000000e+00
      316000000    9.346652031e-02    1.013783455e+00    4.911795259e-06   -1.913961023e-05    0.000000000e+00    0.000000000e+00    0.000000000e+00    0.000000000e+00
      323250000    2.177097648e-01    9.882659912e-01   -1.853797585e-05   -1.478940248e-05    0.000000000e+00    0.000000000e+00    0.000000000e+00    0.000000000e+00
      330500000    3.383686543e-01    9.462910891e-01   -6.712973118e-06    7.244758308e-06    0.000000000e+00    0.000000000e+00    0.000000000e+00    0.000000000e+00
      337750000    4.514954686e-01    8.906083107e-01   -3.211759031e-05    2.461671829e-05    0.000000000e+00    0.000000000e+00    0.000000000e+00    0.000000000e+00
      345000000    5.564032197e-01    8.192450404e-01   -3.337860107e-06   -1.568812877e-05    0.000000000e+00    0.000000000e+00    0.000000000e+00    0.000000000e+00
      352250000    6.515133977e-01    7.374796271e-01   -7.081776857e-06   -4.046596587e-06    0.000000000e+00    0.000000000e+00    0.000000000e+00    0.000000000e+00
      359500000    7.343614697e-01    6.448202729e-01   -5.039386451e-06   -4.364736378e-05    0.000000000e+00    0.000000000e+00    0.000000000e+00    0.000000000e+00
      366750000    8.048947453e-01    5.426737666e-01    3.790482879e-07    1.566112041e-05    0.000000000e+00    0.000000000e+00    0.000000000e+00    0.000000000e+00
      374000000    8.612678647e-01    4.351982176e-01   -7.394701242e-06   -2.417992800e-05    0.000000000e+00    0.000000000e+00    0.000000000e+00    0.000000000e+00
      381250000    9.056859612e-01    3.212535083e-01    4.117377102e-06    5.876459181e-05    0.000000000e+00    0.000000000e+00    0.000000000e+00    0.000000000e+00
      388500000    9.346071482e-01    2.059508860e-01   -9.952113032e-06    6.669200957e-06    0.000000000e+00    0.000000000e+00    0.000000000e+00    0.000000000e+00
      395750000    9.504854083e-01    8.915554732e-02   -2.258736640e-05    1.110974699e-05    0.000000000e+00    0.000000000e+00    0.000000000e+00    0.000000000e+00
      403000000    9.525470734e-01   -2.851680852e-02    2.280808985e-06   -1.022219658e-05    0.000000000e+00    0.000000000e+00    0.000000000e+00    0.000000000e+00
      410250000    9.420887828e-01   -1.433320642e-01   -2.421997488e-05   -1.292955130e-05    0.000000000e+00    0.000000000e+00    0.000000000e+00    0.000000000e+00
      417500000    9.196229577e-01   -2.551991343e-01    2.609379590e-05    9.456649423e-06    0.000000000e+00    0.000000000e+00    0.000000000e+00    0.000000000e+00
      424750000    8.848565221e-01   -3.634887338e-01   -2.100970596e-05    1.846533269e-05    0.000000000e+00    0.000000000e+00    0.000000000e+00    0.000000000e+00
      432000000    8.384420872e-01   -4.667885303e-01   -1.722015440e-06    9.251758456e-06    0.000000000e+00    0.000000000e+00    0.000000000e+00    0.000000000e+00
      439250000    7.840981483e-01   -5.626630187e-01    2.812780440e-05    1.890398562e-05    0.000000000e+00    0.000000000e+00    0.000000000e+00    0.000000000e+00
      446500000    7.185957432e-01   -6.520900726e-01   -1.444853842e-05    1.274887472e-05    0.000000000e+00    0.000000000e+00    0.000000000e+00    0.000000000e+00
      453750000    6.451285481e-01   -7.336573005e-01   -3.250315785e-06   -5.685724318e-06    0.000000000e+00    0.000000000e+00    0.000000000e+00    0.000000000e+00
      461000000    5.638986230e-01   -8.069804311e-01   -3.261491656e-06   -1.197587699e-05    0.000000000e+00    0.000000000e+00    0.000000000e+00    0.000000000e+00
      468250000    4.761018753e-01   -8.708866835e-01    3.739912063e-05   -2.494640648e-05    0.000000000e+00    0.000000000e+00    0.000000000e+00    0.000000000e+00
      475500000    3.807041049e-01   -9.269111753e-01   -5.774758756e-05    7.670372725e-06    0.000000000e+00    0.000000000e+00    0.000000000e+00    0.000000000e+00
      482750000    2.817710638e-01   -9.711998701e-01    2.848822623e-05    6.919726729e-07    0.000000000e+00    0.000000000e+00    0.000000000e+00    0.000000000e+00
      490000000    1.776927114e-01   -1.005092263e+00   -2.872850746e-05    3.204215318e-05    0.000000000e+00    0.000000000e+00    0.000000000e+00    0.000000000e+00
      497250000    7.034122199e-02   -1.029190898e+00   -7.473863661e-06   -1.340918243e-05    0.000000000e+00    0.000000000e+00    0.000000000e+00    0.000000000e+00
      504500000   -3.963384777e-02   -1.040934324e+00   -9.137205780e-06   -3.391411155e-05    0.000000000e+00    0.000000000e+00    0.000000000e+00    0.000000000e+00
      511750000   -1.510681808e-01   -1.041051030e+00   -2.382416278e-05   -1.511536539e-06    0.000000000e+00    0.000000000e+00    0.000000000e+00    0.000000000e+00
      519000000   -2.624011040e-01   -1.028933525e+00    1.968350261e-05    3.623776138e-06    0.000000000e+00    0.000000000e+00    0.000000000e+00    0.000000000e+00
      526250000   -3.725990653e-01   -1.003953338e+00    1.039449126e-05    1.793354750e-05    0.000000000e+00    0.000000000e+00    0.000000000e+00    0.000000000e+00
      533500000   -4.800044298e-01   -9.675697684e-01    2.674292773e-05   -2.055056393e-05    0.000000000e+00    0.000000000e+00    0.000000000e+00    0.000000000e+00
      540750000   -5.831033587e-01   -9.187265635e-01   -3.375113010e-05    1.620594412e-05    0.000000000e+00    0.000000000e+00    0.000000000e+00    0.000000000e+00
      548000000   -6.813480258e-01   -8.571591377e-01    7.499195635e-05    3.924593329e-06    0.000000000e+00    0.000000000e+00    0.000000000e+00    0.000000000e+00
      555250000   -7.719548345e-01   -7.846295834e-01    3.356114030e-05    2.266839147e-06    0.000000000e+00    0.000000000e+00    0.000000000e+00    0.000000000e+00
      562500000   -8.542127013e-01   -7.020189166e-01   -1.160427928e-05   -6.843358278e-06    0.000000000e+00    0.000000000e+00    0.000000000e+00    0.000000000e+00
      569750000   -9.265962839e-01   -6.092014909e-01   -3.552064300e-06   -3.893300891e-05    0.000000000e+00    0.000000000e+00    0.000000000e+00    0.000000000e+00
      577000000   -9.881353974e-01   -5.091603398e-01   -7.019378245e-06    1.356564462e-05    0.000000000e+00    0.000000000e+00    0.000000000e+00    0.000000000e+00
      584250000   -1.036681414e+00   -3.989574313e-01   -1.823343337e-05    4.206504673e-05    0.000000000e+00    0.000000000e+00    0.000000000e+00    0.000000000e+00
      591500000   -1.072486162e+00   -2.858295441e-01    8.040666580e-05    6.341375411e-06    0.000000000e+00    0.000000000e+00    0.000000000e+00    0.000000000e+00
      598750000   -1.093736172e+00   -1.665725410e-01    1.094769686e-05   -1.631211489e-05    0.000000000e+00    0.000000000e+00    0.000000000e+00    0.000000000e+00
      606000000   -1.100346208e+00   -4.759262875e-02   -1.755729318e-05   -2.837739885e-06    0.000000000e+00    0.000000000e+00    0.000000000e+00    0.000000000e+00
      613250000   -1.092973351e+00    7.069031894e-02    6.595626473e-06   -2.674665302e-05    0.000000000e+00    0.000000000e+00    0.000000000e+00    0.000000000e+00
      620500000   -1.070814610e+00    1.884026378e-01    1.163966954e-05    3.826618195e-05    0.000000000e+00    0.000000000e+00    0.000000000e+00    0.000000000e+00
      627750000   -1.034358859e+00    3.023266196e-01   -9.042210877e-06   -1.682341099e-05    0.000000000e+00    0.000000000e+00    0.000000000e+00    0.000000000e+00
      635000000   -9.846743345e-01    4.074024856e-01    2.804026008e-05    3.287196159e-05    0.000000000e+00    0.000000000e+00    0.000000000e+00    0.000000000e+00
      642250000   -9.237809181e-01    5.086769462e-01   -4.395842552e-05   -3.949925303e-05    0.000000000e+00    0.000000000e+00    0.000000000e+00    0.000000000e+00
      649500000   -8.512691855e-01    5.987339616e-01    2.591311932e-05    8.716247976e-06    0.000000000e+00    0.000000000e+00    0.000000000e+00    0.000000000e+00
      656750000   -7.693476081e-01    6.797646284e-01   -2.399366349e-05   -2.605002373e-05    0.000000000e+00    0.000000000e+00    0.000000000e+00    0.000000000e+00
      664000000   -6.800270081e-01    7.496936321e-01   -3.231689334e-07   -3.211293370e-05    0.000000000e+00    0.000000000e+00    0.000000000e+00    0.000000000e+00
      671250000   -5.839150548e-01    8.078361154e-01   -2.482812852e-05    4.888698459e-05    0.000000000e+00    0.000000000e+00    0.000000000e+00    0.000000000e+00
      678500000   -4.830796719e-01    8.547369242e-01   -2.344511449e-05   -7.772818208e-06    0.000000000e+00    0.000000000e+00    0.000000000e+00    0.000000000e+00
      685750000   -3.784835339e-01    8.893200159e-01   -1.447275281e-06   -1.051556319e-05    0.000000000e+00    0.000000000e+00    0.000000000e+00    0.000000000e+00
      693000000   -2.740841806e-01    9.115852118e-01    9.685754776e-06   -1.760013402e-05    0.000000000e+00    0.000000000e+00    0.000000000e+00    0.000000000e+00
      700250000   -1.668807715e-01    9.228406549e-01    3.852322698e-05   -2.987496555e-05    0.000000000e+00    0.000000000e+00    0.000000000e+00    0.000000000e+00
      707500000   -6.029420719e-02    9.224622846e-01   -3.922730684e-06    7.836148143e-06    0.000000000e+00    0.000000000e+00    0.000000000e+00    0.000000000e+00
      714750000    4.466453567e-02    9.099404812e-01   -1.983810216e-05    1.418963075e-05    0.000000000e+00    0.000000000e+00    0.000000000e+00    0.000000000e+00
      722000000    1.449029297e-01    8.881115317e-01    1.673214138e-05   -8.383765817e-06    0.000000000e+00    0.000000000e+00    0.000000000e+00    0.000000000e+00
      729250000    2.443875670e-01    8.553742170e-01    1.080520451e-05    1.512002200e-05    0.000000000e+00    0.000000000e+00    0.000000000e+00    0.000000000e+00
      736500000    3.354408145e-01    8.142288327e-01    3.270804882e-05    2.595596015e-05    0.000000000e+00    0.000000000e+00    0.000000000e+00    0.000000000e+00
      743750000    4.239984155e-01    7.629412413e-01   -1.409929246e-05    2.032145858e-05    0.000000000e+00    0.000000000e+00    0.000000000e+00    0.000000000e+00
      751000000    5.055117607e-01    7.042385340e-01   -3.238860518e-05   -2.006813884e-05    0.000000000e+00    0.000000000e+00    0.000000000e+00    0.000000000e+00
      758250000    5.809398293e-01    6.387338638e-01    1.033581793e-05   -8.226372302e-06    0.000000000e+00    0.000000000e+00    0.000000000e+00    0.000000000e+00
      765500000    6.485108733e-01    5.656521320e-01    1.927278936e-05   -3.490224481e-05    0.000000000e+00    0.000000000e+00    0.000000000e+00    0.000000000e+00
      772750000    7.102201581e-01    4.857376516e-01   -1.323409379e-05    1.454818994e-05    0.000000000e+00    0.000000000e+00    0.000000000e+00    0.000000000e+00
      780000000    7.612638474e-01    4.021967053e-01    1.925975084e-06   -4.090461880e-05    0.000000000e+00    0.000000000e+00    0.000000000e+00    0.000000000e+00
      787250000    8.065347075e-01    3.102802932e-01   -2.140272409e-05    1.423805952e-05    0.000000000e+00    0.000000000e+00    0.000000000e+00    0.000000000e+00
      794500000    8.418750167e-01    2.158559859e-01    1.338589936e-05    2.174638212e-05    0.000000000e+00    0.000000000e+00    0.000000000e+00    0.000000000e+00
      801750000    8.676347136e-01    1.176736578e-01    4.973262548e-06    1.464318484e-05    0.000000000e+00    0.000000000e+00    0.000000000e+00    0.000000000e+00
      809000000    8.832748532e-01    1.656370610e-02    1.597404480e-05    2.175569534e-05    0.000000000e+00    0.000000000e+00    0.000000000e+00    0.000000000e+00
      816250000    8.879092336e-01   -8.785885572e-02    1.089740545e-05   -2.244114876e-05    0.000000000e+00    0.000000000e+00    0.000000000e+00    0.000000000e+00
      823500000    8.827016950e-01   -1.921221614e-01    5.437061191e-06   -9.783543646e-06    0.000000000e+00    0.000000000e+00    0.000000000e+00    0.000000000e+00
      830750000    8.657887578e-01   -2.969544530e-01   -6.327405572e-06    3.192853183e-05    0.000000000e+00    0.000000000e+00    0.000000000e+00    0.000000000e+00
      838000000    8.363779783e-01   -4.001271129e-01   -7.703900337e-06   -2.357177436e-06    0.000000000e+00    0.000000000e+00    0.000000000e+00    0.000000000e+00
      845250000    7.955983877e-01   -5.014268756e-01   -9.818002582e-06    2.100132406e-06    0.000000000e+00    0.000000000e+00    0.000000000e+00    0.000000000e+00
      852500000    7.437370420e-01   -5.994136930e-01   -2.165697515e-05    2.712104470e-05    0.000000000e+00    0.000000000e+00    0.000000000e+00    0.000000000e+00
      859750000    6.804149151e-01   -6.909006834e-01    3.269035369e-05    1.211930066e-05    0.000000000e+00    0.000000000e+00    0.000000000e+00    0.000000000e+00
      867000000    6.024166346e-01   -7.780333161e-01   -7.838010788e-06   -1.062173396e-05    0.000000000e+00    0.000000000e+00    0.000000000e+00    0.000000000e+00
      874250000    5.169451237e-01   -8.537724614e-01    1.166481525e-05    8.421018720e-06    0.000000000e+00    0.000000000e+00    0.000000000e+00    0.000000000e+00
      881500000    4.176423252e-01   -9.207517505e-01   -3.313459456e-05    3.694277257e-05    0.000000000e+00    0.000000000e+00    0.000000000e+00    0.000000000e+00
      888750000    3.120592833e-01   -9.742919803e-01    1.995265484e-05    7.606111467e-06    0.000000000e+00    0.000000000e+00    0.000000000e+00    0.000000000e+00
      896000000    1.976861805e-01   -1.015356898e+00    2.423394471e-05    1.363176852e-05    0.000000000e+00    0.000000000e+00    0.000000000e+00    0.000000000e+00
      903250000    7.788534462e-02   -1.040420175e+00    5.666166544e-06    3.721565008e-06    0.000000000e+00    0.000000000e+00    0.000000000e+00    0.000000000e+00
      910500000   -4.708833992e-02   -1.048876643e+00   -2.622231841e-05    1.581665128e-05    0.000000000e+00    0.000000000e+00    0.000000000e+00    0.000000000e+00
      917750000   -1.700383574e-01   -1.041872978e+00    3.381073475e-05   -6.927177310e-06    0.000000000e+00    0.000000000e+00    0.000000000e+00    0.000000000e+00
      925000000   -2.903938591e-01   -1.017777801e+00   -1.694913954e-05   -2.418458462e-05    0.000000000e+00    0.000000000e+00    0.000000000e+00    0.000000000e+00
      932250000   -4.100078344e-01   -9.755274057e-01    1.636706293e-05   -7.799826562e-06    0.000000000e+00    0.000000000e+00    0.000000000e+00    0.000000000e+00
      939500000   -5.187569261e-01   -9.193410277e-01    1.845043153e-05   -6.107613444e-06    0.000000000e+00    0.000000000e+00    0.000000000e+00    0.000000000e+00
      946750000   -6.202507019e-01   -8.487826586e-01    1.805648208e-05   -3.704614937e-05    0.000000000e+00    0.000000000e+00    0.000000000e+00    0.000000000e+00
      954000000   -7.074024081e-01   -7.663217187e-01   -1.373700798e-05   -1.977197826e-05    0.000000000e+00    0.000000000e+00    0.000000000e+00    0.000000000e+00
      961250000   -7.836350799e-01   -6.743397713e-01    2.899300307e-05    9.462237358e-07    0.000000000e+00    0.000000000e+00    0.000000000e+00    0.000000000e+00
      968500000   -8.452979922e-01   -5.742128491e-01    1.623202115e-05    3.637187183e-05    0.000000000e+00    0.000000000e+00    0.000000000e+00    0.000000000e+00
      975750000   -8.914982677e-01   -4.707250595e-01   -2.389680594e-05    4.052743316e-05    0.000000000e+00    0.000000000e+00    0.000000000e+00    0.000000000e+00
      983000000   -9.254522920e-01   -3.610054851e-01   -1.270696521e-05   -1.065153629e-05    0.000000000e+00    0.000000000e+00    0.000000000e+00    0.000000000e+00
      990250000   -9.434508085e-01   -2.530010045e-01    2.022832632e-06   -2.268888056e-05    0.000000000e+00    0.000000000e+00    0.000000000e+00    0.000000000e+00
      997500000   -9.483010769e-01   -1.466422677e-01   -1.666974276e-05   -2.460088581e-05    0.000000000e+00    0.000000000e+00    0.000000000e+00    0.000000000e+00
     1004750000   -9.406268001e-01   -4.191408306e-02   -1.074559987e-05   -2.604909241e-06    0.000000000e+00    0.000000000e+00    0.000000000e+00    0.000000000e+00
     1012000000   -9.218513966e-01    5.912759900e-02   -1.904182136e-05   -8.350238204e-06    0.000000000e+00    0.000000000e+00    0.000000000e+00    0.000000000e+00
     1019250000   -8.922215104e-01    1.534865946e-01    2.097338438e-05    3.406684846e-05    0.000000000e+00    0.000000000e+00    0.000000000e+00    0.000000000e+00
     1026500000   -8.536756635e-01    2.411886752e-01    3.529712558e-06    2.281740308e-06    0.000000000e+00    0.000000000e+00    0.000000000e+00    0.000000000e+00
     1033750000   -8.069873452e-01    3.237057030e-01    1.394748688e-05    4.190951586e-07    0.000000000e+00    0.000000000e+00    0.000000000e+00    0.000000000e+00
     1041000000   -7.548541427e-01    3.971147835e-01    2.902280539e-05   -2.362765372e-05    0.000000000e+00    0.000000000e+00    0.000000000e+00    0.000000000e+00
