! NanoVNA-App
! Date: 2024-06-25 16:14:31
! Start: 200MHz Stop: 6GHz Points: 801
! S-Parameter data: F S11 S21 S12 S22
# Hz S RI R 50
!     Frequency           S11_Real           S11_Imag           S21_Real           S21_Imag           S12_Real           S12_Imag           S22_Real           S22_Imag
      200000000   -9.983083010e-01   -1.149375886e-01   -3.807526082e-05   -6.829388440e-06    0.000000000e+00    0.000000000e+00    0.000000000e+00    0.000000000e+00
      207250000   -1.009796143e+00   -1.586602442e-02   -3.272388130e-05    3.091059625e-06    0.000000000e+00    0.000000000e+00    0.000000000e+00    0.000000000e+00
      214500000   -1.010938287e+00    8.535616845e-02    2.056360245e-06    5.021691322e-06    0.000000000e+00    0.000000000e+00    0.000000000e+00    0.000000000e+00
      221750000   -1.001582861e+00    1.883408576e-01    4.320405424e-06   -9.122304618e-06    0.000000000e+00    0.000000000e+00    0.000000000e+00    0.000000000e+00
      229000000   -9.806457758e-01    2.910316885e-01   -6.656162441e-06   -4.632398486e-05    0.000000000e+00    0.000000000e+00    0.000000000e+00    0.000000000e+00
      236250000   -9.493973851e-01    3.936345875e-01   -5.477108061e-06   -8.876435459e-06    0.000000000e+00    0.000000000e+00    0.000000000e+00    0.000000000e+00
      243500000   -9.058130383e-01    4.934294820e-01    1.410394907e-05   -1.838523895e-05    0.000000000e+00    0.000000000e+00    0.000000000e+00    0.000000000e+00
      250750000   -8.490234017e-01    5.899019241e-01   -1.036375761e-05   -2.130027860e-05    0.000000000e+00    0.000000000e+00    0.000000000e+00    0.000000000e+00
      258000000   -7.801896334e-01    6.808208823e-01    1.260545105e-05   -1.160521060e-05    0.000000000e+00    0.000000000e+00    0.000000000e+00    0.000000000e+00
      265250000   -7.003754973e-01    7.642645836e-01   -2.139713615e-05    1.495890319e-05    0.000000000e+00    0.000000000e+00    0.000000000e+00    0.000000000e+00
      272500000   -6.087529659e-01    8.393200636e-01   -7.279217243e-06   -1.337099820e-05    0.000000000e+00    0.000000000e+00    0.000000000e+00    0.000000000e+00
      279750000   -5.079023242e-01    9.036440849e-01   -2.209655941e-05    2.914108336e-06    0.000000000e+00    0.000000000e+00    0.000000000e+00    0.000000000e+00
      287000000   -3.975548446e-01    9.549419880e-01   -7.383525372e-06    1.110788435e-05    0.000000000e+00    0.000000000e+00    0.000000000e+00    0.000000000e+00
      294250000   -2.805791199e-01    9.924655557e-01    4.052370787e-05    2.370867878e-05    0.000000000e+00    0.000000000e+00    0.000000000e+00    0.000000000e+00
      301500000   -1.583440453e-01    1.015712500e+00   -3.388244659e-05    8.981674910e-06    0.000000000e+00    0.000000000e+00    0.000000000e+00    0.000000000e+00
      308750000   -3.239668161e-02    1.022986650e+00    1.188088208e-05   -8.939765394e-06    0.000000000e+00    0.000000000e+00    0.000000000e+00    0.000000000e+00
      316000000    9.371649474e-02    1.013997078e+00    1.223571599e-05   -1.869536936e-05    0.000000000e+00    0.000000000e+00    0.000000000e+00    0.000000000e+00
      323250000    2.179465294e-01    9.876996875e-01   -3.824569285e-05   -1.015141606e-06    0.000000000e+00    0.000000000e+00    0.000000000e+00    0.000000000e+00
      330500000    3.383798599e-01    9.462671280e-01    1.487322152e-06   -4.156492651e-05    0.000000000e+00    0.000000000e+00    0.000000000e+00    0.000000000e+00
      337750000    4.515071511e-01    8.898249269e-01    7.899478078e-06    3.361236304e-05    0.000000000e+00    0.000000000e+00    0.000000000e+00    0.000000000e+00
      345000000    5.565254688e-01    8.200854659e-01   -9.052455425e-06   -7.444061339e-06    0.000000000e+00    0.000000000e+00    0.000000000e+00    0.000000000e+00
      352250000    6.512601972e-01    7.374365330e-01   -3.187265247e-05    3.306940198e-05    0.000000000e+00    0.000000000e+00    0.000000000e+00    0.000000000e+00
      359500000    7.340295911e-01    6.448460221e-01    1.302082092e-05    1.148320735e-05    0.000000000e+00    0.000000000e+00    0.000000000e+00    0.000000000e+00
      366750000    8.049804568e-01    5.428646207e-01   -4.062987864e-05    3.611855209e-05    0.000000000e+00    0.000000000e+00    0.000000000e+00    0.000000000e+00
      374000000    8.620820045e-01    4.356050789e-01    1.781340688e-05   -1.366809011e-05    0.000000000e+00    0.000000000e+00    0.000000000e+00    0.000000000e+00
      381250000    9.048010111e-01    3.206349909e-01   -4.782341421e-06   -8.704140782e-06    0.000000000e+00    0.000000000e+00    0.000000000e+00    0.000000000e+00
      388500000    9.350510836e-01    2.062101066e-01    2.438854426e-05   -3.101304173e-07    0.000000000e+00    0.000000000e+00    0.000000000e+00    0.000000000e+00
      395750000    9.498329163e-01    8.899848163e-02    2.367887646e-05   -1.366715878e-05    0.000000000e+00    0.000000000e+00    0.000000000e+00    0.000000000e+00
      403000000    9.523227215e-01   -2.826875634e-02    1.364294440e-05   -2.799183130e-05    0.000000000e+00    0.000000000e+00    0.000000000e+00    0.000000000e+00
      410250000    9.423024058e-01   -1.433974653e-01    3.589969128e-05    8.818693459e-06    0.000000000e+00    0.000000000e+00    0.000000000e+00    0.000000000e+00
      417500000    9.196475744e-01   -2.557102144e-01    9.617768228e-06   -9.286217391e-06    0.000000000e+00    0.000000000e+00    0.000000000e+00    0.000000000e+00
      424750000    8.853693008e-01   -3.637523353e-01    1.112185419e-05   -2.081226557e-05    0.000000000e+00    0.000000000e+00    0.000000000e+00    0.000000000e+00
      432000000    8.390458822e-01   -4.658434689e-01   -2.540741116e-05    2.481788397e-05    0.000000000e+00    0.000000000e+00    0.000000000e+00    0.000000000e+00
      439250000    7.838764787e-01   -5.621886253e-01   -3.268197179e-05   -5.764886737e-07    0.000000000e+00    0.000000000e+00    0.000000000e+00    0.000000000e+00
      446500000    7.190773487e-01   -6.516013145e-01   -1.955777407e-08    3.638863564e-05    0.000000000e+00    0.000000000e+00    0.000000000e+00    0.000000000e+00
      453750000    6.448503137e-01   -7.341218591e-01   -1.277681440e-05   -7.367692888e-06    0.000000000e+00    0.000000000e+00    0.000000000e+00    0.000000000e+00
      461000000    5.635747910e-01   -8.072536588e-01   -3.463588655e-06    5.133450031e-06    0.000000000e+00    0.000000000e+00    0.000000000e+00    0.000000000e+00
      468250000    4.766280651e-01   -8.713800311e-01   -1.365598291e-05    3.797002137e-06    0.000000000e+00    0.000000000e+00    0.000000000e+00    0.000000000e+00
      475500000    3.807623684e-01   -9.265915751e-01    1.054257154e-06    3.980938345e-05    0.000000000e+00    0.000000000e+00    0.000000000e+00    0.000000000e+00
      482750000    2.815202177e-01   -9.715649486e-01   -1.134537160e-05   -2.527609468e-06    0.000000000e+00    0.000000000e+00    0.000000000e+00    0.000000000e+00
      490000000    1.779059917e-01   -1.005856156e+00    1.198519021e-05    5.473382771e-06    0.000000000e+00    0.000000000e+00    0.000000000e+00    0.000000000e+00
      497250000    7.011708617e-02   -1.028668404e+00   -4.138052464e-05    6.241723895e-06    0.000000000e+00    0.000000000e+00    0.000000000e+00    0.000000000e+00
      504500000   -3.965179250e-02   -1.041344404e+00   -1.325923949e-05    2.589356154e-05    0.000000000e+00    0.000000000e+00    0.000000000e+00    0.000000000e+00
      511750000   -1.512358785e-01   -1.040688634e+00   -1.139566302e-05    4.718080163e-05    0.000000000e+00    0.000000000e+00    0.000000000e+00    0.000000000e+00
      519000000   -2.622659504e-01   -1.028803706e+00   -1.642480493e-05   -2.203043550e-05    0.000000000e+00    0.000000000e+00    0.000000000e+00    0.000000000e+00
      526250000   -3.720218539e-01   -1.004701853e+00   -4.517380148e-05   -1.110509038e-05    0.000000000e+00    0.000000000e+00    0.000000000e+00    0.000000000e+00
      533500000   -4.800706208e-01   -9.676934481e-01    3.365799785e-05    1.100264490e-05    0.000000000e+00    0.000000000e+00    0.000000000e+00    0.000000000e+00
      540750000   -5.831035972e-01   -9.177662134e-01    1.934543252e-05    3.374833614e-05    0.000000000e+00    0.000000000e+00    0.000000000e+00    0.000000000e+00
      548000000   -6.818895340e-01   -8.584179878e-01   -4.480499774e-05    9.751878679e-06    0.000000000e+00    0.000000000e+00    0.000000000e+00    0.000000000e+00
      555250000   -7.723146081e-01   -7.844683528e-01   -3.463029861e-05    4.189740866e-05    0.000000000e+00    0.000000000e+00    0.000000000e+00    0.000000000e+00
      562500000   -8.542944789e-01   -7.022401690e-01    1.079402864e-06   -1.078005880e-05    0.000000000e+00    0.000000000e+00    0.000000000e+00    0.000000000e+00
      569750000   -9.263988137e-01   -6.097718477e-01   -1.694168895e-05   -2.288073301e-05    0.000000000e+00    0.000000000e+00    0.000000000e+00    0.000000000e+00
      577000000   -9.881979823e-01   -5.084022880e-01    1.679267734e-05    1.068506390e-05    0.000000000e+00    0.000000000e+00    0.000000000e+00    0.000000000e+00
      584250000   -1.037077188e+00   -3.985197842e-01   -1.446157694e-05   -1.627486199e-05    0.000000000e+00    0.000000000e+00    0.000000000e+00    0.000000000e+00
      591500000   -1.072653651e+00   -2.862121463e-01   -1.308042556e-05   -2.157781273e-05    0.000000000e+00    0.000000000e+00    0.000000000e+00    0.000000000e+00
      598750000   -1.093507051e+00   -1.671019644e-01   -2.343580127e-05    9.760260582e-06    0.000000000e+00    0.000000000e+00    0.000000000e+00    0.000000000e+00
      606000000   -1.100608110e+00   -4.841693491e-02   -1.827441156e-05    3.759562969e-05    0.000000000e+00    0.000000000e+00    0.000000000e+00    0.000000000e+00
      613250000   -1.092314243e+00    7.219644636e-02    8.308328688e-06   -5.681067705e-07    0.000000000e+00    0.000000000e+00    0.000000000e+00    0.000000000e+00
      620500000   -1.070919394e+00    1.882146001e-01   -1.472420990e-06    3.395229578e-05    0.000000000e+00    0.000000000e+00    0.000000000e+00    0.000000000e+00
      627750000   -1.034366369e+00    3.018417358e-01    5.100853741e-06   -2.154149115e-05    0.000000000e+00    0.000000000e+00    0.000000000e+00    0.000000000e+00
      635000000   -9.841962457e-01    4.089837372e-01   -2.247281373e-05   -1.292861998e-05    0.000000000e+00    0.000000000e+00    0.000000000e+00    0.000000000e+00
      642250000   -9.234537482e-01    5.079325438e-01    3.243517131e-05    5.577411503e-05    0.000000000e+00    0.000000000e+00    0.000000000e+00    0.000000000e+00
      649500000   -8.507931828e-01    5.987687707e-01   -6.727781147e-05   -2.660322934e-05    0.000000000e+00    0.000000000e+00    0.000000000e+00    0.000000000e+00
      656750000   -7.703047991e-01    6.790876389e-01    1.382548362e-05   -3.852881491e-06    0.000000000e+00    0.000000000e+00    0.000000000e+00    0.000000000e+00
      664000000   -6.802354455e-01    7.497771382e-01    7.322058082e-06    2.469588071e-05    0.000000000e+00    0.000000000e+00    0.000000000e+00    0.000000000e+00
      671250000   -5.837188959e-01    8.079711795e-01   -8.807517588e-06    3.040768206e-06    0.000000000e+00    0.000000000e+00    0.000000000e+00    0.000000000e+00
      678500000   -4.826073647e-01    8.546689749e-01   -1.576542854e-05   -3.520399332e-07    0.000000000e+00    0.000000000e+00    0.000000000e+00    0.000000000e+00
      685750000   -3.789896965e-01    8.890219331e-01   -1.197680831e-05   -5.554407835e-06    0.000000000e+00    0.000000000e+00    0.000000000e+00    0.000000000e+00
      693000000   -2.729224861e-01    9.119455218e-01   -1.849047840e-05   -2.711825073e-05    0.000000000e+00    0.000000000e+00    0.000000000e+00    0.000000000e+00
      700250000   -1.660442054e-01    9.225117564e-01    2.701487392e-05   -2.051889896e-05    0.000000000e+00    0.000000000e+00    0.000000000e+00    0.000000000e+00
      707500000   -5.999933556e-02    9.222483039e-01    3.882031888e-05   -1.982320100e-05    0.000000000e+00    0.000000000e+00    0.000000000e+00    0.000000000e+00
      714750000    4.394255579e-02    9.104534984e-01    2.397876233e-05    2.772919834e-05    0.000000000e+00    0.000000000e+00    0.000000000e+00    0.000000000e+00
      722000000    1.469095796e-01    8.874873519e-01    1.402758062e-05   -2.180133015e-05    0.000000000e+00    0.000000000e+00    0.000000000e+00    0.000000000e+00
      729250000    2.423673868e-01    8.557783961e-01    5.585234612e-05    2.135522664e-05    0.000000000e+00    0.000000000e+00    0.000000000e+00    0.000000000e+00
      736500000    3.364034593e-01    8.136157990e-01    2.277363092e-05   -3.959704190e-05    0.000000000e+00    0.000000000e+00    0.000000000e+00    0.000000000e+00
      743750000    4.230487347e-01    7.639454007e-01   -6.782822311e-06    2.636108547e-05    0.000000000e+00    0.000000000e+00    0.000000000e+00    0.000000000e+00
      751000000    5.054092407e-01    7.047635317e-01    9.860843420e-06   -5.687586963e-06    0.000000000e+00    0.000000000e+00    0.000000000e+00    0.000000000e+00
      758250000    5.807504058e-01    6.388989091e-01    9.589828551e-06    1.872424036e-05    0.000000000e+00    0.000000000e+00    0.000000000e+00    0.000000000e+00
      765500000    6.487333179e-01    5.652827621e-01   -1.202616841e-05    1.278705895e-06    0.000000000e+00    0.000000000e+00    0.000000000e+00    0.000000000e+00
      772750000    7.096069455e-01    4.859485030e-01    3.305077553e-05   -3.094598651e-05    0.000000000e+00    0.000000000e+00    0.000000000e+00    0.000000000e+00
      780000000    7.607774734e-01    4.018062353e-01    1.119449735e-05    6.753951311e-06    0.000000000e+00    0.000000000e+00    0.000000000e+00    0.000000000e+00
      787250000    8.065611720e-01    3.101257384e-01    1.092255116e-05   -2.953410149e-05    0.000000000e+00    0.000000000e+00    0.000000000e+00    0.000000000e+00
      794500000    8.420415521e-01    2.161147594e-01   -2.294778824e-06    1.945439726e-05    0.000000000e+00    0.000000000e+00    0.000000000e+00    0.000000000e+00
      801750000    8.670585752e-01    1.174724177e-01    6.845220923e-07   -1.583155245e-05    0.000000000e+00    0.000000000e+00    0.000000000e+00    0.000000000e+00
      809000000    8.829529881e-01    1.674219221e-02    1.800432801e-05   -2.111401409e-05    0.000000000e+00    0.000000000e+00    0.000000000e+00    0.000000000e+00
      816250000    8.882917166e-01   -8.692350239e-02    1.267716289e-05   -2.329144627e-05    0.000000000e+00    0.000000000e+00    0.000000000e+00    0.000000000e+00
      823500000    8.828690648e-01   -1.919538230e-01    1.817941666e-06    6.691552699e-06    0.000000000e+00    0.000000000e+00    0.000000000e+00    0.000000000e+00
      830750000    8.655883670e-01   -2.973616719e-01    8.055940270e-07    3.245007247e-05    0.000000000e+00    0.000000000e+00    0.000000000e+00    0.000000000e+00
      838000000    8.369650245e-01   -4.004450440e-01    8.921138942e-06    1.056585461e-05    0.000000000e+00    0.000000000e+00    0.000000000e+00    0.000000000e+00
      845250000    7.967391014e-01   -5.011962056e-01    1.019239426e-05   -3.324355930e-05    0.000000000e+00    0.000000000e+00    0.000000000e+00    0.000000000e+00
      852500000    7.435597777e-01   -5.996083617e-01    1.147203147e-05    1.874659210e-05    0.000000000e+00    0.000000000e+00    0.000000000e+00    0.000000000e+00
      859750000    6.805388331e-01   -6.911630630e-01   -1.030415297e-05   -1.095980406e-05    0.000000000e+00    0.000000000e+00    0.000000000e+00    0.000000000e+00
      867000000    6.029531956e-01   -7.777847648e-01   -2.271495759e-05   -6.107613444e-06    0.000000000e+00    0.000000000e+00    0.000000000e+00    0.000000000e+00
      874250000    5.170841217e-01   -8.532195091e-01   -4.379171878e-05    2.008862793e-06    0.000000000e+00    0.000000000e+00    0.000000000e+00    0.000000000e+00
      881500000    4.172755182e-01   -9.210723639e-01   -1.435168087e-05    1.221988350e-05    0.000000000e+00    0.000000000e+00    0.000000000e+00    0.000000000e+00
      888750000    3.126464188e-01   -9.741562605e-01    1.856684685e-05   -3.156531602e-05    0.000000000e+00    0.000000000e+00    0.000000000e+00    0.000000000e+00
      896000000    1.975449324e-01   -1.015267372e+00   -6.851740181e-06    3.257766366e-05    0.000000000e+00    0.000000000e+00    0.000000000e+00    0.000000000e+00
      903250000    7.882773876e-02   -1.040770411e+00    2.191774547e-05   -1.785997301e-05    0.000000000e+00    0.000000000e+00    0.000000000e+00    0.000000000e+00
      910500000   -4.722916335e-02   -1.050181746e+00   -9.537674487e-06    2.287980169e-05    0.000000000e+00    0.000000000e+00    0.000000000e+00    0.000000000e+00
      917750000   -1.699294746e-01   -1.042065978e+00   -1.851003617e-05    7.905997336e-06    0.000000000e+00    0.000000000e+00    0.000000000e+00    0.000000000e+00
      925000000   -2.912179530e-01   -1.017201304e+00    2.182088792e-06    2.431496978e-05    0.000000000e+00    0.000000000e+00    0.000000000e+00    0.000000000e+00
      932250000   -4.101620913e-01   -9.760165811e-01    6.738118827e-06   -1.733098179e-05    0.000000000e+00    0.000000000e+00    0.000000000e+00    0.000000000e+00
      939500000   -5.198556781e-01   -9.191402197e-01    8.285045624e-06    3.811996430e-05    0.000000000e+00    0.000000000e+00    0.000000000e+00    0.000000000e+00
      946750000   -6.194180846e-01   -8.483433723e-01    8.909031749e-06    3.742985427e-06    0.000000000e+00    0.000000000e+00    0.000000000e+00    0.000000000e+00
      954000000   -7.079063654e-01   -7.668839097e-01    1.354794949e-05   -5.257781595e-05    0.000000000e+00    0.000000000e+00    0.000000000e+00    0.000000000e+00
      961250000   -7.829482555e-01   -6.752613783e-01   -2.179294825e-07   -7.804483175e-06    0.000000000e+00    0.000000000e+00    0.000000000e+00    0.000000000e+00
      968500000   -8.455777764e-01   -5.743218660e-01   -5.442276597e-05    3.084447235e-05    0.000000000e+00    0.000000000e+00    0.000000000e+00    0.000000000e+00
      975750000   -8.922908902e-01   -4.704003930e-01   -7.057562470e-06    1.111999154e-05    0.000000000e+00    0.000000000e+00    0.000000000e+00    0.000000000e+00
      983000000   -9.257674217e-01   -3.611658514e-01    3.260001540e-05    1.209694892e-05    0.000000000e+00    0.000000000e+00    0.000000000e+00    0.000000000e+00
      990250000   -9.429062605e-01   -2.527606487e-01    1.815706491e-05   -6.398186088e-07    0.000000000e+00    0.000000000e+00    0.000000000e+00    0.000000000e+00
      997500000   -9.482975602e-01   -1.460602731e-01    3.588292748e-05   -1.760665327e-05    0.000000000e+00    0.000000000e+00    0.000000000e+00    0.000000000e+00
     1004750000   -9.404396415e-01   -4.167159274e-02   -1.565646380e-05    1.305993646e-05    0.000000000e+00    0.000000000e+00    0.000000000e+00    0.000000000e+00
     1012000000   -9.214884639e-01    5.783187225e-02    1.831818372e-05   -4.568137228e-06    0.000000000e+00    0.000000000e+00    0.000000000e+00    0.000000000e+00
     1019250000   -8.922712803e-01    1.521466821e-01    1.225061715e-05   -1.486204565e-05    0.000000000e+00    0.000000000e+00    0.000000000e+00    0.000000000e+00
     1026500000   -8.536542654e-01    2.408480495e-01    1.519080251e-05    7.480382919e-06    0.000000000e+00    0.000000000e+00    0.000000000e+00    0.000000000e+00
     1033750000   -8.067267537e-01    3.241207898e-01    2.376269549e-05    2.450309694e-06    0.000000000e+00    0.000000000e+00    0.000000000e+00    0.000000000e+00
     1041000000   -7.550408840e-01    3.974604011e-01   -2.269167453e-05    4.429370165e-06    0.000000000e+00    0.000000000e+00    0.000000000e+00    0.000000000e+00
