! NanoVNA-App by OneOfEleven et al v1.1.209 (+OD15) 
! Date: 2024-07-30 12:33:41
! Start: 50kHz Stop: 5MHz Points: 201
! S-Parameter data: F S11 S21 S12 S22
# Hz S RI R 50
!     Frequency           S11_Real           S11_Imag           S21_Real           S21_Imag           S12_Real           S12_Imag           S22_Real           S22_Imag
          50000    9.960325956e-01   -2.926171385e-02    7.485414244e-06    4.854030067e-06    0.000000000e+00    0.000000000e+00    0.000000000e+00    0.000000000e+00
          74750    9.925661683e-01   -4.272813350e-02   -4.022958819e-05   -2.623734326e-05    0.000000000e+00    0.000000000e+00    0.000000000e+00    0.000000000e+00
          99500    9.842399359e-01   -4.950278625e-02   -2.793112253e-05    1.164549485e-05    0.000000000e+00    0.000000000e+00    0.000000000e+00    0.000000000e+00
         124250    9.790546298e-01   -6.040325388e-02    2.154327922e-05    8.649540177e-07    0.000000000e+00    0.000000000e+00    0.000000000e+00    0.000000000e+00
         149000    9.720866680e-01   -7.019349933e-02   -1.425703704e-05   -5.480678283e-06    0.000000000e+00    0.000000000e+00    0.000000000e+00    0.000000000e+00
         173750    9.708482623e-01   -7.885052264e-02    4.643058219e-06    8.299492038e-06    0.000000000e+00    0.000000000e+00    0.000000000e+00    0.000000000e+00
         198500    9.637392759e-01   -8.825856447e-02    4.757802344e-06   -3.501749006e-07    0.000000000e+00    0.000000000e+00    0.000000000e+00    0.000000000e+00
         223250    9.564123154e-01   -9.627648443e-02   -6.851597391e-06    1.385953624e-06    0.000000000e+00    0.000000000e+00    0.000000000e+00    0.000000000e+00
         248000    9.484028220e-01   -1.032794788e-01   -1.201287796e-05   -2.373387906e-05    0.000000000e+00    0.000000000e+00    0.000000000e+00    0.000000000e+00
         272750    9.398894906e-01   -1.097348556e-01   -1.679555135e-05   -1.162625813e-05    0.000000000e+00    0.000000000e+00    0.000000000e+00    0.000000000e+00
         297500    9.314440489e-01   -1.150082201e-01    1.107920889e-05    3.102799019e-05    0.000000000e+00    0.000000000e+00    0.000000000e+00    0.000000000e+00
         322250    9.229332805e-01   -1.199271083e-01   -9.853592928e-06   -2.053444223e-05    0.000000000e+00    0.000000000e+00    0.000000000e+00    0.000000000e+00
         347000    9.141114950e-01   -1.237081960e-01   -2.480726289e-05   -1.234157025e-05    0.000000000e+00    0.000000000e+00    0.000000000e+00    0.000000000e+00
         371750    9.055934548e-01   -1.267974675e-01    2.142820449e-05   -1.405227431e-05    0.000000000e+00    0.000000000e+00    0.000000000e+00    0.000000000e+00
         396500    8.976436257e-01   -1.291522235e-01    1.805475222e-05    1.052403604e-05    0.000000000e+00    0.000000000e+00    0.000000000e+00    0.000000000e+00
         421250    8.806210160e-01   -1.300248653e-01    5.861609225e-06    1.410201003e-05    0.000000000e+00    0.000000000e+00    0.000000000e+00    0.000000000e+00
         446000    8.737870455e-01   -1.316149980e-01    2.534683699e-05   -5.217414127e-06    0.000000000e+00    0.000000000e+00    0.000000000e+00    0.000000000e+00
         470750    8.674731851e-01   -1.316667050e-01   -3.104688176e-06   -1.955674816e-05    0.000000000e+00    0.000000000e+00    0.000000000e+00    0.000000000e+00
         495500    8.600277901e-01   -1.306364536e-01   -2.910415105e-06   -1.420924946e-05    0.000000000e+00    0.000000000e+00    0.000000000e+00    0.000000000e+00
         520250    8.542510271e-01   -1.304652095e-01   -2.484174911e-05    1.313947450e-05    0.000000000e+00    0.000000000e+00    0.000000000e+00    0.000000000e+00
         545000    8.490812778e-01   -1.296179593e-01    3.738170335e-06   -9.774718819e-06    0.000000000e+00    0.000000000e+00    0.000000000e+00    0.000000000e+00
         569750    8.425694704e-01   -1.291350722e-01   -2.209980266e-05    6.541388302e-06    0.000000000e+00    0.000000000e+00    0.000000000e+00    0.000000000e+00
         594500    8.376327157e-01   -1.274850518e-01   -1.761806379e-05   -7.009788987e-06    0.000000000e+00    0.000000000e+00    0.000000000e+00    0.000000000e+00
         619250    8.334858418e-01   -1.262469590e-01    1.777209582e-05   -7.856543562e-06    0.000000000e+00    0.000000000e+00    0.000000000e+00    0.000000000e+00
         644000    8.285135031e-01   -1.255298108e-01    4.420896221e-05   -4.296575298e-06    0.000000000e+00    0.000000000e+00    0.000000000e+00    0.000000000e+00
         668750    8.241130114e-01   -1.237678379e-01    3.198588729e-06    3.532838309e-05    0.000000000e+00    0.000000000e+00    0.000000000e+00    0.000000000e+00
         693500    8.199983835e-01   -1.221976727e-01   -2.162360033e-05    1.597288610e-05    0.000000000e+00    0.000000000e+00    0.000000000e+00    0.000000000e+00
         718250    8.174012303e-01   -1.205077693e-01    2.800871152e-05    2.875851897e-05    0.000000000e+00    0.000000000e+00    0.000000000e+00    0.000000000e+00
         743000    8.130893111e-01   -1.193862110e-01    1.683315350e-05   -4.515127785e-06    0.000000000e+00    0.000000000e+00    0.000000000e+00    0.000000000e+00
         767750    8.094210029e-01   -1.173289493e-01   -3.067720172e-05    1.834182331e-05    0.000000000e+00    0.000000000e+00    0.000000000e+00    0.000000000e+00
         792500    8.071625829e-01   -1.154824272e-01    1.822205377e-05   -2.301958739e-05    0.000000000e+00    0.000000000e+00    0.000000000e+00    0.000000000e+00
         817250    8.040205240e-01   -1.138290539e-01    3.101163020e-05    1.607581908e-05    0.000000000e+00    0.000000000e+00    0.000000000e+00    0.000000000e+00
         842000    8.015460372e-01   -1.123152822e-01    2.270322329e-05   -1.586493090e-05    0.000000000e+00    0.000000000e+00    0.000000000e+00    0.000000000e+00
         866750    7.989392877e-01   -1.108910665e-01    2.082001993e-05   -1.302844976e-05    0.000000000e+00    0.000000000e+00    0.000000000e+00    0.000000000e+00
         891500    7.962431312e-01   -1.093161255e-01   -1.917603731e-05   -1.955943662e-05    0.000000000e+00    0.000000000e+00    0.000000000e+00    0.000000000e+00
         916250    7.932953238e-01   -1.085323393e-01   -2.846661846e-05    1.925162542e-05    0.000000000e+00    0.000000000e+00    0.000000000e+00    0.000000000e+00
         941000    7.913807034e-01   -1.067837700e-01    1.172734210e-05   -7.376587746e-06    0.000000000e+00    0.000000000e+00    0.000000000e+00    0.000000000e+00
         965750    7.895795703e-01   -1.054654419e-01   -3.864065548e-06   -6.266872788e-06    0.000000000e+00    0.000000000e+00    0.000000000e+00    0.000000000e+00
         990500    7.880603671e-01   -1.036105976e-01   -2.000028508e-05    1.326334768e-05    0.000000000e+00    0.000000000e+00    0.000000000e+00    0.000000000e+00
        1015250    7.861350775e-01   -1.018061489e-01   -9.529256204e-06    9.430471437e-06    0.000000000e+00    0.000000000e+00    0.000000000e+00    0.000000000e+00
        1040000    7.845644355e-01   -1.008645073e-01    1.308853189e-05   -6.112070423e-06    0.000000000e+00    0.000000000e+00    0.000000000e+00    0.000000000e+00
        1064750    7.822675109e-01   -9.940934926e-02    1.986340067e-05    1.870944834e-05    0.000000000e+00    0.000000000e+00    0.000000000e+00    0.000000000e+00
        1089500    7.808415890e-01   -9.772147983e-02   -3.467159331e-05    3.829072284e-06    0.000000000e+00    0.000000000e+00    0.000000000e+00    0.000000000e+00
        1114250    7.794926167e-01   -9.646059573e-02    2.514042535e-05   -3.854538227e-05    0.000000000e+00    0.000000000e+00    0.000000000e+00    0.000000000e+00
        1139000    7.778032422e-01   -9.535807371e-02    4.569843804e-05   -1.338996753e-05    0.000000000e+00    0.000000000e+00    0.000000000e+00    0.000000000e+00
        1163750    7.769346833e-01   -9.398307651e-02   -1.406539354e-06    1.985872404e-05    0.000000000e+00    0.000000000e+00    0.000000000e+00    0.000000000e+00
        1188500    7.757071853e-01   -9.284380823e-02    2.880020702e-06   -3.752242992e-05    0.000000000e+00    0.000000000e+00    0.000000000e+00    0.000000000e+00
        1213250    7.743245959e-01   -9.135627002e-02    2.457099072e-05    8.404385881e-06    0.000000000e+00    0.000000000e+00    0.000000000e+00    0.000000000e+00
        1238000    7.730910778e-01   -8.988142014e-02    1.900240477e-06   -5.297266398e-05    0.000000000e+00    0.000000000e+00    0.000000000e+00    0.000000000e+00
        1262750    7.724453807e-01   -8.918751776e-02   -2.113340997e-05    3.328977982e-05    0.000000000e+00    0.000000000e+00    0.000000000e+00    0.000000000e+00
        1287500    7.704232335e-01   -8.791329712e-02   -1.584761958e-05   -1.150523894e-05    0.000000000e+00    0.000000000e+00    0.000000000e+00    0.000000000e+00
        1312250    7.701972723e-01   -8.667719364e-02    7.236778856e-06   -2.176255293e-06    0.000000000e+00    0.000000000e+00    0.000000000e+00    0.000000000e+00
        1337000    7.690538168e-01   -8.550788462e-02    1.940888797e-05    6.134498108e-05    0.000000000e+00    0.000000000e+00    0.000000000e+00    0.000000000e+00
        1361750    7.680730820e-01   -8.487389982e-02    1.233647345e-05    2.306882561e-05    0.000000000e+00    0.000000000e+00    0.000000000e+00    0.000000000e+00
        1386500    7.672883868e-01   -8.371655643e-02   -2.778958878e-05    8.115922157e-08    0.000000000e+00    0.000000000e+00    0.000000000e+00    0.000000000e+00
        1411250    7.662727237e-01   -8.258589357e-02    1.520471596e-05   -2.742742072e-05    0.000000000e+00    0.000000000e+00    0.000000000e+00    0.000000000e+00
        1436000    7.653397918e-01   -8.174118400e-02    2.696340562e-05    4.661021740e-05    0.000000000e+00    0.000000000e+00    0.000000000e+00    0.000000000e+00
        1460750    7.645862103e-01   -8.082818985e-02    2.756343929e-05    4.466260725e-05    0.000000000e+00    0.000000000e+00    0.000000000e+00    0.000000000e+00
        1485500    7.639178634e-01   -7.955432683e-02    1.306486411e-05   -1.720663386e-05    0.000000000e+00    0.000000000e+00    0.000000000e+00    0.000000000e+00
        1510250    7.632935643e-01   -7.873485982e-02   -1.334005538e-05   -7.166750038e-06    0.000000000e+00    0.000000000e+00    0.000000000e+00    0.000000000e+00
        1535000    7.624284625e-01   -7.777107507e-02    8.492552297e-06    1.639843731e-06    0.000000000e+00    0.000000000e+00    0.000000000e+00    0.000000000e+00
        1559750    7.622405887e-01   -7.683550566e-02    1.364784657e-05    1.061470630e-05    0.000000000e+00    0.000000000e+00    0.000000000e+00    0.000000000e+00
        1584500    7.615223527e-01   -7.615181059e-02   -5.569855148e-06   -2.111160575e-05    0.000000000e+00    0.000000000e+00    0.000000000e+00    0.000000000e+00
        1609250    7.605464458e-01   -7.516938448e-02    2.735521412e-05   -2.279083219e-06    0.000000000e+00    0.000000000e+00    0.000000000e+00    0.000000000e+00
        1634000    7.601075768e-01   -7.429482788e-02   -1.037375387e-05    1.712202175e-05    0.000000000e+00    0.000000000e+00    0.000000000e+00    0.000000000e+00
        1658750    7.595082521e-01   -7.349366695e-02   -3.895725240e-05   -4.487614933e-05    0.000000000e+00    0.000000000e+00    0.000000000e+00    0.000000000e+00
        1683500    7.590945959e-01   -7.326460630e-02    6.049635886e-06   -3.434523023e-05    0.000000000e+00    0.000000000e+00    0.000000000e+00    0.000000000e+00
        1708250    7.587168813e-01   -7.231435925e-02    8.429530567e-07    2.309160845e-05    0.000000000e+00    0.000000000e+00    0.000000000e+00    0.000000000e+00
        1733000    7.579543591e-01   -7.120177895e-02    2.720411430e-06   -2.742703873e-05    0.000000000e+00    0.000000000e+00    0.000000000e+00    0.000000000e+00
        1757750    7.575995326e-01   -7.084536552e-02   -1.065552988e-05    8.741198144e-06    0.000000000e+00    0.000000000e+00    0.000000000e+00    0.000000000e+00
        1782500    7.572875023e-01   -6.982398033e-02   -6.188815405e-06    1.639572656e-05    0.000000000e+00    0.000000000e+00    0.000000000e+00    0.000000000e+00
        1807250    7.566983104e-01   -6.897233427e-02   -2.856630090e-06    1.975029772e-05    0.000000000e+00    0.000000000e+00    0.000000000e+00    0.000000000e+00
        1832000    7.558790445e-01   -6.849068403e-02    2.688580480e-06   -2.774722088e-05    0.000000000e+00    0.000000000e+00    0.000000000e+00    0.000000000e+00
        1856750    7.557243109e-01   -6.785592437e-02    1.266717663e-05   -3.069010972e-06    0.000000000e+00    0.000000000e+00    0.000000000e+00    0.000000000e+00
        1881500    7.551333904e-01   -6.702665240e-02    3.284017339e-06   -1.622890863e-06    0.000000000e+00    0.000000000e+00    0.000000000e+00    0.000000000e+00
        1906250    7.552364469e-01   -6.658186018e-02    8.776504728e-06   -1.568447078e-05    0.000000000e+00    0.000000000e+00    0.000000000e+00    0.000000000e+00
        1931000    7.544671893e-01   -6.599000841e-02    9.982170923e-06   -1.653643267e-05    0.000000000e+00    0.000000000e+00    0.000000000e+00    0.000000000e+00
        1955750    7.541187406e-01   -6.534536183e-02    2.818696885e-05    1.555614836e-05    0.000000000e+00    0.000000000e+00    0.000000000e+00    0.000000000e+00
        1980500    7.540996671e-01   -6.453440338e-02   -7.587417258e-06   -3.142105561e-05    0.000000000e+00    0.000000000e+00    0.000000000e+00    0.000000000e+00
        2005250    7.534505129e-01   -6.416135281e-02    1.009074640e-05   -2.100378151e-05    0.000000000e+00    0.000000000e+00    0.000000000e+00    0.000000000e+00
        2030000    7.531108856e-01   -6.368650496e-02    2.220073293e-05   -3.421964720e-05    0.000000000e+00    0.000000000e+00    0.000000000e+00    0.000000000e+00
        2054750    7.527451515e-01   -6.271167099e-02    8.370159776e-06    6.930014024e-06    0.000000000e+00    0.000000000e+00    0.000000000e+00    0.000000000e+00
        2079500    7.523437142e-01   -6.261898577e-02   -9.710610357e-06    3.463016037e-05    0.000000000e+00    0.000000000e+00    0.000000000e+00    0.000000000e+00
        2104250    7.524177432e-01   -6.207155064e-02   -2.357786980e-05    1.589719977e-05    0.000000000e+00    0.000000000e+00    0.000000000e+00    0.000000000e+00
        2129000    7.518870234e-01   -6.132107601e-02   -2.187147766e-05   -2.993964881e-05    0.000000000e+00    0.000000000e+00    0.000000000e+00    0.000000000e+00
        2153750    7.517782450e-01   -6.071439013e-02    3.508860027e-05   -1.987746327e-05    0.000000000e+00    0.000000000e+00    0.000000000e+00    0.000000000e+00
        2178500    7.514721751e-01   -6.034103036e-02    2.016083999e-05    2.227989899e-05    0.000000000e+00    0.000000000e+00    0.000000000e+00    0.000000000e+00
        2203250    7.508772612e-01   -5.971186608e-02   -3.262907194e-05   -2.245286305e-05    0.000000000e+00    0.000000000e+00    0.000000000e+00    0.000000000e+00
        2228000    7.504879236e-01   -5.923114717e-02    5.154071914e-05    6.097087862e-06    0.000000000e+00    0.000000000e+00    0.000000000e+00    0.000000000e+00
        2252750    7.505102754e-01   -5.875354260e-02    1.349172976e-06    3.118170980e-06    0.000000000e+00    0.000000000e+00    0.000000000e+00    0.000000000e+00
        2277500    7.505067587e-01   -5.860821530e-02   -2.458468407e-05   -4.805113804e-06    0.000000000e+00    0.000000000e+00    0.000000000e+00    0.000000000e+00
        2302250    7.499505281e-01   -5.792169645e-02    4.055075067e-07   -2.875693644e-05    0.000000000e+00    0.000000000e+00    0.000000000e+00    0.000000000e+00
        2327000    7.498634458e-01   -5.764896050e-02    6.432266673e-05    1.854162474e-05    0.000000000e+00    0.000000000e+00    0.000000000e+00    0.000000000e+00
        2351750    7.496069074e-01   -5.671495572e-02   -5.264199899e-06   -1.247325963e-05    0.000000000e+00    0.000000000e+00    0.000000000e+00    0.000000000e+00
        2376500    7.493482232e-01   -5.639379472e-02    5.527586382e-06   -1.898885785e-05    0.000000000e+00    0.000000000e+00    0.000000000e+00    0.000000000e+00
        2401250    7.491663098e-01   -5.625942722e-02    6.169863354e-06   -3.078667942e-05    0.000000000e+00    0.000000000e+00    0.000000000e+00    0.000000000e+00
        2426000    7.492347956e-01   -5.560012162e-02    3.581495548e-05    6.014847258e-06    0.000000000e+00    0.000000000e+00    0.000000000e+00    0.000000000e+00
        2450750    7.488428354e-01   -5.507327244e-02   -2.192389002e-05    2.538008630e-05    0.000000000e+00    0.000000000e+00    0.000000000e+00    0.000000000e+00
        2475500    7.485594749e-01   -5.496432260e-02    2.046456575e-05   -1.227585017e-05    0.000000000e+00    0.000000000e+00    0.000000000e+00    0.000000000e+00
        2500250    7.484939694e-01   -5.445272848e-02   -6.499502433e-06    2.721377314e-05    0.000000000e+00    0.000000000e+00    0.000000000e+00    0.000000000e+00
        2525000    7.478967905e-01   -5.378984660e-02   -1.989422890e-05   -1.750647243e-05    0.000000000e+00    0.000000000e+00    0.000000000e+00    0.000000000e+00
        2549750    7.478386164e-01   -5.365291610e-02   -1.176240676e-05   -4.468487077e-06    0.000000000e+00    0.000000000e+00    0.000000000e+00    0.000000000e+00
        2574500    7.478368282e-01   -5.339936540e-02   -8.854063708e-06   -2.314143785e-05    0.000000000e+00    0.000000000e+00    0.000000000e+00    0.000000000e+00
        2599250    7.478994727e-01   -5.293888971e-02   -1.069385144e-05   -1.649897968e-05    0.000000000e+00    0.000000000e+00    0.000000000e+00    0.000000000e+00
        2624000    7.474113703e-01   -5.231641978e-02    1.690605495e-05   -5.435355206e-07    0.000000000e+00    0.000000000e+00    0.000000000e+00    0.000000000e+00
        2648750    7.473117113e-01   -5.220435560e-02    2.897956801e-05   -1.333341424e-05    0.000000000e+00    0.000000000e+00    0.000000000e+00    0.000000000e+00
        2673500    7.471468449e-01   -5.175754800e-02   -8.033676750e-06    4.693185929e-06    0.000000000e+00    0.000000000e+00    0.000000000e+00    0.000000000e+00
        2698250    7.469054461e-01   -5.143374950e-02   -7.303351595e-06    4.525941677e-06    0.000000000e+00    0.000000000e+00    0.000000000e+00    0.000000000e+00
        2723000    7.470141053e-01   -5.125162005e-02   -1.444577993e-05    6.610227047e-06    0.000000000e+00    0.000000000e+00    0.000000000e+00    0.000000000e+00
        2747750    7.469373345e-01   -5.082636327e-02   -2.459425377e-05    2.421743375e-05    0.000000000e+00    0.000000000e+00    0.000000000e+00    0.000000000e+00
        2772500    7.466080189e-01   -5.052647367e-02   -3.205936082e-05   -1.333361251e-05    0.000000000e+00    0.000000000e+00    0.000000000e+00    0.000000000e+00
        2797250    7.462548614e-01   -5.010723695e-02    1.928400889e-05   -2.254921128e-05    0.000000000e+00    0.000000000e+00    0.000000000e+00    0.000000000e+00
        2822000    7.463977933e-01   -4.986745492e-02   -1.054049699e-05   -4.467969484e-05    0.000000000e+00    0.000000000e+00    0.000000000e+00    0.000000000e+00
        2846750    7.457371354e-01   -4.952174425e-02    1.857962729e-06   -3.235549229e-05    0.000000000e+00    0.000000000e+00    0.000000000e+00    0.000000000e+00
        2871500    7.459668517e-01   -4.942216724e-02    1.948028148e-05   -2.639010563e-05    0.000000000e+00    0.000000000e+00    0.000000000e+00    0.000000000e+00
        2896250    7.460457683e-01   -4.877537489e-02   -5.206117294e-06    2.222709554e-05    0.000000000e+00    0.000000000e+00    0.000000000e+00    0.000000000e+00
        2921000    7.457893491e-01   -4.870127514e-02    4.351813004e-06    2.677944030e-05    0.000000000e+00    0.000000000e+00    0.000000000e+00    0.000000000e+00
