! NanoVNA-App
! Date: 2024-06-25 16:28:52
! Start: 200.00MHz  Stop: 6.00GHz  Points: 801
! S-Parameter data: F S11
# Hz S RI R 50
Frequency           S1_Real           S1_Imag           S11_Real           S11_Imag           S21_Real           S21_Imag
2.00000000E+8      1.07374182E+9      0.00000000E+0      5.29017465E-1      1.19118203E-1      -1.35079026E-5      1.39847398E-5
2.07250000E+8      1.07374182E+9      0.00000000E+0      5.30278613E-1      2.15149670E-2      9.04873013E-6      3.01282853E-6
2.14500000E+8      1.07374182E+9      0.00000000E+0      5.29430878E-1      -7.52206479E-2      -1.02603808E-5      -1.08247623E-5
2.21750000E+8      1.07374182E+9      0.00000000E+0      5.26872651E-1      -1.80392643E-1      2.06995755E-5      1.18110329E-5
2.29000000E+8      1.07374182E+9      0.00000000E+0      5.22515042E-1      -3.06426221E-1      -2.73343176E-5      3.77651304E-6
2.36250000E+8      1.07374182E+9      0.00000000E+0      5.13675685E-1      -4.76921376E-1      -8.76002014E-6      9.25268978E-6
2.43500000E+8      1.07374182E+9      0.00000000E+0      4.90495616E-1      -7.48710771E-1      -7.34161586E-6      -2.97483057E-5
2.50750000E+8      1.07374182E+9      0.00000000E+0      4.05531884E-1      -1.33281410E+0      -1.40657648E-5      9.22940671E-6
2.58000000E+8      1.07374182E+9      0.00000000E+0      -6.18582610E-1      -3.92876492E+0      -4.39360738E-5      -1.66455284E-5
2.65250000E+8      1.07374182E+9      0.00000000E+0      -4.76904532E-1      3.66904135E+0      2.01379880E-5      2.45263800E-5
2.72500000E+8      1.07374182E+9      0.00000000E+0      4.06605466E-1      1.27859157E+0      -3.80910933E-7      -1.84196979E-5
2.79750000E+8      1.07374182E+9      0.00000000E+0      4.87847053E-1      7.11829115E-1      -4.96022403E-6      -7.37141818E-6
2.87000000E+8      1.07374182E+9      0.00000000E+0      5.09478967E-1      4.40994417E-1      2.93469056E-5      1.69975683E-5
2.94250000E+8      1.07374182E+9      0.00000000E+0      5.18452992E-1      2.68331458E-1      1.32489949E-5      -1.53332949E-5
3.01500000E+8      1.07374182E+9      0.00000000E+0      5.22638569E-1      1.36164273E-1      -1.59321353E-5      -1.72080472E-5
3.08750000E+8      1.07374182E+9      0.00000000E+0      5.25363102E-1      2.07664959E-2      -2.20853835E-5      1.14981085E-5
3.16000000E+8      1.07374182E+9      0.00000000E+0      5.25956238E-1      -9.27000131E-2      5.63357025E-6      -1.19507313E-5
3.23250000E+8      1.07374182E+9      0.00000000E+0      5.25374755E-1      -2.18898467E-1      1.29910186E-5      8.10064375E-6
3.30500000E+8      1.07374182E+9      0.00000000E+0      5.21332627E-1      -3.77943491E-1      -5.02448529E-6      -2.42413953E-5
3.37750000E+8      1.07374182E+9      0.00000000E+0      5.06319948E-1      -6.15778530E-1      -7.39470124E-6      1.50231645E-5
3.45000000E+8      1.07374182E+9      0.00000000E+0      4.40421237E-1      -1.08451626E+0      7.51111656E-6      2.30344012E-5
3.52250000E+8      1.07374182E+9      0.00000000E+0      -2.25715236E-1      -2.66594501E+0      7.33230263E-6      1.08331442E-5
3.59500000E+8      1.07374182E+9      0.00000000E+0      -2.15109309E+0      3.43780875E+0      -2.68323347E-5      2.56560743E-5
3.66750000E+8      1.07374182E+9      0.00000000E+0      1.63893498E-1      1.25509200E+0      7.87526369E-6      -3.22964042E-5
3.74000000E+8      1.07374182E+9      0.00000000E+0      3.56898533E-1      6.75283782E-1      2.14576721E-5      3.02921981E-5
3.81250000E+8      1.07374182E+9      0.00000000E+0      4.12016795E-1      4.00850446E-1      1.30226836E-5      -3.45772132E-5
3.88500000E+8      1.07374182E+9      0.00000000E+0      4.32528935E-1      2.28183483E-1      -3.45939770E-5      2.97557563E-6
3.95750000E+8      1.07374182E+9      0.00000000E+0      4.39139099E-1      9.46564941E-2      1.66837126E-5      -2.08783895E-5
4.03000000E+8      1.07374182E+9      0.00000000E+0      4.37257430E-1      -2.40222256E-2      3.24686989E-5      9.35699791E-6
4.10250000E+8      1.07374182E+9      0.00000000E+0      4.26677689E-1      -1.42880363E-1      4.73205000E-6      -3.28375027E-5
4.17500000E+8      1.07374182E+9      0.00000000E+0      4.02812915E-1      -2.76617107E-1      1.11842528E-5      1.86488032E-5
4.24750000E+8      1.07374182E+9      0.00000000E+0      3.52981475E-1      -4.48243791E-1      2.29729339E-5      -5.72782010E-5
4.32000000E+8      1.07374182E+9      0.00000000E+0      2.38100877E-1      -6.98804234E-1      -1.88685954E-5      1.35023147E-5
4.39250000E+8      1.07374182E+9      0.00000000E+0      -1.20574944E-1      -1.12477778E+0      -1.27507374E-5      -5.25824726E-6
4.46500000E+8      1.07374182E+9      0.00000000E+0      -1.78789248E+0      -1.36283448E+0      5.29922545E-7      2.62027606E-5
4.53750000E+8      1.07374182E+9      0.00000000E+0      -1.33167792E+0      1.74725709E+0      4.23910096E-5      -5.42029738E-5
4.61000000E+8      1.07374182E+9      0.00000000E+0      9.09696076E-2      1.18683364E+0      1.69221312E-6      9.39704478E-7
4.68250000E+8      1.07374182E+9      0.00000000E+0      3.68533043E-1      7.41368513E-1      1.51963905E-5      3.80342826E-5
4.75500000E+8      1.07374182E+9      0.00000000E+0      4.53295587E-1      4.87720993E-1      3.78536060E-5      -2.15852633E-5
4.82750000E+8      1.07374182E+9      0.00000000E+0      4.89924269E-1      3.22049154E-1      1.24080107E-5      2.94633210E-5
4.90000000E+8      1.07374182E+9      0.00000000E+0      5.08744924E-1      1.95909347E-1      1.94786116E-5      1.10054389E-5
4.97250000E+8      1.07374182E+9      0.00000000E+0      5.21087953E-1      8.97087928E-2      3.01115215E-5      -3.28756869E-6
5.04500000E+8      1.07374182E+9      0.00000000E+0      5.30402701E-1      -8.65030732E-3      -1.57048926E-5      -3.67090106E-5
5.11750000E+8      1.07374182E+9      0.00000000E+0      5.39390131E-1      -1.08831691E-1      -1.20420009E-6      -3.30340117E-6
5.19000000E+8      1.07374182E+9      0.00000000E+0      5.50886885E-1      -2.20009834E-1      2.18283385E-5      8.00471753E-6
5.26250000E+8      1.07374182E+9      0.00000000E+0      5.69260810E-1      -3.56589155E-1      -2.84370035E-5      -3.47280875E-5
5.33500000E+8      1.07374182E+9      0.00000000E+0      6.04882586E-1      -5.47036762E-1      5.95860183E-6      5.78714535E-5
5.40750000E+8      1.07374182E+9      0.00000000E+0      7.03533397E-1      -8.57490993E-1      -3.25720757E-5      -4.38839197E-6
5.48000000E+8      1.07374182E+9      0.00000000E+0      1.10603288E+0      -1.49604569E+0      1.12522393E-5      5.05521894E-6
5.55250000E+8      1.07374182E+9      0.00000000E+0      4.02688166E+0      -1.56840801E+0      1.54497102E-5      2.34777108E-5
5.62500000E+8      1.07374182E+9      0.00000000E+0      1.89986877E+0      1.77155450E+0      -2.26274133E-5      -1.87661499E-6
5.69750000E+8      1.07374182E+9      0.00000000E+0      9.43489757E-1      1.02175978E+0      3.47848982E-5      5.31431288E-5
5.77000000E+8      1.07374182E+9      0.00000000E+0      7.39152597E-1      6.42999421E-1      -1.54851004E-5      1.71726570E-5
5.84250000E+8      1.07374182E+9      0.00000000E+0      6.67172211E-1      4.25001931E-1      1.36448070E-5      -1.05267391E-5
5.91500000E+8      1.07374182E+9      0.00000000E+0      6.32667903E-1      2.75976474E-1      -1.28243119E-5      2.81324610E-5
5.98750000E+8      1.07374182E+9      0.00000000E+0      6.15212214E-1      1.60150478E-1      -3.22619453E-5      2.73985788E-5
6.06000000E+8      1.07374182E+9      0.00000000E+0      6.05385787E-1      5.96957220E-2      -4.66397032E-5      -2.43168324E-6
6.13250000E+8      1.07374182E+9      0.00000000E+0      6.00785251E-1      -3.54130370E-2      1.82837248E-5      3.27629969E-5
6.20500000E+8      1.07374182E+9      0.00000000E+0      5.99619775E-1      -1.35950324E-1      1.74809247E-6      -1.99303031E-5
6.27750000E+8      1.07374182E+9      0.00000000E+0      6.01764316E-1      -2.50143455E-1      2.63191760E-6      6.94580376E-6
6.35000000E+8      1.07374182E+9      0.00000000E+0      6.07856522E-1      -3.95864255E-1      -7.64243305E-6      2.97836959E-6
6.42250000E+8      1.07374182E+9      0.00000000E+0      6.20944102E-1      -6.13856181E-1      -1.40564516E-5      -1.71130523E-5
6.49500000E+8      1.07374182E+9      0.00000000E+0      6.43112416E-1      -1.01973191E+0      6.17559999E-6      -2.18218192E-5
6.56750000E+8      1.07374182E+9      0.00000000E+0      6.51892593E-1      -2.25805166E+0      8.77305865E-7      1.61128119E-5
6.64000000E+8      1.07374182E+9      0.00000000E+0      -9.01841631E+0      1.11280505E+1      -3.69828194E-6      2.62521207E-5
6.71250000E+8      1.07374182E+9      0.00000000E+0      1.66139576E-1      1.71086921E+0      4.10759822E-5      -5.38956374E-6
6.78500000E+8      1.07374182E+9      0.00000000E+0      3.60577789E-1      8.47277726E-1      1.08452514E-5      1.33598223E-5
6.85750000E+8      1.07374182E+9      0.00000000E+0      4.14620686E-1      5.09850946E-1      2.07461417E-5      6.86757267E-6
6.93000000E+8      1.07374182E+9      0.00000000E+0      4.35392688E-1      3.13743363E-1      -2.84146518E-6      -6.63846731E-6
7.00250000E+8      1.07374182E+9      0.00000000E+0      4.43244790E-1      1.72672354E-1      -1.68960541E-5      1.02305785E-5
7.07500000E+8      1.07374182E+9      0.00000000E+0      4.41805613E-1      5.64499425E-2      9.79192555E-6      -3.21399420E-6
7.14750000E+8      1.07374182E+9      0.00000000E+0      4.31284554E-1      -4.95433278E-2      -2.98032537E-5      2.75680795E-5
7.22000000E+8      1.07374182E+9      0.00000000E+0      4.10104711E-1      -1.57150914E-1      -1.81682408E-5      -5.42849302E-5
7.29250000E+8      1.07374182E+9      0.00000000E+0      3.68751194E-1      -2.76569578E-1      -1.62627548E-5      6.48200512E-7
7.36500000E+8      1.07374182E+9      0.00000000E+0      2.89267673E-1      -4.13955718E-1      -3.25553119E-5      -9.55909491E-6
7.43750000E+8      1.07374182E+9      0.00000000E+0      1.20310297E-1      -5.74030986E-1      -1.68243423E-5      1.39959157E-5
7.51000000E+8      1.07374182E+9      0.00000000E+0      -2.45693633E-1      -6.76662735E-1      1.68839470E-5      2.69906595E-5
7.58250000E+8      1.07374182E+9      0.00000000E+0      -7.77422661E-1      -3.45618531E-1      -2.33110040E-5      8.77492130E-6
7.65500000E+8      1.07374182E+9      0.00000000E+0      -6.66598886E-1      3.85546081E-1      4.30485234E-5      -3.12579796E-5
7.72750000E+8      1.07374182E+9      0.00000000E+0      -1.81898056E-1      5.56894425E-1      -3.15206125E-5      6.68969005E-6
7.80000000E+8      1.07374182E+9      0.00000000E+0      9.93886428E-2      4.57256893E-1      2.12946907E-5      1.37649477E-6
7.87250000E+8      1.07374182E+9      0.00000000E+0      2.43473853E-1      3.28031434E-1      7.38631934E-6      -2.91792676E-5
7.94500000E+8      1.07374182E+9      0.00000000E+0      3.16378408E-1      2.12518745E-1      7.15069473E-6      9.25548375E-6
8.01750000E+8      1.07374182E+9      0.00000000E+0      3.57873692E-1      1.09561524E-1      2.20444053E-6      1.88611448E-5
8.09000000E+8      1.07374182E+9      0.00000000E+0      3.80770520E-1      1.21247700E-2      -1.55717134E-5      -1.10929832E-5
8.16250000E+8      1.07374182E+9      0.00000000E+0      3.92038373E-1      -8.50900838E-2      4.72692773E-5      -1.58082694E-5
8.23500000E+8      1.07374182E+9      0.00000000E+0      3.94029732E-1      -1.92554190E-1      -1.28811225E-5      1.60094351E-6
8.30750000E+8      1.07374182E+9      0.00000000E+0      3.85462742E-1      -3.19247888E-1      -1.74958259E-5      -4.03206795E-5
8.38000000E+8      1.07374182E+9      0.00000000E+0      3.58772194E-1      -4.93060998E-1      -2.24355608E-5      -2.05961987E-5
8.45250000E+8      1.07374182E+9      0.00000000E+0      2.89543283E-1      -7.66579647E-1      -6.04521483E-6      1.07074156E-5
8.52500000E+8      1.07374182E+9      0.00000000E+0      5.58230697E-2      -1.34404688E+0      1.40806660E-5      -2.14688480E-5
8.59750000E+8      1.07374182E+9      0.00000000E+0      -2.07744778E+0      -3.23224994E+0      1.30729750E-5      2.97585502E-5
8.67000000E+8      1.07374182E+9      0.00000000E+0      -4.89419440E-1      3.04906143E+0      7.75139779E-6      1.39093027E-5
8.74250000E+8      1.07374182E+9      0.00000000E+0      4.43531642E-1      1.22655715E+0      -1.04308128E-7      6.81169331E-6
8.81500000E+8      1.07374182E+9      0.00000000E+0      5.20592698E-1      6.78197091E-1      -1.38571486E-5      3.25245783E-5
8.88750000E+8      1.07374182E+9      0.00000000E+0      5.35755472E-1      4.16947476E-1      2.56113708E-6      -9.60566103E-6
8.96000000E+8      1.07374182E+9      0.00000000E+0      5.41021219E-1      2.42321582E-1      2.09389254E-5      -2.34134495E-5
9.03250000E+8      1.07374182E+9      0.00000000E+0      5.43018769E-1      1.08160354E-1      -2.58497894E-5      -4.01865691E-5
9.10500000E+8      1.07374182E+9      0.00000000E+0      5.44780981E-1      -1.59279577E-2      3.72333452E-5      -2.75066122E-5
9.17750000E+8      1.07374182E+9      0.00000000E+0      5.47181633E-1      -1.38254806E-1      -4.46662307E-6      -1.20233744E-6
9.25000000E+8      1.07374182E+9      0.00000000E+0      5.51594606E-1      -2.79314553E-1      3.89292836E-7      -1.00564212E-5
9.32250000E+8      1.07374182E+9      0.00000000E+0      5.58792189E-1      -4.72862449E-1      -1.09225512E-5      1.58082694E-5
9.39500000E+8      1.07374182E+9      0.00000000E+0      5.73071393E-1      -7.86557702E-1      -2.72821635E-5      1.90110877E-5
9.46750000E+8      1.07374182E+9      0.00000000E+0      6.15488100E-1      -1.52902908E+0      7.86874443E-6      3.08873132E-5
9.54000000E+8      1.07374182E+9      0.00000000E+0      1.01944750E+0      -7.17381028E+0      1.43386424E-5      -2.14008614E-5
9.61250000E+8      1.07374182E+9      0.00000000E+0      3.66744121E-1      2.90728687E+0      3.34838405E-5      2.22651288E-5
9.68500000E+8      1.07374182E+9      0.00000000E+0      4.45007246E-1      1.15024431E+0      -2.74833292E-6      -2.06176192E-5
9.75750000E+8      1.07374182E+9      0.00000000E+0      4.65982411E-1      6.83392092E-1      -1.73812732E-5      -2.90432945E-5
9.83000000E+8      1.07374182E+9      0.00000000E+0      4.73487051E-1      4.40387554E-1      2.44248658E-5      -3.36430967E-5
9.90250000E+8      1.07374182E+9      0.00000000E+0      4.74449335E-1      2.84357344E-1      6.01448119E-6      -1.59265473E-5
9.97500000E+8      1.07374182E+9      0.00000000E+0      4.72026355E-1      1.65447077E-1      1.99545175E-5      3.00910324E-5
1.00475000E+9      1.07374182E+9      0.00000000E+0      4.65438297E-1      6.43037607E-2      1.67107210E-5      1.29444525E-5
1.01200000E+9      1.07374182E+9      0.00000000E+0      4.54792650E-1      -2.85647293E-2      -2.80514359E-6      -1.72946602E-6
1.01925000E+9      1.07374182E+9      0.00000000E+0      4.36874906E-1      -1.21761165E-1      -1.94367021E-5      1.18901953E-5
1.02650000E+9      1.07374182E+9      0.00000000E+0      4.08396689E-1      -2.21290336E-1      -9.41008329E-6      -2.08569691E-5
1.03375000E+9      1.07374182E+9      0.00000000E+0      3.58599058E-1      -3.35166806E-1      1.02827325E-5      9.95304435E-6
1.04100000E+9      1.07374182E+9      0.00000000E+0      2.68378691E-1      -4.68692902E-1      -1.02240592E-5      2.14828178E-5
1.04825000E+9      1.07374182E+9      0.00000000E+0      8.86319493E-2      -6.16556286E-1      1.38934702E-5      2.25845724E-5
1.05550000E+9      1.07374182E+9      0.00000000E+0      -2.70680771E-1      -6.94821265E-1      4.28436324E-5      -2.66879797E-5
1.06275000E+9      1.07374182E+9      0.00000000E+0      -7.46122953E-1      -3.89222329E-1      2.49221921E-6      1.42641366E-5
1.07000000E+9      1.07374182E+9      0.00000000E+0      -7.06350478E-1      2.58257405E-1      -5.18467277E-6      1.79028139E-5
1.07725000E+9      1.07374182E+9      0.00000000E+0      -2.98588176E-1      4.84234667E-1      1.04121864E-6      3.83118168E-5
1.08450000E+9      1.07374182E+9      0.00000000E+0      -1.66456209E-2      4.33396824E-1      -3.17683443E-5      5.23980707E-5
1.09175000E+9      1.07374182E+9      0.00000000E+0      1.29424836E-1      3.30542615E-1      1.55763701E-5      -2.15256587E-5
1.09900000E+9      1.07374182E+9      0.00000000E+0      2.05656890E-1      2.27694697E-1      2.87452713E-5      3.76030803E-5
1.10625000E+9      1.07374182E+9      0.00000000E+0      2.41393049E-1      1.36090568E-1      2.08280981E-5      -1.18147582E-5
1.11350000E+9      1.07374182E+9      0.00000000E+0      2.53682192E-1      5.17642626E-2      2.05077231E-5      -4.15556133E-6
1.12075000E+9      1.07374182E+9      0.00000000E+0      2.47631598E-1      -2.48397185E-2      -7.45616853E-6      2.01584771E-5
1.12800000E+9      1.07374182E+9      0.00000000E+0      2.23013978E-1      -9.91110278E-2      2.52556056E-5      -3.80724669E-5
1.13525000E+9      1.07374182E+9      0.00000000E+0      1.76754544E-1      -1.67878293E-1      4.84613702E-5      -1.03497878E-5
1.14250000E+9      1.07374182E+9      0.00000000E+0      1.03067335E-1      -2.27996829E-1      4.08394262E-5      -6.10388815E-6
1.14975000E+9      1.07374182E+9      0.00000000E+0      -7.84097088E-3      -2.63260252E-1      9.05245543E-6      3.66102904E-6
1.15700000E+9      1.07374182E+9      0.00000000E+0      -1.54782899E-1      -2.40845760E-1      1.63335353E-5      8.59424472E-6
1.16425000E+9      1.07374182E+9      0.00000000E+0      -2.90365589E-1      -1.16652074E-1      5.81583008E-5      -3.83425504E-6
1.17150000E+9      1.07374182E+9      0.00000000E+0      -3.20526785E-1      9.07700984E-2      1.95736066E-5      1.11293048E-6
1.17875000E+9      1.07374182E+9      0.00000000E+0      -2.06153557E-1      2.66947471E-1      6.59096986E-6      -2.62288377E-5
1.18600000E+9      1.07374182E+9      0.00000000E+0      -3.67793762E-2      3.27194024E-1      2.63936818E-6      -1.80937350E-5
1.19325000E+9      1.07374182E+9      0.00000000E+0      1.05642792E-1      3.02267543E-1      -5.50244004E-5      -3.61828133E-5
1.20050000E+9      1.07374182E+9      0.00000000E+0      2.06656370E-1      2.37793742E-1      2.51689926E-5      2.10935250E-5
1.20775000E+9      1.07374182E+9      0.00000000E+0      2.71097582E-1      1.60911345E-1      4.52958047E-5      1.38394535E-5
1.21500000E+9      1.07374182E+9      0.00000000E+0      3.13354731E-1      7.57741200E-2      -1.88536942E-5      4.11272049E-6
1.22225000E+9      1.07374182E+9      0.00000000E+0      3.37583445E-1      -9.52048508E-3      3.94368544E-5      2.03279778E-5
1.22950000E+9      1.07374182E+9      0.00000000E+0      3.49541664E-1      -1.04305777E-1      -1.71782449E-5      -3.32649797E-5
1.23675000E+9      1.07374182E+9      0.00000000E+0      3.49141793E-1      -2.09680032E-1      -1.63763762E-5      1.58930197E-5
1.24400000E+9      1.07374182E+9      0.00000000E+0      3.33409350E-1      -3.39856017E-1      -7.40401447E-7      -1.38012692E-5
1.25125000E+9      1.07374182E+9      0.00000000E+0      2.88427664E-1      -5.20090102E-1      4.28035855E-6      1.53984874E-5
1.25850000E+9      1.07374182E+9      0.00000000E+0      1.69004357E-1      -8.02251578E-1      -5.28236851E-5      -1.94553286E-5
1.26575000E+9      1.07374182E+9      0.00000000E+0      -2.43848737E-1      -1.31291346E+0      -1.40340999E-5      -2.22651288E-5
1.27300000E+9      1.07374182E+9      0.00000000E+0      -2.45998263E+0      -1.43138129E+0      -4.66201454E-5      1.26399100E-5
1.28025000E+9      1.07374182E+9      0.00000000E+0      -1.07246923E+0      1.83507650E+0      3.94973904E-6      2.53040344E-6
1.28750000E+9      1.07374182E+9      0.00000000E+0      4.72573156E-2      1.11864950E+0      -1.97906047E-6      1.35935843E-5
1.29475000E+9      1.07374182E+9      0.00000000E+0      2.74924862E-1      6.78494425E-1      2.31489539E-5      1.05611980E-5
