! NanoVNA-App by OneOfEleven et al v1.1.209 (+OD15) 
! Date: 2024-07-30 15:18:49
! Start: 200MHz Stop: 6GHz Points: 801
! S-Parameter data: F S11 S21 S12 S22
# Hz S RI R 50
!     Frequency           S11_Real           S11_Imag           S21_Real           S21_Imag           S12_Real           S12_Imag           S22_Real           S22_Imag
      200000000   -1.767622493e-02    2.908773720e-03    1.486058682e-05   -2.701034828e-05    0.000000000e+00    0.000000000e+00    0.000000000e+00    0.000000000e+00
      207250000   -1.788136922e-02    2.583208028e-03    2.108464651e-05   -1.104320927e-05    0.000000000e+00    0.000000000e+00    0.000000000e+00    0.000000000e+00
      214500000   -1.873065531e-02    2.239637543e-03   -2.136284820e-05   -1.229875124e-05    0.000000000e+00    0.000000000e+00    0.000000000e+00    0.000000000e+00
      221750000   -1.684536412e-02    3.246674081e-03   -5.039647021e-06    1.684391282e-05    0.000000000e+00    0.000000000e+00    0.000000000e+00    0.000000000e+00
      229000000   -1.786053926e-02    3.611426568e-03    1.762476131e-05   -1.008819527e-05    0.000000000e+00    0.000000000e+00    0.000000000e+00    0.000000000e+00
      236250000   -1.841040887e-02    3.128122538e-03    2.186422535e-05    8.938866813e-06    0.000000000e+00    0.000000000e+00    0.000000000e+00    0.000000000e+00
      243500000   -1.753948070e-02    3.000021446e-03   -1.971522943e-05   -4.955290478e-06    0.000000000e+00    0.000000000e+00    0.000000000e+00    0.000000000e+00
      250750000   -1.770505495e-02    3.811024362e-03   -4.413136048e-05   -5.092177889e-05    0.000000000e+00    0.000000000e+00    0.000000000e+00    0.000000000e+00
      258000000   -1.748067513e-02    1.763825072e-03   -4.569415250e-05   -3.231511073e-05    0.000000000e+00    0.000000000e+00    0.000000000e+00    0.000000000e+00
      265250000   -1.910440624e-02    3.828784218e-03    3.602190645e-06    3.499810191e-05    0.000000000e+00    0.000000000e+00    0.000000000e+00    0.000000000e+00
      272500000   -1.773095503e-02    3.329239320e-03   -4.721937148e-05    1.440596225e-05    0.000000000e+00    0.000000000e+00    0.000000000e+00    0.000000000e+00
      279750000   -1.742346771e-02    3.632686334e-03   -1.298326424e-05   -4.328137493e-06    0.000000000e+00    0.000000000e+00    0.000000000e+00    0.000000000e+00
      287000000   -1.860070601e-02    3.359299852e-03    2.223036972e-05   -4.487205388e-06    0.000000000e+00    0.000000000e+00    0.000000000e+00    0.000000000e+00
      294250000   -1.849313825e-02    3.543623956e-03   -2.477754788e-05    2.072182951e-06    0.000000000e+00    0.000000000e+00    0.000000000e+00    0.000000000e+00
      301500000   -1.823050343e-02    3.439724213e-03   -3.334938447e-05   -5.593182868e-05    0.000000000e+00    0.000000000e+00    0.000000000e+00    0.000000000e+00
      308750000   -1.737906225e-02    2.786259400e-03   -5.226801250e-07    1.192745640e-05    0.000000000e+00    0.000000000e+00    0.000000000e+00    0.000000000e+00
      316000000   -1.790775545e-02    4.202066921e-03    4.053061275e-06    2.612222488e-06    0.000000000e+00    0.000000000e+00    0.000000000e+00    0.000000000e+00
      323250000   -1.767836697e-02    3.184410511e-03   -3.301091783e-05   -9.948486877e-06    0.000000000e+00    0.000000000e+00    0.000000000e+00    0.000000000e+00
      330500000   -1.760238968e-02    3.061942989e-03   -1.673071165e-05   -8.384410535e-07    0.000000000e+00    0.000000000e+00    0.000000000e+00    0.000000000e+00
      337750000   -1.780034788e-02    3.369511338e-03   -1.360467559e-05    6.041464985e-06    0.000000000e+00    0.000000000e+00    0.000000000e+00    0.000000000e+00
      345000000   -1.768411696e-02    3.978068475e-03   -1.111035908e-05    9.776158549e-06    0.000000000e+00    0.000000000e+00    0.000000000e+00    0.000000000e+00
      352250000   -1.767744496e-02    3.028826090e-03   -4.738542430e-06   -1.105195133e-05    0.000000000e+00    0.000000000e+00    0.000000000e+00    0.000000000e+00
      359500000   -1.759434119e-02    3.506603651e-03   -4.835205254e-05    1.168711242e-05    0.000000000e+00    0.000000000e+00    0.000000000e+00    0.000000000e+00
      366750000   -1.695357636e-02    4.008249380e-03   -1.148400406e-05   -7.484942671e-06    0.000000000e+00    0.000000000e+00    0.000000000e+00    0.000000000e+00
      374000000   -1.779422909e-02    3.414766164e-03    1.151109609e-05    1.637755759e-06    0.000000000e+00    0.000000000e+00    0.000000000e+00    0.000000000e+00
      381250000   -1.713192463e-02    3.848099615e-03   -2.905552901e-05   -2.165666956e-05    0.000000000e+00    0.000000000e+00    0.000000000e+00    0.000000000e+00
      388500000   -1.762782969e-02    3.766086185e-03    2.909726027e-05    1.628940845e-05    0.000000000e+00    0.000000000e+00    0.000000000e+00    0.000000000e+00
      395750000   -1.747339591e-02    3.644305747e-03   -4.397669727e-06    1.501281076e-05    0.000000000e+00    0.000000000e+00    0.000000000e+00    0.000000000e+00
      403000000   -1.799128205e-02    4.088157788e-03   -9.646317267e-06    2.944558400e-05    0.000000000e+00    0.000000000e+00    0.000000000e+00    0.000000000e+00
      410250000   -1.750108786e-02    4.511339124e-03   -8.829624676e-06    1.740615153e-05    0.000000000e+00    0.000000000e+00    0.000000000e+00    0.000000000e+00
      417500000   -1.812953129e-02    4.740484990e-03    1.206260640e-05    4.509726750e-06    0.000000000e+00    0.000000000e+00    0.000000000e+00    0.000000000e+00
      424750000   -1.638625190e-02    3.722147318e-03    2.687008305e-07   -4.336782695e-06    0.000000000e+00    0.000000000e+00    0.000000000e+00    0.000000000e+00
      432000000   -1.773579419e-02    3.669735277e-03    3.095535067e-05   -3.796368401e-05    0.000000000e+00    0.000000000e+00    0.000000000e+00    0.000000000e+00
      439250000   -1.729200780e-02    4.576655570e-03    2.090767794e-06    1.136537412e-05    0.000000000e+00    0.000000000e+00    0.000000000e+00    0.000000000e+00
      446500000   -1.683343574e-02    4.600686021e-03    1.119231547e-05   -2.342438711e-05    0.000000000e+00    0.000000000e+00    0.000000000e+00    0.000000000e+00
      453750000   -1.721373759e-02    5.071296357e-03   -1.717915256e-05   -9.862651495e-07    0.000000000e+00    0.000000000e+00    0.000000000e+00    0.000000000e+00
      461000000   -1.662042551e-02    4.538808949e-03    3.061140524e-05   -2.846481584e-05    0.000000000e+00    0.000000000e+00    0.000000000e+00    0.000000000e+00
      468250000   -1.694190130e-02    4.440722056e-03   -8.904743254e-07    1.979980516e-05    0.000000000e+00    0.000000000e+00    0.000000000e+00    0.000000000e+00
      475500000   -1.686522737e-02    4.690874834e-03   -2.178557770e-05    1.690697331e-06    0.000000000e+00    0.000000000e+00    0.000000000e+00    0.000000000e+00
      482750000   -1.723553985e-02    5.091697443e-03   -2.954856791e-05   -1.202244493e-05    0.000000000e+00    0.000000000e+00    0.000000000e+00    0.000000000e+00
      490000000   -1.719177328e-02    4.987946246e-03   -3.592006033e-05   -3.806619861e-05    0.000000000e+00    0.000000000e+00    0.000000000e+00    0.000000000e+00
      497250000   -1.748199388e-02    3.883172758e-03   -9.787012459e-06   -4.303053174e-06    0.000000000e+00    0.000000000e+00    0.000000000e+00    0.000000000e+00
      504500000   -1.694552228e-02    4.473738372e-03    3.367933459e-05   -4.603266279e-05    0.000000000e+00    0.000000000e+00    0.000000000e+00    0.000000000e+00
      511750000   -1.702245884e-02    5.394923035e-03    6.843008123e-06    1.579246054e-05    0.000000000e+00    0.000000000e+00    0.000000000e+00    0.000000000e+00
      519000000   -1.722695306e-02    5.304610357e-03   -7.386261586e-06   -6.925317848e-06    0.000000000e+00    0.000000000e+00    0.000000000e+00    0.000000000e+00
      526250000   -1.735540293e-02    5.422833841e-03   -2.277794920e-05    1.330310624e-05    0.000000000e+00    0.000000000e+00    0.000000000e+00    0.000000000e+00
      533500000   -1.757039502e-02    5.502137356e-03   -1.744056681e-05   -4.699681813e-05    0.000000000e+00    0.000000000e+00    0.000000000e+00    0.000000000e+00
      540750000   -1.730530336e-02    5.467022769e-03    1.698572305e-05    2.213062180e-05    0.000000000e+00    0.000000000e+00    0.000000000e+00    0.000000000e+00
      548000000   -1.753557101e-02    5.902891047e-03   -1.283798792e-05    1.958974826e-05    0.000000000e+00    0.000000000e+00    0.000000000e+00    0.000000000e+00
      555250000   -1.723883487e-02    5.951034371e-03    8.408664485e-07   -8.273138519e-06    0.000000000e+00    0.000000000e+00    0.000000000e+00    0.000000000e+00
      562500000   -1.714783348e-02    5.381818395e-03   -2.540169044e-05   -3.473256220e-05    0.000000000e+00    0.000000000e+00    0.000000000e+00    0.000000000e+00
      569750000   -1.746795699e-02    5.738377105e-03    2.390521149e-05    9.667431868e-07    0.000000000e+00    0.000000000e+00    0.000000000e+00    0.000000000e+00
      577000000   -1.637754403e-02    5.641164258e-03   -4.248793630e-06    2.051361298e-05    0.000000000e+00    0.000000000e+00    0.000000000e+00    0.000000000e+00
      584250000   -1.720570214e-02    5.694151390e-03    6.205320005e-06   -2.767099977e-05    0.000000000e+00    0.000000000e+00    0.000000000e+00    0.000000000e+00
      591500000   -1.712165773e-02    6.146233063e-03    2.424927698e-05    3.270693196e-05    0.000000000e+00    0.000000000e+00    0.000000000e+00    0.000000000e+00
      598750000   -1.640273258e-02    5.871803034e-03   -9.546987712e-06   -9.795897313e-06    0.000000000e+00    0.000000000e+00    0.000000000e+00    0.000000000e+00
      606000000   -1.671543904e-02    5.645790603e-03    1.874232839e-05   -1.618852002e-05    0.000000000e+00    0.000000000e+00    0.000000000e+00    0.000000000e+00
      613250000   -1.667327620e-02    5.755918566e-03   -2.895311627e-05    2.702334496e-05    0.000000000e+00    0.000000000e+00    0.000000000e+00    0.000000000e+00
      620500000   -1.749660261e-02    6.059590727e-03    2.136085641e-06   -2.321771353e-05    0.000000000e+00    0.000000000e+00    0.000000000e+00    0.000000000e+00
      627750000   -1.760221086e-02    6.431514863e-03   -4.786338468e-05   -4.164879101e-06    0.000000000e+00    0.000000000e+00    0.000000000e+00    0.000000000e+00
      635000000   -1.596504264e-02    6.088809110e-03   -3.413909872e-05   -4.139017256e-05    0.000000000e+00    0.000000000e+00    0.000000000e+00    0.000000000e+00
      642250000   -1.620536484e-02    5.888776854e-03    1.228095698e-05   -6.411293271e-06    0.000000000e+00    0.000000000e+00    0.000000000e+00    0.000000000e+00
      649500000   -1.712111942e-02    5.966341123e-03    4.456083116e-05    1.823734056e-05    0.000000000e+00    0.000000000e+00    0.000000000e+00    0.000000000e+00
      656750000   -1.721923612e-02    6.220595911e-03    6.596139883e-06    2.820323061e-05    0.000000000e+00    0.000000000e+00    0.000000000e+00    0.000000000e+00
      664000000   -1.646780595e-02    5.770356394e-03    2.140993274e-05    6.721310001e-06    0.000000000e+00    0.000000000e+00    0.000000000e+00    0.000000000e+00
      671250000   -1.594009437e-02    6.564335898e-03    1.034839806e-05    8.663892913e-06    0.000000000e+00    0.000000000e+00    0.000000000e+00    0.000000000e+00
      678500000   -1.700435206e-02    6.633006036e-03    1.072065061e-05   -1.398247150e-05    0.000000000e+00    0.000000000e+00    0.000000000e+00    0.000000000e+00
      685750000   -1.653883792e-02    6.292944774e-03    2.515305459e-05    3.071891479e-05    0.000000000e+00    0.000000000e+00    0.000000000e+00    0.000000000e+00
      693000000   -1.666949317e-02    6.212739740e-03   -1.055558187e-05   -1.230515863e-05    0.000000000e+00    0.000000000e+00    0.000000000e+00    0.000000000e+00
      700250000   -1.664520614e-02    6.880967412e-03    3.320850510e-06    4.357573289e-06    0.000000000e+00    0.000000000e+00    0.000000000e+00    0.000000000e+00
      707500000   -1.573719271e-02    6.823311560e-03    2.446967301e-05   -2.236584078e-05    0.000000000e+00    0.000000000e+00    0.000000000e+00    0.000000000e+00
      714750000   -1.607996784e-02    6.507464219e-03    1.709502430e-05   -4.191327207e-06    0.000000000e+00    0.000000000e+00    0.000000000e+00    0.000000000e+00
      722000000   -1.653829403e-02    6.477889605e-03    2.582234811e-05    1.924107892e-05    0.000000000e+00    0.000000000e+00    0.000000000e+00    0.000000000e+00
      729250000   -1.592147537e-02    6.897700485e-03    4.158761658e-05   -9.382873031e-06    0.000000000e+00    0.000000000e+00    0.000000000e+00    0.000000000e+00
      736500000   -1.585813053e-02    6.515964400e-03   -2.036845399e-05    1.343517397e-05    0.000000000e+00    0.000000000e+00    0.000000000e+00    0.000000000e+00
      743750000   -1.631476171e-02    6.782568991e-03    4.045453170e-05   -1.659204281e-05    0.000000000e+00    0.000000000e+00    0.000000000e+00    0.000000000e+00
      751000000   -1.627450250e-02    6.845299620e-03   -1.348817841e-05   -3.076745634e-05    0.000000000e+00    0.000000000e+00    0.000000000e+00    0.000000000e+00
      758250000   -1.645648107e-02    6.680387072e-03    1.847778003e-05   -2.387420682e-05    0.000000000e+00    0.000000000e+00    0.000000000e+00    0.000000000e+00
      765500000   -1.503333077e-02    6.976998877e-03    4.439148142e-06    4.116093260e-05    0.000000000e+00    0.000000000e+00    0.000000000e+00    0.000000000e+00
      772750000   -1.646807604e-02    7.080751471e-03    1.313579742e-05   -8.751967471e-06    0.000000000e+00    0.000000000e+00    0.000000000e+00    0.000000000e+00
      780000000   -1.579941809e-02    7.469328120e-03   -1.169553889e-05   -2.601710730e-05    0.000000000e+00    0.000000000e+00    0.000000000e+00    0.000000000e+00
      787250000   -1.569304243e-02    6.991224829e-03   -3.128379467e-05    9.154500731e-06    0.000000000e+00    0.000000000e+00    0.000000000e+00    0.000000000e+00
      794500000   -1.573869959e-02    7.113129832e-03    1.821028673e-05    5.606148989e-05    0.000000000e+00    0.000000000e+00    0.000000000e+00    0.000000000e+00
      801750000   -1.634099148e-02    6.970838178e-03   -1.928967504e-05    1.270136181e-05    0.000000000e+00    0.000000000e+00    0.000000000e+00    0.000000000e+00
      809000000   -1.476318389e-02    7.042418700e-03    3.027813182e-05    3.179966370e-05    0.000000000e+00    0.000000000e+00    0.000000000e+00    0.000000000e+00
      816250000   -1.568389311e-02    6.798855960e-03   -9.371960914e-06   -1.987969335e-05    0.000000000e+00    0.000000000e+00    0.000000000e+00    0.000000000e+00
      823500000   -1.528134663e-02    7.157413289e-03   -1.463193985e-05    7.098917081e-07    0.000000000e+00    0.000000000e+00    0.000000000e+00    0.000000000e+00
      830750000   -1.579407230e-02    7.932973094e-03   -3.979004759e-05    2.753204171e-05    0.000000000e+00    0.000000000e+00    0.000000000e+00    0.000000000e+00
      838000000   -1.538532227e-02    7.378045935e-03    1.167339087e-05   -1.177987269e-05    0.000000000e+00    0.000000000e+00    0.000000000e+00    0.000000000e+00
      845250000   -1.518053841e-02    7.226939313e-03   -2.241180118e-05    2.634079829e-05    0.000000000e+00    0.000000000e+00    0.000000000e+00    0.000000000e+00
      852500000   -1.531825215e-02    7.340852637e-03   -5.723319646e-06    8.201063793e-06    0.000000000e+00    0.000000000e+00    0.000000000e+00    0.000000000e+00
      859750000   -1.524081826e-02    7.645097561e-03    3.955522698e-05    6.021088848e-05    0.000000000e+00    0.000000000e+00    0.000000000e+00    0.000000000e+00
      867000000   -1.491914224e-02    7.498422638e-03    3.003967140e-05   -1.089310990e-05    0.000000000e+00    0.000000000e+00    0.000000000e+00    0.000000000e+00
      874250000   -1.493773423e-02    7.510322612e-03    3.736195140e-05   -1.948792124e-05    0.000000000e+00    0.000000000e+00    0.000000000e+00    0.000000000e+00
      881500000   -1.556184515e-02    7.503810339e-03   -8.700099897e-06    5.014570343e-05    0.000000000e+00    0.000000000e+00    0.000000000e+00    0.000000000e+00
      888750000   -1.535167173e-02    7.752236910e-03   -3.768786337e-05   -2.555850733e-05    0.000000000e+00    0.000000000e+00    0.000000000e+00    0.000000000e+00
      896000000   -1.554768439e-02    7.816377096e-03    1.536836135e-05    2.102060080e-06    0.000000000e+00    0.000000000e+00    0.000000000e+00    0.000000000e+00
      903250000   -1.492662914e-02    7.838472724e-03   -2.273777227e-06    1.369484562e-05    0.000000000e+00    0.000000000e+00    0.000000000e+00    0.000000000e+00
      910500000   -1.514295861e-02    7.590833120e-03   -4.686132343e-06   -2.249759564e-05    0.000000000e+00    0.000000000e+00    0.000000000e+00    0.000000000e+00
      917750000   -1.458995882e-02    7.712676656e-03   -9.985399629e-06    1.354852611e-05    0.000000000e+00    0.000000000e+00    0.000000000e+00    0.000000000e+00
      925000000   -1.592831127e-02    7.789442781e-03    4.054175952e-05    8.204462574e-06    0.000000000e+00    0.000000000e+00    0.000000000e+00    0.000000000e+00
      932250000   -1.438491978e-02    7.839853875e-03   -3.310339889e-05   -4.376584855e-07    0.000000000e+00    0.000000000e+00    0.000000000e+00    0.000000000e+00
      939500000   -1.472344249e-02    8.243764751e-03   -1.367762979e-05   -2.385482185e-05    0.000000000e+00    0.000000000e+00    0.000000000e+00    0.000000000e+00
      946750000   -1.484994404e-02    8.469380438e-03   -3.419740824e-05    2.356081723e-06    0.000000000e+00    0.000000000e+00    0.000000000e+00    0.000000000e+00
      954000000   -1.531065255e-02    7.799870335e-03   -3.049451698e-05   -2.053604294e-05    0.000000000e+00    0.000000000e+00    0.000000000e+00    0.000000000e+00
      961250000   -1.480045356e-02    8.214791305e-03    2.978423709e-06   -6.508271326e-05    0.000000000e+00    0.000000000e+00    0.000000000e+00    0.000000000e+00
      968500000   -1.484228950e-02    8.342064917e-03    4.754285328e-05   -2.792222631e-06    0.000000000e+00    0.000000000e+00    0.000000000e+00    0.000000000e+00
      975750000   -1.561195124e-02    8.204037324e-03    2.026771290e-05    1.349939430e-05    0.000000000e+00    0.000000000e+00    0.000000000e+00    0.000000000e+00
      983000000   -1.431197952e-02    8.865271695e-03   -1.320356478e-05   -1.830298788e-05    0.000000000e+00    0.000000000e+00    0.000000000e+00    0.000000000e+00
      990250000   -1.478845999e-02    8.325123228e-03    7.696358807e-06    3.348324356e-07    0.000000000e+00    0.000000000e+00    0.000000000e+00    0.000000000e+00
      997500000   -1.439293008e-02    8.341143839e-03    5.678300568e-06   -2.025766662e-06    0.000000000e+00    0.000000000e+00    0.000000000e+00    0.000000000e+00
     1004750000   -1.477374323e-02    8.468793705e-03   -3.665271288e-05    6.814519111e-06    0.000000000e+00    0.000000000e+00    0.000000000e+00    0.000000000e+00
     1012000000   -1.472420711e-02    8.433587849e-03   -1.192363561e-05   -2.702626261e-05    0.000000000e+00    0.000000000e+00    0.000000000e+00    0.000000000e+00
     1019250000   -1.501552016e-02    8.203331381e-03   -1.231790884e-05    8.662716027e-06    0.000000000e+00    0.000000000e+00    0.000000000e+00    0.000000000e+00
     1026500000   -1.413025055e-02    8.666274138e-03    3.564686995e-05    5.386416160e-05    0.000000000e+00    0.000000000e+00    0.000000000e+00    0.000000000e+00
     1033750000   -1.490889397e-02    8.326634765e-03    1.708243144e-05   -1.520548722e-05    0.000000000e+00    0.000000000e+00    0.000000000e+00    0.000000000e+00
     1041000000   -1.486920193e-02    8.598256856e-03    3.444992035e-05    1.823952334e-05    0.000000000e+00    0.000000000e+00    0.000000000e+00    0.000000000e+00
