! NanoVNA-App by OneOfEleven et al v1.1.209 (+OD15) 
! Date: 2024-07-30 15:22:50
! Start: 200MHz Stop: 6GHz Points: 801
! S-Parameter data: F S11 S21 S12 S22
# Hz S RI R 50
!     Frequency           S11_Real           S11_Imag           S21_Real           S21_Imag           S12_Real           S12_Imag           S22_Real           S22_Imag
      200000000   -1.966125704e-02    3.102513961e-03   -2.767075057e-05   -2.798959031e-05    0.000000000e+00    0.000000000e+00    0.000000000e+00    0.000000000e+00
      207250000   -2.055031806e-02    2.323520370e-03    5.417190096e-06    1.248941953e-05    0.000000000e+00    0.000000000e+00    0.000000000e+00    0.000000000e+00
      214500000   -2.089285851e-02    1.803364139e-03   -6.426396794e-06    2.928818503e-05    0.000000000e+00    0.000000000e+00    0.000000000e+00    0.000000000e+00
      221750000   -1.927525364e-02    1.684368937e-03   -2.704468716e-05    3.365449084e-05    0.000000000e+00    0.000000000e+00    0.000000000e+00    0.000000000e+00
      229000000   -1.928979717e-02    3.104918636e-03   -2.422412399e-05   -1.724441972e-05    0.000000000e+00    0.000000000e+00    0.000000000e+00    0.000000000e+00
      236250000   -1.975560933e-02    2.371533541e-03    7.182402442e-06   -3.839140845e-05    0.000000000e+00    0.000000000e+00    0.000000000e+00    0.000000000e+00
      243500000   -1.991012692e-02    3.210483352e-03    1.082584004e-05   -3.874837785e-05    0.000000000e+00    0.000000000e+00    0.000000000e+00    0.000000000e+00
      250750000   -2.016105689e-02    3.396913642e-03   -2.421387217e-05   -1.084892665e-05    0.000000000e+00    0.000000000e+00    0.000000000e+00    0.000000000e+00
      258000000   -1.959309727e-02    3.789943876e-03    1.154469373e-05    7.008212378e-06    0.000000000e+00    0.000000000e+00    0.000000000e+00    0.000000000e+00
      265250000   -2.029135264e-02    2.867317526e-03   -2.719929762e-05    1.550060369e-05    0.000000000e+00    0.000000000e+00    0.000000000e+00    0.000000000e+00
      272500000   -1.886633039e-02    3.574085189e-03    2.239040441e-05    8.095092198e-06    0.000000000e+00    0.000000000e+00    0.000000000e+00    0.000000000e+00
      279750000   -1.968951523e-02    4.266400822e-03   -1.313591110e-05   -4.395887663e-05    0.000000000e+00    0.000000000e+00    0.000000000e+00    0.000000000e+00
      287000000   -2.017834783e-02    3.085883567e-03   -2.111918911e-05   -4.017427273e-06    0.000000000e+00    0.000000000e+00    0.000000000e+00    0.000000000e+00
      294250000   -1.911118999e-02    2.857705578e-03   -3.457314961e-05    9.138158021e-06    0.000000000e+00    0.000000000e+00    0.000000000e+00    0.000000000e+00
      301500000   -1.921429671e-02    2.610317664e-03    4.899510259e-06   -4.076763071e-05    0.000000000e+00    0.000000000e+00    0.000000000e+00    0.000000000e+00
      308750000   -2.079127915e-02    4.242009483e-03   -3.267937427e-05    2.750297244e-05    0.000000000e+00    0.000000000e+00    0.000000000e+00    0.000000000e+00
      316000000   -1.983421668e-02    4.708705936e-03    3.498105798e-06    1.368761059e-05    0.000000000e+00    0.000000000e+00    0.000000000e+00    0.000000000e+00
      323250000   -1.924613304e-02    3.889111569e-03   -1.632713793e-05   -1.044758756e-05    0.000000000e+00    0.000000000e+00    0.000000000e+00    0.000000000e+00
      330500000   -1.851692423e-02    3.025622573e-03   -2.390222789e-06   -1.026245991e-05    0.000000000e+00    0.000000000e+00    0.000000000e+00    0.000000000e+00
      337750000   -1.881498471e-02    4.122125916e-03   -1.231380520e-05   -4.796229405e-06    0.000000000e+00    0.000000000e+00    0.000000000e+00    0.000000000e+00
      345000000   -2.018125355e-02    4.014261998e-03    6.709635272e-06    4.326930593e-06    0.000000000e+00    0.000000000e+00    0.000000000e+00    0.000000000e+00
      352250000   -1.955122314e-02    4.247855395e-03   -6.148544344e-06   -4.513078238e-06    0.000000000e+00    0.000000000e+00    0.000000000e+00    0.000000000e+00
      359500000   -1.873409376e-02    3.954666201e-03    2.146047700e-05    9.089651485e-07    0.000000000e+00    0.000000000e+00    0.000000000e+00    0.000000000e+00
      366750000   -1.956745796e-02    3.823962761e-03   -5.146287094e-06   -4.328588693e-05    0.000000000e+00    0.000000000e+00    0.000000000e+00    0.000000000e+00
      374000000   -1.870171912e-02    4.001035355e-03    3.330232721e-05   -1.270187204e-05    0.000000000e+00    0.000000000e+00    0.000000000e+00    0.000000000e+00
      381250000   -1.923947223e-02    4.560302477e-03   -6.478565865e-06   -5.925396181e-06    0.000000000e+00    0.000000000e+00    0.000000000e+00    0.000000000e+00
      388500000   -1.912529953e-02    4.217396025e-03   -2.279047658e-05    7.923554222e-06    0.000000000e+00    0.000000000e+00    0.000000000e+00    0.000000000e+00
      395750000   -1.874949783e-02    4.329736345e-03    9.189741832e-06    3.159852713e-05    0.000000000e+00    0.000000000e+00    0.000000000e+00    0.000000000e+00
      403000000   -1.880495995e-02    4.107571673e-03    1.736463491e-05   -5.371176303e-05    0.000000000e+00    0.000000000e+00    0.000000000e+00    0.000000000e+00
      410250000   -1.934753917e-02    4.180961289e-03    4.820088634e-06    3.849666246e-05    0.000000000e+00    0.000000000e+00    0.000000000e+00    0.000000000e+00
      417500000   -1.886955835e-02    4.750037100e-03   -4.798102509e-06    1.882319884e-05    0.000000000e+00    0.000000000e+00    0.000000000e+00    0.000000000e+00
      424750000   -1.843842864e-02    4.631798249e-03    9.357353520e-06    8.323545444e-06    0.000000000e+00    0.000000000e+00    0.000000000e+00    0.000000000e+00
      432000000   -1.916289516e-02    5.227049347e-03   -5.861247246e-06    3.686859054e-05    0.000000000e+00    0.000000000e+00    0.000000000e+00    0.000000000e+00
      439250000   -1.881551184e-02    4.616539460e-03   -1.573174450e-05   -2.864421367e-05    0.000000000e+00    0.000000000e+00    0.000000000e+00    0.000000000e+00
      446500000   -1.988257654e-02    4.756645299e-03    5.263565981e-05   -1.443862129e-05    0.000000000e+00    0.000000000e+00    0.000000000e+00    0.000000000e+00
      453750000   -1.838670298e-02    5.073305685e-03   -4.379946404e-05    4.259034540e-06    0.000000000e+00    0.000000000e+00    0.000000000e+00    0.000000000e+00
      461000000   -1.936697960e-02    4.906341434e-03    2.292620047e-05   -1.112676273e-05    0.000000000e+00    0.000000000e+00    0.000000000e+00    0.000000000e+00
      468250000   -1.878172532e-02    4.982639570e-03    3.118758229e-07    1.350301886e-06    0.000000000e+00    0.000000000e+00    0.000000000e+00    0.000000000e+00
      475500000   -1.831049100e-02    5.320966709e-03   -4.666966197e-05    1.008825052e-06    0.000000000e+00    0.000000000e+00    0.000000000e+00    0.000000000e+00
      482750000   -1.831284165e-02    5.071045831e-03   -4.072265074e-05   -2.701864651e-05    0.000000000e+00    0.000000000e+00    0.000000000e+00    0.000000000e+00
      490000000   -1.838493161e-02    4.735882394e-03    3.783482498e-06    1.614417488e-05    0.000000000e+00    0.000000000e+00    0.000000000e+00    0.000000000e+00
      497250000   -1.846390404e-02    4.786656704e-03   -1.745457303e-05   -6.559645044e-06    0.000000000e+00    0.000000000e+00    0.000000000e+00    0.000000000e+00
      504500000   -1.879740879e-02    5.324294791e-03   -1.983920993e-05   -8.649521988e-06    0.000000000e+00    0.000000000e+00    0.000000000e+00    0.000000000e+00
      511750000   -1.898610778e-02    5.322264042e-03    5.235652134e-05    1.751902892e-05    0.000000000e+00    0.000000000e+00    0.000000000e+00    0.000000000e+00
      519000000   -1.795106754e-02    6.417825818e-03    4.546734544e-06   -8.636101484e-06    0.000000000e+00    0.000000000e+00    0.000000000e+00    0.000000000e+00
      526250000   -1.802600175e-02    5.925253965e-03    2.200442759e-05    2.127703283e-06    0.000000000e+00    0.000000000e+00    0.000000000e+00    0.000000000e+00
      533500000   -1.772143878e-02    5.526546855e-03   -2.226822289e-05    2.829152254e-05    0.000000000e+00    0.000000000e+00    0.000000000e+00    0.000000000e+00
      540750000   -1.925415359e-02    6.249918137e-03    4.592369442e-05   -2.380337719e-05    0.000000000e+00    0.000000000e+00    0.000000000e+00    0.000000000e+00
      548000000   -1.895557716e-02    6.205324084e-03    2.960258644e-05    1.530721966e-05    0.000000000e+00    0.000000000e+00    0.000000000e+00    0.000000000e+00
      555250000   -1.870040409e-02    5.694838241e-03   -2.168113133e-05   -1.667769175e-05    0.000000000e+00    0.000000000e+00    0.000000000e+00    0.000000000e+00
      562500000   -1.801772043e-02    5.415715743e-03   -2.066467641e-05    1.114133829e-05    0.000000000e+00    0.000000000e+00    0.000000000e+00    0.000000000e+00
      569750000   -1.930736192e-02    6.188027095e-03    1.663623334e-05    1.124747814e-05    0.000000000e+00    0.000000000e+00    0.000000000e+00    0.000000000e+00
      577000000   -1.901566796e-02    6.293031853e-03    1.759541919e-05    2.848200666e-06    0.000000000e+00    0.000000000e+00    0.000000000e+00    0.000000000e+00
      584250000   -1.882971637e-02    6.304359529e-03    6.649318038e-06   -5.168186021e-07    0.000000000e+00    0.000000000e+00    0.000000000e+00    0.000000000e+00
      591500000   -1.820714399e-02    6.136473734e-03    1.450619038e-06    2.263591887e-05    0.000000000e+00    0.000000000e+00    0.000000000e+00    0.000000000e+00
      598750000   -1.849093102e-02    5.935838912e-03   -3.187561015e-05   -8.240725947e-06    0.000000000e+00    0.000000000e+00    0.000000000e+00    0.000000000e+00
      606000000   -1.849165000e-02    6.066681352e-03   -1.282842368e-05    2.080273407e-05    0.000000000e+00    0.000000000e+00    0.000000000e+00    0.000000000e+00
      613250000   -1.950861886e-02    6.277090870e-03   -2.835261512e-05   -1.389330373e-05    0.000000000e+00    0.000000000e+00    0.000000000e+00    0.000000000e+00
      620500000   -1.721938327e-02    6.436259020e-03   -2.725892955e-05    2.404958195e-06    0.000000000e+00    0.000000000e+00    0.000000000e+00    0.000000000e+00
      627750000   -1.888936944e-02    6.984245963e-03    7.051537523e-06   -1.573747431e-05    0.000000000e+00    0.000000000e+00    0.000000000e+00    0.000000000e+00
      635000000   -1.805074140e-02    6.918458268e-03   -2.874563052e-06    1.735286219e-06    0.000000000e+00    0.000000000e+00    0.000000000e+00    0.000000000e+00
      642250000   -1.773175970e-02    6.808303762e-03    2.334151031e-05    3.880657096e-05    0.000000000e+00    0.000000000e+00    0.000000000e+00    0.000000000e+00
      649500000   -1.886690035e-02    6.868313998e-03    1.786692701e-05   -1.230019006e-05    0.000000000e+00    0.000000000e+00    0.000000000e+00    0.000000000e+00
      656750000   -1.866724342e-02    6.777842529e-03    2.688948734e-05    1.590027205e-05    0.000000000e+00    0.000000000e+00    0.000000000e+00    0.000000000e+00
      664000000   -1.792016625e-02    6.396507379e-03    2.352963384e-05    7.698264199e-06    0.000000000e+00    0.000000000e+00    0.000000000e+00    0.000000000e+00
      671250000   -1.894091070e-02    7.376092952e-03    2.472524648e-05    1.181551579e-05    0.000000000e+00    0.000000000e+00    0.000000000e+00    0.000000000e+00
      678500000   -1.790685952e-02    6.965208799e-03    2.472940105e-05    3.508600457e-06    0.000000000e+00    0.000000000e+00    0.000000000e+00    0.000000000e+00
      685750000   -1.753015816e-02    6.858220790e-03   -4.941202133e-05   -3.716144420e-05    0.000000000e+00    0.000000000e+00    0.000000000e+00    0.000000000e+00
      693000000   -1.727406494e-02    6.972842850e-03   -3.595864882e-06    6.062441116e-06    0.000000000e+00    0.000000000e+00    0.000000000e+00    0.000000000e+00
      700250000   -1.789627597e-02    7.125602569e-03    2.004997987e-05    5.889452041e-06    0.000000000e+00    0.000000000e+00    0.000000000e+00    0.000000000e+00
      707500000   -1.772231422e-02    7.115244865e-03   -1.827175993e-06    6.986253084e-06    0.000000000e+00    0.000000000e+00    0.000000000e+00    0.000000000e+00
      714750000   -1.841638610e-02    6.383327302e-03   -3.702393224e-05   -3.614340812e-06    0.000000000e+00    0.000000000e+00    0.000000000e+00    0.000000000e+00
      722000000   -1.647622697e-02    7.432561368e-03    9.392913853e-06   -4.857062777e-06    0.000000000e+00    0.000000000e+00    0.000000000e+00    0.000000000e+00
      729250000   -1.722121239e-02    7.148174569e-03    1.466570779e-06   -1.616775080e-05    0.000000000e+00    0.000000000e+00    0.000000000e+00    0.000000000e+00
      736500000   -1.739604771e-02    7.202959619e-03   -5.642032193e-06   -8.076340805e-07    0.000000000e+00    0.000000000e+00    0.000000000e+00    0.000000000e+00
      743750000   -1.683457941e-02    7.109885104e-03   -3.972957529e-06   -1.081849587e-05    0.000000000e+00    0.000000000e+00    0.000000000e+00    0.000000000e+00
      751000000   -1.738164388e-02    7.801746018e-03    1.128195345e-05   -1.241566861e-05    0.000000000e+00    0.000000000e+00    0.000000000e+00    0.000000000e+00
      758250000   -1.765121892e-02    7.595546078e-03    3.107314569e-06   -2.122019760e-05    0.000000000e+00    0.000000000e+00    0.000000000e+00    0.000000000e+00
      765500000   -1.777077839e-02    7.405219134e-03    2.581155786e-05    1.176586193e-05    0.000000000e+00    0.000000000e+00    0.000000000e+00    0.000000000e+00
      772750000   -1.700738817e-02    7.162957452e-03    1.869965490e-05   -7.741515583e-05    0.000000000e+00    0.000000000e+00    0.000000000e+00    0.000000000e+00
      780000000   -1.739792712e-02    7.310627028e-03    2.657508594e-05    1.424317088e-05    0.000000000e+00    0.000000000e+00    0.000000000e+00    0.000000000e+00
      787250000   -1.687598787e-02    7.712201681e-03    2.171050437e-05    6.713957555e-05    0.000000000e+00    0.000000000e+00    0.000000000e+00    0.000000000e+00
      794500000   -1.711740531e-02    7.566566579e-03   -7.666738384e-06    4.927431291e-05    0.000000000e+00    0.000000000e+00    0.000000000e+00    0.000000000e+00
      801750000   -1.764138974e-02    7.672378328e-03   -8.436056305e-06    5.987549798e-07    0.000000000e+00    0.000000000e+00    0.000000000e+00    0.000000000e+00
      809000000   -1.665767655e-02    8.022661321e-03   -1.558678036e-06   -9.528344890e-06    0.000000000e+00    0.000000000e+00    0.000000000e+00    0.000000000e+00
      816250000   -1.696307212e-02    7.670112420e-03    1.675345993e-05    1.374414660e-05    0.000000000e+00    0.000000000e+00    0.000000000e+00    0.000000000e+00
      823500000   -1.710526831e-02    8.192127571e-03   -6.551699244e-06    8.282443673e-07    0.000000000e+00    0.000000000e+00    0.000000000e+00    0.000000000e+00
      830750000   -1.645263284e-02    7.834193297e-03    4.757798888e-05    4.370971510e-05    0.000000000e+00    0.000000000e+00    0.000000000e+00    0.000000000e+00
      838000000   -1.723807305e-02    8.051215671e-03    1.695109495e-05   -8.297561180e-06    0.000000000e+00    0.000000000e+00    0.000000000e+00    0.000000000e+00
      845250000   -1.678768359e-02    8.271289989e-03   -1.379895912e-05    2.547313443e-06    0.000000000e+00    0.000000000e+00    0.000000000e+00    0.000000000e+00
      852500000   -1.627515629e-02    8.138668723e-03    4.598018961e-07   -3.828942135e-05    0.000000000e+00    0.000000000e+00    0.000000000e+00    0.000000000e+00
      859750000   -1.668059267e-02    8.021611720e-03    2.803814823e-05    3.879088763e-05    0.000000000e+00    0.000000000e+00    0.000000000e+00    0.000000000e+00
      867000000   -1.544887386e-02    8.166750893e-03   -1.016001079e-05    2.252765080e-05    0.000000000e+00    0.000000000e+00    0.000000000e+00    0.000000000e+00
      874250000   -1.556581631e-02    8.319762535e-03   -2.712214700e-05   -2.607347778e-05    0.000000000e+00    0.000000000e+00    0.000000000e+00    0.000000000e+00
      881500000   -1.661379263e-02    8.576077409e-03    3.951477629e-05    5.628701547e-05    0.000000000e+00    0.000000000e+00    0.000000000e+00    0.000000000e+00
      888750000   -1.645224355e-02    8.407781832e-03   -4.091514711e-06   -1.537891512e-05    0.000000000e+00    0.000000000e+00    0.000000000e+00    0.000000000e+00
      896000000   -1.680743881e-02    8.559904993e-03   -1.235643140e-05   -5.986733527e-07    0.000000000e+00    0.000000000e+00    0.000000000e+00    0.000000000e+00
      903250000   -1.635597646e-02    8.535391651e-03   -5.589465582e-05   -9.035031326e-06    0.000000000e+00    0.000000000e+00    0.000000000e+00    0.000000000e+00
      910500000   -1.654307544e-02    8.576061577e-03   -1.277567117e-05   -3.399838170e-05    0.000000000e+00    0.000000000e+00    0.000000000e+00    0.000000000e+00
      917750000   -1.544242259e-02    8.444410749e-03   -5.231464456e-05   -8.799846000e-06    0.000000000e+00    0.000000000e+00    0.000000000e+00    0.000000000e+00
      925000000   -1.657698490e-02    8.452477865e-03    1.353701555e-05   -1.772211726e-05    0.000000000e+00    0.000000000e+00    0.000000000e+00    0.000000000e+00
      932250000   -1.708443835e-02    8.500222117e-03    2.199875053e-05   -1.839093056e-05    0.000000000e+00    0.000000000e+00    0.000000000e+00    0.000000000e+00
      939500000   -1.660806499e-02    8.716039360e-03    2.146826091e-06    1.550489833e-05    0.000000000e+00    0.000000000e+00    0.000000000e+00    0.000000000e+00
      946750000   -1.698550209e-02    8.662953973e-03    1.624937340e-06    4.447646279e-05    0.000000000e+00    0.000000000e+00    0.000000000e+00    0.000000000e+00
      954000000   -1.554786041e-02    8.324383758e-03   -1.424506354e-05    1.956570304e-05    0.000000000e+00    0.000000000e+00    0.000000000e+00    0.000000000e+00
      961250000   -1.636618003e-02    9.087579325e-03   -1.801398139e-05    2.113332448e-05    0.000000000e+00    0.000000000e+00    0.000000000e+00    0.000000000e+00
      968500000   -1.611457579e-02    9.046510793e-03   -4.910052212e-06    4.614146383e-05    0.000000000e+00    0.000000000e+00    0.000000000e+00    0.000000000e+00
      975750000   -1.714245044e-02    9.061453864e-03    6.578187822e-06    1.338206403e-05    0.000000000e+00    0.000000000e+00    0.000000000e+00    0.000000000e+00
      983000000   -1.573249139e-02    8.825190365e-03   -4.302771970e-07   -7.532072686e-06    0.000000000e+00    0.000000000e+00    0.000000000e+00    0.000000000e+00
      990250000   -1.628285274e-02    9.116052650e-03   -2.906821919e-06    1.398152108e-05    0.000000000e+00    0.000000000e+00    0.000000000e+00    0.000000000e+00
      997500000   -1.588334702e-02    8.889127523e-03    1.989603879e-05    3.892375025e-05    0.000000000e+00    0.000000000e+00    0.000000000e+00    0.000000000e+00
     1004750000   -1.546929032e-02    8.879069239e-03    3.363573796e-06   -3.661392475e-05    0.000000000e+00    0.000000000e+00    0.000000000e+00    0.000000000e+00
     1012000000   -1.633692533e-02    8.994081989e-03   -1.147688272e-05   -5.886078611e-07    0.000000000e+00    0.000000000e+00    0.000000000e+00    0.000000000e+00
     1019250000   -1.640714891e-02    8.955635130e-03   -1.215205521e-05   -1.306985359e-05    0.000000000e+00    0.000000000e+00    0.000000000e+00    0.000000000e+00
     1026500000   -1.560148690e-02    9.052720852e-03    2.167903222e-05   -2.812089224e-05    0.000000000e+00    0.000000000e+00    0.000000000e+00    0.000000000e+00
     1033750000   -1.672290824e-02    9.220677428e-03    3.156169987e-05   -2.770198807e-05    0.000000000e+00    0.000000000e+00    0.000000000e+00    0.000000000e+00
     1041000000   -1.651129127e-02    8.935573511e-03    2.008436013e-06    4.218200411e-05    0.000000000e+00    0.000000000e+00    0.000000000e+00    0.000000000e+00
