! NanoVNA-App by OneOfEleven et al v1.1.209 (+OD15) 
! Date: 2024-07-30 15:18:32
! Start: 200MHz Stop: 6GHz Points: 801
! S-Parameter data: F S11 S21 S12 S22
# Hz S RI R 50
!     Frequency           S11_Real           S11_Imag           S21_Real           S21_Imag           S12_Real           S12_Imag           S22_Real           S22_Imag
      200000000   -1.867375523e-02    2.908816095e-03   -1.496892673e-05    1.127482847e-05    0.000000000e+00    0.000000000e+00    0.000000000e+00    0.000000000e+00
      207250000   -1.826350950e-02    2.754386514e-03    4.906048343e-05   -1.852462447e-05    0.000000000e+00    0.000000000e+00    0.000000000e+00    0.000000000e+00
      214500000   -1.807968691e-02    1.319805626e-03   -1.928873826e-05   -1.663316471e-05    0.000000000e+00    0.000000000e+00    0.000000000e+00    0.000000000e+00
      221750000   -1.835208572e-02    3.288816428e-03    8.403907486e-06    1.231568149e-05    0.000000000e+00    0.000000000e+00    0.000000000e+00    0.000000000e+00
      229000000   -1.699433103e-02    3.436212661e-03   -3.479860425e-06    1.823606908e-05    0.000000000e+00    0.000000000e+00    0.000000000e+00    0.000000000e+00
      236250000   -1.894487627e-02    4.094179720e-03    3.345723599e-05    1.960623877e-06    0.000000000e+00    0.000000000e+00    0.000000000e+00    0.000000000e+00
      243500000   -1.844033971e-02    4.055621568e-03    4.546637138e-05    1.460087242e-05    0.000000000e+00    0.000000000e+00    0.000000000e+00    0.000000000e+00
      250750000   -1.794933528e-02    3.537522396e-03    7.201228527e-06   -2.727485298e-05    0.000000000e+00    0.000000000e+00    0.000000000e+00    0.000000000e+00
      258000000   -1.828112826e-02    4.159396980e-03   -2.112544826e-05    1.033973240e-05    0.000000000e+00    0.000000000e+00    0.000000000e+00    0.000000000e+00
      265250000   -1.737617888e-02    2.587443916e-03    7.664812074e-06    1.144683665e-05    0.000000000e+00    0.000000000e+00    0.000000000e+00    0.000000000e+00
      272500000   -1.755148172e-02    3.387781791e-03   -5.704349633e-07   -7.531875212e-08    0.000000000e+00    0.000000000e+00    0.000000000e+00    0.000000000e+00
      279750000   -1.760529168e-02    3.865604522e-03    9.242853594e-06   -8.496704140e-06    0.000000000e+00    0.000000000e+00    0.000000000e+00    0.000000000e+00
      287000000   -1.771926880e-02    2.866308438e-03    3.746595394e-05   -4.950816219e-06    0.000000000e+00    0.000000000e+00    0.000000000e+00    0.000000000e+00
      294250000   -1.843689941e-02    3.636613721e-03   -1.534238800e-05   -9.476237210e-06    0.000000000e+00    0.000000000e+00    0.000000000e+00    0.000000000e+00
      301500000   -1.742765121e-02    2.693932969e-03   -8.075117876e-06   -3.277760015e-06    0.000000000e+00    0.000000000e+00    0.000000000e+00    0.000000000e+00
      308750000   -1.766555943e-02    3.186352085e-03    2.614944060e-05   -8.404314940e-06    0.000000000e+00    0.000000000e+00    0.000000000e+00    0.000000000e+00
      316000000   -1.722913049e-02    3.107139841e-03   -1.206074376e-05    9.633693480e-06    0.000000000e+00    0.000000000e+00    0.000000000e+00    0.000000000e+00
      323250000   -1.737512462e-02    2.884103917e-03    9.984681128e-06   -9.294464689e-06    0.000000000e+00    0.000000000e+00    0.000000000e+00    0.000000000e+00
      330500000   -1.780324243e-02    3.206015565e-03   -4.293872280e-06    1.508715923e-05    0.000000000e+00    0.000000000e+00    0.000000000e+00    0.000000000e+00
      337750000   -1.709888689e-02    3.500906285e-03    2.455691174e-05   -3.335694828e-06    0.000000000e+00    0.000000000e+00    0.000000000e+00    0.000000000e+00
      345000000   -1.728436165e-02    3.051619045e-03   -2.574706195e-05    2.314351877e-05    0.000000000e+00    0.000000000e+00    0.000000000e+00    0.000000000e+00
      352250000   -1.723977365e-02    2.725309227e-03   -2.963098086e-05    1.889600935e-05    0.000000000e+00    0.000000000e+00    0.000000000e+00    0.000000000e+00
      359500000   -1.733679697e-02    2.786285710e-03    1.489189071e-05   -8.540187082e-06    0.000000000e+00    0.000000000e+00    0.000000000e+00    0.000000000e+00
      366750000   -1.786027849e-02    3.886467777e-03    1.959142173e-05   -5.279511697e-06    0.000000000e+00    0.000000000e+00    0.000000000e+00    0.000000000e+00
      374000000   -1.754497178e-02    4.083518405e-03   -5.667982623e-05    1.360802344e-05    0.000000000e+00    0.000000000e+00    0.000000000e+00    0.000000000e+00
      381250000   -1.696505770e-02    3.873009235e-03   -3.772522541e-05   -2.165770820e-05    0.000000000e+00    0.000000000e+00    0.000000000e+00    0.000000000e+00
      388500000   -1.756852679e-02    4.164842423e-03   -2.056750600e-05   -1.522075127e-05    0.000000000e+00    0.000000000e+00    0.000000000e+00    0.000000000e+00
      395750000   -1.776965708e-02    3.937211819e-03   -1.482201242e-05    1.389727731e-05    0.000000000e+00    0.000000000e+00    0.000000000e+00    0.000000000e+00
      403000000   -1.683542877e-02    3.621902317e-03    3.513183401e-05    1.893827744e-06    0.000000000e+00    0.000000000e+00    0.000000000e+00    0.000000000e+00
      410250000   -1.708691195e-02    4.353614524e-03   -2.028865111e-07    1.081415030e-05    0.000000000e+00    0.000000000e+00    0.000000000e+00    0.000000000e+00
      417500000   -1.693483628e-02    4.212330095e-03   -3.125508010e-05   -6.945644600e-06    0.000000000e+00    0.000000000e+00    0.000000000e+00    0.000000000e+00
      424750000   -1.693786122e-02    4.154970869e-03    1.389105273e-05   -7.072002518e-06    0.000000000e+00    0.000000000e+00    0.000000000e+00    0.000000000e+00
      432000000   -1.749810949e-02    4.651474301e-03    2.526735443e-06   -7.423002444e-06    0.000000000e+00    0.000000000e+00    0.000000000e+00    0.000000000e+00
      439250000   -1.716845296e-02    4.449345171e-03   -1.293699916e-05    7.413721960e-06    0.000000000e+00    0.000000000e+00    0.000000000e+00    0.000000000e+00
      446500000   -1.627104357e-02    4.618089180e-03    9.508342373e-06   -8.983460248e-06    0.000000000e+00    0.000000000e+00    0.000000000e+00    0.000000000e+00
      453750000   -1.693733037e-02    4.695659503e-03    3.220950748e-05    2.252427839e-05    0.000000000e+00    0.000000000e+00    0.000000000e+00    0.000000000e+00
      461000000   -1.783789508e-02    4.500587471e-03    3.632298831e-05   -6.277397461e-06    0.000000000e+00    0.000000000e+00    0.000000000e+00    0.000000000e+00
      468250000   -1.755578071e-02    4.454074427e-03    1.376948694e-05    6.745463907e-06    0.000000000e+00    0.000000000e+00    0.000000000e+00    0.000000000e+00
      475500000   -1.652207598e-02    4.614977166e-03    2.374332325e-05   -1.926666300e-05    0.000000000e+00    0.000000000e+00    0.000000000e+00    0.000000000e+00
      482750000   -1.668282226e-02    4.538575653e-03    6.831882729e-06    1.207743117e-05    0.000000000e+00    0.000000000e+00    0.000000000e+00    0.000000000e+00
      490000000   -1.767842285e-02    5.172977224e-03   -3.103509243e-06    1.699399718e-06    0.000000000e+00    0.000000000e+00    0.000000000e+00    0.000000000e+00
      497250000   -1.663981751e-02    4.534061067e-03    2.282501919e-05    4.593331323e-05    0.000000000e+00    0.000000000e+00    0.000000000e+00    0.000000000e+00
      504500000   -1.678369381e-02    5.182600580e-03    3.771001502e-05    2.244511234e-05    0.000000000e+00    0.000000000e+00    0.000000000e+00    0.000000000e+00
      511750000   -1.736110076e-02    5.286881234e-03   -2.443810081e-05    1.501115094e-05    0.000000000e+00    0.000000000e+00    0.000000000e+00    0.000000000e+00
      519000000   -1.685325056e-02    5.405383650e-03    1.934714419e-05    1.803879604e-05    0.000000000e+00    0.000000000e+00    0.000000000e+00    0.000000000e+00
      526250000   -1.649556123e-02    5.873479880e-03   -1.618618444e-05    2.935583552e-06    0.000000000e+00    0.000000000e+00    0.000000000e+00    0.000000000e+00
      533500000   -1.702236757e-02    5.629747640e-03    4.793716926e-06   -2.320685417e-05    0.000000000e+00    0.000000000e+00    0.000000000e+00    0.000000000e+00
      540750000   -1.672224514e-02    5.515933968e-03    2.516477434e-05   -2.690103429e-05    0.000000000e+00    0.000000000e+00    0.000000000e+00    0.000000000e+00
      548000000   -1.677511819e-02    4.757432267e-03    3.827336968e-06    4.144603372e-05    0.000000000e+00    0.000000000e+00    0.000000000e+00    0.000000000e+00
      555250000   -1.716610044e-02    5.974088330e-03    4.888219337e-06    3.391704695e-06    0.000000000e+00    0.000000000e+00    0.000000000e+00    0.000000000e+00
      562500000   -1.697453298e-02    5.286139902e-03   -1.666838216e-05   -3.028040055e-06    0.000000000e+00    0.000000000e+00    0.000000000e+00    0.000000000e+00
      569750000   -1.675461046e-02    5.645767786e-03    3.793482165e-06   -7.460748179e-07    0.000000000e+00    0.000000000e+00    0.000000000e+00    0.000000000e+00
      577000000   -1.668153331e-02    5.759757943e-03   -9.503281035e-06    5.535823220e-05    0.000000000e+00    0.000000000e+00    0.000000000e+00    0.000000000e+00
      584250000   -1.701168902e-02    6.450821180e-03    2.577676241e-05   -2.577654595e-05    0.000000000e+00    0.000000000e+00    0.000000000e+00    0.000000000e+00
      591500000   -1.660617068e-02    5.558012519e-03    3.256571654e-05    1.226078803e-05    0.000000000e+00    0.000000000e+00    0.000000000e+00    0.000000000e+00
      598750000   -1.647432335e-02    5.245523062e-03   -2.035088983e-06    2.038666025e-05    0.000000000e+00    0.000000000e+00    0.000000000e+00    0.000000000e+00
      606000000   -1.639377698e-02    5.804100540e-03   -2.257669803e-05   -2.246363692e-05    0.000000000e+00    0.000000000e+00    0.000000000e+00    0.000000000e+00
      613250000   -1.658170298e-02    5.794451106e-03   -2.244044481e-05    1.563698606e-05    0.000000000e+00    0.000000000e+00    0.000000000e+00    0.000000000e+00
      620500000   -1.694996841e-02    5.736114457e-03   -3.861264850e-05   -2.187411883e-05    0.000000000e+00    0.000000000e+00    0.000000000e+00    0.000000000e+00
      627750000   -1.700949669e-02    5.482675042e-03   -8.531154890e-06    2.103362749e-05    0.000000000e+00    0.000000000e+00    0.000000000e+00    0.000000000e+00
      635000000   -1.626563631e-02    6.015877239e-03   -2.517886060e-05   -2.447249608e-05    0.000000000e+00    0.000000000e+00    0.000000000e+00    0.000000000e+00
      642250000   -1.602470130e-02    6.192425266e-03   -4.810825703e-05    3.985251624e-06    0.000000000e+00    0.000000000e+00    0.000000000e+00    0.000000000e+00
      649500000   -1.710562594e-02    5.995059852e-03   -5.202183729e-06    2.627908907e-05    0.000000000e+00    0.000000000e+00    0.000000000e+00    0.000000000e+00
      656750000   -1.674901880e-02    5.900280550e-03   -1.730650001e-05   -1.654779993e-07    0.000000000e+00    0.000000000e+00    0.000000000e+00    0.000000000e+00
      664000000   -1.649269834e-02    6.509558298e-03    5.144207535e-06   -2.673932431e-05    0.000000000e+00    0.000000000e+00    0.000000000e+00    0.000000000e+00
      671250000   -1.653407887e-02    6.608601194e-03   -1.655198139e-05    1.338753009e-05    0.000000000e+00    0.000000000e+00    0.000000000e+00    0.000000000e+00
      678500000   -1.644643955e-02    6.528671831e-03    1.102330043e-05   -7.709138117e-06    0.000000000e+00    0.000000000e+00    0.000000000e+00    0.000000000e+00
      685750000   -1.605211943e-02    6.146226078e-03   -3.735690188e-05   -2.469257379e-05    0.000000000e+00    0.000000000e+00    0.000000000e+00    0.000000000e+00
      693000000   -1.633910649e-02    6.282581948e-03   -5.492110358e-05   -3.104771622e-06    0.000000000e+00    0.000000000e+00    0.000000000e+00    0.000000000e+00
      700250000   -1.595051959e-02    6.236843299e-03    2.133722774e-05    2.956613025e-05    0.000000000e+00    0.000000000e+00    0.000000000e+00    0.000000000e+00
      707500000   -1.565808617e-02    6.335824262e-03   -2.290548036e-05   -1.642438656e-05    0.000000000e+00    0.000000000e+00    0.000000000e+00    0.000000000e+00
      714750000   -1.604242064e-02    6.434687413e-03    1.271593101e-05   -7.525409728e-06    0.000000000e+00    0.000000000e+00    0.000000000e+00    0.000000000e+00
      722000000   -1.641133800e-02    6.321660243e-03    9.132988339e-07   -3.281272802e-05    0.000000000e+00    0.000000000e+00    0.000000000e+00    0.000000000e+00
      729250000   -1.530105714e-02    6.616844330e-03    8.160075231e-05   -2.291464989e-05    0.000000000e+00    0.000000000e+00    0.000000000e+00    0.000000000e+00
      736500000   -1.543094963e-02    6.722920109e-03   -6.105520151e-05   -5.260813850e-05    0.000000000e+00    0.000000000e+00    0.000000000e+00    0.000000000e+00
      743750000   -1.606415771e-02    6.482275203e-03    3.284019476e-05   -1.761702151e-06    0.000000000e+00    0.000000000e+00    0.000000000e+00    0.000000000e+00
      751000000   -1.575517654e-02    7.095498033e-03    3.110212856e-05    6.477181614e-06    0.000000000e+00    0.000000000e+00    0.000000000e+00    0.000000000e+00
      758250000   -1.557957847e-02    6.756932475e-03   -7.591414942e-06   -3.520778773e-05    0.000000000e+00    0.000000000e+00    0.000000000e+00    0.000000000e+00
      765500000   -1.562874764e-02    6.733440328e-03    2.360721192e-05    2.075767043e-05    0.000000000e+00    0.000000000e+00    0.000000000e+00    0.000000000e+00
      772750000   -1.609717123e-02    6.837496534e-03   -1.245206204e-05   -1.512445306e-05    0.000000000e+00    0.000000000e+00    0.000000000e+00    0.000000000e+00
      780000000   -1.525188610e-02    6.595871877e-03    3.162038774e-05   -6.017313717e-05    0.000000000e+00    0.000000000e+00    0.000000000e+00    0.000000000e+00
      787250000   -1.559698675e-02    7.205390371e-03   -3.958547313e-05    2.897611557e-05    0.000000000e+00    0.000000000e+00    0.000000000e+00    0.000000000e+00
      794500000   -1.541815978e-02    6.416245364e-03    2.804173346e-05    1.212970710e-05    0.000000000e+00    0.000000000e+00    0.000000000e+00    0.000000000e+00
      801750000   -1.593156904e-02    7.193260361e-03   -1.159803742e-05   -3.749801544e-05    0.000000000e+00    0.000000000e+00    0.000000000e+00    0.000000000e+00
      809000000   -1.446398348e-02    7.047871128e-03    9.277086832e-08    9.066425264e-06    0.000000000e+00    0.000000000e+00    0.000000000e+00    0.000000000e+00
      816250000   -1.556560770e-02    7.111233193e-03   -3.870607543e-06   -2.065825538e-05    0.000000000e+00    0.000000000e+00    0.000000000e+00    0.000000000e+00
      823500000   -1.563445851e-02    7.420390379e-03   -1.394254014e-05   -2.278762258e-05    0.000000000e+00    0.000000000e+00    0.000000000e+00    0.000000000e+00
      830750000   -1.554034930e-02    7.703756914e-03   -1.338460333e-05    4.747942148e-05    0.000000000e+00    0.000000000e+00    0.000000000e+00    0.000000000e+00
      838000000   -1.514494326e-02    7.391739637e-03    1.058152247e-05    5.152393896e-06    0.000000000e+00    0.000000000e+00    0.000000000e+00    0.000000000e+00
      845250000   -1.563396305e-02    7.156157400e-03   -2.899667152e-06    5.677473837e-06    0.000000000e+00    0.000000000e+00    0.000000000e+00    0.000000000e+00
      852500000   -1.509370841e-02    7.327363826e-03    8.212872672e-06    3.728524462e-05    0.000000000e+00    0.000000000e+00    0.000000000e+00    0.000000000e+00
      859750000   -1.523061097e-02    7.665304933e-03    1.399740722e-05   -1.784951746e-05    0.000000000e+00    0.000000000e+00    0.000000000e+00    0.000000000e+00
      867000000   -1.436353568e-02    7.590764668e-03    1.607821650e-05    1.057959162e-05    0.000000000e+00    0.000000000e+00    0.000000000e+00    0.000000000e+00
      874250000   -1.474236138e-02    7.232354954e-03    2.160661097e-05    2.069784750e-05    0.000000000e+00    0.000000000e+00    0.000000000e+00    0.000000000e+00
      881500000   -1.551934425e-02    7.563517895e-03    4.805128265e-05    3.443570677e-05    0.000000000e+00    0.000000000e+00    0.000000000e+00    0.000000000e+00
      888750000   -1.477009151e-02    7.644639350e-03   -7.223631656e-06   -4.244081538e-06    0.000000000e+00    0.000000000e+00    0.000000000e+00    0.000000000e+00
      896000000   -1.475796010e-02    7.727262098e-03    1.958815665e-05   -1.169282768e-05    0.000000000e+00    0.000000000e+00    0.000000000e+00    0.000000000e+00
      903250000   -1.538533997e-02    7.463187445e-03   -1.609004903e-05    3.079798262e-05    0.000000000e+00    0.000000000e+00    0.000000000e+00    0.000000000e+00
      910500000   -1.437855978e-02    7.702693343e-03   -3.917934464e-06   -3.823689258e-05    0.000000000e+00    0.000000000e+00    0.000000000e+00    0.000000000e+00
      917750000   -1.422327105e-02    8.009565063e-03   -1.690659519e-05   -2.654396485e-05    0.000000000e+00    0.000000000e+00    0.000000000e+00    0.000000000e+00
      925000000   -1.529661193e-02    7.735819090e-03   -1.147113198e-05   -1.391032583e-05    0.000000000e+00    0.000000000e+00    0.000000000e+00    0.000000000e+00
      932250000   -1.429089904e-02    7.983232848e-03   -4.743928002e-05   -2.592211422e-05    0.000000000e+00    0.000000000e+00    0.000000000e+00    0.000000000e+00
      939500000   -1.435788628e-02    7.747002412e-03    1.550674278e-05    7.446364634e-06    0.000000000e+00    0.000000000e+00    0.000000000e+00    0.000000000e+00
      946750000   -1.452181861e-02    7.945148274e-03   -3.595479939e-05   -2.315463462e-06    0.000000000e+00    0.000000000e+00    0.000000000e+00    0.000000000e+00
      954000000   -1.365112793e-02    7.867055945e-03   -8.955003977e-06    1.481967593e-05    0.000000000e+00    0.000000000e+00    0.000000000e+00    0.000000000e+00
      961250000   -1.413433533e-02    8.163559251e-03   -2.495149238e-05    2.647901783e-05    0.000000000e+00    0.000000000e+00    0.000000000e+00    0.000000000e+00
      968500000   -1.566065475e-02    8.158906363e-03    1.328132748e-05   -1.300874828e-05    0.000000000e+00    0.000000000e+00    0.000000000e+00    0.000000000e+00
      975750000   -1.529509947e-02    8.217458613e-03   -1.368181893e-05    1.839726610e-05    0.000000000e+00    0.000000000e+00    0.000000000e+00    0.000000000e+00
      983000000   -1.478028391e-02    8.438284509e-03   -1.307224466e-05   -3.661959272e-05    0.000000000e+00    0.000000000e+00    0.000000000e+00    0.000000000e+00
      990250000   -1.407583896e-02    8.729341440e-03    8.791584150e-06    5.667606729e-06    0.000000000e+00    0.000000000e+00    0.000000000e+00    0.000000000e+00
      997500000   -1.526286732e-02    8.474946953e-03    2.073691030e-05   -1.484738823e-05    0.000000000e+00    0.000000000e+00    0.000000000e+00    0.000000000e+00
     1004750000   -1.493921038e-02    8.110329509e-03    4.138962686e-05    2.110668356e-05    0.000000000e+00    0.000000000e+00    0.000000000e+00    0.000000000e+00
     1012000000   -1.482638065e-02    8.502895944e-03   -2.905743168e-05   -1.518086810e-05    0.000000000e+00    0.000000000e+00    0.000000000e+00    0.000000000e+00
     1019250000   -1.421746425e-02    8.338219486e-03   -2.419141128e-05    4.338511644e-06    0.000000000e+00    0.000000000e+00    0.000000000e+00    0.000000000e+00
     1026500000   -1.402549352e-02    8.399099112e-03   -1.477118303e-06   -4.271376383e-06    0.000000000e+00    0.000000000e+00    0.000000000e+00    0.000000000e+00
     1033750000   -1.449791528e-02    8.122928441e-03   -2.696260526e-05    1.248649642e-05    0.000000000e+00    0.000000000e+00    0.000000000e+00    0.000000000e+00
     1041000000   -1.450646296e-02    7.932529785e-03    4.218321465e-06    7.059151358e-06    0.000000000e+00    0.000000000e+00    0.000000000e+00    0.000000000e+00
