! NanoVNA-App by OneOfEleven et al v1.1.209 (+OD15) 
! Date: 2024-07-30 15:18:27
! Start: 200MHz Stop: 6GHz Points: 801
! S-Parameter data: F S11 S21 S12 S22
# Hz S RI R 50
!     Frequency           S11_Real           S11_Imag           S21_Real           S21_Imag           S12_Real           S12_Imag           S22_Real           S22_Imag
      200000000   -1.793091930e-02    2.825808711e-03    1.402019825e-05    6.775932889e-06    0.000000000e+00    0.000000000e+00    0.000000000e+00    0.000000000e+00
      207250000   -1.799033023e-02    2.799108159e-03    1.915236317e-05    3.108871169e-05    0.000000000e+00    0.000000000e+00    0.000000000e+00    0.000000000e+00
      214500000   -1.793770492e-02    2.419916447e-03    2.756462891e-05    7.503588677e-06    0.000000000e+00    0.000000000e+00    0.000000000e+00    0.000000000e+00
      221750000   -1.825066470e-02    3.213714343e-03    2.577344276e-06   -7.379810086e-06    0.000000000e+00    0.000000000e+00    0.000000000e+00    0.000000000e+00
      229000000   -1.736737229e-02    2.344356617e-03   -3.326814476e-05    1.277483625e-05    0.000000000e+00    0.000000000e+00    0.000000000e+00    0.000000000e+00
      236250000   -1.801073365e-02    2.491499530e-03   -9.765015420e-06    1.545318810e-05    0.000000000e+00    0.000000000e+00    0.000000000e+00    0.000000000e+00
      243500000   -1.817101613e-02    3.478339175e-03   -4.141596946e-06   -3.795747261e-06    0.000000000e+00    0.000000000e+00    0.000000000e+00    0.000000000e+00
      250750000   -1.811264828e-02    3.563500941e-03    1.161411546e-06   -7.796827049e-06    0.000000000e+00    0.000000000e+00    0.000000000e+00    0.000000000e+00
      258000000   -1.810601912e-02    2.508600708e-03   -6.604223927e-06   -8.770312888e-06    0.000000000e+00    0.000000000e+00    0.000000000e+00    0.000000000e+00
      265250000   -1.847285405e-02    3.941305447e-03    2.191030217e-05    1.474756118e-05    0.000000000e+00    0.000000000e+00    0.000000000e+00    0.000000000e+00
      272500000   -1.744491048e-02    3.685862059e-03   -2.151863919e-05    6.237251455e-06    0.000000000e+00    0.000000000e+00    0.000000000e+00    0.000000000e+00
      279750000   -1.818026043e-02    2.310817596e-03   -1.356539724e-05    1.911335130e-05    0.000000000e+00    0.000000000e+00    0.000000000e+00    0.000000000e+00
      287000000   -1.721540093e-02    2.945463406e-03    2.791248153e-05   -1.132307534e-05    0.000000000e+00    0.000000000e+00    0.000000000e+00    0.000000000e+00
      294250000   -1.829009503e-02    3.293095157e-03    4.307294512e-05    1.291245371e-05    0.000000000e+00    0.000000000e+00    0.000000000e+00    0.000000000e+00
      301500000   -1.664901711e-02    2.452326007e-03   -1.650269769e-05   -1.533486466e-05    0.000000000e+00    0.000000000e+00    0.000000000e+00    0.000000000e+00
      308750000   -1.709126681e-02    2.816606080e-03    2.298573963e-05   -6.706506156e-06    0.000000000e+00    0.000000000e+00    0.000000000e+00    0.000000000e+00
      316000000   -1.716946997e-02    3.710424295e-03   -9.807582501e-06    3.541569095e-05    0.000000000e+00    0.000000000e+00    0.000000000e+00    0.000000000e+00
      323250000   -1.773634180e-02    2.985746134e-03    1.436288312e-05   -1.639580296e-05    0.000000000e+00    0.000000000e+00    0.000000000e+00    0.000000000e+00
      330500000   -1.704569161e-02    3.746958915e-03    1.306217109e-05    5.916193550e-05    0.000000000e+00    0.000000000e+00    0.000000000e+00    0.000000000e+00
      337750000   -1.784411259e-02    3.092629835e-03   -7.911491593e-06   -3.428101081e-06    0.000000000e+00    0.000000000e+00    0.000000000e+00    0.000000000e+00
      345000000   -1.830480434e-02    4.347144160e-03    3.043003971e-06    5.324388439e-06    0.000000000e+00    0.000000000e+00    0.000000000e+00    0.000000000e+00
      352250000   -1.702111587e-02    3.047531471e-03   -1.309433264e-05    9.884382052e-06    0.000000000e+00    0.000000000e+00    0.000000000e+00    0.000000000e+00
      359500000   -1.678927243e-02    3.108536126e-03   -2.751474494e-05   -1.628595601e-05    0.000000000e+00    0.000000000e+00    0.000000000e+00    0.000000000e+00
      366750000   -1.716557331e-02    3.675077343e-03    1.817763405e-05    1.525055268e-05    0.000000000e+00    0.000000000e+00    0.000000000e+00    0.000000000e+00
      374000000   -1.729353517e-02    4.377289675e-03    9.567358575e-06    4.261432332e-05    0.000000000e+00    0.000000000e+00    0.000000000e+00    0.000000000e+00
      381250000   -1.753320359e-02    3.805209417e-03    2.443166704e-05   -4.799199087e-05    0.000000000e+00    0.000000000e+00    0.000000000e+00    0.000000000e+00
      388500000   -1.715842634e-02    3.908542451e-03   -9.433406376e-06    1.829377470e-05    0.000000000e+00    0.000000000e+00    0.000000000e+00    0.000000000e+00
      395750000   -1.646100171e-02    3.712569829e-03   -6.271740858e-05    6.488549388e-06    0.000000000e+00    0.000000000e+00    0.000000000e+00    0.000000000e+00
      403000000   -1.853384264e-02    3.982791677e-03   -2.035523357e-05   -5.795685865e-06    0.000000000e+00    0.000000000e+00    0.000000000e+00    0.000000000e+00
      410250000   -1.669968292e-02    3.986869473e-03   -9.297437828e-06    6.648210547e-05    0.000000000e+00    0.000000000e+00    0.000000000e+00    0.000000000e+00
      417500000   -1.697894186e-02    4.545102827e-03    2.034768477e-05   -7.626329989e-06    0.000000000e+00    0.000000000e+00    0.000000000e+00    0.000000000e+00
      424750000   -1.636715420e-02    3.398709698e-03    3.049455881e-05   -1.369079382e-05    0.000000000e+00    0.000000000e+00    0.000000000e+00    0.000000000e+00
      432000000   -1.680425741e-02    5.333296489e-03   -2.318681254e-05   -3.368632315e-05    0.000000000e+00    0.000000000e+00    0.000000000e+00    0.000000000e+00
      439250000   -1.750977896e-02    4.330019467e-03    2.530488746e-05    3.194065130e-06    0.000000000e+00    0.000000000e+00    0.000000000e+00    0.000000000e+00
      446500000   -1.711170003e-02    3.987780772e-03    4.277481639e-05   -5.526991572e-06    0.000000000e+00    0.000000000e+00    0.000000000e+00    0.000000000e+00
      453750000   -1.707644202e-02    5.360527430e-03   -1.785903805e-05   -1.150195567e-05    0.000000000e+00    0.000000000e+00    0.000000000e+00    0.000000000e+00
      461000000   -1.657094806e-02    4.906978924e-03    2.452439003e-05   -2.616731763e-05    0.000000000e+00    0.000000000e+00    0.000000000e+00    0.000000000e+00
      468250000   -1.651694439e-02    4.682187457e-03   -1.610270374e-05    2.383707942e-05    0.000000000e+00    0.000000000e+00    0.000000000e+00    0.000000000e+00
      475500000   -1.735006645e-02    4.520079121e-03    2.132641566e-05    1.363116667e-06    0.000000000e+00    0.000000000e+00    0.000000000e+00    0.000000000e+00
      482750000   -1.681953855e-02    4.826332908e-03    1.033833723e-05    1.780973980e-05    0.000000000e+00    0.000000000e+00    0.000000000e+00    0.000000000e+00
      490000000   -1.691368595e-02    4.604047164e-03    3.896507405e-05   -6.937349099e-06    0.000000000e+00    0.000000000e+00    0.000000000e+00    0.000000000e+00
      497250000   -1.607761718e-02    4.649138544e-03    3.048445933e-06   -3.704209803e-06    0.000000000e+00    0.000000000e+00    0.000000000e+00    0.000000000e+00
      504500000   -1.719165593e-02    5.294230301e-03    3.100812819e-06    2.722003289e-09    0.000000000e+00    0.000000000e+00    0.000000000e+00    0.000000000e+00
      511750000   -1.636088267e-02    5.000635050e-03    3.316032689e-06   -1.975314444e-05    0.000000000e+00    0.000000000e+00    0.000000000e+00    0.000000000e+00
      519000000   -1.705183275e-02    5.137986038e-03   -7.892055692e-06    1.436276762e-05    0.000000000e+00    0.000000000e+00    0.000000000e+00    0.000000000e+00
      526250000   -1.667140797e-02    5.417311098e-03    3.291282337e-05   -1.135792627e-05    0.000000000e+00    0.000000000e+00    0.000000000e+00    0.000000000e+00
      533500000   -1.742862538e-02    5.415145308e-03   -6.388425390e-05   -5.112668077e-06    0.000000000e+00    0.000000000e+00    0.000000000e+00    0.000000000e+00
      540750000   -1.724199764e-02    5.651752930e-03    2.376178600e-06    3.255657793e-05    0.000000000e+00    0.000000000e+00    0.000000000e+00    0.000000000e+00
      548000000   -1.690834202e-02    5.417472217e-03   -1.889072701e-05    1.363394949e-05    0.000000000e+00    0.000000000e+00    0.000000000e+00    0.000000000e+00
      555250000   -1.644923724e-02    5.183745641e-03    2.751310421e-05   -1.943370262e-05    0.000000000e+00    0.000000000e+00    0.000000000e+00    0.000000000e+00
      562500000   -1.641858928e-02    5.672460888e-03   -1.737318416e-05    4.004628863e-05    0.000000000e+00    0.000000000e+00    0.000000000e+00    0.000000000e+00
      569750000   -1.713377982e-02    5.647063721e-03    4.301652734e-05    3.045228914e-05    0.000000000e+00    0.000000000e+00    0.000000000e+00    0.000000000e+00
      577000000   -1.670731232e-02    5.841051228e-03    1.761934641e-06   -1.151467768e-05    0.000000000e+00    0.000000000e+00    0.000000000e+00    0.000000000e+00
      584250000   -1.658621803e-02    5.593045615e-03    1.377880380e-05   -3.671953164e-05    0.000000000e+00    0.000000000e+00    0.000000000e+00    0.000000000e+00
      591500000   -1.754962280e-02    6.139633246e-03    6.730140285e-06    1.236813387e-05    0.000000000e+00    0.000000000e+00    0.000000000e+00    0.000000000e+00
      598750000   -1.621806063e-02    5.424681120e-03    5.252632036e-07    9.461172112e-07    0.000000000e+00    0.000000000e+00    0.000000000e+00    0.000000000e+00
      606000000   -1.701954566e-02    5.445566494e-03    1.058402540e-05    7.245415418e-06    0.000000000e+00    0.000000000e+00    0.000000000e+00    0.000000000e+00
      613250000   -1.743301563e-02    5.501449574e-03   -2.798453170e-05    2.912439959e-05    0.000000000e+00    0.000000000e+00    0.000000000e+00    0.000000000e+00
      620500000   -1.633573510e-02    5.840771366e-03   -3.878692223e-05   -7.650763109e-06    0.000000000e+00    0.000000000e+00    0.000000000e+00    0.000000000e+00
      627750000   -1.706662774e-02    6.112701725e-03   -2.256994321e-06   -4.558701039e-05    0.000000000e+00    0.000000000e+00    0.000000000e+00    0.000000000e+00
      635000000   -1.664539985e-02    5.882633384e-03    1.818373312e-05    6.779494470e-06    0.000000000e+00    0.000000000e+00    0.000000000e+00    0.000000000e+00
      642250000   -1.695113815e-02    6.058393046e-03   -5.474790669e-06    1.374642670e-05    0.000000000e+00    0.000000000e+00    0.000000000e+00    0.000000000e+00
      649500000   -1.631434262e-02    6.086133886e-03    8.208467506e-08   -3.805087908e-05    0.000000000e+00    0.000000000e+00    0.000000000e+00    0.000000000e+00
      656750000   -1.739414968e-02    6.501728669e-03   -1.017955856e-05    4.544866897e-05    0.000000000e+00    0.000000000e+00    0.000000000e+00    0.000000000e+00
      664000000   -1.672099903e-02    5.684806500e-03    2.322424052e-06    1.366999913e-05    0.000000000e+00    0.000000000e+00    0.000000000e+00    0.000000000e+00
      671250000   -1.555482764e-02    6.329867058e-03   -2.295580816e-05    4.037171311e-05    0.000000000e+00    0.000000000e+00    0.000000000e+00    0.000000000e+00
      678500000   -1.707764342e-02    6.497673225e-03    1.338330458e-05   -2.011143806e-05    0.000000000e+00    0.000000000e+00    0.000000000e+00    0.000000000e+00
      685750000   -1.660594903e-02    6.205404643e-03   -2.361964289e-05   -2.681868864e-05    0.000000000e+00    0.000000000e+00    0.000000000e+00    0.000000000e+00
      693000000   -1.555408258e-02    6.386193912e-03    1.283927213e-05   -1.012297980e-05    0.000000000e+00    0.000000000e+00    0.000000000e+00    0.000000000e+00
      700250000   -1.638213731e-02    6.663644686e-03    9.336196854e-06    6.533999112e-06    0.000000000e+00    0.000000000e+00    0.000000000e+00    0.000000000e+00
      707500000   -1.642364264e-02    6.345532369e-03   -1.809357673e-05    1.218287798e-05    0.000000000e+00    0.000000000e+00    0.000000000e+00    0.000000000e+00
      714750000   -1.598962955e-02    6.422949489e-03   -1.775976216e-06    3.057871800e-05    0.000000000e+00    0.000000000e+00    0.000000000e+00    0.000000000e+00
      722000000   -1.531483140e-02    6.749346852e-03   -1.199697999e-05    2.374482028e-05    0.000000000e+00    0.000000000e+00    0.000000000e+00    0.000000000e+00
      729250000   -1.610622369e-02    6.486053579e-03    2.557258995e-05    1.030318526e-05    0.000000000e+00    0.000000000e+00    0.000000000e+00    0.000000000e+00
      736500000   -1.562351175e-02    6.329055876e-03    1.659201553e-05   -2.888818199e-05    0.000000000e+00    0.000000000e+00    0.000000000e+00    0.000000000e+00
      743750000   -1.593027823e-02    6.258463021e-03   -1.037269976e-05    2.670616232e-05    0.000000000e+00    0.000000000e+00    0.000000000e+00    0.000000000e+00
      751000000   -1.594711840e-02    7.160363719e-03    7.556385754e-06    3.033831126e-05    0.000000000e+00    0.000000000e+00    0.000000000e+00    0.000000000e+00
      758250000   -1.519997604e-02    6.643231492e-03   -1.763516593e-05   -6.393986041e-06    0.000000000e+00    0.000000000e+00    0.000000000e+00    0.000000000e+00
      765500000   -1.583847590e-02    6.791123189e-03    2.288736869e-05    2.883957859e-05    0.000000000e+00    0.000000000e+00    0.000000000e+00    0.000000000e+00
      772750000   -1.626826636e-02    6.749008782e-03   -3.805320603e-06   -3.929760351e-05    0.000000000e+00    0.000000000e+00    0.000000000e+00    0.000000000e+00
      780000000   -1.521569211e-02    7.186125033e-03    3.658679998e-05    1.331375643e-05    0.000000000e+00    0.000000000e+00    0.000000000e+00    0.000000000e+00
      787250000   -1.608048379e-02    7.127609104e-03    3.735306018e-05   -3.014281720e-05    0.000000000e+00    0.000000000e+00    0.000000000e+00    0.000000000e+00
      794500000   -1.493109763e-02    6.522940006e-03    1.630063889e-05    2.368577407e-05    0.000000000e+00    0.000000000e+00    0.000000000e+00    0.000000000e+00
      801750000   -1.572070271e-02    6.734331138e-03   -1.006410821e-05   -2.690326801e-05    0.000000000e+00    0.000000000e+00    0.000000000e+00    0.000000000e+00
      809000000   -1.503547467e-02    7.094748784e-03   -4.945234195e-06    4.827423618e-05    0.000000000e+00    0.000000000e+00    0.000000000e+00    0.000000000e+00
      816250000   -1.502316538e-02    6.955821998e-03    1.859938675e-05    6.368044524e-06    0.000000000e+00    0.000000000e+00    0.000000000e+00    0.000000000e+00
      823500000   -1.522270590e-02    6.899012253e-03    3.848812867e-06   -3.455670958e-05    0.000000000e+00    0.000000000e+00    0.000000000e+00    0.000000000e+00
      830750000   -1.543089747e-02    7.551542018e-03    1.682979018e-05    2.442555160e-05    0.000000000e+00    0.000000000e+00    0.000000000e+00    0.000000000e+00
      838000000   -1.523857750e-02    7.220598403e-03    2.207526632e-05   -1.113983399e-05    0.000000000e+00    0.000000000e+00    0.000000000e+00    0.000000000e+00
      845250000   -1.525032427e-02    7.560798898e-03   -3.953764747e-07   -1.582959885e-05    0.000000000e+00    0.000000000e+00    0.000000000e+00    0.000000000e+00
      852500000   -1.547398977e-02    7.194564212e-03   -1.527739073e-06    1.304393027e-05    0.000000000e+00    0.000000000e+00    0.000000000e+00    0.000000000e+00
      859750000   -1.489496883e-02    7.475466002e-03   -2.152698835e-05    5.638072253e-05    0.000000000e+00    0.000000000e+00    0.000000000e+00    0.000000000e+00
      867000000   -1.456195116e-02    7.117078640e-03   -4.626990176e-06    2.620171836e-05    0.000000000e+00    0.000000000e+00    0.000000000e+00    0.000000000e+00
      874250000   -1.465259027e-02    7.521689404e-03   -2.754036541e-05   -2.418717486e-06    0.000000000e+00    0.000000000e+00    0.000000000e+00    0.000000000e+00
      881500000   -1.559451688e-02    7.558386773e-03    3.999388719e-05   -2.514123662e-05    0.000000000e+00    0.000000000e+00    0.000000000e+00    0.000000000e+00
      888750000   -1.461757533e-02    7.361544296e-03    3.596434453e-06   -3.389975291e-06    0.000000000e+00    0.000000000e+00    0.000000000e+00    0.000000000e+00
      896000000   -1.536898874e-02    7.968179882e-03   -8.022106158e-06   -1.998620064e-05    0.000000000e+00    0.000000000e+00    0.000000000e+00    0.000000000e+00
      903250000   -1.496582199e-02    7.842388935e-03   -4.348250877e-05    3.048707549e-05    0.000000000e+00    0.000000000e+00    0.000000000e+00    0.000000000e+00
      910500000   -1.517222542e-02    7.619554643e-03   -2.117573786e-05    1.405029889e-05    0.000000000e+00    0.000000000e+00    0.000000000e+00    0.000000000e+00
      917750000   -1.435042080e-02    7.811833639e-03   -2.325172136e-05   -2.248998499e-05    0.000000000e+00    0.000000000e+00    0.000000000e+00    0.000000000e+00
      925000000   -1.533280965e-02    7.868662477e-03   -1.572011752e-05    2.786081677e-05    0.000000000e+00    0.000000000e+00    0.000000000e+00    0.000000000e+00
      932250000   -1.423988678e-02    8.013444021e-03    3.049427050e-06    1.228392557e-05    0.000000000e+00    0.000000000e+00    0.000000000e+00    0.000000000e+00
      939500000   -1.434636395e-02    8.376235142e-03   -2.981022772e-05   -6.017453870e-06    0.000000000e+00    0.000000000e+00    0.000000000e+00    0.000000000e+00
      946750000   -1.508523989e-02    8.405328728e-03   -4.730669389e-05   -1.225930009e-05    0.000000000e+00    0.000000000e+00    0.000000000e+00    0.000000000e+00
      954000000   -1.450600941e-02    8.595054969e-03    5.626355687e-06   -1.112906102e-05    0.000000000e+00    0.000000000e+00    0.000000000e+00    0.000000000e+00
      961250000   -1.463259477e-02    8.159127086e-03   -1.274185161e-05    2.729969856e-05    0.000000000e+00    0.000000000e+00    0.000000000e+00    0.000000000e+00
      968500000   -1.390570123e-02    8.196157403e-03    3.106782242e-05    2.579663123e-05    0.000000000e+00    0.000000000e+00    0.000000000e+00    0.000000000e+00
      975750000   -1.559197158e-02    8.276898414e-03   -6.267609024e-06   -2.796402987e-05    0.000000000e+00    0.000000000e+00    0.000000000e+00    0.000000000e+00
      983000000   -1.375366654e-02    8.753022179e-03   -6.367271999e-05   -2.749715168e-05    0.000000000e+00    0.000000000e+00    0.000000000e+00    0.000000000e+00
      990250000   -1.495144237e-02    8.247043937e-03    1.576163231e-05    3.207062946e-06    0.000000000e+00    0.000000000e+00    0.000000000e+00    0.000000000e+00
      997500000   -1.445509400e-02    8.489268832e-03   -4.855942734e-06   -1.779893068e-07    0.000000000e+00    0.000000000e+00    0.000000000e+00    0.000000000e+00
     1004750000   -1.466201339e-02    8.326677606e-03    2.800353650e-05   -1.446471651e-05    0.000000000e+00    0.000000000e+00    0.000000000e+00    0.000000000e+00
     1012000000   -1.457461063e-02    8.580347523e-03   -9.304758350e-06   -2.507509816e-05    0.000000000e+00    0.000000000e+00    0.000000000e+00    0.000000000e+00
     1019250000   -1.427432708e-02    8.216328919e-03   -1.096100550e-05    2.079608021e-05    0.000000000e+00    0.000000000e+00    0.000000000e+00    0.000000000e+00
     1026500000   -1.395011507e-02    8.812458254e-03   -2.541302456e-05   -4.775918114e-06    0.000000000e+00    0.000000000e+00    0.000000000e+00    0.000000000e+00
     1033750000   -1.480804663e-02    8.035646752e-03   -1.867013270e-05   -2.831197162e-05    0.000000000e+00    0.000000000e+00    0.000000000e+00    0.000000000e+00
     1041000000   -1.480476093e-02    8.244315162e-03   -3.523432679e-05   -1.918806811e-05    0.000000000e+00    0.000000000e+00    0.000000000e+00    0.000000000e+00
