! NanoVNA-App
! Date: 2024-06-25 16:53:10
! Start: 200MHz Stop: 1.5GHz Points: 801
! S-Parameter data: F S11 S21 S12 S22
# Hz S RI R 50
!     Frequency           S11_Real           S11_Imag           S21_Real           S21_Imag           S12_Real           S12_Imag           S22_Real           S22_Imag
      200000000   -7.506454587e-01    1.167640463e-01    1.862510690e-04    5.156375119e-05    0.000000000e+00    0.000000000e+00    0.000000000e+00    0.000000000e+00
      201625000   -7.457994819e-01    1.398959756e-01    1.766836212e-04    8.661305037e-05    0.000000000e+00    0.000000000e+00    0.000000000e+00    0.000000000e+00
      203250000   -7.401933670e-01    1.627105623e-01    2.238240850e-04    7.325398474e-05    0.000000000e+00    0.000000000e+00    0.000000000e+00    0.000000000e+00
      204875000   -7.338327765e-01    1.852601469e-01    2.393665491e-04    6.761518307e-05    0.000000000e+00    0.000000000e+00    0.000000000e+00    0.000000000e+00
      206500000   -7.267845273e-01    2.074577808e-01    2.177752758e-04    8.287666424e-05    0.000000000e+00    0.000000000e+00    0.000000000e+00    0.000000000e+00
      208125000   -7.188074589e-01    2.293824255e-01    2.104126470e-04    8.180554869e-05    0.000000000e+00    0.000000000e+00    0.000000000e+00    0.000000000e+00
      209750000   -7.102852464e-01    2.510786951e-01    2.598411811e-04    9.742515249e-05    0.000000000e+00    0.000000000e+00    0.000000000e+00    0.000000000e+00
      211375000   -7.008972764e-01    2.721793354e-01    2.421311365e-04    7.934088353e-05    0.000000000e+00    0.000000000e+00    0.000000000e+00    0.000000000e+00
      213000000   -6.907874346e-01    2.930486500e-01    2.477705711e-04    8.331825666e-05    0.000000000e+00    0.000000000e+00    0.000000000e+00    0.000000000e+00
      214625000   -6.801083088e-01    3.130607605e-01    2.487318416e-04    1.140892127e-04    0.000000000e+00    0.000000000e+00    0.000000000e+00    0.000000000e+00
      216250000   -6.686534882e-01    3.331156075e-01    2.845688432e-04    1.057725312e-04    0.000000000e+00    0.000000000e+00    0.000000000e+00    0.000000000e+00
      217875000   -6.567001939e-01    3.525184691e-01    2.732374996e-04    1.333723339e-04    0.000000000e+00    0.000000000e+00    0.000000000e+00    0.000000000e+00
      219500000   -6.439313889e-01    3.712523878e-01    3.040521115e-04    1.342130709e-04    0.000000000e+00    0.000000000e+00    0.000000000e+00    0.000000000e+00
      221125000   -6.308324337e-01    3.897886276e-01    2.828078286e-04    1.222309074e-04    0.000000000e+00    0.000000000e+00    0.000000000e+00    0.000000000e+00
      222750000   -6.168882251e-01    4.078419507e-01    2.912065247e-04    1.234320080e-04    0.000000000e+00    0.000000000e+00    0.000000000e+00    0.000000000e+00
      224375000   -6.027253270e-01    4.248957634e-01    2.997487900e-04    1.370005048e-04    0.000000000e+00    0.000000000e+00    0.000000000e+00    0.000000000e+00
      226000000   -5.877662897e-01    4.416243434e-01    3.001896257e-04    1.586265716e-04    0.000000000e+00    0.000000000e+00    0.000000000e+00    0.000000000e+00
      227625000   -5.724041462e-01    4.577579498e-01    2.992284135e-04    1.486463152e-04    0.000000000e+00    0.000000000e+00    0.000000000e+00    0.000000000e+00
      229250000   -5.566269159e-01    4.734562337e-01    3.132093116e-04    1.488022099e-04    0.000000000e+00    0.000000000e+00    0.000000000e+00    0.000000000e+00
      230875000   -5.404409170e-01    4.885679483e-01    3.248765133e-04    1.405419607e-04    0.000000000e+00    0.000000000e+00    0.000000000e+00    0.000000000e+00
      232500000   -5.237733126e-01    5.029854774e-01    2.880673565e-04    1.542133978e-04    0.000000000e+00    0.000000000e+00    0.000000000e+00    0.000000000e+00
      234125000   -5.067176223e-01    5.164538026e-01    3.131332633e-04    1.445121452e-04    0.000000000e+00    0.000000000e+00    0.000000000e+00    0.000000000e+00
      235750000   -4.894355237e-01    5.296275020e-01    3.016879782e-04    1.552468020e-04    0.000000000e+00    0.000000000e+00    0.000000000e+00    0.000000000e+00
      237375000   -4.714281261e-01    5.421466231e-01    3.090989485e-04    1.555773924e-04    0.000000000e+00    0.000000000e+00    0.000000000e+00    0.000000000e+00
      239000000   -4.534394741e-01    5.540672541e-01    3.303048725e-04    1.464421803e-04    0.000000000e+00    0.000000000e+00    0.000000000e+00    0.000000000e+00
      240625000   -4.349082112e-01    5.652009249e-01    3.182726796e-04    1.500212093e-04    0.000000000e+00    0.000000000e+00    0.000000000e+00    0.000000000e+00
      242250000   -4.161801338e-01    5.757923722e-01    3.264900297e-04    1.366597280e-04    0.000000000e+00    0.000000000e+00    0.000000000e+00    0.000000000e+00
      243875000   -3.971012831e-01    5.860314965e-01    3.523352498e-04    1.389068057e-04    0.000000000e+00    0.000000000e+00    0.000000000e+00    0.000000000e+00
      245500000   -3.777135611e-01    5.953028798e-01    3.520399623e-04    1.508706628e-04    0.000000000e+00    0.000000000e+00    0.000000000e+00    0.000000000e+00
      247125000   -3.581900299e-01    6.042824984e-01    3.473142278e-04    1.573385234e-04    0.000000000e+00    0.000000000e+00    0.000000000e+00    0.000000000e+00
      248750000   -3.384442627e-01    6.123784781e-01    3.521242761e-04    1.614905486e-04    0.000000000e+00    0.000000000e+00    0.000000000e+00    0.000000000e+00
      250375000   -3.186171651e-01    6.199688911e-01    3.560141486e-04    1.789210510e-04    0.000000000e+00    0.000000000e+00    0.000000000e+00    0.000000000e+00
      252000000   -2.987211943e-01    6.268444657e-01    3.445650800e-04    1.485436660e-04    0.000000000e+00    0.000000000e+00    0.000000000e+00    0.000000000e+00
      253625000   -2.786872387e-01    6.328497529e-01    3.497717262e-04    1.485693501e-04    0.000000000e+00    0.000000000e+00    0.000000000e+00    0.000000000e+00
      255250000   -2.589124143e-01    6.384983659e-01    3.482463071e-04    1.598482049e-04    0.000000000e+00    0.000000000e+00    0.000000000e+00    0.000000000e+00
      256875000   -2.388858348e-01    6.433430910e-01    3.591202549e-04    1.485178218e-04    0.000000000e+00    0.000000000e+00    0.000000000e+00    0.000000000e+00
      258500000   -2.186647356e-01    6.474728584e-01    3.608150000e-04    1.495731121e-04    0.000000000e+00    0.000000000e+00    0.000000000e+00    0.000000000e+00
      260125000   -1.987573653e-01    6.512168050e-01    3.453333629e-04    1.568488224e-04    0.000000000e+00    0.000000000e+00    0.000000000e+00    0.000000000e+00
      261750000   -1.786722690e-01    6.542010307e-01    3.549981338e-04    1.548597211e-04    0.000000000e+00    0.000000000e+00    0.000000000e+00    0.000000000e+00
      263375000   -1.586796045e-01    6.565321088e-01    3.575596202e-04    1.647546887e-04    0.000000000e+00    0.000000000e+00    0.000000000e+00    0.000000000e+00
      265000000   -1.387519687e-01    6.582201123e-01    3.631153377e-04    1.336940622e-04    0.000000000e+00    0.000000000e+00    0.000000000e+00    0.000000000e+00
      266625000   -1.187101156e-01    6.592960358e-01    3.563575447e-04    1.359620364e-04    0.000000000e+00    0.000000000e+00    0.000000000e+00    0.000000000e+00
      268250000   -9.878561646e-02    6.598539352e-01    3.742629488e-04    1.453276782e-04    0.000000000e+00    0.000000000e+00    0.000000000e+00    0.000000000e+00
      269875000   -7.917657495e-02    6.598033905e-01    3.361307899e-04    1.366952201e-04    0.000000000e+00    0.000000000e+00    0.000000000e+00    0.000000000e+00
      271500000   -5.934367329e-02    6.592159867e-01    3.487922077e-04    1.530314184e-04    0.000000000e+00    0.000000000e+00    0.000000000e+00    0.000000000e+00
      273125000   -3.957302868e-02    6.580761671e-01    3.674874897e-04    1.443942019e-04    0.000000000e+00    0.000000000e+00    0.000000000e+00    0.000000000e+00
      274750000   -2.031856589e-02    6.562514901e-01    3.519976453e-04    1.564370177e-04    0.000000000e+00    0.000000000e+00    0.000000000e+00    0.000000000e+00
      276375000   -9.982346091e-04    6.538747549e-01    3.634235181e-04    1.441762433e-04    0.000000000e+00    0.000000000e+00    0.000000000e+00    0.000000000e+00
      278000000    1.824720390e-02    6.510506272e-01    3.555612639e-04    1.594903733e-04    0.000000000e+00    0.000000000e+00    0.000000000e+00    0.000000000e+00
      279625000    3.722221404e-02    6.477472782e-01    3.333377244e-04    1.559619850e-04    0.000000000e+00    0.000000000e+00    0.000000000e+00    0.000000000e+00
      281250000    5.612887815e-02    6.438863873e-01    3.261884849e-04    1.392654376e-04    0.000000000e+00    0.000000000e+00    0.000000000e+00    0.000000000e+00
      282875000    7.475551963e-02    6.396352053e-01    3.313224588e-04    1.390593243e-04    0.000000000e+00    0.000000000e+00    0.000000000e+00    0.000000000e+00
      284500000    9.311905503e-02    6.347966790e-01    3.265335399e-04    1.557017822e-04    0.000000000e+00    0.000000000e+00    0.000000000e+00    0.000000000e+00
      286125000    1.113220826e-01    6.296201944e-01    3.356142261e-04    1.412019337e-04    0.000000000e+00    0.000000000e+00    0.000000000e+00    0.000000000e+00
      287750000    1.293408424e-01    6.239932775e-01    3.364782897e-04    1.089552534e-04    0.000000000e+00    0.000000000e+00    0.000000000e+00    0.000000000e+00
      289375000    1.469746530e-01    6.174446940e-01    3.112786799e-04    1.265739702e-04    0.000000000e+00    0.000000000e+00    0.000000000e+00    0.000000000e+00
      291000000    7.402069867e-02    5.801642537e-01   -1.563852566e-04    1.157102306e-04    0.000000000e+00    0.000000000e+00    0.000000000e+00    0.000000000e+00
      292625000    9.038947523e-02    5.739425421e-01    2.446427789e-05    5.414559564e-05    0.000000000e+00    0.000000000e+00    0.000000000e+00    0.000000000e+00
      294250000    1.063302904e-01    5.691341758e-01    2.222305047e-04   -2.411197966e-05    0.000000000e+00    0.000000000e+00    0.000000000e+00    0.000000000e+00
      295875000    1.226866245e-01    5.629103184e-01   -4.712937152e-05   -6.838465197e-05    0.000000000e+00    0.000000000e+00    0.000000000e+00    0.000000000e+00
      297500000    1.386601925e-01    5.566699505e-01   -1.311723008e-05    6.622327783e-05    0.000000000e+00    0.000000000e+00    0.000000000e+00    0.000000000e+00
      299125000    1.545823514e-01    5.506076813e-01   -1.909734783e-05    4.990078378e-05    0.000000000e+00    0.000000000e+00    0.000000000e+00    0.000000000e+00
      300750000    1.699221134e-01    5.431925654e-01   -8.833072206e-05   -6.061592649e-05    0.000000000e+00    0.000000000e+00    0.000000000e+00    0.000000000e+00
      302375000    1.848343760e-01    5.353986025e-01   -2.223930496e-04    1.146615541e-04    0.000000000e+00    0.000000000e+00    0.000000000e+00    0.000000000e+00
      304000000    1.997267753e-01    5.280829072e-01   -6.067495269e-05    9.212535224e-05    0.000000000e+00    0.000000000e+00    0.000000000e+00    0.000000000e+00
      305625000    2.138567716e-01    5.196883678e-01    5.837604840e-05   -4.070076102e-05    0.000000000e+00    0.000000000e+00    0.000000000e+00    0.000000000e+00
      307250000    2.273406386e-01    5.133965015e-01   -8.444664854e-05    1.421705529e-04    0.000000000e+00    0.000000000e+00    0.000000000e+00    0.000000000e+00
      308875000    2.423686534e-01    5.028492212e-01    8.815267938e-05    4.955513941e-05    0.000000000e+00    0.000000000e+00    0.000000000e+00    0.000000000e+00
      310500000    2.561786771e-01    4.938077033e-01   -1.415061706e-05    1.118260552e-04    0.000000000e+00    0.000000000e+00    0.000000000e+00    0.000000000e+00
      312125000    2.693281472e-01    4.840428233e-01    5.187292481e-05   -9.496218991e-05    0.000000000e+00    0.000000000e+00    0.000000000e+00    0.000000000e+00
      313750000    2.816861868e-01    4.745797217e-01   -9.132793821e-06   -1.167533992e-04    0.000000000e+00    0.000000000e+00    0.000000000e+00    0.000000000e+00
      315375000    2.949894965e-01    4.645116925e-01   -1.030413187e-04    6.977291923e-05    0.000000000e+00    0.000000000e+00    0.000000000e+00    0.000000000e+00
      317000000    3.073687553e-01    4.540265203e-01   -9.578900790e-05    1.469540439e-04    0.000000000e+00    0.000000000e+00    0.000000000e+00    0.000000000e+00
      318625000    3.191132545e-01    4.438152015e-01    1.237745892e-05    5.587247142e-05    0.000000000e+00    0.000000000e+00    0.000000000e+00    0.000000000e+00
      320250000    3.308952153e-01    4.330240190e-01   -5.744829105e-05    1.871637505e-04    0.000000000e+00    0.000000000e+00    0.000000000e+00    0.000000000e+00
      321875000    3.421760798e-01    4.220872521e-01   -1.477759943e-04    1.636535330e-06    0.000000000e+00    0.000000000e+00    0.000000000e+00    0.000000000e+00
      323500000    3.532040417e-01    4.107714295e-01   -6.529309030e-05    4.566684584e-05    0.000000000e+00    0.000000000e+00    0.000000000e+00    0.000000000e+00
      325125000    3.639480472e-01    3.991024494e-01   -1.054472596e-04   -3.005312647e-05    0.000000000e+00    0.000000000e+00    0.000000000e+00    0.000000000e+00
      326750000    3.735680878e-01    3.877966702e-01   -1.032116488e-04   -2.379422403e-05    0.000000000e+00    0.000000000e+00    0.000000000e+00    0.000000000e+00
      328375000    3.836784661e-01    3.759995997e-01   -1.588204177e-04    2.136171315e-05    0.000000000e+00    0.000000000e+00    0.000000000e+00    0.000000000e+00
      330000000    3.936183751e-01    3.640119731e-01   -1.817388402e-04    8.539818737e-06    0.000000000e+00    0.000000000e+00    0.000000000e+00    0.000000000e+00
      331625000    4.022984803e-01    3.514275253e-01   -1.505407727e-05    2.074440708e-04    0.000000000e+00    0.000000000e+00    0.000000000e+00    0.000000000e+00
      333250000    4.114080966e-01    3.393239975e-01   -8.728355897e-05   -8.791863593e-07    0.000000000e+00    0.000000000e+00    0.000000000e+00    0.000000000e+00
      334875000    4.198585451e-01    3.266921341e-01    9.893633433e-07    3.270912202e-06    0.000000000e+00    0.000000000e+00    0.000000000e+00    0.000000000e+00
      336500000    4.277145863e-01    3.142878711e-01    6.719296380e-06   -1.193514545e-04    0.000000000e+00    0.000000000e+00    0.000000000e+00    0.000000000e+00
      338125000    4.357683957e-01    3.015053272e-01    5.420064554e-05   -7.175179053e-05    0.000000000e+00    0.000000000e+00    0.000000000e+00    0.000000000e+00
      339750000    4.430195987e-01    2.889328003e-01   -7.369686500e-05    2.322440923e-05    0.000000000e+00    0.000000000e+00    0.000000000e+00    0.000000000e+00
      341375000    4.502309263e-01    2.757959962e-01    7.112276944e-05   -3.204420136e-05    0.000000000e+00    0.000000000e+00    0.000000000e+00    0.000000000e+00
      343000000    4.568277001e-01    2.627472281e-01   -4.342296597e-05   -7.374583947e-05    0.000000000e+00    0.000000000e+00    0.000000000e+00    0.000000000e+00
      344625000    4.635574222e-01    2.495514452e-01   -3.738423402e-05   -8.544906450e-05    0.000000000e+00    0.000000000e+00    0.000000000e+00    0.000000000e+00
      346250000    4.697116315e-01    2.365143895e-01    1.287235646e-04   -2.248148667e-05    0.000000000e+00    0.000000000e+00    0.000000000e+00    0.000000000e+00
      347875000    4.755988419e-01    2.233258188e-01   -1.117219872e-04   -2.333610428e-05    0.000000000e+00    0.000000000e+00    0.000000000e+00    0.000000000e+00
      349500000    4.806523025e-01    2.097714990e-01   -2.952733303e-05   -1.151748438e-04    0.000000000e+00    0.000000000e+00    0.000000000e+00    0.000000000e+00
      351125000    4.855454266e-01    1.963414252e-01   -1.082012241e-04    1.647497447e-05    0.000000000e+00    0.000000000e+00    0.000000000e+00    0.000000000e+00
      352750000    4.906775951e-01    1.829041541e-01   -1.235947129e-04    8.221129247e-05    0.000000000e+00    0.000000000e+00    0.000000000e+00    0.000000000e+00
      354375000    4.950831234e-01    1.693237275e-01    8.363723464e-05    1.833110291e-04    0.000000000e+00    0.000000000e+00    0.000000000e+00    0.000000000e+00
      356000000    4.990443289e-01    1.558273435e-01   -1.279383432e-04   -3.185637615e-05    0.000000000e+00    0.000000000e+00    0.000000000e+00    0.000000000e+00
      357625000    5.028128624e-01    1.422859728e-01   -1.078045607e-04   -1.680640162e-05    0.000000000e+00    0.000000000e+00    0.000000000e+00    0.000000000e+00
      359250000    5.063334107e-01    1.286480725e-01   -1.382921764e-04    1.415814040e-04    0.000000000e+00    0.000000000e+00    0.000000000e+00    0.000000000e+00
      360875000    5.095695257e-01    1.152735502e-01   -1.883208606e-04    1.196294106e-04    0.000000000e+00    0.000000000e+00    0.000000000e+00    0.000000000e+00
      362500000    5.123966336e-01    1.013121232e-01   -2.600706357e-04   -3.319328971e-05    0.000000000e+00    0.000000000e+00    0.000000000e+00    0.000000000e+00
      364125000    5.149402618e-01    8.764604479e-02   -1.207131718e-04    1.130159490e-05    0.000000000e+00    0.000000000e+00    0.000000000e+00    0.000000000e+00
      365750000    5.174174309e-01    7.407217473e-02    2.972828725e-06    5.054427311e-05    0.000000000e+00    0.000000000e+00    0.000000000e+00    0.000000000e+00
      367375000    5.192352533e-01    6.062180921e-02   -5.222928667e-05   -1.334093831e-04    0.000000000e+00    0.000000000e+00    0.000000000e+00    0.000000000e+00
      369000000    5.209203362e-01    4.681911319e-02   -1.178158054e-04    6.376596139e-05    0.000000000e+00    0.000000000e+00    0.000000000e+00    0.000000000e+00
      370625000    5.220901370e-01    3.345121443e-02   -8.937355233e-06   -1.032487344e-04    0.000000000e+00    0.000000000e+00    0.000000000e+00    0.000000000e+00
      372250000    5.236635208e-01    1.993727311e-02   -1.096592314e-04   -8.210205851e-05    0.000000000e+00    0.000000000e+00    0.000000000e+00    0.000000000e+00
      373875000    5.239680409e-01    6.055511069e-03   -1.319466828e-04    1.283291385e-05    0.000000000e+00    0.000000000e+00    0.000000000e+00    0.000000000e+00
      375500000    5.245915055e-01   -7.190822158e-03    1.263963077e-05    2.942567335e-05    0.000000000e+00    0.000000000e+00    0.000000000e+00    0.000000000e+00
      377125000    5.245800614e-01   -2.092182636e-02   -8.228913066e-05    1.044354140e-04    0.000000000e+00    0.000000000e+00    0.000000000e+00    0.000000000e+00
      378750000    5.245273113e-01   -3.420195356e-02   -2.419522934e-05    5.439609595e-05    0.000000000e+00    0.000000000e+00    0.000000000e+00    0.000000000e+00
      380375000    5.239102840e-01   -4.752327502e-02   -1.699319546e-04   -5.924438483e-06    0.000000000e+00    0.000000000e+00    0.000000000e+00    0.000000000e+00
      382000000    5.232245922e-01   -6.117133796e-02   -1.464864326e-04   -2.369108188e-05    0.000000000e+00    0.000000000e+00    0.000000000e+00    0.000000000e+00
      383625000    5.220891237e-01   -7.427474111e-02   -7.234445366e-05    1.004161677e-04    0.000000000e+00    0.000000000e+00    0.000000000e+00    0.000000000e+00
      385250000    5.210020542e-01   -8.769677579e-02   -7.509903662e-05    1.442435023e-04    0.000000000e+00    0.000000000e+00    0.000000000e+00    0.000000000e+00
      386875000    5.194774866e-01   -1.010204405e-01   -3.092267434e-05    6.301229587e-05    0.000000000e+00    0.000000000e+00    0.000000000e+00    0.000000000e+00
      388500000    5.174947381e-01   -1.140492633e-01   -1.014314548e-04    9.159609908e-05    0.000000000e+00    0.000000000e+00    0.000000000e+00    0.000000000e+00
