! NanoVNA-App
! Date: 2024-06-25 16:53:13
! Start: 200MHz Stop: 1.5GHz Points: 801
! S-Parameter data: F S11 S21 S12 S22
# Hz S RI R 50
!     Frequency           S11_Real           S11_Imag           S21_Real           S21_Imag           S12_Real           S12_Imag           S22_Real           S22_Imag
      200000000   -7.506305575e-01    1.167969853e-01    1.958382491e-04    6.155931624e-05    0.000000000e+00    0.000000000e+00    0.000000000e+00    0.000000000e+00
      201625000   -7.457986474e-01    1.398410797e-01    1.600258402e-04    7.388168160e-05    0.000000000e+00    0.000000000e+00    0.000000000e+00    0.000000000e+00
      203250000   -7.401780486e-01    1.627308279e-01    1.894037268e-04    7.265781460e-05    0.000000000e+00    0.000000000e+00    0.000000000e+00    0.000000000e+00
      204875000   -7.338077426e-01    1.852214038e-01    2.234724816e-04    6.245107215e-05    0.000000000e+00    0.000000000e+00    0.000000000e+00    0.000000000e+00
      206500000   -7.267484665e-01    2.074161619e-01    2.372938616e-04    7.380608440e-05    0.000000000e+00    0.000000000e+00    0.000000000e+00    0.000000000e+00
      208125000   -7.188222408e-01    2.293568850e-01    2.403583348e-04    7.114892651e-05    0.000000000e+00    0.000000000e+00    0.000000000e+00    0.000000000e+00
      209750000   -7.102392316e-01    2.510509193e-01    2.570381912e-04    7.315972471e-05    0.000000000e+00    0.000000000e+00    0.000000000e+00    0.000000000e+00
      211375000   -7.008258700e-01    2.721132338e-01    2.575165126e-04    9.653941379e-05    0.000000000e+00    0.000000000e+00    0.000000000e+00    0.000000000e+00
      213000000   -6.909149885e-01    2.928170264e-01    2.710454864e-04    1.030559870e-04    0.000000000e+00    0.000000000e+00    0.000000000e+00    0.000000000e+00
      214625000   -6.800633073e-01    3.130510747e-01    2.596305567e-04    8.910688484e-05    0.000000000e+00    0.000000000e+00    0.000000000e+00    0.000000000e+00
      216250000   -6.687483788e-01    3.331356645e-01    2.814790350e-04    1.343630720e-04    0.000000000e+00    0.000000000e+00    0.000000000e+00    0.000000000e+00
      217875000   -6.565726995e-01    3.525130153e-01    2.590990916e-04    9.489904187e-05    0.000000000e+00    0.000000000e+00    0.000000000e+00    0.000000000e+00
      219500000   -6.440957189e-01    3.713620603e-01    3.080271708e-04    1.409401739e-04    0.000000000e+00    0.000000000e+00    0.000000000e+00    0.000000000e+00
      221125000   -6.307930350e-01    3.897555470e-01    2.897918166e-04    1.238856494e-04    0.000000000e+00    0.000000000e+00    0.000000000e+00    0.000000000e+00
      222750000   -6.168901920e-01    4.077085853e-01    2.781008370e-04    1.131303361e-04    0.000000000e+00    0.000000000e+00    0.000000000e+00    0.000000000e+00
      224375000   -6.024990678e-01    4.247997999e-01    2.887260343e-04    1.344814082e-04    0.000000000e+00    0.000000000e+00    0.000000000e+00    0.000000000e+00
      226000000   -5.877261162e-01    4.417680502e-01    3.067736397e-04    1.434248115e-04    0.000000000e+00    0.000000000e+00    0.000000000e+00    0.000000000e+00
      227625000   -5.725162029e-01    4.577636123e-01    2.868330048e-04    1.764941117e-04    0.000000000e+00    0.000000000e+00    0.000000000e+00    0.000000000e+00
      229250000   -5.566201210e-01    4.734852314e-01    2.913169737e-04    1.389600948e-04    0.000000000e+00    0.000000000e+00    0.000000000e+00    0.000000000e+00
      230875000   -5.404276848e-01    4.883507192e-01    3.015963011e-04    1.353351545e-04    0.000000000e+00    0.000000000e+00    0.000000000e+00    0.000000000e+00
      232500000   -5.238196850e-01    5.030030012e-01    3.021174925e-04    1.547307329e-04    0.000000000e+00    0.000000000e+00    0.000000000e+00    0.000000000e+00
      234125000   -5.065847635e-01    5.166099072e-01    3.307072329e-04    1.406077645e-04    0.000000000e+00    0.000000000e+00    0.000000000e+00    0.000000000e+00
      235750000   -4.892220497e-01    5.297452211e-01    3.233400057e-04    1.531921589e-04    0.000000000e+00    0.000000000e+00    0.000000000e+00    0.000000000e+00
      237375000   -4.714075327e-01    5.421248078e-01    3.174509329e-04    1.450830605e-04    0.000000000e+00    0.000000000e+00    0.000000000e+00    0.000000000e+00
      239000000   -4.533242285e-01    5.538895726e-01    3.235321492e-04    1.610358449e-04    0.000000000e+00    0.000000000e+00    0.000000000e+00    0.000000000e+00
      240625000   -4.349275231e-01    5.650506616e-01    3.457981511e-04    1.512065937e-04    0.000000000e+00    0.000000000e+00    0.000000000e+00    0.000000000e+00
      242250000   -4.161894023e-01    5.758094788e-01    3.337765811e-04    1.500205835e-04    0.000000000e+00    0.000000000e+00    0.000000000e+00    0.000000000e+00
      243875000   -3.970609307e-01    5.859015584e-01    3.343175340e-04    1.400011679e-04    0.000000000e+00    0.000000000e+00    0.000000000e+00    0.000000000e+00
      245500000   -3.777613938e-01    5.954275727e-01    3.172215365e-04    1.548707514e-04    0.000000000e+00    0.000000000e+00    0.000000000e+00    0.000000000e+00
      247125000   -3.582035005e-01    6.042755842e-01    3.352789208e-04    1.550840825e-04    0.000000000e+00    0.000000000e+00    0.000000000e+00    0.000000000e+00
      248750000   -3.385232687e-01    6.125903130e-01    3.446515475e-04    1.343647455e-04    0.000000000e+00    0.000000000e+00    0.000000000e+00    0.000000000e+00
      250375000   -3.185149431e-01    6.200547814e-01    3.478908329e-04    1.111639649e-04    0.000000000e+00    0.000000000e+00    0.000000000e+00    0.000000000e+00
      252000000   -2.988258004e-01    6.266463399e-01    3.518642334e-04    1.466610265e-04    0.000000000e+00    0.000000000e+00    0.000000000e+00    0.000000000e+00
      253625000   -2.788761854e-01    6.328495741e-01    3.592546855e-04    1.625266450e-04    0.000000000e+00    0.000000000e+00    0.000000000e+00    0.000000000e+00
      255250000   -2.587883770e-01    6.383672953e-01    3.429037461e-04    1.626482699e-04    0.000000000e+00    0.000000000e+00    0.000000000e+00    0.000000000e+00
      256875000   -2.389076650e-01    6.432210207e-01    3.437874548e-04    1.526430133e-04    0.000000000e+00    0.000000000e+00    0.000000000e+00    0.000000000e+00
      258500000   -2.187307328e-01    6.475070715e-01    3.576152376e-04    1.500097133e-04    0.000000000e+00    0.000000000e+00    0.000000000e+00    0.000000000e+00
      260125000   -1.987886131e-01    6.511446834e-01    3.396343673e-04    1.412676356e-04    0.000000000e+00    0.000000000e+00    0.000000000e+00    0.000000000e+00
      261750000   -1.786579490e-01    6.543568969e-01    3.390516795e-04    1.481077343e-04    0.000000000e+00    0.000000000e+00    0.000000000e+00    0.000000000e+00
      263375000   -1.585636288e-01    6.566538811e-01    3.571947454e-04    1.350840612e-04    0.000000000e+00    0.000000000e+00    0.000000000e+00    0.000000000e+00
      265000000   -1.387016624e-01    6.581856608e-01    3.643861855e-04    1.481241197e-04    0.000000000e+00    0.000000000e+00    0.000000000e+00    0.000000000e+00
      266625000   -1.188888475e-01    6.591855288e-01    3.591663262e-04    1.623790158e-04    0.000000000e+00    0.000000000e+00    0.000000000e+00    0.000000000e+00
      268250000   -9.887266159e-02    6.598932743e-01    3.613749577e-04    1.381910697e-04    0.000000000e+00    0.000000000e+00    0.000000000e+00    0.000000000e+00
      269875000   -7.906305045e-02    6.598836780e-01    3.622776421e-04    1.623694552e-04    0.000000000e+00    0.000000000e+00    0.000000000e+00    0.000000000e+00
      271500000   -5.928268656e-02    6.592355967e-01    3.558577737e-04    1.499407372e-04    0.000000000e+00    0.000000000e+00    0.000000000e+00    0.000000000e+00
      273125000   -3.977633268e-02    6.579675078e-01    3.789458424e-04    1.456430182e-04    0.000000000e+00    0.000000000e+00    0.000000000e+00    0.000000000e+00
      274750000   -2.022759244e-02    6.561895609e-01    3.821094579e-04    1.573635964e-04    0.000000000e+00    0.000000000e+00    0.000000000e+00    0.000000000e+00
      276375000   -8.673210978e-04    6.538017988e-01    3.711650206e-04    1.628435566e-04    0.000000000e+00    0.000000000e+00    0.000000000e+00    0.000000000e+00
      278000000    1.812859997e-02    6.510102749e-01    3.694178886e-04    1.389231038e-04    0.000000000e+00    0.000000000e+00    0.000000000e+00    0.000000000e+00
      279625000    3.716323152e-02    6.479452848e-01    3.713039623e-04    1.429643453e-04    0.000000000e+00    0.000000000e+00    0.000000000e+00    0.000000000e+00
      281250000    5.606408790e-02    6.438949704e-01    3.737735096e-04    1.449670526e-04    0.000000000e+00    0.000000000e+00    0.000000000e+00    0.000000000e+00
      282875000    7.458505034e-02    6.395827532e-01    3.414812963e-04    1.223760773e-04    0.000000000e+00    0.000000000e+00    0.000000000e+00    0.000000000e+00
      284500000    9.303107858e-02    6.348278522e-01    3.560157493e-04    1.431161800e-04    0.000000000e+00    0.000000000e+00    0.000000000e+00    0.000000000e+00
      286125000    1.112606227e-01    6.297263503e-01    3.342614509e-04    1.344617922e-04    0.000000000e+00    0.000000000e+00    0.000000000e+00    0.000000000e+00
      287750000    1.293790638e-01    6.239846945e-01    3.181230859e-04    1.163889392e-04    0.000000000e+00    0.000000000e+00    0.000000000e+00    0.000000000e+00
      289375000    1.469502598e-01    6.173334122e-01    2.993248054e-04    1.110934536e-04    0.000000000e+00    0.000000000e+00    0.000000000e+00    0.000000000e+00
      291000000    7.325790823e-02    5.796055794e-01   -1.865358936e-04   -1.297738636e-04    0.000000000e+00    0.000000000e+00    0.000000000e+00    0.000000000e+00
      292625000    9.004404396e-02    5.745441318e-01   -7.678478141e-05    3.729003220e-05    0.000000000e+00    0.000000000e+00    0.000000000e+00    0.000000000e+00
      294250000    1.065974683e-01    5.686866641e-01    7.919917698e-05    6.253368338e-05    0.000000000e+00    0.000000000e+00    0.000000000e+00    0.000000000e+00
      295875000    1.225931048e-01    5.626486540e-01    1.622129457e-05    4.573155093e-05    0.000000000e+00    0.000000000e+00    0.000000000e+00    0.000000000e+00
      297500000    1.388932616e-01    5.568607450e-01   -2.540790010e-04    1.944917312e-05    0.000000000e+00    0.000000000e+00    0.000000000e+00    0.000000000e+00
      299125000    1.545563787e-01    5.503561497e-01   -1.009672123e-04    3.929060767e-05    0.000000000e+00    0.000000000e+00    0.000000000e+00    0.000000000e+00
      300750000    1.697474122e-01    5.436407924e-01   -1.595535286e-04    6.181536446e-05    0.000000000e+00    0.000000000e+00    0.000000000e+00    0.000000000e+00
      302375000    1.846575588e-01    5.360227227e-01   -4.109688962e-05    2.350386058e-04    0.000000000e+00    0.000000000e+00    0.000000000e+00    0.000000000e+00
      304000000    1.998498887e-01    5.281981826e-01   -1.064983298e-04    1.161614709e-04    0.000000000e+00    0.000000000e+00    0.000000000e+00    0.000000000e+00
      305625000    2.137342393e-01    5.197020173e-01    3.109214595e-05    3.341941010e-06    0.000000000e+00    0.000000000e+00    0.000000000e+00    0.000000000e+00
      307250000    2.310039550e-01    5.125420690e-01   -1.519725774e-04    1.109290752e-04    0.000000000e+00    0.000000000e+00    0.000000000e+00    0.000000000e+00
      308875000    2.420805395e-01    5.030294061e-01   -4.888300100e-05    4.952073141e-05    0.000000000e+00    0.000000000e+00    0.000000000e+00    0.000000000e+00
      310500000    2.557821870e-01    4.934105575e-01   -1.406876981e-04   -3.614578600e-05    0.000000000e+00    0.000000000e+00    0.000000000e+00    0.000000000e+00
      312125000    2.697179317e-01    4.843783975e-01   -6.638644118e-05    1.509075446e-06    0.000000000e+00    0.000000000e+00    0.000000000e+00    0.000000000e+00
      313750000    2.824942470e-01    4.751404524e-01    9.861074068e-05   -1.386613585e-04    0.000000000e+00    0.000000000e+00    0.000000000e+00    0.000000000e+00
      315375000    2.948161662e-01    4.642996192e-01   -1.138606058e-05    1.987011492e-04    0.000000000e+00    0.000000000e+00    0.000000000e+00    0.000000000e+00
      317000000    3.073877096e-01    4.546594322e-01   -1.150336175e-04    2.941579805e-05    0.000000000e+00    0.000000000e+00    0.000000000e+00    0.000000000e+00
      318625000    3.192498684e-01    4.435116053e-01    3.143504159e-07    2.301195782e-04    0.000000000e+00    0.000000000e+00    0.000000000e+00    0.000000000e+00
      320250000    3.308369815e-01    4.328557551e-01    7.253074727e-05   -1.459630876e-04    0.000000000e+00    0.000000000e+00    0.000000000e+00    0.000000000e+00
      321875000    3.420017660e-01    4.217475653e-01    9.661025979e-05    7.824313798e-05    0.000000000e+00    0.000000000e+00    0.000000000e+00    0.000000000e+00
      323500000    3.529494405e-01    4.108227789e-01   -3.347518486e-06   -3.392236977e-05    0.000000000e+00    0.000000000e+00    0.000000000e+00    0.000000000e+00
      325125000    3.637335300e-01    3.992516696e-01   -2.492869098e-04    1.629356993e-04    0.000000000e+00    0.000000000e+00    0.000000000e+00    0.000000000e+00
      326750000    3.740663528e-01    3.877514601e-01    3.696361455e-05   -1.331901967e-05    0.000000000e+00    0.000000000e+00    0.000000000e+00    0.000000000e+00
      328375000    3.836881518e-01    3.758038878e-01   -7.959562936e-05    2.714161383e-05    0.000000000e+00    0.000000000e+00    0.000000000e+00    0.000000000e+00
      330000000    3.930181265e-01    3.638764024e-01    4.398041347e-05   -4.633560457e-05    0.000000000e+00    0.000000000e+00    0.000000000e+00    0.000000000e+00
      331625000    4.023519456e-01    3.518802822e-01    1.108073629e-04    2.937789577e-05    0.000000000e+00    0.000000000e+00    0.000000000e+00    0.000000000e+00
      333250000    4.112412333e-01    3.394218087e-01   -6.338706589e-05    4.499363058e-05    0.000000000e+00    0.000000000e+00    0.000000000e+00    0.000000000e+00
      334875000    4.197409153e-01    3.270233870e-01   -6.755526556e-05   -7.099368668e-05    0.000000000e+00    0.000000000e+00    0.000000000e+00    0.000000000e+00
      336500000    4.277125597e-01    3.144359589e-01   -1.825482468e-04   -1.758690341e-04    0.000000000e+00    0.000000000e+00    0.000000000e+00    0.000000000e+00
      338125000    4.355829060e-01    3.015918434e-01   -4.990649541e-05    8.705152868e-05    0.000000000e+00    0.000000000e+00    0.000000000e+00    0.000000000e+00
      339750000    4.429084063e-01    2.889182568e-01   -4.524386532e-05    2.770820174e-05    0.000000000e+00    0.000000000e+00    0.000000000e+00    0.000000000e+00
      341375000    4.503579140e-01    2.758077383e-01   -2.018060768e-04   -6.308008597e-05    0.000000000e+00    0.000000000e+00    0.000000000e+00    0.000000000e+00
      343000000    4.569929838e-01    2.627600133e-01   -2.013914054e-04   -6.526029028e-05    0.000000000e+00    0.000000000e+00    0.000000000e+00    0.000000000e+00
      344625000    4.632899761e-01    2.498239875e-01    1.515933491e-05    9.147364472e-05    0.000000000e+00    0.000000000e+00    0.000000000e+00    0.000000000e+00
      346250000    4.696941674e-01    2.366367131e-01   -1.803041050e-05    3.864018436e-05    0.000000000e+00    0.000000000e+00    0.000000000e+00    0.000000000e+00
      347875000    4.751920104e-01    2.233172953e-01   -7.201904373e-05   -1.754896584e-05    0.000000000e+00    0.000000000e+00    0.000000000e+00    0.000000000e+00
      349500000    4.806970656e-01    2.099826038e-01    6.562892850e-06   -7.542333333e-05    0.000000000e+00    0.000000000e+00    0.000000000e+00    0.000000000e+00
      351125000    4.859112203e-01    1.964706182e-01   -3.556608499e-05   -8.686801266e-06    0.000000000e+00    0.000000000e+00    0.000000000e+00    0.000000000e+00
      352750000    4.906540513e-01    1.830409318e-01    8.183314094e-06   -7.984313015e-06    0.000000000e+00    0.000000000e+00    0.000000000e+00    0.000000000e+00
      354375000    4.951051772e-01    1.693418324e-01   -7.435829320e-05   -3.358850881e-05    0.000000000e+00    0.000000000e+00    0.000000000e+00    0.000000000e+00
      356000000    4.989954829e-01    1.558045149e-01   -6.730264431e-06    5.954812514e-05    0.000000000e+00    0.000000000e+00    0.000000000e+00    0.000000000e+00
      357625000    5.028290749e-01    1.423271000e-01    1.263237646e-04    2.903990753e-05    0.000000000e+00    0.000000000e+00    0.000000000e+00    0.000000000e+00
      359250000    5.064094663e-01    1.286550760e-01   -4.508393613e-05    1.168834642e-04    0.000000000e+00    0.000000000e+00    0.000000000e+00    0.000000000e+00
      360875000    5.095383525e-01    1.150476933e-01    1.096168489e-05   -1.785550849e-04    0.000000000e+00    0.000000000e+00    0.000000000e+00    0.000000000e+00
      362500000    5.124967098e-01    1.014689133e-01   -8.451998292e-05    3.894741894e-05    0.000000000e+00    0.000000000e+00    0.000000000e+00    0.000000000e+00
      364125000    5.149804354e-01    8.776170015e-02   -1.145449569e-04   -4.801521936e-05    0.000000000e+00    0.000000000e+00    0.000000000e+00    0.000000000e+00
      365750000    5.172693133e-01    7.407124341e-02    6.675296845e-06   -6.403155567e-06    0.000000000e+00    0.000000000e+00    0.000000000e+00    0.000000000e+00
      367375000    5.191907287e-01    6.058968231e-02   -1.831872505e-04    9.177761240e-05    0.000000000e+00    0.000000000e+00    0.000000000e+00    0.000000000e+00
      369000000    5.208714604e-01    4.689574242e-02   -1.485205721e-04   -3.635452231e-05    0.000000000e+00    0.000000000e+00    0.000000000e+00    0.000000000e+00
      370625000    5.222727060e-01    3.320370242e-02    5.332837463e-05   -9.074811533e-05    0.000000000e+00    0.000000000e+00    0.000000000e+00    0.000000000e+00
      372250000    5.229291916e-01    2.019714750e-02   -9.104574565e-05    4.888269177e-05    0.000000000e+00    0.000000000e+00    0.000000000e+00    0.000000000e+00
      373875000    5.241162777e-01    6.218635477e-03   -8.325870294e-05    5.354582754e-06    0.000000000e+00    0.000000000e+00    0.000000000e+00    0.000000000e+00
      375500000    5.245016813e-01   -7.380793337e-03   -8.464320126e-05   -1.221750244e-05    0.000000000e+00    0.000000000e+00    0.000000000e+00    0.000000000e+00
      377125000    5.247039199e-01   -2.075720951e-02   -1.028169718e-04    9.066551866e-05    0.000000000e+00    0.000000000e+00    0.000000000e+00    0.000000000e+00
      378750000    5.245124698e-01   -3.429831937e-02   -2.322248329e-04    7.823548367e-05    0.000000000e+00    0.000000000e+00    0.000000000e+00    0.000000000e+00
      380375000    5.239763260e-01   -4.759938642e-02   -1.528929715e-04    4.899046689e-05    0.000000000e+00    0.000000000e+00    0.000000000e+00    0.000000000e+00
      382000000    5.232034326e-01   -6.113731489e-02   -1.502321975e-04    6.528072117e-05    0.000000000e+00    0.000000000e+00    0.000000000e+00    0.000000000e+00
      383625000    5.220839977e-01   -7.444597781e-02   -1.325329504e-04   -5.457234874e-05    0.000000000e+00    0.000000000e+00    0.000000000e+00    0.000000000e+00
      385250000    5.207335353e-01   -8.776886761e-02   -4.654923396e-05    1.093829560e-04    0.000000000e+00    0.000000000e+00    0.000000000e+00    0.000000000e+00
      386875000    5.195152760e-01   -1.007280201e-01   -4.745093247e-05    1.840690238e-04    0.000000000e+00    0.000000000e+00    0.000000000e+00    0.000000000e+00
      388500000    5.175694227e-01   -1.139699742e-01   -9.107046208e-05    1.728875213e-04    0.000000000e+00    0.000000000e+00    0.000000000e+00    0.000000000e+00
