! NanoVNA-App
! Date: 2024-06-25 16:53:22
! Start: 200MHz Stop: 1.5GHz Points: 801
! S-Parameter data: F S11 S21 S12 S22
# Hz S RI R 50
!     Frequency           S11_Real           S11_Imag           S21_Real           S21_Imag           S12_Real           S12_Imag           S22_Real           S22_Imag
      200000000   -7.507671118e-01    1.167710423e-01    1.803191117e-04    8.670394891e-05    0.000000000e+00    0.000000000e+00    0.000000000e+00    0.000000000e+00
      201625000   -7.458018064e-01    1.399126351e-01    2.118097327e-04    7.487968105e-05    0.000000000e+00    0.000000000e+00    0.000000000e+00    0.000000000e+00
      203250000   -7.400953770e-01    1.627411246e-01    1.849529508e-04    4.459014599e-05    0.000000000e+00    0.000000000e+00    0.000000000e+00    0.000000000e+00
      204875000   -7.338816524e-01    1.852647066e-01    2.287417592e-04    4.719207936e-05    0.000000000e+00    0.000000000e+00    0.000000000e+00    0.000000000e+00
      206500000   -7.267311215e-01    2.074245960e-01    2.142493177e-04    8.550410712e-05    0.000000000e+00    0.000000000e+00    0.000000000e+00    0.000000000e+00
      208125000   -7.188068032e-01    2.293956280e-01    2.332095901e-04    8.692344272e-05    0.000000000e+00    0.000000000e+00    0.000000000e+00    0.000000000e+00
      209750000   -7.103005648e-01    2.510065436e-01    2.441600373e-04    7.637656381e-05    0.000000000e+00    0.000000000e+00    0.000000000e+00    0.000000000e+00
      211375000   -7.009546757e-01    2.721897960e-01    2.695793810e-04    1.066863551e-04    0.000000000e+00    0.000000000e+00    0.000000000e+00    0.000000000e+00
      213000000   -6.908418536e-01    2.928410769e-01    2.575351682e-04    1.008078616e-04    0.000000000e+00    0.000000000e+00    0.000000000e+00    0.000000000e+00
      214625000   -6.801409125e-01    3.132206202e-01    2.721833007e-04    1.162144254e-04    0.000000000e+00    0.000000000e+00    0.000000000e+00    0.000000000e+00
      216250000   -6.687130332e-01    3.330528736e-01    2.470966720e-04    1.301904704e-04    0.000000000e+00    0.000000000e+00    0.000000000e+00    0.000000000e+00
      217875000   -6.567028761e-01    3.525233269e-01    2.773134329e-04    1.132437828e-04    0.000000000e+00    0.000000000e+00    0.000000000e+00    0.000000000e+00
      219500000   -6.440162659e-01    3.714524508e-01    2.887737355e-04    1.404455688e-04    0.000000000e+00    0.000000000e+00    0.000000000e+00    0.000000000e+00
      221125000   -6.308943629e-01    3.898042440e-01    2.895123907e-04    1.340860908e-04    0.000000000e+00    0.000000000e+00    0.000000000e+00    0.000000000e+00
      222750000   -6.170133948e-01    4.077509046e-01    2.841165988e-04    1.281908044e-04    0.000000000e+00    0.000000000e+00    0.000000000e+00    0.000000000e+00
      224375000   -6.025615931e-01    4.249794781e-01    2.968617773e-04    1.394092251e-04    0.000000000e+00    0.000000000e+00    0.000000000e+00    0.000000000e+00
      226000000   -5.877127647e-01    4.416192770e-01    3.169612901e-04    1.319381117e-04    0.000000000e+00    0.000000000e+00    0.000000000e+00    0.000000000e+00
      227625000   -5.723928213e-01    4.578047991e-01    3.226286208e-04    1.537082135e-04    0.000000000e+00    0.000000000e+00    0.000000000e+00    0.000000000e+00
      229250000   -5.566204190e-01    4.733753502e-01    3.070557141e-04    1.588976593e-04    0.000000000e+00    0.000000000e+00    0.000000000e+00    0.000000000e+00
      230875000   -5.403607488e-01    4.885191023e-01    3.375980887e-04    1.522303355e-04    0.000000000e+00    0.000000000e+00    0.000000000e+00    0.000000000e+00
      232500000   -5.238091946e-01    5.029134154e-01    3.091852705e-04    1.466525719e-04    0.000000000e+00    0.000000000e+00    0.000000000e+00    0.000000000e+00
      234125000   -5.065725446e-01    5.164283514e-01    3.165073867e-04    1.636771631e-04    0.000000000e+00    0.000000000e+00    0.000000000e+00    0.000000000e+00
      235750000   -4.892111719e-01    5.296820402e-01    3.248119610e-04    1.463536901e-04    0.000000000e+00    0.000000000e+00    0.000000000e+00    0.000000000e+00
      237375000   -4.714670777e-01    5.421078205e-01    3.258227662e-04    1.511076989e-04    0.000000000e+00    0.000000000e+00    0.000000000e+00    0.000000000e+00
      239000000   -4.533269703e-01    5.539793968e-01    3.088361700e-04    1.511881856e-04    0.000000000e+00    0.000000000e+00    0.000000000e+00    0.000000000e+00
      240625000   -4.348428845e-01    5.650781393e-01    3.101356851e-04    1.501999068e-04    0.000000000e+00    0.000000000e+00    0.000000000e+00    0.000000000e+00
      242250000   -4.162273109e-01    5.759041309e-01    3.227337147e-04    1.563569531e-04    0.000000000e+00    0.000000000e+00    0.000000000e+00    0.000000000e+00
      243875000   -3.968703747e-01    5.858846903e-01    3.444079775e-04    1.556352072e-04    0.000000000e+00    0.000000000e+00    0.000000000e+00    0.000000000e+00
      245500000   -3.777900934e-01    5.954363346e-01    3.244830295e-04    1.272392110e-04    0.000000000e+00    0.000000000e+00    0.000000000e+00    0.000000000e+00
      247125000   -3.581276536e-01    6.042290330e-01    3.424959141e-04    1.491346775e-04    0.000000000e+00    0.000000000e+00    0.000000000e+00    0.000000000e+00
      248750000   -3.384569585e-01    6.123067737e-01    3.237438505e-04    1.401327609e-04    0.000000000e+00    0.000000000e+00    0.000000000e+00    0.000000000e+00
      250375000   -3.185238540e-01    6.198529005e-01    3.553799761e-04    1.584538695e-04    0.000000000e+00    0.000000000e+00    0.000000000e+00    0.000000000e+00
      252000000   -2.987791598e-01    6.267529726e-01    3.678889479e-04    1.431885030e-04    0.000000000e+00    0.000000000e+00    0.000000000e+00    0.000000000e+00
      253625000   -2.788764536e-01    6.328360438e-01    3.473661782e-04    1.541757956e-04    0.000000000e+00    0.000000000e+00    0.000000000e+00    0.000000000e+00
      255250000   -2.589415610e-01    6.383742690e-01    3.477713617e-04    1.538009965e-04    0.000000000e+00    0.000000000e+00    0.000000000e+00    0.000000000e+00
      256875000   -2.389671057e-01    6.432273388e-01    3.449050419e-04    1.488652342e-04    0.000000000e+00    0.000000000e+00    0.000000000e+00    0.000000000e+00
      258500000   -2.186082751e-01    6.474194527e-01    3.602754441e-04    1.593363413e-04    0.000000000e+00    0.000000000e+00    0.000000000e+00    0.000000000e+00
      260125000   -1.989069283e-01    6.511274576e-01    3.837872064e-04    1.366988581e-04    0.000000000e+00    0.000000000e+00    0.000000000e+00    0.000000000e+00
      261750000   -1.786904335e-01    6.544005275e-01    3.581236815e-04    1.627851743e-04    0.000000000e+00    0.000000000e+00    0.000000000e+00    0.000000000e+00
      263375000   -1.586364210e-01    6.566013098e-01    3.772520286e-04    1.444226218e-04    0.000000000e+00    0.000000000e+00    0.000000000e+00    0.000000000e+00
      265000000   -1.384892762e-01    6.580915451e-01    3.682916285e-04    1.547803404e-04    0.000000000e+00    0.000000000e+00    0.000000000e+00    0.000000000e+00
      266625000   -1.186427996e-01    6.593365669e-01    3.564953222e-04    1.336033165e-04    0.000000000e+00    0.000000000e+00    0.000000000e+00    0.000000000e+00
      268250000   -9.886428714e-02    6.598451138e-01    3.722738475e-04    1.467632246e-04    0.000000000e+00    0.000000000e+00    0.000000000e+00    0.000000000e+00
      269875000   -7.894732803e-02    6.597478390e-01    3.587705723e-04    1.368657249e-04    0.000000000e+00    0.000000000e+00    0.000000000e+00    0.000000000e+00
      271500000   -5.930563807e-02    6.591292620e-01    3.603179357e-04    1.320101437e-04    0.000000000e+00    0.000000000e+00    0.000000000e+00    0.000000000e+00
      273125000   -3.978274390e-02    6.579234600e-01    3.782325366e-04    1.418284082e-04    0.000000000e+00    0.000000000e+00    0.000000000e+00    0.000000000e+00
      274750000   -2.024802566e-02    6.562170386e-01    3.540095931e-04    1.464684756e-04    0.000000000e+00    0.000000000e+00    0.000000000e+00    0.000000000e+00
      276375000   -1.043992117e-03    6.539368033e-01    3.455707920e-04    1.519310463e-04    0.000000000e+00    0.000000000e+00    0.000000000e+00    0.000000000e+00
      278000000    1.814330183e-02    6.510452628e-01    3.561874619e-04    1.655860542e-04    0.000000000e+00    0.000000000e+00    0.000000000e+00    0.000000000e+00
      279625000    3.720020875e-02    6.478942633e-01    3.655784822e-04    1.361135655e-04    0.000000000e+00    0.000000000e+00    0.000000000e+00    0.000000000e+00
      281250000    5.612616241e-02    6.438400745e-01    3.427788615e-04    1.666199969e-04    0.000000000e+00    0.000000000e+00    0.000000000e+00    0.000000000e+00
      282875000    7.459163666e-02    6.396494508e-01    3.367991594e-04    1.410512778e-04    0.000000000e+00    0.000000000e+00    0.000000000e+00    0.000000000e+00
      284500000    9.302943200e-02    6.349102259e-01    3.383005678e-04    1.509114227e-04    0.000000000e+00    0.000000000e+00    0.000000000e+00    0.000000000e+00
      286125000    1.112654507e-01    6.294981241e-01    3.254854819e-04    1.364519558e-04    0.000000000e+00    0.000000000e+00    0.000000000e+00    0.000000000e+00
      287750000    1.293122023e-01    6.239169836e-01    3.428540949e-04    1.365485368e-04    0.000000000e+00    0.000000000e+00    0.000000000e+00    0.000000000e+00
      289375000    1.469674110e-01    6.175335050e-01    3.128046228e-04    1.138818843e-04    0.000000000e+00    0.000000000e+00    0.000000000e+00    0.000000000e+00
      291000000    7.327911258e-02    5.790386200e-01   -1.005342710e-04   -1.464630041e-04    0.000000000e+00    0.000000000e+00    0.000000000e+00    0.000000000e+00
      292625000    9.038222581e-02    5.745174289e-01   -1.873598812e-04    1.353100088e-04    0.000000000e+00    0.000000000e+00    0.000000000e+00    0.000000000e+00
      294250000    1.062281504e-01    5.685893893e-01   -7.694592932e-05    5.608029824e-05    0.000000000e+00    0.000000000e+00    0.000000000e+00    0.000000000e+00
      295875000    1.224989370e-01    5.630047917e-01   -1.325686171e-04    2.473010318e-05    0.000000000e+00    0.000000000e+00    0.000000000e+00    0.000000000e+00
      297500000    1.388565451e-01    5.570152998e-01   -2.095379932e-05    2.098408186e-05    0.000000000e+00    0.000000000e+00    0.000000000e+00    0.000000000e+00
      299125000    1.544603556e-01    5.501783490e-01   -1.596708353e-05    1.075938126e-04    0.000000000e+00    0.000000000e+00    0.000000000e+00    0.000000000e+00
      300750000    1.697379649e-01    5.429712534e-01   -1.610911568e-06    2.360578583e-05    0.000000000e+00    0.000000000e+00    0.000000000e+00    0.000000000e+00
      302375000    1.848795861e-01    5.357663035e-01    1.082602612e-04    1.959033580e-05    0.000000000e+00    0.000000000e+00    0.000000000e+00    0.000000000e+00
      304000000    1.995711774e-01    5.283813477e-01    3.939442468e-05    1.576432114e-04    0.000000000e+00    0.000000000e+00    0.000000000e+00    0.000000000e+00
      305625000    2.136193365e-01    5.198575854e-01    3.423648013e-05   -1.229852787e-04    0.000000000e+00    0.000000000e+00    0.000000000e+00    0.000000000e+00
      307250000    2.304560989e-01    5.107882619e-01   -2.420496639e-05    2.546450996e-04    0.000000000e+00    0.000000000e+00    0.000000000e+00    0.000000000e+00
      308875000    2.421763539e-01    5.027673244e-01   -2.072791540e-04   -7.757688763e-06    0.000000000e+00    0.000000000e+00    0.000000000e+00    0.000000000e+00
      310500000    2.561818063e-01    4.938513041e-01   -4.151426765e-05   -1.010042542e-04    0.000000000e+00    0.000000000e+00    0.000000000e+00    0.000000000e+00
      312125000    2.694914341e-01    4.845276177e-01   -5.313042857e-05    1.553619368e-04    0.000000000e+00    0.000000000e+00    0.000000000e+00    0.000000000e+00
      313750000    2.824997008e-01    4.747071266e-01    5.412739483e-06   -7.465149247e-05    0.000000000e+00    0.000000000e+00    0.000000000e+00    0.000000000e+00
      315375000    2.951121926e-01    4.646203518e-01   -1.117402862e-04    1.809903006e-05    0.000000000e+00    0.000000000e+00    0.000000000e+00    0.000000000e+00
      317000000    3.075499237e-01    4.544260204e-01   -1.223381114e-04    1.385573414e-04    0.000000000e+00    0.000000000e+00    0.000000000e+00    0.000000000e+00
      318625000    3.191366792e-01    4.437362552e-01    1.102129090e-06   -8.152284136e-05    0.000000000e+00    0.000000000e+00    0.000000000e+00    0.000000000e+00
      320250000    3.310119212e-01    4.330832958e-01    9.572268027e-06   -3.236408156e-05    0.000000000e+00    0.000000000e+00    0.000000000e+00    0.000000000e+00
      321875000    3.421892822e-01    4.218704104e-01   -1.012218490e-04    2.367598654e-06    0.000000000e+00    0.000000000e+00    0.000000000e+00    0.000000000e+00
      323500000    3.530367911e-01    4.106292427e-01    2.701444464e-05    7.732927043e-05    0.000000000e+00    0.000000000e+00    0.000000000e+00    0.000000000e+00
      325125000    3.638418019e-01    3.992194533e-01   -5.756177052e-05    7.495628961e-05    0.000000000e+00    0.000000000e+00    0.000000000e+00    0.000000000e+00
      326750000    3.738475442e-01    3.878164291e-01   -5.113883890e-05   -2.035699617e-05    0.000000000e+00    0.000000000e+00    0.000000000e+00    0.000000000e+00
      328375000    3.840008974e-01    3.760992587e-01   -8.176767733e-05    1.710405377e-05    0.000000000e+00    0.000000000e+00    0.000000000e+00    0.000000000e+00
      330000000    3.931436241e-01    3.639321625e-01   -4.037481267e-05   -3.984371233e-06    0.000000000e+00    0.000000000e+00    0.000000000e+00    0.000000000e+00
      331625000    4.024608433e-01    3.517486751e-01   -4.270870249e-06    5.260592661e-05    0.000000000e+00    0.000000000e+00    0.000000000e+00    0.000000000e+00
      333250000    4.116044939e-01    3.395588398e-01   -4.743981481e-05   -3.120855399e-05    0.000000000e+00    0.000000000e+00    0.000000000e+00    0.000000000e+00
      334875000    4.199242890e-01    3.269263804e-01   -5.510892879e-05    1.096200549e-06    0.000000000e+00    0.000000000e+00    0.000000000e+00    0.000000000e+00
      336500000    4.279533029e-01    3.141304255e-01    6.134378623e-07   -5.604281978e-05    0.000000000e+00    0.000000000e+00    0.000000000e+00    0.000000000e+00
      338125000    4.358298779e-01    3.016728461e-01   -1.145053648e-05   -1.548949876e-05    0.000000000e+00    0.000000000e+00    0.000000000e+00    0.000000000e+00
      339750000    4.430110753e-01    2.888491452e-01   -1.099278306e-04   -8.321406494e-05    0.000000000e+00    0.000000000e+00    0.000000000e+00    0.000000000e+00
      341375000    4.503474534e-01    2.760212123e-01   -3.349170947e-05    2.567636511e-05    0.000000000e+00    0.000000000e+00    0.000000000e+00    0.000000000e+00
      343000000    4.570360184e-01    2.628608644e-01   -9.523360495e-05    9.421806317e-05    0.000000000e+00    0.000000000e+00    0.000000000e+00    0.000000000e+00
      344625000    4.631543756e-01    2.498586774e-01   -3.447701238e-05    8.228916704e-05    0.000000000e+00    0.000000000e+00    0.000000000e+00    0.000000000e+00
      346250000    4.694371819e-01    2.363915890e-01   -7.984250260e-05   -7.172612095e-05    0.000000000e+00    0.000000000e+00    0.000000000e+00    0.000000000e+00
      347875000    4.750907421e-01    2.231677771e-01    4.977759454e-05   -9.789409523e-05    0.000000000e+00    0.000000000e+00    0.000000000e+00    0.000000000e+00
      349500000    4.806037247e-01    2.097139955e-01   -1.415298902e-04    3.960137747e-06    0.000000000e+00    0.000000000e+00    0.000000000e+00    0.000000000e+00
      351125000    4.858062863e-01    1.962630749e-01   -2.045771398e-04    4.557622742e-05    0.000000000e+00    0.000000000e+00    0.000000000e+00    0.000000000e+00
      352750000    4.906542599e-01    1.828130931e-01   -1.014215959e-04   -7.221305714e-05    0.000000000e+00    0.000000000e+00    0.000000000e+00    0.000000000e+00
      354375000    4.950475097e-01    1.695509553e-01   -1.828561471e-05   -8.527375030e-05    0.000000000e+00    0.000000000e+00    0.000000000e+00    0.000000000e+00
      356000000    4.989157319e-01    1.556565613e-01   -5.516467354e-05    5.896153016e-05    0.000000000e+00    0.000000000e+00    0.000000000e+00    0.000000000e+00
      357625000    5.025416613e-01    1.422249824e-01   -1.873597648e-04   -6.878423301e-05    0.000000000e+00    0.000000000e+00    0.000000000e+00    0.000000000e+00
      359250000    5.061260462e-01    1.286073327e-01   -3.857153206e-05    6.304473936e-05    0.000000000e+00    0.000000000e+00    0.000000000e+00    0.000000000e+00
      360875000    5.094731450e-01    1.149435788e-01   -2.494038781e-04   -9.282005340e-05    0.000000000e+00    0.000000000e+00    0.000000000e+00    0.000000000e+00
      362500000    5.124874115e-01    1.013380587e-01   -5.883977792e-05   -6.879462308e-05    0.000000000e+00    0.000000000e+00    0.000000000e+00    0.000000000e+00
      364125000    5.149341822e-01    8.785814047e-02   -6.431094590e-08   -6.013389793e-06    0.000000000e+00    0.000000000e+00    0.000000000e+00    0.000000000e+00
      365750000    5.171098113e-01    7.412986457e-02   -5.492972195e-05   -6.170145934e-05    0.000000000e+00    0.000000000e+00    0.000000000e+00    0.000000000e+00
      367375000    5.193657875e-01    6.042590737e-02   -3.377772373e-06    4.780328163e-05    0.000000000e+00    0.000000000e+00    0.000000000e+00    0.000000000e+00
      369000000    5.207255483e-01    4.687484354e-02    3.448052439e-06    1.820778416e-04    0.000000000e+00    0.000000000e+00    0.000000000e+00    0.000000000e+00
      370625000    5.221717358e-01    3.328189626e-02   -1.206113011e-04    2.663646228e-05    0.000000000e+00    0.000000000e+00    0.000000000e+00    0.000000000e+00
      372250000    5.232200623e-01    1.992000639e-02   -3.786352318e-05    5.873274404e-06    0.000000000e+00    0.000000000e+00    0.000000000e+00    0.000000000e+00
      373875000    5.239983201e-01    6.236710120e-03   -1.085704498e-04    1.501988208e-06    0.000000000e+00    0.000000000e+00    0.000000000e+00    0.000000000e+00
      375500000    5.244898200e-01   -7.277572528e-03   -1.481660584e-04    6.497118011e-05    0.000000000e+00    0.000000000e+00    0.000000000e+00    0.000000000e+00
      377125000    5.245162845e-01   -2.071580663e-02   -1.628255413e-04   -7.756172272e-05    0.000000000e+00    0.000000000e+00    0.000000000e+00    0.000000000e+00
      378750000    5.243015289e-01   -3.415714577e-02   -1.845215411e-05    5.555179087e-05    0.000000000e+00    0.000000000e+00    0.000000000e+00    0.000000000e+00
      380375000    5.240011215e-01   -4.766605794e-02   -1.061505318e-04    1.684964082e-05    0.000000000e+00    0.000000000e+00    0.000000000e+00    0.000000000e+00
      382000000    5.232951641e-01   -6.097856537e-02   -2.341493237e-04    8.646853530e-05    0.000000000e+00    0.000000000e+00    0.000000000e+00    0.000000000e+00
      383625000    5.223616958e-01   -7.437239587e-02   -1.073415115e-04    7.985332195e-05    0.000000000e+00    0.000000000e+00    0.000000000e+00    0.000000000e+00
      385250000    5.209749937e-01   -8.774022013e-02   -1.256715623e-04    7.567118882e-05    0.000000000e+00    0.000000000e+00    0.000000000e+00    0.000000000e+00
      386875000    5.194443464e-01   -1.009484008e-01   -1.322502703e-05   -2.838950059e-05    0.000000000e+00    0.000000000e+00    0.000000000e+00    0.000000000e+00
      388500000    5.174333453e-01   -1.139622182e-01   -1.919664064e-04    3.290840323e-05    0.000000000e+00    0.000000000e+00    0.000000000e+00    0.000000000e+00
