! NanoVNA-App
! Date: 2024-06-25 16:53:25
! Start: 200MHz Stop: 1.5GHz Points: 801
! S-Parameter data: F S11 S21 S12 S22
# Hz S RI R 50
!     Frequency           S11_Real           S11_Imag           S21_Real           S21_Imag           S12_Real           S12_Imag           S22_Real           S22_Imag
      200000000   -7.507180572e-01    1.167184338e-01    1.656819659e-04    5.646398495e-05    0.000000000e+00    0.000000000e+00    0.000000000e+00    0.000000000e+00
      201625000   -7.458149791e-01    1.398423612e-01    1.849090040e-04    7.869476394e-05    0.000000000e+00    0.000000000e+00    0.000000000e+00    0.000000000e+00
      203250000   -7.401688695e-01    1.627493203e-01    1.972817845e-04    5.535010860e-05    0.000000000e+00    0.000000000e+00    0.000000000e+00    0.000000000e+00
      204875000   -7.338524461e-01    1.852553636e-01    1.983851107e-04    7.100929361e-05    0.000000000e+00    0.000000000e+00    0.000000000e+00    0.000000000e+00
      206500000   -7.267087102e-01    2.074233890e-01    2.028823219e-04    9.762387344e-05    0.000000000e+00    0.000000000e+00    0.000000000e+00    0.000000000e+00
      208125000   -7.187567353e-01    2.293843776e-01    2.540853457e-04    4.914870078e-05    0.000000000e+00    0.000000000e+00    0.000000000e+00    0.000000000e+00
      209750000   -7.103270888e-01    2.510142922e-01    2.248104429e-04    8.449122106e-05    0.000000000e+00    0.000000000e+00    0.000000000e+00    0.000000000e+00
      211375000   -7.008666992e-01    2.722556293e-01    2.488611208e-04    9.672773740e-05    0.000000000e+00    0.000000000e+00    0.000000000e+00    0.000000000e+00
      213000000   -6.908528209e-01    2.929429114e-01    2.572217782e-04    1.114699262e-04    0.000000000e+00    0.000000000e+00    0.000000000e+00    0.000000000e+00
      214625000   -6.801349521e-01    3.131281734e-01    2.666494693e-04    1.030740896e-04    0.000000000e+00    0.000000000e+00    0.000000000e+00    0.000000000e+00
      216250000   -6.686014533e-01    3.332312405e-01    2.812347375e-04    1.022931756e-04    0.000000000e+00    0.000000000e+00    0.000000000e+00    0.000000000e+00
      217875000   -6.565775275e-01    3.524681330e-01    2.788924321e-04    1.451054413e-04    0.000000000e+00    0.000000000e+00    0.000000000e+00    0.000000000e+00
      219500000   -6.439899802e-01    3.713296354e-01    2.845903800e-04    1.387984958e-04    0.000000000e+00    0.000000000e+00    0.000000000e+00    0.000000000e+00
      221125000   -6.308553219e-01    3.897553980e-01    2.892494376e-04    1.324646873e-04    0.000000000e+00    0.000000000e+00    0.000000000e+00    0.000000000e+00
      222750000   -6.169246435e-01    4.075629413e-01    2.703484497e-04    1.296713599e-04    0.000000000e+00    0.000000000e+00    0.000000000e+00    0.000000000e+00
      224375000   -6.025806665e-01    4.249322414e-01    2.947437752e-04    1.472313452e-04    0.000000000e+00    0.000000000e+00    0.000000000e+00    0.000000000e+00
      226000000   -5.877583027e-01    4.416378736e-01    3.071415413e-04    1.410509576e-04    0.000000000e+00    0.000000000e+00    0.000000000e+00    0.000000000e+00
      227625000   -5.724374652e-01    4.577638507e-01    3.170598065e-04    1.466650720e-04    0.000000000e+00    0.000000000e+00    0.000000000e+00    0.000000000e+00
      229250000   -5.566187501e-01    4.733525515e-01    3.174552694e-04    1.383883064e-04    0.000000000e+00    0.000000000e+00    0.000000000e+00    0.000000000e+00
      230875000   -5.403420925e-01    4.883165658e-01    3.224647662e-04    1.486104884e-04    0.000000000e+00    0.000000000e+00    0.000000000e+00    0.000000000e+00
      232500000   -5.236628056e-01    5.028857589e-01    3.018407442e-04    1.481636573e-04    0.000000000e+00    0.000000000e+00    0.000000000e+00    0.000000000e+00
      234125000   -5.067653060e-01    5.164460540e-01    3.224726534e-04    1.543167746e-04    0.000000000e+00    0.000000000e+00    0.000000000e+00    0.000000000e+00
      235750000   -4.892512262e-01    5.296452641e-01    3.183878143e-04    1.393146085e-04    0.000000000e+00    0.000000000e+00    0.000000000e+00    0.000000000e+00
      237375000   -4.714881182e-01    5.420694947e-01    3.074639535e-04    1.747661154e-04    0.000000000e+00    0.000000000e+00    0.000000000e+00    0.000000000e+00
      239000000   -4.533028901e-01    5.539051890e-01    3.447215713e-04    1.510701841e-04    0.000000000e+00    0.000000000e+00    0.000000000e+00    0.000000000e+00
      240625000   -4.349669218e-01    5.651375055e-01    3.203484521e-04    1.627933671e-04    0.000000000e+00    0.000000000e+00    0.000000000e+00    0.000000000e+00
      242250000   -4.161118269e-01    5.758945942e-01    3.322064586e-04    1.427905372e-04    0.000000000e+00    0.000000000e+00    0.000000000e+00    0.000000000e+00
      243875000   -3.970637918e-01    5.859921575e-01    3.356226080e-04    1.604204590e-04    0.000000000e+00    0.000000000e+00    0.000000000e+00    0.000000000e+00
      245500000   -3.778154552e-01    5.953792334e-01    3.213813179e-04    1.299364085e-04    0.000000000e+00    0.000000000e+00    0.000000000e+00    0.000000000e+00
      247125000   -3.581698537e-01    6.043238044e-01    3.389266203e-04    1.537218632e-04    0.000000000e+00    0.000000000e+00    0.000000000e+00    0.000000000e+00
      248750000   -3.383748829e-01    6.123991609e-01    3.319980169e-04    1.544669067e-04    0.000000000e+00    0.000000000e+00    0.000000000e+00    0.000000000e+00
      250375000   -3.186281025e-01    6.200200319e-01    3.590185952e-04    1.454552257e-04    0.000000000e+00    0.000000000e+00    0.000000000e+00    0.000000000e+00
      252000000   -2.987554967e-01    6.267865896e-01    3.464116016e-04    1.580022654e-04    0.000000000e+00    0.000000000e+00    0.000000000e+00    0.000000000e+00
      253625000   -2.787950635e-01    6.328667402e-01    3.432880621e-04    1.409667893e-04    0.000000000e+00    0.000000000e+00    0.000000000e+00    0.000000000e+00
      255250000   -2.587613761e-01    6.385050416e-01    3.365292505e-04    1.339216105e-04    0.000000000e+00    0.000000000e+00    0.000000000e+00    0.000000000e+00
      256875000   -2.388665974e-01    6.433289647e-01    3.330034378e-04    1.672260551e-04    0.000000000e+00    0.000000000e+00    0.000000000e+00    0.000000000e+00
      258500000   -2.186803520e-01    6.474264264e-01    3.417734697e-04    1.335646957e-04    0.000000000e+00    0.000000000e+00    0.000000000e+00    0.000000000e+00
      260125000   -1.987758726e-01    6.511136889e-01    3.539082536e-04    1.669234334e-04    0.000000000e+00    0.000000000e+00    0.000000000e+00    0.000000000e+00
      261750000   -1.786713749e-01    6.543295979e-01    3.500136954e-04    1.637698588e-04    0.000000000e+00    0.000000000e+00    0.000000000e+00    0.000000000e+00
      263375000   -1.586580127e-01    6.564857960e-01    3.665694967e-04    1.741751039e-04    0.000000000e+00    0.000000000e+00    0.000000000e+00    0.000000000e+00
      265000000   -1.386197507e-01    6.581423879e-01    3.511713585e-04    1.478572231e-04    0.000000000e+00    0.000000000e+00    0.000000000e+00    0.000000000e+00
      266625000   -1.188421249e-01    6.591103673e-01    3.635329194e-04    1.521641534e-04    0.000000000e+00    0.000000000e+00    0.000000000e+00    0.000000000e+00
      268250000   -9.881737083e-02    6.598108411e-01    3.627506376e-04    1.370605751e-04    0.000000000e+00    0.000000000e+00    0.000000000e+00    0.000000000e+00
      269875000   -7.895541191e-02    6.598210335e-01    3.597823670e-04    1.592887274e-04    0.000000000e+00    0.000000000e+00    0.000000000e+00    0.000000000e+00
      271500000   -5.931487679e-02    6.590715051e-01    3.609858104e-04    1.646795863e-04    0.000000000e+00    0.000000000e+00    0.000000000e+00    0.000000000e+00
      273125000   -3.988989070e-02    6.579029560e-01    3.687579301e-04    1.570294262e-04    0.000000000e+00    0.000000000e+00    0.000000000e+00    0.000000000e+00
      274750000   -2.029259875e-02    6.561073065e-01    3.619712952e-04    1.278908749e-04    0.000000000e+00    0.000000000e+00    0.000000000e+00    0.000000000e+00
      276375000   -9.491546662e-04    6.539365053e-01    3.288823063e-04    1.385342766e-04    0.000000000e+00    0.000000000e+00    0.000000000e+00    0.000000000e+00
      278000000    1.826024987e-02    6.511848569e-01    3.679934889e-04    1.726724149e-04    0.000000000e+00    0.000000000e+00    0.000000000e+00    0.000000000e+00
      279625000    3.724651411e-02    6.478027105e-01    3.740283428e-04    1.587971201e-04    0.000000000e+00    0.000000000e+00    0.000000000e+00    0.000000000e+00
      281250000    5.610969290e-02    6.439034939e-01    3.611325810e-04    1.528094290e-04    0.000000000e+00    0.000000000e+00    0.000000000e+00    0.000000000e+00
      282875000    7.459071279e-02    6.396754384e-01    3.464746405e-04    1.513664029e-04    0.000000000e+00    0.000000000e+00    0.000000000e+00    0.000000000e+00
      284500000    9.307502210e-02    6.348174214e-01    3.493027180e-04    1.535341726e-04    0.000000000e+00    0.000000000e+00    0.000000000e+00    0.000000000e+00
      286125000    1.112440899e-01    6.294572949e-01    3.345276928e-04    1.238868717e-04    0.000000000e+00    0.000000000e+00    0.000000000e+00    0.000000000e+00
      287750000    1.292539835e-01    6.239477396e-01    3.218071361e-04    1.117542342e-04    0.000000000e+00    0.000000000e+00    0.000000000e+00    0.000000000e+00
      289375000    1.469605565e-01    6.173827648e-01    3.303772246e-04    1.151718825e-04    0.000000000e+00    0.000000000e+00    0.000000000e+00    0.000000000e+00
      291000000    7.394979149e-02    5.789531469e-01    1.687477488e-04    2.596847480e-05    0.000000000e+00    0.000000000e+00    0.000000000e+00    0.000000000e+00
      292625000    8.983208239e-02    5.744834542e-01   -1.371050748e-04    1.563406549e-04    0.000000000e+00    0.000000000e+00    0.000000000e+00    0.000000000e+00
      294250000    1.063167751e-01    5.692198277e-01   -3.166474926e-05   -2.538839472e-04    0.000000000e+00    0.000000000e+00    0.000000000e+00    0.000000000e+00
      295875000    1.224047914e-01    5.633383393e-01   -8.686975343e-05    9.408254118e-05    0.000000000e+00    0.000000000e+00    0.000000000e+00    0.000000000e+00
      297500000    1.390648782e-01    5.563596487e-01    6.303569535e-05    1.250552577e-05    0.000000000e+00    0.000000000e+00    0.000000000e+00    0.000000000e+00
      299125000    1.546883434e-01    5.500438213e-01   -8.330708806e-05    1.218453035e-04    0.000000000e+00    0.000000000e+00    0.000000000e+00    0.000000000e+00
      300750000    1.698552072e-01    5.428426266e-01   -5.097650501e-05   -6.981175102e-05    0.000000000e+00    0.000000000e+00    0.000000000e+00    0.000000000e+00
      302375000    1.851511151e-01    5.360301137e-01   -2.272235433e-04    3.013025889e-05    0.000000000e+00    0.000000000e+00    0.000000000e+00    0.000000000e+00
      304000000    1.993703246e-01    5.276969671e-01   -6.559840403e-05   -2.645722816e-05    0.000000000e+00    0.000000000e+00    0.000000000e+00    0.000000000e+00
      305625000    2.138918340e-01    5.203496814e-01   -2.748758998e-04   -1.677082764e-05    0.000000000e+00    0.000000000e+00    0.000000000e+00    0.000000000e+00
      307250000    2.261935472e-01    5.123133063e-01   -3.503578773e-05   -4.937551785e-05    0.000000000e+00    0.000000000e+00    0.000000000e+00    0.000000000e+00
      308875000    2.423783988e-01    5.025531054e-01   -1.401414920e-04   -6.751020555e-05    0.000000000e+00    0.000000000e+00    0.000000000e+00    0.000000000e+00
      310500000    2.562876642e-01    4.936339259e-01   -1.056922338e-04    7.098181231e-05    0.000000000e+00    0.000000000e+00    0.000000000e+00    0.000000000e+00
      312125000    2.697677910e-01    4.843388796e-01   -1.307750790e-04   -1.006507318e-05    0.000000000e+00    0.000000000e+00    0.000000000e+00    0.000000000e+00
      313750000    2.821662128e-01    4.747802317e-01   -1.601268450e-04    6.228224811e-05    0.000000000e+00    0.000000000e+00    0.000000000e+00    0.000000000e+00
      315375000    2.950511277e-01    4.644192457e-01   -5.534191223e-05   -5.807912021e-05    0.000000000e+00    0.000000000e+00    0.000000000e+00    0.000000000e+00
      317000000    3.073095679e-01    4.546154737e-01   -1.106009804e-04    1.272658410e-04    0.000000000e+00    0.000000000e+00    0.000000000e+00    0.000000000e+00
      318625000    3.192756176e-01    4.437696934e-01    3.444820686e-05    2.211374704e-05    0.000000000e+00    0.000000000e+00    0.000000000e+00    0.000000000e+00
      320250000    3.308699727e-01    4.328441322e-01    5.970345228e-05   -5.527463145e-06    0.000000000e+00    0.000000000e+00    0.000000000e+00    0.000000000e+00
      321875000    3.421174288e-01    4.218731821e-01   -1.146430513e-04    7.181578985e-05    0.000000000e+00    0.000000000e+00    0.000000000e+00    0.000000000e+00
      323500000    3.528090715e-01    4.106428623e-01   -7.960329094e-05   -6.759254757e-05    0.000000000e+00    0.000000000e+00    0.000000000e+00    0.000000000e+00
      325125000    3.636010289e-01    3.992954493e-01   -8.397237980e-05   -1.183969289e-05    0.000000000e+00    0.000000000e+00    0.000000000e+00    0.000000000e+00
      326750000    3.741383851e-01    3.878144026e-01   -4.988912406e-05    1.340263498e-05    0.000000000e+00    0.000000000e+00    0.000000000e+00    0.000000000e+00
      328375000    3.836975098e-01    3.758288324e-01   -8.495263319e-05   -2.683642015e-05    0.000000000e+00    0.000000000e+00    0.000000000e+00    0.000000000e+00
      330000000    3.934090734e-01    3.639824390e-01    3.180659769e-05   -2.997164302e-05    0.000000000e+00    0.000000000e+00    0.000000000e+00    0.000000000e+00
      331625000    4.025644660e-01    3.517329395e-01    5.683000199e-05   -8.184572653e-05    0.000000000e+00    0.000000000e+00    0.000000000e+00    0.000000000e+00
      333250000    4.112335742e-01    3.394888639e-01    6.237693742e-05    7.407438534e-05    0.000000000e+00    0.000000000e+00    0.000000000e+00    0.000000000e+00
      334875000    4.197670519e-01    3.268829882e-01   -1.161182154e-04    7.935253234e-05    0.000000000e+00    0.000000000e+00    0.000000000e+00    0.000000000e+00
      336500000    4.278035164e-01    3.141701519e-01    1.621303454e-05   -1.514481555e-04    0.000000000e+00    0.000000000e+00    0.000000000e+00    0.000000000e+00
      338125000    4.356965125e-01    3.016382158e-01   -5.207849972e-05   -1.049243801e-04    0.000000000e+00    0.000000000e+00    0.000000000e+00    0.000000000e+00
      339750000    4.431705177e-01    2.889452279e-01   -3.873381138e-05   -1.842107667e-05    0.000000000e+00    0.000000000e+00    0.000000000e+00    0.000000000e+00
      341375000    4.502653480e-01    2.758709490e-01   -6.697664503e-05    2.887949813e-05    0.000000000e+00    0.000000000e+00    0.000000000e+00    0.000000000e+00
      343000000    4.571661651e-01    2.627680302e-01   -8.171581430e-05    7.678341353e-05    0.000000000e+00    0.000000000e+00    0.000000000e+00    0.000000000e+00
      344625000    4.636529684e-01    2.499238104e-01    2.516071982e-05   -6.024994946e-05    0.000000000e+00    0.000000000e+00    0.000000000e+00    0.000000000e+00
      346250000    4.695702195e-01    2.364582717e-01   -7.588234439e-05   -1.849162618e-05    0.000000000e+00    0.000000000e+00    0.000000000e+00    0.000000000e+00
      347875000    4.753594697e-01    2.233643532e-01   -5.369147402e-05    2.999173375e-06    0.000000000e+00    0.000000000e+00    0.000000000e+00    0.000000000e+00
      349500000    4.807083905e-01    2.098104507e-01   -4.258562694e-05   -1.236047829e-04    0.000000000e+00    0.000000000e+00    0.000000000e+00    0.000000000e+00
      351125000    4.857057631e-01    1.966565400e-01    3.221762483e-07   -9.272349416e-05    0.000000000e+00    0.000000000e+00    0.000000000e+00    0.000000000e+00
      352750000    4.904685616e-01    1.828614920e-01   -9.765170398e-05    8.420347876e-05    0.000000000e+00    0.000000000e+00    0.000000000e+00    0.000000000e+00
      354375000    4.948970377e-01    1.693759710e-01   -1.454187586e-04   -6.737190415e-05    0.000000000e+00    0.000000000e+00    0.000000000e+00    0.000000000e+00
      356000000    4.990763068e-01    1.558634192e-01   -1.154476486e-04    1.545876512e-05    0.000000000e+00    0.000000000e+00    0.000000000e+00    0.000000000e+00
      357625000    5.029781461e-01    1.421847343e-01    2.995441901e-05   -1.213219275e-05    0.000000000e+00    0.000000000e+00    0.000000000e+00    0.000000000e+00
      359250000    5.062925220e-01    1.285927892e-01   -1.201349442e-04   -6.934926660e-06    0.000000000e+00    0.000000000e+00    0.000000000e+00    0.000000000e+00
      360875000    5.095385313e-01    1.150580570e-01   -5.711702397e-05   -3.521866893e-05    0.000000000e+00    0.000000000e+00    0.000000000e+00    0.000000000e+00
      362500000    5.124326348e-01    1.013452411e-01   -1.850580302e-04    1.398056338e-05    0.000000000e+00    0.000000000e+00    0.000000000e+00    0.000000000e+00
      364125000    5.149954557e-01    8.768835664e-02   -1.214509248e-04   -4.794929919e-05    0.000000000e+00    0.000000000e+00    0.000000000e+00    0.000000000e+00
      365750000    5.172812343e-01    7.422970235e-02    1.006132243e-05   -1.591276523e-04    0.000000000e+00    0.000000000e+00    0.000000000e+00    0.000000000e+00
      367375000    5.191969275e-01    6.047830358e-02   -2.244768111e-04   -1.625210416e-06    0.000000000e+00    0.000000000e+00    0.000000000e+00    0.000000000e+00
      369000000    5.208384395e-01    4.692718759e-02   -1.597002665e-05    3.981604823e-05    0.000000000e+00    0.000000000e+00    0.000000000e+00    0.000000000e+00
      370625000    5.222321153e-01    3.320669010e-02   -3.915208799e-05    2.050866606e-04    0.000000000e+00    0.000000000e+00    0.000000000e+00    0.000000000e+00
      372250000    5.232083797e-01    1.952850632e-02   -1.183871354e-04    1.105865249e-05    0.000000000e+00    0.000000000e+00    0.000000000e+00    0.000000000e+00
      373875000    5.240318775e-01    6.322977599e-03   -8.866420103e-05    2.722045792e-05    0.000000000e+00    0.000000000e+00    0.000000000e+00    0.000000000e+00
      375500000    5.244103074e-01   -7.315863855e-03   -2.714341463e-05    1.973744802e-04    0.000000000e+00    0.000000000e+00    0.000000000e+00    0.000000000e+00
      377125000    5.247644782e-01   -2.081931196e-02   -7.126382843e-05   -9.765564027e-05    0.000000000e+00    0.000000000e+00    0.000000000e+00    0.000000000e+00
      378750000    5.244717598e-01   -3.415816650e-02   -2.729382140e-05    5.804180182e-05    0.000000000e+00    0.000000000e+00    0.000000000e+00    0.000000000e+00
      380375000    5.239593983e-01   -4.758219048e-02   -5.680711183e-05    1.164780679e-05    0.000000000e+00    0.000000000e+00    0.000000000e+00    0.000000000e+00
      382000000    5.231766105e-01   -6.114810333e-02   -6.814178778e-05    9.694912296e-05    0.000000000e+00    0.000000000e+00    0.000000000e+00    0.000000000e+00
      383625000    5.221918821e-01   -7.418844849e-02   -1.752041680e-05    3.415770334e-05    0.000000000e+00    0.000000000e+00    0.000000000e+00    0.000000000e+00
      385250000    5.210458636e-01   -8.767269552e-02   -1.580864628e-04    2.402789141e-05    0.000000000e+00    0.000000000e+00    0.000000000e+00    0.000000000e+00
      386875000    5.193896294e-01   -1.009395421e-01   -1.040916395e-04    3.738133819e-05    0.000000000e+00    0.000000000e+00    0.000000000e+00    0.000000000e+00
      388500000    5.174077749e-01   -1.139558405e-01   -1.106496202e-04    4.880574488e-05    0.000000000e+00    0.000000000e+00    0.000000000e+00    0.000000000e+00
