! NanoVNA-App
! Date: 2024-06-25 16:53:32
! Start: 200MHz Stop: 1.5GHz Points: 801
! S-Parameter data: F S11 S21 S12 S22
# Hz S RI R 50
!     Frequency           S11_Real           S11_Imag           S21_Real           S21_Imag           S12_Real           S12_Imag           S22_Real           S22_Imag
      200000000   -7.505015135e-01    1.168557554e-01    1.521012600e-04    6.299779488e-05    0.000000000e+00    0.000000000e+00    0.000000000e+00    0.000000000e+00
      201625000   -7.457917333e-01    1.398482919e-01    1.899226190e-04    8.132660150e-05    0.000000000e+00    0.000000000e+00    0.000000000e+00    0.000000000e+00
      203250000   -7.403048277e-01    1.627308130e-01    2.041732514e-04    8.492503548e-05    0.000000000e+00    0.000000000e+00    0.000000000e+00    0.000000000e+00
      204875000   -7.338919044e-01    1.853562593e-01    2.190369996e-04    6.558135647e-05    0.000000000e+00    0.000000000e+00    0.000000000e+00    0.000000000e+00
      206500000   -7.266419530e-01    2.074831426e-01    2.354123135e-04    8.055891522e-05    0.000000000e+00    0.000000000e+00    0.000000000e+00    0.000000000e+00
      208125000   -7.188377380e-01    2.293551713e-01    2.428467560e-04    9.402271098e-05    0.000000000e+00    0.000000000e+00    0.000000000e+00    0.000000000e+00
      209750000   -7.103038430e-01    2.510335743e-01    2.600659500e-04    8.115633682e-05    0.000000000e+00    0.000000000e+00    0.000000000e+00    0.000000000e+00
      211375000   -7.008621097e-01    2.720961273e-01    2.505223092e-04    1.018785551e-04    0.000000000e+00    0.000000000e+00    0.000000000e+00    0.000000000e+00
      213000000   -6.907284856e-01    2.928768098e-01    2.665678912e-04    9.228079580e-05    0.000000000e+00    0.000000000e+00    0.000000000e+00    0.000000000e+00
      214625000   -6.800077558e-01    3.131785989e-01    2.681371407e-04    1.125122653e-04    0.000000000e+00    0.000000000e+00    0.000000000e+00    0.000000000e+00
      216250000   -6.686143875e-01    3.330844641e-01    2.796161280e-04    1.020107666e-04    0.000000000e+00    0.000000000e+00    0.000000000e+00    0.000000000e+00
      217875000   -6.565731764e-01    3.525246382e-01    2.925879089e-04    1.089205616e-04    0.000000000e+00    0.000000000e+00    0.000000000e+00    0.000000000e+00
      219500000   -6.439684033e-01    3.713546097e-01    2.983848972e-04    1.173966448e-04    0.000000000e+00    0.000000000e+00    0.000000000e+00    0.000000000e+00
      221125000   -6.307611465e-01    3.897795379e-01    2.723672369e-04    1.354116830e-04    0.000000000e+00    0.000000000e+00    0.000000000e+00    0.000000000e+00
      222750000   -6.169822812e-01    4.076263309e-01    3.075308632e-04    1.228922774e-04    0.000000000e+00    0.000000000e+00    0.000000000e+00    0.000000000e+00
      224375000   -6.026763320e-01    4.249039590e-01    3.070640669e-04    1.391953265e-04    0.000000000e+00    0.000000000e+00    0.000000000e+00    0.000000000e+00
      226000000   -5.877164602e-01    4.416932166e-01    2.842125832e-04    1.554931514e-04    0.000000000e+00    0.000000000e+00    0.000000000e+00    0.000000000e+00
      227625000   -5.723642111e-01    4.578053653e-01    3.133396676e-04    1.516770426e-04    0.000000000e+00    0.000000000e+00    0.000000000e+00    0.000000000e+00
      229250000   -5.566474199e-01    4.735068381e-01    3.135251172e-04    1.509895374e-04    0.000000000e+00    0.000000000e+00    0.000000000e+00    0.000000000e+00
      230875000   -5.403810740e-01    4.884666800e-01    2.892194898e-04    1.340708550e-04    0.000000000e+00    0.000000000e+00    0.000000000e+00    0.000000000e+00
      232500000   -5.238341093e-01    5.029769540e-01    3.116276930e-04    1.405806834e-04    0.000000000e+00    0.000000000e+00    0.000000000e+00    0.000000000e+00
      234125000   -5.067009926e-01    5.164559484e-01    3.200010979e-04    1.339645241e-04    0.000000000e+00    0.000000000e+00    0.000000000e+00    0.000000000e+00
      235750000   -4.891737103e-01    5.298007131e-01    3.322955454e-04    1.217279350e-04    0.000000000e+00    0.000000000e+00    0.000000000e+00    0.000000000e+00
      237375000   -4.716484249e-01    5.421636701e-01    3.326965380e-04    1.508095156e-04    0.000000000e+00    0.000000000e+00    0.000000000e+00    0.000000000e+00
      239000000   -4.534267485e-01    5.539628863e-01    3.082496405e-04    1.365526841e-04    0.000000000e+00    0.000000000e+00    0.000000000e+00    0.000000000e+00
      240625000   -4.348461032e-01    5.650308728e-01    3.343924764e-04    1.566509018e-04    0.000000000e+00    0.000000000e+00    0.000000000e+00    0.000000000e+00
      242250000   -4.162753820e-01    5.760037899e-01    3.348095925e-04    1.492500596e-04    0.000000000e+00    0.000000000e+00    0.000000000e+00    0.000000000e+00
      243875000   -3.970431387e-01    5.860352516e-01    3.541242040e-04    1.488605485e-04    0.000000000e+00    0.000000000e+00    0.000000000e+00    0.000000000e+00
      245500000   -3.777348399e-01    5.953653455e-01    3.474547702e-04    1.294602844e-04    0.000000000e+00    0.000000000e+00    0.000000000e+00    0.000000000e+00
      247125000   -3.582841456e-01    6.042788625e-01    3.158579930e-04    1.482775406e-04    0.000000000e+00    0.000000000e+00    0.000000000e+00    0.000000000e+00
      248750000   -3.383785486e-01    6.124841571e-01    3.375028027e-04    1.514191390e-04    0.000000000e+00    0.000000000e+00    0.000000000e+00    0.000000000e+00
      250375000   -3.186559975e-01    6.199637055e-01    3.554546565e-04    1.537960343e-04    0.000000000e+00    0.000000000e+00    0.000000000e+00    0.000000000e+00
      252000000   -2.987881303e-01    6.268689632e-01    3.622308141e-04    1.582091645e-04    0.000000000e+00    0.000000000e+00    0.000000000e+00    0.000000000e+00
      253625000   -2.788989544e-01    6.330070496e-01    3.344239958e-04    1.483899105e-04    0.000000000e+00    0.000000000e+00    0.000000000e+00    0.000000000e+00
      255250000   -2.588875890e-01    6.384776235e-01    3.382213763e-04    1.579502132e-04    0.000000000e+00    0.000000000e+00    0.000000000e+00    0.000000000e+00
      256875000   -2.389242947e-01    6.433010101e-01    3.599717747e-04    1.480684878e-04    0.000000000e+00    0.000000000e+00    0.000000000e+00    0.000000000e+00
      258500000   -2.186689526e-01    6.474660039e-01    3.512435651e-04    1.515271288e-04    0.000000000e+00    0.000000000e+00    0.000000000e+00    0.000000000e+00
      260125000   -1.988168508e-01    6.511437297e-01    3.614459711e-04    1.474561286e-04    0.000000000e+00    0.000000000e+00    0.000000000e+00    0.000000000e+00
      261750000   -1.787437350e-01    6.542743444e-01    3.516729339e-04    1.523099636e-04    0.000000000e+00    0.000000000e+00    0.000000000e+00    0.000000000e+00
      263375000   -1.587094516e-01    6.566140056e-01    3.697078791e-04    1.583580306e-04    0.000000000e+00    0.000000000e+00    0.000000000e+00    0.000000000e+00
      265000000   -1.387682557e-01    6.581088305e-01    3.611180000e-04    1.558066142e-04    0.000000000e+00    0.000000000e+00    0.000000000e+00    0.000000000e+00
      266625000   -1.187095940e-01    6.592237949e-01    3.624552337e-04    1.443764486e-04    0.000000000e+00    0.000000000e+00    0.000000000e+00    0.000000000e+00
      268250000   -9.891071171e-02    6.596820354e-01    3.470431548e-04    1.469860727e-04    0.000000000e+00    0.000000000e+00    0.000000000e+00    0.000000000e+00
      269875000   -7.904024422e-02    6.597300768e-01    3.406348405e-04    1.636648085e-04    0.000000000e+00    0.000000000e+00    0.000000000e+00    0.000000000e+00
      271500000   -5.934672803e-02    6.591734886e-01    3.528768138e-04    1.320336160e-04    0.000000000e+00    0.000000000e+00    0.000000000e+00    0.000000000e+00
      273125000   -3.979594260e-02    6.579136252e-01    3.839240235e-04    1.614627836e-04    0.000000000e+00    0.000000000e+00    0.000000000e+00    0.000000000e+00
      274750000   -2.013598010e-02    6.561152339e-01    3.291246248e-04    1.354848791e-04    0.000000000e+00    0.000000000e+00    0.000000000e+00    0.000000000e+00
      276375000   -1.009618281e-03    6.539257169e-01    3.302101686e-04    1.432220160e-04    0.000000000e+00    0.000000000e+00    0.000000000e+00    0.000000000e+00
      278000000    1.812117547e-02    6.511165500e-01    3.485387715e-04    1.492365554e-04    0.000000000e+00    0.000000000e+00    0.000000000e+00    0.000000000e+00
      279625000    3.710924834e-02    6.477090716e-01    3.570711706e-04    1.398924942e-04    0.000000000e+00    0.000000000e+00    0.000000000e+00    0.000000000e+00
      281250000    5.587430298e-02    6.440026760e-01    3.529472742e-04    1.405141666e-04    0.000000000e+00    0.000000000e+00    0.000000000e+00    0.000000000e+00
      282875000    7.453566790e-02    6.395611167e-01    3.367188328e-04    1.322460303e-04    0.000000000e+00    0.000000000e+00    0.000000000e+00    0.000000000e+00
      284500000    9.298737347e-02    6.348464489e-01    3.410406935e-04    1.475366007e-04    0.000000000e+00    0.000000000e+00    0.000000000e+00    0.000000000e+00
      286125000    1.114290282e-01    6.296305656e-01    3.323623096e-04    1.209340189e-04    0.000000000e+00    0.000000000e+00    0.000000000e+00    0.000000000e+00
      287750000    1.292649657e-01    6.240551472e-01    3.095577122e-04    1.337573631e-04    0.000000000e+00    0.000000000e+00    0.000000000e+00    0.000000000e+00
      289375000    1.469242126e-01    6.173854470e-01    3.357341920e-04    1.105892734e-04    0.000000000e+00    0.000000000e+00    0.000000000e+00    0.000000000e+00
      291000000    7.344535738e-02    5.791337490e-01   -1.568257285e-04   -1.943658135e-04    0.000000000e+00    0.000000000e+00    0.000000000e+00    0.000000000e+00
      292625000    9.030945599e-02    5.747223496e-01    2.986416803e-05    8.182381134e-05    0.000000000e+00    0.000000000e+00    0.000000000e+00    0.000000000e+00
      294250000    1.065048948e-01    5.693184733e-01   -2.099884841e-05    7.780185115e-05    0.000000000e+00    0.000000000e+00    0.000000000e+00    0.000000000e+00
      295875000    1.225556582e-01    5.633384585e-01   -2.240256799e-05   -4.916672697e-05    0.000000000e+00    0.000000000e+00    0.000000000e+00    0.000000000e+00
      297500000    1.383944899e-01    5.568313003e-01    3.637088230e-05    1.112174796e-04    0.000000000e+00    0.000000000e+00    0.000000000e+00    0.000000000e+00
      299125000    1.541588455e-01    5.504767299e-01   -1.266655745e-04    6.963181477e-06    0.000000000e+00    0.000000000e+00    0.000000000e+00    0.000000000e+00
      300750000    1.699854732e-01    5.431815982e-01   -1.585176215e-04    1.627663150e-04    0.000000000e+00    0.000000000e+00    0.000000000e+00    0.000000000e+00
      302375000    1.844702959e-01    5.354658961e-01   -8.629734657e-05    5.667187361e-05    0.000000000e+00    0.000000000e+00    0.000000000e+00    0.000000000e+00
      304000000    1.994987875e-01    5.276205540e-01   -5.058558600e-05   -2.895343641e-06    0.000000000e+00    0.000000000e+00    0.000000000e+00    0.000000000e+00
      305625000    2.141437680e-01    5.197114348e-01   -6.764486170e-05    1.268664619e-05    0.000000000e+00    0.000000000e+00    0.000000000e+00    0.000000000e+00
      307250000    2.278737575e-01    5.093349218e-01    1.209536786e-04   -1.189541872e-04    0.000000000e+00    0.000000000e+00    0.000000000e+00    0.000000000e+00
      308875000    2.426441759e-01    5.031079650e-01   -1.017755276e-04    1.535085321e-04    0.000000000e+00    0.000000000e+00    0.000000000e+00    0.000000000e+00
      310500000    2.559611499e-01    4.939695299e-01   -3.125125659e-05    4.861109846e-05    0.000000000e+00    0.000000000e+00    0.000000000e+00    0.000000000e+00
      312125000    2.694812417e-01    4.842411876e-01   -1.071471925e-04    3.335489055e-06    0.000000000e+00    0.000000000e+00    0.000000000e+00    0.000000000e+00
      313750000    2.823190391e-01    4.745904803e-01   -1.558901931e-05   -3.654426791e-06    0.000000000e+00    0.000000000e+00    0.000000000e+00    0.000000000e+00
      315375000    2.949868441e-01    4.641887248e-01   -1.235551317e-04    1.574355701e-05    0.000000000e+00    0.000000000e+00    0.000000000e+00    0.000000000e+00
      317000000    3.074765503e-01    4.543779194e-01   -2.862794281e-05    7.564519910e-05    0.000000000e+00    0.000000000e+00    0.000000000e+00    0.000000000e+00
      318625000    3.196544349e-01    4.441924691e-01   -1.128299118e-04    5.570382200e-05    0.000000000e+00    0.000000000e+00    0.000000000e+00    0.000000000e+00
      320250000    3.308633566e-01    4.327634871e-01   -9.079658048e-05   -5.017785224e-05    0.000000000e+00    0.000000000e+00    0.000000000e+00    0.000000000e+00
      321875000    3.420189917e-01    4.219359756e-01   -2.374210271e-05    5.187606803e-05    0.000000000e+00    0.000000000e+00    0.000000000e+00    0.000000000e+00
      323500000    3.531324267e-01    4.106378555e-01    5.894927745e-05    5.039488769e-06    0.000000000e+00    0.000000000e+00    0.000000000e+00    0.000000000e+00
      325125000    3.637447059e-01    3.994953036e-01   -4.074895332e-05    4.746676132e-05    0.000000000e+00    0.000000000e+00    0.000000000e+00    0.000000000e+00
      326750000    3.735896051e-01    3.878014982e-01   -5.148774653e-05    5.373870226e-05    0.000000000e+00    0.000000000e+00    0.000000000e+00    0.000000000e+00
      328375000    3.837265074e-01    3.760398924e-01   -6.873977691e-05    8.021934627e-05    0.000000000e+00    0.000000000e+00    0.000000000e+00    0.000000000e+00
      330000000    3.935489357e-01    3.638612926e-01   -1.626716548e-04   -2.375082295e-05    0.000000000e+00    0.000000000e+00    0.000000000e+00    0.000000000e+00
      331625000    4.024968445e-01    3.515632451e-01   -4.149064625e-05    1.321256150e-05    0.000000000e+00    0.000000000e+00    0.000000000e+00    0.000000000e+00
      333250000    4.114704728e-01    3.393272460e-01   -8.691453695e-05    4.229241313e-05    0.000000000e+00    0.000000000e+00    0.000000000e+00    0.000000000e+00
      334875000    4.200049043e-01    3.267959058e-01   -7.191440091e-05   -8.456816431e-05    0.000000000e+00    0.000000000e+00    0.000000000e+00    0.000000000e+00
      336500000    4.279242158e-01    3.141494989e-01   -8.211464592e-05    6.838545232e-05    0.000000000e+00    0.000000000e+00    0.000000000e+00    0.000000000e+00
      338125000    4.357127547e-01    3.016452789e-01   -7.173217455e-05    1.047744227e-04    0.000000000e+00    0.000000000e+00    0.000000000e+00    0.000000000e+00
      339750000    4.430227280e-01    2.887991071e-01    1.618321985e-04    2.706803389e-05    0.000000000e+00    0.000000000e+00    0.000000000e+00    0.000000000e+00
      341375000    4.502695799e-01    2.756362557e-01    4.159653690e-05   -1.129236261e-04    0.000000000e+00    0.000000000e+00    0.000000000e+00    0.000000000e+00
      343000000    4.568429589e-01    2.627118230e-01   -1.231718634e-04   -7.424222713e-05    0.000000000e+00    0.000000000e+00    0.000000000e+00    0.000000000e+00
      344625000    4.635909796e-01    2.497725040e-01   -4.276592517e-05   -1.501085644e-04    0.000000000e+00    0.000000000e+00    0.000000000e+00    0.000000000e+00
      346250000    4.695094824e-01    2.364269495e-01   -1.137021809e-05   -5.356792462e-05    0.000000000e+00    0.000000000e+00    0.000000000e+00    0.000000000e+00
      347875000    4.755969644e-01    2.232225537e-01   -1.771616371e-04   -8.918112144e-06    0.000000000e+00    0.000000000e+00    0.000000000e+00    0.000000000e+00
      349500000    4.807624221e-01    2.099890709e-01   -2.102352155e-04   -1.818881574e-04    0.000000000e+00    0.000000000e+00    0.000000000e+00    0.000000000e+00
      351125000    4.857035279e-01    1.964260489e-01   -6.622067303e-05   -3.854940223e-05    0.000000000e+00    0.000000000e+00    0.000000000e+00    0.000000000e+00
      352750000    4.905495644e-01    1.830624193e-01   -8.384272951e-05    6.895772458e-06    0.000000000e+00    0.000000000e+00    0.000000000e+00    0.000000000e+00
      354375000    4.949986637e-01    1.694881022e-01   -6.024074901e-05    4.760384854e-06    0.000000000e+00    0.000000000e+00    0.000000000e+00    0.000000000e+00
      356000000    4.989885092e-01    1.558173150e-01    1.085664098e-05   -3.484382250e-05    0.000000000e+00    0.000000000e+00    0.000000000e+00    0.000000000e+00
      357625000    5.027934909e-01    1.421281546e-01   -1.402607159e-04    5.990259524e-05    0.000000000e+00    0.000000000e+00    0.000000000e+00    0.000000000e+00
      359250000    5.066630244e-01    1.286829710e-01    6.053061952e-05   -6.957368169e-05    0.000000000e+00    0.000000000e+00    0.000000000e+00    0.000000000e+00
      360875000    5.095145106e-01    1.151352897e-01   -1.081841838e-04    7.850137627e-05    0.000000000e+00    0.000000000e+00    0.000000000e+00    0.000000000e+00
      362500000    5.124812722e-01    1.014341339e-01   -4.725151666e-05    1.231541683e-04    0.000000000e+00    0.000000000e+00    0.000000000e+00    0.000000000e+00
      364125000    5.149166584e-01    8.761472255e-02   -2.151951048e-05   -5.602393867e-05    0.000000000e+00    0.000000000e+00    0.000000000e+00    0.000000000e+00
      365750000    5.172787905e-01    7.400809973e-02   -1.380213216e-04   -1.559814846e-04    0.000000000e+00    0.000000000e+00    0.000000000e+00    0.000000000e+00
      367375000    5.191269517e-01    6.048415601e-02   -1.012752837e-04   -4.375072604e-05    0.000000000e+00    0.000000000e+00    0.000000000e+00    0.000000000e+00
      369000000    5.208509564e-01    4.694114625e-02   -6.180571654e-05    1.862119097e-05    0.000000000e+00    0.000000000e+00    0.000000000e+00    0.000000000e+00
      370625000    5.223641992e-01    3.344706446e-02   -9.786251758e-05   -2.525633863e-05    0.000000000e+00    0.000000000e+00    0.000000000e+00    0.000000000e+00
      372250000    5.236303210e-01    1.965516247e-02   -2.646497342e-05    3.580216071e-05    0.000000000e+00    0.000000000e+00    0.000000000e+00    0.000000000e+00
      373875000    5.240238309e-01    6.321137305e-03   -1.858118194e-04   -1.210668779e-05    0.000000000e+00    0.000000000e+00    0.000000000e+00    0.000000000e+00
      375500000    5.245004296e-01   -7.264336571e-03   -2.851100544e-05   -8.199898730e-05    0.000000000e+00    0.000000000e+00    0.000000000e+00    0.000000000e+00
      377125000    5.246048570e-01   -2.081936412e-02    8.981091923e-06    7.217859820e-05    0.000000000e+00    0.000000000e+00    0.000000000e+00    0.000000000e+00
      378750000    5.243599415e-01   -3.422289342e-02   -1.331807580e-04    4.372826879e-06    0.000000000e+00    0.000000000e+00    0.000000000e+00    0.000000000e+00
      380375000    5.239988565e-01   -4.746148735e-02   -1.378782326e-04   -2.605248847e-05    0.000000000e+00    0.000000000e+00    0.000000000e+00    0.000000000e+00
      382000000    5.232185125e-01   -6.111918390e-02   -3.402953371e-05    1.079671347e-04    0.000000000e+00    0.000000000e+00    0.000000000e+00    0.000000000e+00
      383625000    5.222149491e-01   -7.442988455e-02   -2.904283247e-05    7.550755981e-05    0.000000000e+00    0.000000000e+00    0.000000000e+00    0.000000000e+00
      385250000    5.209436417e-01   -8.789227158e-02   -5.867174877e-06    1.337441881e-05    0.000000000e+00    0.000000000e+00    0.000000000e+00    0.000000000e+00
      386875000    5.193889141e-01   -1.010497287e-01   -2.128282358e-04    3.476547136e-06    0.000000000e+00    0.000000000e+00    0.000000000e+00    0.000000000e+00
      388500000    5.174304843e-01   -1.141181812e-01   -2.277847962e-04    5.328217594e-05    0.000000000e+00    0.000000000e+00    0.000000000e+00    0.000000000e+00
