! NanoVNA-App
! Date: 2024-06-25 16:53:35
! Start: 200MHz Stop: 1.5GHz Points: 801
! S-Parameter data: F S11 S21 S12 S22
# Hz S RI R 50
!     Frequency           S11_Real           S11_Imag           S21_Real           S21_Imag           S12_Real           S12_Imag           S22_Real           S22_Imag
      200000000   -7.506397367e-01    1.167721450e-01    1.649356564e-04    4.879422340e-05    0.000000000e+00    0.000000000e+00    0.000000000e+00    0.000000000e+00
      201625000   -7.457850575e-01    1.399380714e-01    1.896043395e-04    6.728625158e-05    0.000000000e+00    0.000000000e+00    0.000000000e+00    0.000000000e+00
      203250000   -7.401028275e-01    1.627062559e-01    1.981524547e-04    5.216411228e-05    0.000000000e+00    0.000000000e+00    0.000000000e+00    0.000000000e+00
      204875000   -7.338356972e-01    1.852581501e-01    2.173552057e-04    6.729357847e-05    0.000000000e+00    0.000000000e+00    0.000000000e+00    0.000000000e+00
      206500000   -7.267163992e-01    2.074603140e-01    2.295667218e-04    6.503265467e-05    0.000000000e+00    0.000000000e+00    0.000000000e+00    0.000000000e+00
      208125000   -7.187838554e-01    2.293979824e-01    2.395293413e-04    8.069079195e-05    0.000000000e+00    0.000000000e+00    0.000000000e+00    0.000000000e+00
      209750000   -7.102600932e-01    2.511160076e-01    2.552948426e-04    9.055154078e-05    0.000000000e+00    0.000000000e+00    0.000000000e+00    0.000000000e+00
      211375000   -7.007741332e-01    2.721882164e-01    2.573455859e-04    9.363120625e-05    0.000000000e+00    0.000000000e+00    0.000000000e+00    0.000000000e+00
      213000000   -6.907638311e-01    2.928617597e-01    2.480662952e-04    9.924793267e-05    0.000000000e+00    0.000000000e+00    0.000000000e+00    0.000000000e+00
      214625000   -6.800556183e-01    3.131541312e-01    2.599915315e-04    1.316005946e-04    0.000000000e+00    0.000000000e+00    0.000000000e+00    0.000000000e+00
      216250000   -6.686482430e-01    3.332166970e-01    2.574412501e-04    9.292012692e-05    0.000000000e+00    0.000000000e+00    0.000000000e+00    0.000000000e+00
      217875000   -6.565865278e-01    3.525149524e-01    2.782252559e-04    1.371578837e-04    0.000000000e+00    0.000000000e+00    0.000000000e+00    0.000000000e+00
      219500000   -6.439777613e-01    3.713337779e-01    2.765059471e-04    1.155254722e-04    0.000000000e+00    0.000000000e+00    0.000000000e+00    0.000000000e+00
      221125000   -6.307808161e-01    3.897439837e-01    2.749528794e-04    1.113101462e-04    0.000000000e+00    0.000000000e+00    0.000000000e+00    0.000000000e+00
      222750000   -6.168143749e-01    4.078043997e-01    2.697224554e-04    1.370313257e-04    0.000000000e+00    0.000000000e+00    0.000000000e+00    0.000000000e+00
      224375000   -6.025889516e-01    4.249108732e-01    2.871436882e-04    1.219155820e-04    0.000000000e+00    0.000000000e+00    0.000000000e+00    0.000000000e+00
      226000000   -5.877240896e-01    4.417306185e-01    3.051600943e-04    1.178714447e-04    0.000000000e+00    0.000000000e+00    0.000000000e+00    0.000000000e+00
      227625000   -5.724531412e-01    4.577673078e-01    2.964392479e-04    1.609006140e-04    0.000000000e+00    0.000000000e+00    0.000000000e+00    0.000000000e+00
      229250000   -5.564937592e-01    4.734716415e-01    2.931935887e-04    1.392845006e-04    0.000000000e+00    0.000000000e+00    0.000000000e+00    0.000000000e+00
      230875000   -5.402905941e-01    4.883447886e-01    3.138890315e-04    1.538549986e-04    0.000000000e+00    0.000000000e+00    0.000000000e+00    0.000000000e+00
      232500000   -5.237967372e-01    5.029256940e-01    3.133096907e-04    1.504598913e-04    0.000000000e+00    0.000000000e+00    0.000000000e+00    0.000000000e+00
      234125000   -5.067315102e-01    5.164343715e-01    3.129723191e-04    1.482186199e-04    0.000000000e+00    0.000000000e+00    0.000000000e+00    0.000000000e+00
      235750000   -4.892573059e-01    5.297217369e-01    3.475401318e-04    1.505592081e-04    0.000000000e+00    0.000000000e+00    0.000000000e+00    0.000000000e+00
      237375000   -4.714096189e-01    5.421828032e-01    3.289263987e-04    1.394613355e-04    0.000000000e+00    0.000000000e+00    0.000000000e+00    0.000000000e+00
      239000000   -4.534417689e-01    5.539644361e-01    3.159359039e-04    1.534940529e-04    0.000000000e+00    0.000000000e+00    0.000000000e+00    0.000000000e+00
      240625000   -4.349001944e-01    5.651597381e-01    3.354754590e-04    1.252476795e-04    0.000000000e+00    0.000000000e+00    0.000000000e+00    0.000000000e+00
      242250000   -4.161596298e-01    5.758281946e-01    3.375099914e-04    1.611835760e-04    0.000000000e+00    0.000000000e+00    0.000000000e+00    0.000000000e+00
      243875000   -3.972014487e-01    5.858595371e-01    3.266007116e-04    1.510741422e-04    0.000000000e+00    0.000000000e+00    0.000000000e+00    0.000000000e+00
      245500000   -3.777528703e-01    5.953863859e-01    3.478033759e-04    1.509366557e-04    0.000000000e+00    0.000000000e+00    0.000000000e+00    0.000000000e+00
      247125000   -3.581483364e-01    6.042419672e-01    3.350588086e-04    1.511102164e-04    0.000000000e+00    0.000000000e+00    0.000000000e+00    0.000000000e+00
      248750000   -3.384886682e-01    6.125039458e-01    3.701618116e-04    1.382580667e-04    0.000000000e+00    0.000000000e+00    0.000000000e+00    0.000000000e+00
      250375000   -3.186528087e-01    6.200153232e-01    3.548940585e-04    1.413870777e-04    0.000000000e+00    0.000000000e+00    0.000000000e+00    0.000000000e+00
      252000000   -2.987857163e-01    6.267936230e-01    3.476075362e-04    1.357761066e-04    0.000000000e+00    0.000000000e+00    0.000000000e+00    0.000000000e+00
      253625000   -2.789033651e-01    6.328817010e-01    3.423176822e-04    1.686755131e-04    0.000000000e+00    0.000000000e+00    0.000000000e+00    0.000000000e+00
      255250000   -2.588146627e-01    6.384438276e-01    3.567803069e-04    1.421393536e-04    0.000000000e+00    0.000000000e+00    0.000000000e+00    0.000000000e+00
      256875000   -2.389371395e-01    6.432648301e-01    3.686736745e-04    1.405076036e-04    0.000000000e+00    0.000000000e+00    0.000000000e+00    0.000000000e+00
      258500000   -2.185138315e-01    6.475673318e-01    3.395861131e-04    1.564434788e-04    0.000000000e+00    0.000000000e+00    0.000000000e+00    0.000000000e+00
      260125000   -1.987879723e-01    6.510814428e-01    3.768946626e-04    1.577989751e-04    0.000000000e+00    0.000000000e+00    0.000000000e+00    0.000000000e+00
      261750000   -1.787602156e-01    6.542958617e-01    3.505985951e-04    1.555292547e-04    0.000000000e+00    0.000000000e+00    0.000000000e+00    0.000000000e+00
      263375000   -1.586120725e-01    6.563859582e-01    3.644323151e-04    1.464198867e-04    0.000000000e+00    0.000000000e+00    0.000000000e+00    0.000000000e+00
      265000000   -1.386221796e-01    6.581814289e-01    3.518418234e-04    1.518791832e-04    0.000000000e+00    0.000000000e+00    0.000000000e+00    0.000000000e+00
      266625000   -1.187064648e-01    6.592036486e-01    3.592669091e-04    1.634471409e-04    0.000000000e+00    0.000000000e+00    0.000000000e+00    0.000000000e+00
      268250000   -9.884423763e-02    6.599726677e-01    3.613111330e-04    1.531803573e-04    0.000000000e+00    0.000000000e+00    0.000000000e+00    0.000000000e+00
      269875000   -7.901278883e-02    6.598156691e-01    3.439701395e-04    1.528867142e-04    0.000000000e+00    0.000000000e+00    0.000000000e+00    0.000000000e+00
      271500000   -5.927950516e-02    6.590909958e-01    3.374872613e-04    1.675501408e-04    0.000000000e+00    0.000000000e+00    0.000000000e+00    0.000000000e+00
      273125000   -3.978861868e-02    6.580370069e-01    3.487348149e-04    1.465505775e-04    0.000000000e+00    0.000000000e+00    0.000000000e+00    0.000000000e+00
      274750000   -2.033767104e-02    6.562015414e-01    3.473360848e-04    1.489639253e-04    0.000000000e+00    0.000000000e+00    0.000000000e+00    0.000000000e+00
      276375000   -9.580456535e-04    6.538962126e-01    3.400270652e-04    1.594138885e-04    0.000000000e+00    0.000000000e+00    0.000000000e+00    0.000000000e+00
      278000000    1.806928031e-02    6.510021687e-01    3.607795225e-04    1.440014603e-04    0.000000000e+00    0.000000000e+00    0.000000000e+00    0.000000000e+00
      279625000    3.708728030e-02    6.479140520e-01    3.572734713e-04    1.165977665e-04    0.000000000e+00    0.000000000e+00    0.000000000e+00    0.000000000e+00
      281250000    5.604546890e-02    6.438524723e-01    3.466288326e-04    1.625950390e-04    0.000000000e+00    0.000000000e+00    0.000000000e+00    0.000000000e+00
      282875000    7.459325343e-02    6.396129727e-01    3.505002533e-04    1.300747390e-04    0.000000000e+00    0.000000000e+00    0.000000000e+00    0.000000000e+00
      284500000    9.308522940e-02    6.348911524e-01    3.156465536e-04    1.255756797e-04    0.000000000e+00    0.000000000e+00    0.000000000e+00    0.000000000e+00
      286125000    1.112151891e-01    6.294088960e-01    3.298646188e-04    1.374272542e-04    0.000000000e+00    0.000000000e+00    0.000000000e+00    0.000000000e+00
      287750000    1.293818206e-01    6.239052415e-01    3.267241409e-04    1.276919502e-04    0.000000000e+00    0.000000000e+00    0.000000000e+00    0.000000000e+00
      289375000    1.469231248e-01    6.173673272e-01    3.208434500e-04    1.220283521e-04    0.000000000e+00    0.000000000e+00    0.000000000e+00    0.000000000e+00
      291000000    7.306635380e-02    5.785803795e-01   -4.400644684e-05   -5.356795009e-05    0.000000000e+00    0.000000000e+00    0.000000000e+00    0.000000000e+00
      292625000    9.038113803e-02    5.741216540e-01   -1.288825151e-04   -5.646922727e-05    0.000000000e+00    0.000000000e+00    0.000000000e+00    0.000000000e+00
      294250000    1.065605134e-01    5.693846941e-01    8.596095722e-05    1.643641190e-05    0.000000000e+00    0.000000000e+00    0.000000000e+00    0.000000000e+00
      295875000    1.226605028e-01    5.633846521e-01   -4.648747199e-05   -2.749153100e-05    0.000000000e+00    0.000000000e+00    0.000000000e+00    0.000000000e+00
      297500000    1.388525367e-01    5.566772223e-01    2.952525210e-05   -3.045159974e-05    0.000000000e+00    0.000000000e+00    0.000000000e+00    0.000000000e+00
      299125000    1.541429162e-01    5.502004623e-01   -8.456706564e-05    4.820691970e-07    0.000000000e+00    0.000000000e+00    0.000000000e+00    0.000000000e+00
      300750000    1.699335128e-01    5.431487560e-01    1.124171322e-04   -7.122507213e-06    0.000000000e+00    0.000000000e+00    0.000000000e+00    0.000000000e+00
      302375000    1.845277399e-01    5.360488892e-01   -7.982525858e-05    1.911441068e-04    0.000000000e+00    0.000000000e+00    0.000000000e+00    0.000000000e+00
      304000000    1.996670961e-01    5.281680226e-01   -4.578902372e-05   -3.884781836e-05    0.000000000e+00    0.000000000e+00    0.000000000e+00    0.000000000e+00
      305625000    2.145137340e-01    5.204286575e-01    5.269632311e-06    1.153675694e-04    0.000000000e+00    0.000000000e+00    0.000000000e+00    0.000000000e+00
      307250000    2.304249406e-01    5.109021664e-01   -9.430784849e-05    2.287306779e-05    0.000000000e+00    0.000000000e+00    0.000000000e+00    0.000000000e+00
      308875000    2.425454408e-01    5.025830269e-01    1.200738916e-04   -9.989606770e-05    0.000000000e+00    0.000000000e+00    0.000000000e+00    0.000000000e+00
      310500000    2.564422786e-01    4.941159785e-01   -3.016738447e-05    5.726257223e-05    0.000000000e+00    0.000000000e+00    0.000000000e+00    0.000000000e+00
      312125000    2.692936957e-01    4.841284752e-01   -1.093497267e-04    1.111007077e-04    0.000000000e+00    0.000000000e+00    0.000000000e+00    0.000000000e+00
      313750000    2.822296321e-01    4.744962454e-01   -1.106147392e-04   -6.682953972e-05    0.000000000e+00    0.000000000e+00    0.000000000e+00    0.000000000e+00
      315375000    2.949302793e-01    4.645245969e-01    3.997503154e-05   -3.799742990e-05    0.000000000e+00    0.000000000e+00    0.000000000e+00    0.000000000e+00
      317000000    3.072342575e-01    4.544699192e-01   -2.427760046e-05   -1.218270627e-04    0.000000000e+00    0.000000000e+00    0.000000000e+00    0.000000000e+00
      318625000    3.191269338e-01    4.439704120e-01    1.368273843e-05   -8.342333786e-06    0.000000000e+00    0.000000000e+00    0.000000000e+00    0.000000000e+00
      320250000    3.307868838e-01    4.329622984e-01   -8.549700681e-08    5.488799798e-05    0.000000000e+00    0.000000000e+00    0.000000000e+00    0.000000000e+00
      321875000    3.420307338e-01    4.220167398e-01   -1.247170439e-04   -3.990235928e-05    0.000000000e+00    0.000000000e+00    0.000000000e+00    0.000000000e+00
      323500000    3.531294167e-01    4.107875228e-01    3.110103717e-05    1.490806062e-05    0.000000000e+00    0.000000000e+00    0.000000000e+00    0.000000000e+00
      325125000    3.637272716e-01    3.994255960e-01   -9.321125981e-05    3.054492117e-05    0.000000000e+00    0.000000000e+00    0.000000000e+00    0.000000000e+00
      326750000    3.740349412e-01    3.875609338e-01   -2.096534299e-04    1.826741709e-06    0.000000000e+00    0.000000000e+00    0.000000000e+00    0.000000000e+00
      328375000    3.838612735e-01    3.760206103e-01   -1.408447424e-04   -5.834118201e-05    0.000000000e+00    0.000000000e+00    0.000000000e+00    0.000000000e+00
      330000000    3.930923939e-01    3.636136651e-01   -2.505411523e-08   -3.455451224e-05    0.000000000e+00    0.000000000e+00    0.000000000e+00    0.000000000e+00
      331625000    4.025797844e-01    3.518917859e-01   -1.643903815e-04    6.340879281e-06    0.000000000e+00    0.000000000e+00    0.000000000e+00    0.000000000e+00
      333250000    4.113963544e-01    3.393734396e-01   -1.309086074e-04   -7.442841161e-05    0.000000000e+00    0.000000000e+00    0.000000000e+00    0.000000000e+00
      334875000    4.197725654e-01    3.266452849e-01   -4.289664503e-05    5.992585284e-05    0.000000000e+00    0.000000000e+00    0.000000000e+00    0.000000000e+00
      336500000    4.277249873e-01    3.141503930e-01   -6.422831211e-05   -8.993397932e-05    0.000000000e+00    0.000000000e+00    0.000000000e+00    0.000000000e+00
      338125000    4.358214140e-01    3.017738760e-01   -8.930803597e-05    1.049483253e-04    0.000000000e+00    0.000000000e+00    0.000000000e+00    0.000000000e+00
      339750000    4.429495037e-01    2.888657451e-01   -8.104016888e-05   -2.192094544e-04    0.000000000e+00    0.000000000e+00    0.000000000e+00    0.000000000e+00
      341375000    4.501204789e-01    2.757878602e-01   -9.315658099e-05   -1.043758239e-04    0.000000000e+00    0.000000000e+00    0.000000000e+00    0.000000000e+00
      343000000    4.571658075e-01    2.625840008e-01   -1.055146931e-04    6.589396071e-05    0.000000000e+00    0.000000000e+00    0.000000000e+00    0.000000000e+00
      344625000    4.632224143e-01    2.497107834e-01   -7.677669782e-05   -5.376484478e-05    0.000000000e+00    0.000000000e+00    0.000000000e+00    0.000000000e+00
      346250000    4.694973826e-01    2.365331203e-01   -7.186998846e-05   -1.275718678e-04    0.000000000e+00    0.000000000e+00    0.000000000e+00    0.000000000e+00
      347875000    4.753242433e-01    2.233983725e-01   -1.125268755e-04    6.762243720e-05    0.000000000e+00    0.000000000e+00    0.000000000e+00    0.000000000e+00
      349500000    4.807129800e-01    2.098980993e-01   -6.614258018e-05   -3.768911847e-05    0.000000000e+00    0.000000000e+00    0.000000000e+00    0.000000000e+00
      351125000    4.858815670e-01    1.964056939e-01    1.014840309e-04    1.735926344e-05    0.000000000e+00    0.000000000e+00    0.000000000e+00    0.000000000e+00
      352750000    4.906865954e-01    1.828367114e-01   -2.524715674e-04   -9.165223310e-05    0.000000000e+00    0.000000000e+00    0.000000000e+00    0.000000000e+00
      354375000    4.952007830e-01    1.695664823e-01   -3.764541907e-05    7.622868725e-05    0.000000000e+00    0.000000000e+00    0.000000000e+00    0.000000000e+00
      356000000    4.990077615e-01    1.558635682e-01   -1.118158616e-04   -7.423880015e-05    0.000000000e+00    0.000000000e+00    0.000000000e+00    0.000000000e+00
      357625000    5.028494596e-01    1.421221346e-01    7.424705109e-05    4.820487447e-05    0.000000000e+00    0.000000000e+00    0.000000000e+00    0.000000000e+00
      359250000    5.065034032e-01    1.285077333e-01   -1.006882576e-05   -6.440027391e-06    0.000000000e+00    0.000000000e+00    0.000000000e+00    0.000000000e+00
      360875000    5.094195604e-01    1.150726900e-01   -8.403343236e-05   -1.118549553e-04    0.000000000e+00    0.000000000e+00    0.000000000e+00    0.000000000e+00
      362500000    5.125408173e-01    1.013062373e-01    6.016060433e-05   -1.311422966e-04    0.000000000e+00    0.000000000e+00    0.000000000e+00    0.000000000e+00
      364125000    5.150222778e-01    8.767718822e-02   -4.507496215e-06   -7.960639778e-05    0.000000000e+00    0.000000000e+00    0.000000000e+00    0.000000000e+00
      365750000    5.172273517e-01    7.421641052e-02   -2.330794086e-04   -5.433031765e-05    0.000000000e+00    0.000000000e+00    0.000000000e+00    0.000000000e+00
      367375000    5.193575025e-01    6.048091128e-02   -6.520785246e-05    3.144941729e-05    0.000000000e+00    0.000000000e+00    0.000000000e+00    0.000000000e+00
      369000000    5.210834742e-01    4.686740786e-02   -1.328377839e-04   -2.937495083e-06    0.000000000e+00    0.000000000e+00    0.000000000e+00    0.000000000e+00
      370625000    5.220348239e-01    3.333698213e-02    3.330408799e-05   -5.509154653e-05    0.000000000e+00    0.000000000e+00    0.000000000e+00    0.000000000e+00
      372250000    5.228456855e-01    1.978740096e-02   -7.664156874e-05    1.767133508e-04    0.000000000e+00    0.000000000e+00    0.000000000e+00    0.000000000e+00
      373875000    5.241393447e-01    6.323108450e-03    5.109992708e-05   -4.739855649e-05    0.000000000e+00    0.000000000e+00    0.000000000e+00    0.000000000e+00
      375500000    5.244995952e-01   -7.341333199e-03   -2.042396518e-04    9.910678637e-05    0.000000000e+00    0.000000000e+00    0.000000000e+00    0.000000000e+00
      377125000    5.245929956e-01   -2.061256580e-02   -8.870836609e-05    3.087884397e-05    0.000000000e+00    0.000000000e+00    0.000000000e+00    0.000000000e+00
      378750000    5.244072080e-01   -3.415912017e-02   -2.459074021e-04    2.030237956e-04    0.000000000e+00    0.000000000e+00    0.000000000e+00    0.000000000e+00
      380375000    5.240210891e-01   -4.751333222e-02   -3.667503915e-05    8.692916163e-05    0.000000000e+00    0.000000000e+00    0.000000000e+00    0.000000000e+00
      382000000    5.233031511e-01   -6.115046889e-02    2.151762419e-05    2.009754244e-04    0.000000000e+00    0.000000000e+00    0.000000000e+00    0.000000000e+00
      383625000    5.220313668e-01   -7.448165864e-02   -1.093521587e-05   -2.250496800e-05    0.000000000e+00    0.000000000e+00    0.000000000e+00    0.000000000e+00
      385250000    5.209692121e-01   -8.793732524e-02   -2.494827786e-04   -3.385443051e-05    0.000000000e+00    0.000000000e+00    0.000000000e+00    0.000000000e+00
      386875000    5.193386674e-01   -1.009267569e-01   -2.030943724e-04   -5.032051195e-05    0.000000000e+00    0.000000000e+00    0.000000000e+00    0.000000000e+00
      388500000    5.174579620e-01   -1.139967069e-01   -1.680361456e-04    1.825781801e-04    0.000000000e+00    0.000000000e+00    0.000000000e+00    0.000000000e+00
