! NanoVNA-App
! Date: 2024-06-25 16:53:38
! Start: 200MHz Stop: 1.5GHz Points: 801
! S-Parameter data: F S11 S21 S12 S22
# Hz S RI R 50
!     Frequency           S11_Real           S11_Imag           S21_Real           S21_Imag           S12_Real           S12_Imag           S22_Real           S22_Imag
      200000000   -7.506319880e-01    1.167637631e-01    1.568567968e-04    5.908453022e-05    0.000000000e+00    0.000000000e+00    0.000000000e+00    0.000000000e+00
      201625000   -7.457726598e-01    1.398403496e-01    1.860806369e-04    6.296465290e-05    0.000000000e+00    0.000000000e+00    0.000000000e+00    0.000000000e+00
      203250000   -7.401871085e-01    1.626915932e-01    1.988440199e-04    7.787154027e-05    0.000000000e+00    0.000000000e+00    0.000000000e+00    0.000000000e+00
      204875000   -7.338359952e-01    1.853092313e-01    2.322354267e-04    6.190629210e-05    0.000000000e+00    0.000000000e+00    0.000000000e+00    0.000000000e+00
      206500000   -7.267187238e-01    2.074458897e-01    2.300967899e-04    6.605056114e-05    0.000000000e+00    0.000000000e+00    0.000000000e+00    0.000000000e+00
      208125000   -7.187586427e-01    2.293791920e-01    2.414505725e-04    8.236359281e-05    0.000000000e+00    0.000000000e+00    0.000000000e+00    0.000000000e+00
      209750000   -7.102304101e-01    2.511095107e-01    2.448837331e-04    9.947779472e-05    0.000000000e+00    0.000000000e+00    0.000000000e+00    0.000000000e+00
      211375000   -7.007917762e-01    2.721048594e-01    2.486924350e-04    1.085171461e-04    0.000000000e+00    0.000000000e+00    0.000000000e+00    0.000000000e+00
      213000000   -6.908068061e-01    2.928810120e-01    2.586707415e-04    8.259938477e-05    0.000000000e+00    0.000000000e+00    0.000000000e+00    0.000000000e+00
      214625000   -6.800891757e-01    3.131469488e-01    2.703783684e-04    1.098854482e-04    0.000000000e+00    0.000000000e+00    0.000000000e+00    0.000000000e+00
      216250000   -6.684988141e-01    3.330186605e-01    2.466655569e-04    1.297466224e-04    0.000000000e+00    0.000000000e+00    0.000000000e+00    0.000000000e+00
      217875000   -6.566018462e-01    3.524782062e-01    2.656727156e-04    1.236319949e-04    0.000000000e+00    0.000000000e+00    0.000000000e+00    0.000000000e+00
      219500000   -6.440358162e-01    3.714382350e-01    2.708676620e-04    1.271282235e-04    0.000000000e+00    0.000000000e+00    0.000000000e+00    0.000000000e+00
      221125000   -6.308721304e-01    3.897504508e-01    2.959465201e-04    1.355634595e-04    0.000000000e+00    0.000000000e+00    0.000000000e+00    0.000000000e+00
      222750000   -6.169050932e-01    4.076524675e-01    2.965213207e-04    1.184605062e-04    0.000000000e+00    0.000000000e+00    0.000000000e+00    0.000000000e+00
      224375000   -6.025484204e-01    4.249107838e-01    2.881822875e-04    1.551780006e-04    0.000000000e+00    0.000000000e+00    0.000000000e+00    0.000000000e+00
      226000000   -5.877876282e-01    4.416982532e-01    3.004168684e-04    1.264224848e-04    0.000000000e+00    0.000000000e+00    0.000000000e+00    0.000000000e+00
      227625000   -5.724508166e-01    4.577386379e-01    2.934551740e-04    1.495187753e-04    0.000000000e+00    0.000000000e+00    0.000000000e+00    0.000000000e+00
      229250000   -5.566086173e-01    4.732583761e-01    3.264368279e-04    1.414827129e-04    0.000000000e+00    0.000000000e+00    0.000000000e+00    0.000000000e+00
      230875000   -5.404171944e-01    4.884683788e-01    2.975826501e-04    1.416665764e-04    0.000000000e+00    0.000000000e+00    0.000000000e+00    0.000000000e+00
      232500000   -5.237653852e-01    5.027886629e-01    3.252395254e-04    1.354919659e-04    0.000000000e+00    0.000000000e+00    0.000000000e+00    0.000000000e+00
      234125000   -5.067095757e-01    5.165426731e-01    3.271397727e-04    1.553051407e-04    0.000000000e+00    0.000000000e+00    0.000000000e+00    0.000000000e+00
      235750000   -4.892148972e-01    5.295962691e-01    3.085746721e-04    1.451337448e-04    0.000000000e+00    0.000000000e+00    0.000000000e+00    0.000000000e+00
      237375000   -4.714711905e-01    5.420976877e-01    3.218221827e-04    1.491976727e-04    0.000000000e+00    0.000000000e+00    0.000000000e+00    0.000000000e+00
      239000000   -4.532963037e-01    5.538523793e-01    3.066287318e-04    1.475936733e-04    0.000000000e+00    0.000000000e+00    0.000000000e+00    0.000000000e+00
      240625000   -4.349621534e-01    5.651491880e-01    3.373659274e-04    1.293918031e-04    0.000000000e+00    0.000000000e+00    0.000000000e+00    0.000000000e+00
      242250000   -4.161088765e-01    5.758737922e-01    3.222546366e-04    1.463710068e-04    0.000000000e+00    0.000000000e+00    0.000000000e+00    0.000000000e+00
      243875000   -3.970477879e-01    5.858725905e-01    3.329814353e-04    1.325475459e-04    0.000000000e+00    0.000000000e+00    0.000000000e+00    0.000000000e+00
      245500000   -3.777217567e-01    5.954123735e-01    3.343855496e-04    1.388351229e-04    0.000000000e+00    0.000000000e+00    0.000000000e+00    0.000000000e+00
      247125000   -3.581733108e-01    6.042311788e-01    3.358467948e-04    1.356225985e-04    0.000000000e+00    0.000000000e+00    0.000000000e+00    0.000000000e+00
      248750000   -3.383959532e-01    6.123238206e-01    3.414935782e-04    1.611449552e-04    0.000000000e+00    0.000000000e+00    0.000000000e+00    0.000000000e+00
      250375000   -3.186393082e-01    6.198919415e-01    3.307499574e-04    1.252165530e-04    0.000000000e+00    0.000000000e+00    0.000000000e+00    0.000000000e+00
      252000000   -2.988288999e-01    6.267327070e-01    3.383815056e-04    1.650555350e-04    0.000000000e+00    0.000000000e+00    0.000000000e+00    0.000000000e+00
      253625000   -2.789097428e-01    6.328984499e-01    3.524616768e-04    1.450648851e-04    0.000000000e+00    0.000000000e+00    0.000000000e+00    0.000000000e+00
      255250000   -2.588082850e-01    6.383332014e-01    3.473390243e-04    1.484144886e-04    0.000000000e+00    0.000000000e+00    0.000000000e+00    0.000000000e+00
      256875000   -2.388784289e-01    6.432759762e-01    3.558369353e-04    1.566143328e-04    0.000000000e+00    0.000000000e+00    0.000000000e+00    0.000000000e+00
      258500000   -2.187585235e-01    6.474447846e-01    3.487641225e-04    1.676342217e-04    0.000000000e+00    0.000000000e+00    0.000000000e+00    0.000000000e+00
      260125000   -1.988990605e-01    6.509684324e-01    3.556988086e-04    1.553680631e-04    0.000000000e+00    0.000000000e+00    0.000000000e+00    0.000000000e+00
      261750000   -1.786684394e-01    6.543607712e-01    3.453648533e-04    1.560217497e-04    0.000000000e+00    0.000000000e+00    0.000000000e+00    0.000000000e+00
      263375000   -1.586418301e-01    6.563285589e-01    3.602563811e-04    1.646651071e-04    0.000000000e+00    0.000000000e+00    0.000000000e+00    0.000000000e+00
      265000000   -1.387564540e-01    6.582959890e-01    3.429772041e-04    1.334076078e-04    0.000000000e+00    0.000000000e+00    0.000000000e+00    0.000000000e+00
      266625000   -1.188186035e-01    6.591495872e-01    3.654696920e-04    1.433162106e-04    0.000000000e+00    0.000000000e+00    0.000000000e+00    0.000000000e+00
      268250000   -9.883151948e-02    6.597135067e-01    3.869186621e-04    1.523188112e-04    0.000000000e+00    0.000000000e+00    0.000000000e+00    0.000000000e+00
      269875000   -7.904383540e-02    6.598318219e-01    3.813086078e-04    1.492356096e-04    0.000000000e+00    0.000000000e+00    0.000000000e+00    0.000000000e+00
      271500000   -5.947890505e-02    6.590049267e-01    3.484407498e-04    1.451204007e-04    0.000000000e+00    0.000000000e+00    0.000000000e+00    0.000000000e+00
      273125000   -3.997108713e-02    6.580196023e-01    3.334038483e-04    1.619101386e-04    0.000000000e+00    0.000000000e+00    0.000000000e+00    0.000000000e+00
      274750000   -2.021246403e-02    6.560634375e-01    3.597452887e-04    1.651732746e-04    0.000000000e+00    0.000000000e+00    0.000000000e+00    0.000000000e+00
      276375000   -9.537974256e-04    6.537970304e-01    3.547755769e-04    1.572915935e-04    0.000000000e+00    0.000000000e+00    0.000000000e+00    0.000000000e+00
      278000000    1.816261560e-02    6.510305405e-01    3.444102185e-04    1.074497777e-04    0.000000000e+00    0.000000000e+00    0.000000000e+00    0.000000000e+00
      279625000    3.723110631e-02    6.478581429e-01    3.507911752e-04    1.551065943e-04    0.000000000e+00    0.000000000e+00    0.000000000e+00    0.000000000e+00
      281250000    5.595192686e-02    6.437826157e-01    3.489787341e-04    1.424285874e-04    0.000000000e+00    0.000000000e+00    0.000000000e+00    0.000000000e+00
      282875000    7.458871603e-02    6.396744847e-01    3.226278641e-04    1.466566173e-04    0.000000000e+00    0.000000000e+00    0.000000000e+00    0.000000000e+00
      284500000    9.295152873e-02    6.347865462e-01    3.305777791e-04    1.434946462e-04    0.000000000e+00    0.000000000e+00    0.000000000e+00    0.000000000e+00
      286125000    1.112224981e-01    6.295769215e-01    3.409995697e-04    1.374246203e-04    0.000000000e+00    0.000000000e+00    0.000000000e+00    0.000000000e+00
      287750000    1.291947961e-01    6.237996221e-01    3.219632490e-04    1.224328735e-04    0.000000000e+00    0.000000000e+00    0.000000000e+00    0.000000000e+00
      289375000    1.468210816e-01    6.173661947e-01    3.347215534e-04    1.093594692e-04    0.000000000e+00    0.000000000e+00    0.000000000e+00    0.000000000e+00
      291000000    7.293493301e-02    5.791016221e-01   -5.390268052e-05    9.064689220e-05    0.000000000e+00    0.000000000e+00    0.000000000e+00    0.000000000e+00
      292625000    9.025191516e-02    5.746073127e-01    1.017420436e-04    1.240453712e-04    0.000000000e+00    0.000000000e+00    0.000000000e+00    0.000000000e+00
      294250000    1.067319140e-01    5.690702200e-01    6.061667227e-05    1.788821683e-04    0.000000000e+00    0.000000000e+00    0.000000000e+00    0.000000000e+00
      295875000    1.221293509e-01    5.629364252e-01   -1.373790146e-04   -5.483235873e-05    0.000000000e+00    0.000000000e+00    0.000000000e+00    0.000000000e+00
      297500000    1.387235820e-01    5.571296215e-01   -1.004481092e-04    7.687180914e-05    0.000000000e+00    0.000000000e+00    0.000000000e+00    0.000000000e+00
      299125000    1.543193310e-01    5.500593781e-01   -3.871829540e-05    6.893999671e-05    0.000000000e+00    0.000000000e+00    0.000000000e+00    0.000000000e+00
      300750000    1.695888788e-01    5.433674455e-01    5.992484148e-06    7.702916628e-05    0.000000000e+00    0.000000000e+00    0.000000000e+00    0.000000000e+00
      302375000    1.848655790e-01    5.360605717e-01   -1.732147357e-04   -8.121095016e-05    0.000000000e+00    0.000000000e+00    0.000000000e+00    0.000000000e+00
      304000000    1.998804957e-01    5.280762315e-01   -5.387897181e-05    3.447610652e-05    0.000000000e+00    0.000000000e+00    0.000000000e+00    0.000000000e+00
      305625000    2.143912613e-01    5.200212002e-01   -3.985753574e-05   -2.641294486e-05    0.000000000e+00    0.000000000e+00    0.000000000e+00    0.000000000e+00
      307250000    2.279081941e-01    5.138466358e-01    8.981067367e-06    1.956716915e-05    0.000000000e+00    0.000000000e+00    0.000000000e+00    0.000000000e+00
      308875000    2.423784286e-01    5.025933981e-01   -3.564305371e-05   -6.107464287e-05    0.000000000e+00    0.000000000e+00    0.000000000e+00    0.000000000e+00
      310500000    2.554907799e-01    4.938675761e-01    8.697598969e-05   -1.079601680e-05    0.000000000e+00    0.000000000e+00    0.000000000e+00    0.000000000e+00
      312125000    2.693606019e-01    4.844620824e-01   -2.208023488e-06    5.289902401e-05    0.000000000e+00    0.000000000e+00    0.000000000e+00    0.000000000e+00
      313750000    2.823208570e-01    4.744336903e-01   -2.165405203e-05    5.955568486e-05    0.000000000e+00    0.000000000e+00    0.000000000e+00    0.000000000e+00
      315375000    2.948729694e-01    4.643958807e-01   -1.555201889e-04   -6.399842096e-05    0.000000000e+00    0.000000000e+00    0.000000000e+00    0.000000000e+00
      317000000    3.071445525e-01    4.544836879e-01   -6.379280239e-05   -7.237070531e-05    0.000000000e+00    0.000000000e+00    0.000000000e+00    0.000000000e+00
      318625000    3.194388449e-01    4.441804886e-01   -4.627128874e-05    8.412558964e-05    0.000000000e+00    0.000000000e+00    0.000000000e+00    0.000000000e+00
      320250000    3.309511840e-01    4.327531159e-01   -1.815076394e-05    2.953666990e-05    0.000000000e+00    0.000000000e+00    0.000000000e+00    0.000000000e+00
      321875000    3.418403268e-01    4.220118523e-01   -5.368338316e-05   -4.032780271e-05    0.000000000e+00    0.000000000e+00    0.000000000e+00    0.000000000e+00
      323500000    3.531718850e-01    4.109296203e-01   -1.700013818e-04    3.520146129e-05    0.000000000e+00    0.000000000e+00    0.000000000e+00    0.000000000e+00
      325125000    3.634293079e-01    3.993679583e-01   -3.287173749e-04    8.650082464e-07    0.000000000e+00    0.000000000e+00    0.000000000e+00    0.000000000e+00
      326750000    3.738424778e-01    3.874679804e-01   -1.857444731e-04   -1.157654242e-05    0.000000000e+00    0.000000000e+00    0.000000000e+00    0.000000000e+00
      328375000    3.836489618e-01    3.760850132e-01   -1.216149976e-04    1.407981563e-05    0.000000000e+00    0.000000000e+00    0.000000000e+00    0.000000000e+00
      330000000    3.934443593e-01    3.637056053e-01   -1.597914525e-05   -1.027848994e-04    0.000000000e+00    0.000000000e+00    0.000000000e+00    0.000000000e+00
      331625000    4.025407434e-01    3.517020643e-01    6.363633292e-05    5.189194417e-05    0.000000000e+00    0.000000000e+00    0.000000000e+00    0.000000000e+00
      333250000    4.112608731e-01    3.392888606e-01   -8.117465768e-05    6.255672633e-05    0.000000000e+00    0.000000000e+00    0.000000000e+00    0.000000000e+00
      334875000    4.199016690e-01    3.270031214e-01   -9.299402882e-05   -8.691737457e-05    0.000000000e+00    0.000000000e+00    0.000000000e+00    0.000000000e+00
      336500000    4.277653396e-01    3.142480850e-01   -1.299254218e-04   -7.626471051e-05    0.000000000e+00    0.000000000e+00    0.000000000e+00    0.000000000e+00
      338125000    4.359399080e-01    3.014445305e-01    1.094674953e-04   -2.871140896e-05    0.000000000e+00    0.000000000e+00    0.000000000e+00    0.000000000e+00
      339750000    4.429835081e-01    2.887612581e-01   -1.409035613e-04    3.498402657e-05    0.000000000e+00    0.000000000e+00    0.000000000e+00    0.000000000e+00
      341375000    4.502722919e-01    2.757108808e-01   -2.018786763e-04   -1.515684853e-04    0.000000000e+00    0.000000000e+00    0.000000000e+00    0.000000000e+00
      343000000    4.569034874e-01    2.627272010e-01   -1.423167851e-05   -6.451910303e-05    0.000000000e+00    0.000000000e+00    0.000000000e+00    0.000000000e+00
      344625000    4.633135498e-01    2.495398670e-01    4.769357838e-05   -4.414565046e-05    0.000000000e+00    0.000000000e+00    0.000000000e+00    0.000000000e+00
      346250000    4.697749019e-01    2.364276052e-01   -6.217318878e-05   -1.452793458e-05    0.000000000e+00    0.000000000e+00    0.000000000e+00    0.000000000e+00
      347875000    4.752547741e-01    2.232034355e-01   -6.124258653e-05    1.064451790e-04    0.000000000e+00    0.000000000e+00    0.000000000e+00    0.000000000e+00
      349500000    4.805910289e-01    2.098226100e-01   -7.000026380e-05    3.416326581e-05    0.000000000e+00    0.000000000e+00    0.000000000e+00    0.000000000e+00
      351125000    4.856126904e-01    1.964126527e-01   -5.711226549e-05    4.026573151e-06    0.000000000e+00    0.000000000e+00    0.000000000e+00    0.000000000e+00
      352750000    4.903921187e-01    1.828824133e-01   -1.642973511e-04   -1.196601297e-04    0.000000000e+00    0.000000000e+00    0.000000000e+00    0.000000000e+00
      354375000    4.950328767e-01    1.693338603e-01    1.161754608e-05   -1.043027532e-05    0.000000000e+00    0.000000000e+00    0.000000000e+00    0.000000000e+00
      356000000    4.992567003e-01    1.559307724e-01   -3.985747298e-06    7.898486729e-06    0.000000000e+00    0.000000000e+00    0.000000000e+00    0.000000000e+00
      357625000    5.028006434e-01    1.422081143e-01   -4.338143117e-05    2.734573718e-05    0.000000000e+00    0.000000000e+00    0.000000000e+00    0.000000000e+00
      359250000    5.064974427e-01    1.286094785e-01   -5.969273116e-05    7.775582344e-05    0.000000000e+00    0.000000000e+00    0.000000000e+00    0.000000000e+00
      360875000    5.095096827e-01    1.149499342e-01   -2.687284905e-05    6.472111272e-05    0.000000000e+00    0.000000000e+00    0.000000000e+00    0.000000000e+00
      362500000    5.125303268e-01    1.012106389e-01   -6.391931674e-05   -1.752148819e-05    0.000000000e+00    0.000000000e+00    0.000000000e+00    0.000000000e+00
      364125000    5.151187181e-01    8.774644136e-02   -1.181853877e-04    1.395404706e-05    0.000000000e+00    0.000000000e+00    0.000000000e+00    0.000000000e+00
      365750000    5.172961354e-01    7.437954843e-02    5.063980643e-05    4.494770110e-05    0.000000000e+00    0.000000000e+00    0.000000000e+00    0.000000000e+00
      367375000    5.194634795e-01    6.056840718e-02   -1.217298923e-04   -3.153844955e-05    0.000000000e+00    0.000000000e+00    0.000000000e+00    0.000000000e+00
      369000000    5.208808184e-01    4.699855670e-02   -1.530425652e-05    1.957363020e-05    0.000000000e+00    0.000000000e+00    0.000000000e+00    0.000000000e+00
      370625000    5.222366452e-01    3.343159333e-02   -2.269339348e-05    4.391901894e-05    0.000000000e+00    0.000000000e+00    0.000000000e+00    0.000000000e+00
      372250000    5.236837864e-01    1.980048791e-02   -3.970564285e-05   -2.817601489e-05    0.000000000e+00    0.000000000e+00    0.000000000e+00    0.000000000e+00
      373875000    5.240699649e-01    6.248360034e-03   -2.779301212e-05   -5.845759006e-05    0.000000000e+00    0.000000000e+00    0.000000000e+00    0.000000000e+00
      375500000    5.245924592e-01   -7.237351965e-03   -1.560747296e-05   -9.568692622e-05    0.000000000e+00    0.000000000e+00    0.000000000e+00    0.000000000e+00
      377125000    5.244935155e-01   -2.078432590e-02   -8.064650319e-05   -7.606389318e-06    0.000000000e+00    0.000000000e+00    0.000000000e+00    0.000000000e+00
      378750000    5.245624781e-01   -3.413027897e-02    6.927349750e-05    6.623021363e-06    0.000000000e+00    0.000000000e+00    0.000000000e+00    0.000000000e+00
      380375000    5.240200758e-01   -4.760671780e-02   -2.226249635e-04   -1.101581438e-04    0.000000000e+00    0.000000000e+00    0.000000000e+00    0.000000000e+00
      382000000    5.233407617e-01   -6.120030954e-02   -7.331676898e-05    3.737653969e-05    0.000000000e+00    0.000000000e+00    0.000000000e+00    0.000000000e+00
      383625000    5.221338272e-01   -7.457229495e-02   -5.542314466e-05    2.032326302e-04    0.000000000e+00    0.000000000e+00    0.000000000e+00    0.000000000e+00
      385250000    5.210279226e-01   -8.758776635e-02   -2.684311039e-05    2.475015572e-05    0.000000000e+00    0.000000000e+00    0.000000000e+00    0.000000000e+00
      386875000    5.194763541e-01   -1.007952765e-01   -7.233965880e-05   -6.403057341e-05    0.000000000e+00    0.000000000e+00    0.000000000e+00    0.000000000e+00
      388500000    5.173928738e-01   -1.138039008e-01   -5.976802640e-05    9.046342893e-05    0.000000000e+00    0.000000000e+00    0.000000000e+00    0.000000000e+00
