! NanoVNA-App
! Date: 2024-06-25 16:52:54
! Start: 200MHz Stop: 1.5GHz Points: 801
! S-Parameter data: F S11 S21 S12 S22
# Hz S RI R 50
!     Frequency           S11_Real           S11_Imag           S21_Real           S21_Imag           S12_Real           S12_Imag           S22_Real           S22_Imag
      200000000   -7.507719398e-01    1.167346090e-01    1.648723264e-04    5.793343735e-05    0.000000000e+00    0.000000000e+00    0.000000000e+00    0.000000000e+00
      201625000   -7.458168864e-01    1.399190277e-01    2.240923204e-04    8.777205949e-05    0.000000000e+00    0.000000000e+00    0.000000000e+00    0.000000000e+00
      203250000   -7.402959466e-01    1.627658308e-01    1.867898973e-04    7.425867807e-05    0.000000000e+00    0.000000000e+00    0.000000000e+00    0.000000000e+00
      204875000   -7.339276671e-01    1.852511913e-01    1.853589347e-04    7.113231550e-05    0.000000000e+00    0.000000000e+00    0.000000000e+00    0.000000000e+00
      206500000   -7.267019153e-01    2.075884193e-01    2.490174375e-04    7.417892630e-05    0.000000000e+00    0.000000000e+00    0.000000000e+00    0.000000000e+00
      208125000   -7.188159227e-01    2.294643670e-01    2.368445712e-04    1.085507538e-04    0.000000000e+00    0.000000000e+00    0.000000000e+00    0.000000000e+00
      209750000   -7.103241682e-01    2.511546314e-01    2.313844016e-04    9.477555432e-05    0.000000000e+00    0.000000000e+00    0.000000000e+00    0.000000000e+00
      211375000   -7.008767128e-01    2.720881104e-01    2.571740479e-04    9.096453869e-05    0.000000000e+00    0.000000000e+00    0.000000000e+00    0.000000000e+00
      213000000   -6.908379197e-01    2.929677069e-01    2.464051940e-04    1.028339611e-04    0.000000000e+00    0.000000000e+00    0.000000000e+00    0.000000000e+00
      214625000   -6.800191402e-01    3.131923079e-01    2.543884621e-04    9.498256259e-05    0.000000000e+00    0.000000000e+00    0.000000000e+00    0.000000000e+00
      216250000   -6.686201096e-01    3.330574036e-01    2.772153530e-04    9.634748858e-05    0.000000000e+00    0.000000000e+00    0.000000000e+00    0.000000000e+00
      217875000   -6.566782594e-01    3.525174558e-01    2.817248751e-04    1.249508496e-04    0.000000000e+00    0.000000000e+00    0.000000000e+00    0.000000000e+00
      219500000   -6.439709067e-01    3.714990616e-01    3.025665646e-04    1.418231113e-04    0.000000000e+00    0.000000000e+00    0.000000000e+00    0.000000000e+00
      221125000   -6.307516694e-01    3.898098767e-01    2.740050259e-04    1.337659924e-04    0.000000000e+00    0.000000000e+00    0.000000000e+00    0.000000000e+00
      222750000   -6.169085503e-01    4.077430069e-01    3.078909649e-04    1.495757460e-04    0.000000000e+00    0.000000000e+00    0.000000000e+00    0.000000000e+00
      224375000   -6.027945876e-01    4.250200987e-01    2.853510669e-04    1.393845305e-04    0.000000000e+00    0.000000000e+00    0.000000000e+00    0.000000000e+00
      226000000   -5.877420306e-01    4.416001737e-01    2.887388109e-04    1.122698741e-04    0.000000000e+00    0.000000000e+00    0.000000000e+00    0.000000000e+00
      227625000   -5.724126697e-01    4.578322172e-01    3.046816564e-04    1.490309514e-04    0.000000000e+00    0.000000000e+00    0.000000000e+00    0.000000000e+00
      229250000   -5.565940738e-01    4.734542072e-01    3.110554535e-04    1.556494535e-04    0.000000000e+00    0.000000000e+00    0.000000000e+00    0.000000000e+00
      230875000   -5.404672623e-01    4.884245992e-01    2.921294072e-04    1.546792191e-04    0.000000000e+00    0.000000000e+00    0.000000000e+00    0.000000000e+00
      232500000   -5.237210393e-01    5.028653145e-01    3.284148697e-04    1.588336308e-04    0.000000000e+00    0.000000000e+00    0.000000000e+00    0.000000000e+00
      234125000   -5.066849589e-01    5.165319443e-01    3.092031693e-04    1.712161611e-04    0.000000000e+00    0.000000000e+00    0.000000000e+00    0.000000000e+00
      235750000   -4.892904162e-01    5.297366977e-01    3.140226472e-04    1.525604312e-04    0.000000000e+00    0.000000000e+00    0.000000000e+00    0.000000000e+00
      237375000   -4.715669155e-01    5.422098041e-01    3.363802098e-04    1.544071565e-04    0.000000000e+00    0.000000000e+00    0.000000000e+00    0.000000000e+00
      239000000   -4.533978105e-01    5.540532470e-01    3.302332771e-04    1.422011846e-04    0.000000000e+00    0.000000000e+00    0.000000000e+00    0.000000000e+00
      240625000   -4.349038601e-01    5.652265549e-01    3.366476158e-04    1.245641033e-04    0.000000000e+00    0.000000000e+00    0.000000000e+00    0.000000000e+00
      242250000   -4.162019789e-01    5.757634044e-01    3.324670834e-04    1.622950949e-04    0.000000000e+00    0.000000000e+00    0.000000000e+00    0.000000000e+00
      243875000   -3.970876038e-01    5.858374238e-01    3.293947666e-04    1.449755800e-04    0.000000000e+00    0.000000000e+00    0.000000000e+00    0.000000000e+00
      245500000   -3.777071536e-01    5.953122377e-01    3.227641573e-04    1.412552811e-04    0.000000000e+00    0.000000000e+00    0.000000000e+00    0.000000000e+00
      247125000   -3.581399024e-01    6.041820049e-01    3.361353010e-04    1.420792105e-04    0.000000000e+00    0.000000000e+00    0.000000000e+00    0.000000000e+00
      248750000   -3.384424746e-01    6.124858260e-01    3.379342670e-04    1.554853079e-04    0.000000000e+00    0.000000000e+00    0.000000000e+00    0.000000000e+00
      250375000   -3.186466694e-01    6.198614240e-01    3.511733084e-04    1.480299688e-04    0.000000000e+00    0.000000000e+00    0.000000000e+00    0.000000000e+00
      252000000   -2.986185551e-01    6.267810464e-01    3.743960988e-04    1.416716550e-04    0.000000000e+00    0.000000000e+00    0.000000000e+00    0.000000000e+00
      253625000   -2.788563371e-01    6.328909993e-01    3.598049807e-04    1.725630427e-04    0.000000000e+00    0.000000000e+00    0.000000000e+00    0.000000000e+00
      255250000   -2.587787509e-01    6.385235786e-01    3.408934863e-04    1.351200626e-04    0.000000000e+00    0.000000000e+00    0.000000000e+00    0.000000000e+00
      256875000   -2.388570607e-01    6.433028579e-01    3.527419467e-04    1.655975211e-04    0.000000000e+00    0.000000000e+00    0.000000000e+00    0.000000000e+00
      258500000   -2.186933756e-01    6.474142075e-01    3.457786224e-04    1.502270461e-04    0.000000000e+00    0.000000000e+00    0.000000000e+00    0.000000000e+00
      260125000   -1.986899972e-01    6.511082053e-01    3.570638655e-04    1.396119333e-04    0.000000000e+00    0.000000000e+00    0.000000000e+00    0.000000000e+00
      261750000   -1.786965132e-01    6.543559432e-01    3.517006699e-04    1.568105945e-04    0.000000000e+00    0.000000000e+00    0.000000000e+00    0.000000000e+00
      263375000   -1.586222649e-01    6.566057801e-01    3.717480286e-04    1.550397719e-04    0.000000000e+00    0.000000000e+00    0.000000000e+00    0.000000000e+00
      265000000   -1.386685967e-01    6.581633091e-01    3.480942687e-04    1.546817803e-04    0.000000000e+00    0.000000000e+00    0.000000000e+00    0.000000000e+00
      266625000   -1.187067106e-01    6.594114304e-01    3.451197408e-04    1.484068634e-04    0.000000000e+00    0.000000000e+00    0.000000000e+00    0.000000000e+00
      268250000   -9.872318804e-02    6.597570777e-01    3.662461822e-04    1.670076454e-04    0.000000000e+00    0.000000000e+00    0.000000000e+00    0.000000000e+00
      269875000   -7.904653251e-02    6.598086953e-01    3.615510068e-04    1.523292012e-04    0.000000000e+00    0.000000000e+00    0.000000000e+00    0.000000000e+00
      271500000   -5.935920775e-02    6.592652798e-01    3.529799869e-04    1.469026902e-04    0.000000000e+00    0.000000000e+00    0.000000000e+00    0.000000000e+00
      273125000   -3.977480531e-02    6.580218077e-01    3.577065363e-04    1.471144205e-04    0.000000000e+00    0.000000000e+00    0.000000000e+00    0.000000000e+00
      274750000   -2.015182376e-02    6.562044621e-01    3.522515181e-04    1.534577605e-04    0.000000000e+00    0.000000000e+00    0.000000000e+00    0.000000000e+00
      276375000   -9.623574442e-04    6.539055705e-01    3.540695470e-04    1.561431709e-04    0.000000000e+00    0.000000000e+00    0.000000000e+00    0.000000000e+00
      278000000    1.822974905e-02    6.511581540e-01    3.418491106e-04    1.569425804e-04    0.000000000e+00    0.000000000e+00    0.000000000e+00    0.000000000e+00
      279625000    3.720251471e-02    6.478223801e-01    3.639185452e-04    1.378838206e-04    0.000000000e+00    0.000000000e+00    0.000000000e+00    0.000000000e+00
      281250000    5.594085902e-02    6.438756585e-01    3.394739761e-04    1.431026030e-04    0.000000000e+00    0.000000000e+00    0.000000000e+00    0.000000000e+00
      282875000    7.470739633e-02    6.396768689e-01    3.373472427e-04    1.416643063e-04    0.000000000e+00    0.000000000e+00    0.000000000e+00    0.000000000e+00
      284500000    9.311877936e-02    6.348763108e-01    3.350778134e-04    1.432519639e-04    0.000000000e+00    0.000000000e+00    0.000000000e+00    0.000000000e+00
      286125000    1.113588437e-01    6.295065880e-01    3.235887561e-04    1.450731652e-04    0.000000000e+00    0.000000000e+00    0.000000000e+00    0.000000000e+00
      287750000    1.292358637e-01    6.238836050e-01    3.354004584e-04    1.425288647e-04    0.000000000e+00    0.000000000e+00    0.000000000e+00    0.000000000e+00
      289375000    1.469795257e-01    6.173771620e-01    3.290467139e-04    1.107098869e-04    0.000000000e+00    0.000000000e+00    0.000000000e+00    0.000000000e+00
      291000000    7.293103635e-02    5.794591904e-01   -1.104305993e-04    1.286696934e-04    0.000000000e+00    0.000000000e+00    0.000000000e+00    0.000000000e+00
      292625000    9.095107019e-02    5.743373632e-01    8.884000272e-05   -4.639457984e-05    0.000000000e+00    0.000000000e+00    0.000000000e+00    0.000000000e+00
      294250000    1.063783318e-01    5.687423944e-01   -3.131450649e-05   -1.166579896e-04    0.000000000e+00    0.000000000e+00    0.000000000e+00    0.000000000e+00
      295875000    1.224084646e-01    5.629323125e-01   -1.568788866e-04    1.257845724e-04    0.000000000e+00    0.000000000e+00    0.000000000e+00    0.000000000e+00
      297500000    1.388759613e-01    5.569028854e-01   -3.231419396e-05   -3.948875019e-05    0.000000000e+00    0.000000000e+00    0.000000000e+00    0.000000000e+00
      299125000    1.542313695e-01    5.503757000e-01   -5.435051571e-05    1.894045272e-05    0.000000000e+00    0.000000000e+00    0.000000000e+00    0.000000000e+00
      300750000    1.696611196e-01    5.434035063e-01    4.522998279e-05    1.598850872e-06    0.000000000e+00    0.000000000e+00    0.000000000e+00    0.000000000e+00
      302375000    1.849833578e-01    5.362159014e-01   -6.601675705e-05    4.700135469e-05    0.000000000e+00    0.000000000e+00    0.000000000e+00    0.000000000e+00
      304000000    1.998645365e-01    5.280662775e-01   -1.230766939e-04    9.424691234e-05    0.000000000e+00    0.000000000e+00    0.000000000e+00    0.000000000e+00
      305625000    2.147150636e-01    5.203009248e-01   -1.019483825e-04   -1.385327196e-04    0.000000000e+00    0.000000000e+00    0.000000000e+00    0.000000000e+00
      307250000    2.291425467e-01    5.140472054e-01    3.854583701e-05   -7.895577437e-05    0.000000000e+00    0.000000000e+00    0.000000000e+00    0.000000000e+00
      308875000    2.423751503e-01    5.028431416e-01    2.006037357e-05    2.117976874e-05    0.000000000e+00    0.000000000e+00    0.000000000e+00    0.000000000e+00
      310500000    2.563941479e-01    4.936218262e-01    6.474452675e-05    5.742240683e-05    0.000000000e+00    0.000000000e+00    0.000000000e+00    0.000000000e+00
      312125000    2.692952454e-01    4.843474030e-01   -6.421668513e-05    1.125786548e-05    0.000000000e+00    0.000000000e+00    0.000000000e+00    0.000000000e+00
      313750000    2.825514674e-01    4.747400880e-01    3.136012538e-06    1.036571921e-04    0.000000000e+00    0.000000000e+00    0.000000000e+00    0.000000000e+00
      315375000    2.951771915e-01    4.643538296e-01   -1.243717707e-04    8.916912338e-05    0.000000000e+00    0.000000000e+00    0.000000000e+00    0.000000000e+00
      317000000    3.070243895e-01    4.543059170e-01   -3.175837628e-05    1.155122081e-04    0.000000000e+00    0.000000000e+00    0.000000000e+00    0.000000000e+00
      318625000    3.193092942e-01    4.441125691e-01   -9.268837312e-05   -6.424580988e-06    0.000000000e+00    0.000000000e+00    0.000000000e+00    0.000000000e+00
      320250000    3.307411075e-01    4.331662655e-01   -9.440742724e-05    6.176661554e-05    0.000000000e+00    0.000000000e+00    0.000000000e+00    0.000000000e+00
      321875000    3.422841430e-01    4.218872488e-01   -1.488721609e-04   -9.340517863e-05    0.000000000e+00    0.000000000e+00    0.000000000e+00    0.000000000e+00
      323500000    3.532718420e-01    4.106341600e-01   -9.419782873e-05   -4.362839718e-06    0.000000000e+00    0.000000000e+00    0.000000000e+00    0.000000000e+00
      325125000    3.637296855e-01    3.994425833e-01    3.908084182e-05   -3.447769632e-05    0.000000000e+00    0.000000000e+00    0.000000000e+00    0.000000000e+00
      326750000    3.736139238e-01    3.878290057e-01   -1.347431826e-04   -5.041260374e-05    0.000000000e+00    0.000000000e+00    0.000000000e+00    0.000000000e+00
      328375000    3.835039735e-01    3.761403561e-01   -6.402814324e-05   -7.182304216e-06    0.000000000e+00    0.000000000e+00    0.000000000e+00    0.000000000e+00
      330000000    3.933486938e-01    3.641372323e-01   -6.900804874e-05   -1.205332592e-05    0.000000000e+00    0.000000000e+00    0.000000000e+00    0.000000000e+00
      331625000    4.024952352e-01    3.516517878e-01    1.272529189e-04    6.008369746e-05    0.000000000e+00    0.000000000e+00    0.000000000e+00    0.000000000e+00
      333250000    4.113047421e-01    3.396193683e-01   -1.059674396e-04   -6.618002226e-05    0.000000000e+00    0.000000000e+00    0.000000000e+00    0.000000000e+00
      334875000    4.197262228e-01    3.268417120e-01   -1.472382573e-04   -3.395107569e-06    0.000000000e+00    0.000000000e+00    0.000000000e+00    0.000000000e+00
      336500000    4.277974367e-01    3.144107461e-01   -1.441022177e-04   -1.757442806e-04    0.000000000e+00    0.000000000e+00    0.000000000e+00    0.000000000e+00
      338125000    4.357350767e-01    3.014659584e-01   -8.444111882e-05   -3.182748696e-05    0.000000000e+00    0.000000000e+00    0.000000000e+00    0.000000000e+00
      339750000    4.432573915e-01    2.889631987e-01    1.636179877e-05   -1.336965070e-04    0.000000000e+00    0.000000000e+00    0.000000000e+00    0.000000000e+00
      341375000    4.503048956e-01    2.758257091e-01    3.579657277e-05    9.455017425e-05    0.000000000e+00    0.000000000e+00    0.000000000e+00    0.000000000e+00
      343000000    4.573423564e-01    2.629224062e-01    3.699895751e-05   -6.220344221e-05    0.000000000e+00    0.000000000e+00    0.000000000e+00    0.000000000e+00
      344625000    4.633986056e-01    2.495892942e-01   -2.483545686e-04    1.383452945e-05    0.000000000e+00    0.000000000e+00    0.000000000e+00    0.000000000e+00
      346250000    4.695587754e-01    2.362506390e-01   -2.125030005e-04    6.744498387e-05    0.000000000e+00    0.000000000e+00    0.000000000e+00    0.000000000e+00
      347875000    4.751440883e-01    2.231158763e-01   -4.606795846e-05   -1.106364653e-05    0.000000000e+00    0.000000000e+00    0.000000000e+00    0.000000000e+00
      349500000    4.808318317e-01    2.098351866e-01   -2.473440691e-05    1.573316113e-04    0.000000000e+00    0.000000000e+00    0.000000000e+00    0.000000000e+00
      351125000    4.858660400e-01    1.965368688e-01   -1.593906927e-04    1.201672148e-05    0.000000000e+00    0.000000000e+00    0.000000000e+00    0.000000000e+00
      352750000    4.907349050e-01    1.827428341e-01   -1.413604041e-04   -9.562745254e-05    0.000000000e+00    0.000000000e+00    0.000000000e+00    0.000000000e+00
      354375000    4.949539602e-01    1.695301086e-01   -2.358801576e-04   -1.849253313e-04    0.000000000e+00    0.000000000e+00    0.000000000e+00    0.000000000e+00
      356000000    4.989044964e-01    1.560019255e-01   -1.408267999e-04   -8.453686314e-05    0.000000000e+00    0.000000000e+00    0.000000000e+00    0.000000000e+00
      357625000    5.029276013e-01    1.423951387e-01    5.412047904e-05    1.948288991e-04    0.000000000e+00    0.000000000e+00    0.000000000e+00    0.000000000e+00
      359250000    5.064111948e-01    1.285941750e-01   -2.015552855e-05   -5.735320519e-05    0.000000000e+00    0.000000000e+00    0.000000000e+00    0.000000000e+00
      360875000    5.096482038e-01    1.150651127e-01   -1.425460214e-04    9.131982551e-06    0.000000000e+00    0.000000000e+00    0.000000000e+00    0.000000000e+00
      362500000    5.124546885e-01    1.014401689e-01    1.104255716e-05   -1.459693449e-04    0.000000000e+00    0.000000000e+00    0.000000000e+00    0.000000000e+00
      364125000    5.150030255e-01    8.784722537e-02    2.922713793e-05    1.202746062e-04    0.000000000e+00    0.000000000e+00    0.000000000e+00    0.000000000e+00
      365750000    5.173789859e-01    7.411889732e-02   -4.300510773e-05    1.017350733e-04    0.000000000e+00    0.000000000e+00    0.000000000e+00    0.000000000e+00
      367375000    5.192698240e-01    6.042141840e-02    6.595075774e-06    4.209559484e-05    0.000000000e+00    0.000000000e+00    0.000000000e+00    0.000000000e+00
      369000000    5.210947394e-01    4.690625519e-02   -1.176114383e-04   -9.922438039e-05    0.000000000e+00    0.000000000e+00    0.000000000e+00    0.000000000e+00
      370625000    5.223226547e-01    3.324101493e-02   -5.081634299e-05    3.279814700e-05    0.000000000e+00    0.000000000e+00    0.000000000e+00    0.000000000e+00
      372250000    5.230648518e-01    1.987067983e-02   -2.082904248e-04    3.840339559e-06    0.000000000e+00    0.000000000e+00    0.000000000e+00    0.000000000e+00
      373875000    5.240018964e-01    6.257733796e-03    3.786382149e-05    4.521955270e-05    0.000000000e+00    0.000000000e+00    0.000000000e+00    0.000000000e+00
      375500000    5.243628621e-01   -7.226893678e-03   -8.229249215e-05    1.926840778e-04    0.000000000e+00    0.000000000e+00    0.000000000e+00    0.000000000e+00
      377125000    5.246348977e-01   -2.076550946e-02   -1.371804974e-04   -6.629010022e-05    0.000000000e+00    0.000000000e+00    0.000000000e+00    0.000000000e+00
      378750000    5.243564248e-01   -3.425539657e-02   -1.727424969e-04    5.848584624e-05    0.000000000e+00    0.000000000e+00    0.000000000e+00    0.000000000e+00
      380375000    5.240236521e-01   -4.750304669e-02   -9.171482816e-05    1.266414038e-04    0.000000000e+00    0.000000000e+00    0.000000000e+00    0.000000000e+00
      382000000    5.231806636e-01   -6.093958020e-02   -7.137109787e-05    3.336164445e-05    0.000000000e+00    0.000000000e+00    0.000000000e+00    0.000000000e+00
      383625000    5.221831203e-01   -7.426815480e-02   -1.663376170e-04    8.495367365e-05    0.000000000e+00    0.000000000e+00    0.000000000e+00    0.000000000e+00
      385250000    5.209342837e-01   -8.773103356e-02   -1.499105419e-04    1.318883005e-04    0.000000000e+00    0.000000000e+00    0.000000000e+00    0.000000000e+00
      386875000    5.193008780e-01   -1.009642258e-01   -2.903556560e-05    6.733157079e-06    0.000000000e+00    0.000000000e+00    0.000000000e+00    0.000000000e+00
      388500000    5.173551440e-01   -1.139488891e-01   -2.819043293e-04    9.413882799e-05    0.000000000e+00    0.000000000e+00    0.000000000e+00    0.000000000e+00
