! NanoVNA-App
! Date: 2024-06-25 16:52:57
! Start: 200MHz Stop: 1.5GHz Points: 801
! S-Parameter data: F S11 S21 S12 S22
# Hz S RI R 50
!     Frequency           S11_Real           S11_Imag           S21_Real           S21_Imag           S12_Real           S12_Imag           S22_Real           S22_Imag
      200000000   -7.506179214e-01    1.167205125e-01    1.551820751e-04    6.883872993e-05    0.000000000e+00    0.000000000e+00    0.000000000e+00    0.000000000e+00
      201625000   -7.458183169e-01    1.398431361e-01    1.786612993e-04    5.848251385e-05    0.000000000e+00    0.000000000e+00    0.000000000e+00    0.000000000e+00
      203250000   -7.401779294e-01    1.627412438e-01    1.951674931e-04    4.914630335e-05    0.000000000e+00    0.000000000e+00    0.000000000e+00    0.000000000e+00
      204875000   -7.338045239e-01    1.852326691e-01    1.959720976e-04    6.708772707e-05    0.000000000e+00    0.000000000e+00    0.000000000e+00    0.000000000e+00
      206500000   -7.267481089e-01    2.075154632e-01    2.225471399e-04    7.391623512e-05    0.000000000e+00    0.000000000e+00    0.000000000e+00    0.000000000e+00
      208125000   -7.188578844e-01    2.294380069e-01    2.275006118e-04    8.525214798e-05    0.000000000e+00    0.000000000e+00    0.000000000e+00    0.000000000e+00
      209750000   -7.103559375e-01    2.510574758e-01    2.416627103e-04    1.101775488e-04    0.000000000e+00    0.000000000e+00    0.000000000e+00    0.000000000e+00
      211375000   -7.008825541e-01    2.720893025e-01    2.679165045e-04    9.442387091e-05    0.000000000e+00    0.000000000e+00    0.000000000e+00    0.000000000e+00
      213000000   -6.907837391e-01    2.928634584e-01    2.457821683e-04    9.168544784e-05    0.000000000e+00    0.000000000e+00    0.000000000e+00    0.000000000e+00
      214625000   -6.800166368e-01    3.131186962e-01    2.470696927e-04    9.449321078e-05    0.000000000e+00    0.000000000e+00    0.000000000e+00    0.000000000e+00
      216250000   -6.687508821e-01    3.332044780e-01    2.522903960e-04    1.051917425e-04    0.000000000e+00    0.000000000e+00    0.000000000e+00    0.000000000e+00
      217875000   -6.567004323e-01    3.523679674e-01    2.729633416e-04    1.149831951e-04    0.000000000e+00    0.000000000e+00    0.000000000e+00    0.000000000e+00
      219500000   -6.439974308e-01    3.713936508e-01    2.758323390e-04    1.325689955e-04    0.000000000e+00    0.000000000e+00    0.000000000e+00    0.000000000e+00
      221125000   -6.307429075e-01    3.896431923e-01    2.879860986e-04    1.419034379e-04    0.000000000e+00    0.000000000e+00    0.000000000e+00    0.000000000e+00
      222750000   -6.169912815e-01    4.076081812e-01    3.131086705e-04    1.370221144e-04    0.000000000e+00    0.000000000e+00    0.000000000e+00    0.000000000e+00
      224375000   -6.026051044e-01    4.250073135e-01    2.876884537e-04    1.139194064e-04    0.000000000e+00    0.000000000e+00    0.000000000e+00    0.000000000e+00
      226000000   -5.876881480e-01    4.416889846e-01    2.967878827e-04    1.281931327e-04    0.000000000e+00    0.000000000e+00    0.000000000e+00    0.000000000e+00
      227625000   -5.723391175e-01    4.577783048e-01    2.964947198e-04    1.382844930e-04    0.000000000e+00    0.000000000e+00    0.000000000e+00    0.000000000e+00
      229250000   -5.565783381e-01    4.734343588e-01    3.044445184e-04    1.478130580e-04    0.000000000e+00    0.000000000e+00    0.000000000e+00    0.000000000e+00
      230875000   -5.403512716e-01    4.883630276e-01    3.054732515e-04    1.262159058e-04    0.000000000e+00    0.000000000e+00    0.000000000e+00    0.000000000e+00
      232500000   -5.237252712e-01    5.028340816e-01    3.071272222e-04    1.524901454e-04    0.000000000e+00    0.000000000e+00    0.000000000e+00    0.000000000e+00
      234125000   -5.067266822e-01    5.164340734e-01    3.244816326e-04    1.454805752e-04    0.000000000e+00    0.000000000e+00    0.000000000e+00    0.000000000e+00
      235750000   -4.892328382e-01    5.297099352e-01    3.264215775e-04    1.449665724e-04    0.000000000e+00    0.000000000e+00    0.000000000e+00    0.000000000e+00
      237375000   -4.714481831e-01    5.421428084e-01    3.313730413e-04    1.505792752e-04    0.000000000e+00    0.000000000e+00    0.000000000e+00    0.000000000e+00
      239000000   -4.533386230e-01    5.539755821e-01    3.108909877e-04    1.522496605e-04    0.000000000e+00    0.000000000e+00    0.000000000e+00    0.000000000e+00
      240625000   -4.349165857e-01    5.650416613e-01    3.285570128e-04    1.455096935e-04    0.000000000e+00    0.000000000e+00    0.000000000e+00    0.000000000e+00
      242250000   -4.161916375e-01    5.757938027e-01    3.364984004e-04    1.487705304e-04    0.000000000e+00    0.000000000e+00    0.000000000e+00    0.000000000e+00
      243875000   -3.971464932e-01    5.860971212e-01    3.329827450e-04    1.673580409e-04    0.000000000e+00    0.000000000e+00    0.000000000e+00    0.000000000e+00
      245500000   -3.776891530e-01    5.952767730e-01    3.251555027e-04    1.396213484e-04    0.000000000e+00    0.000000000e+00    0.000000000e+00    0.000000000e+00
      247125000   -3.581814766e-01    6.043028235e-01    3.236628545e-04    1.331585663e-04    0.000000000e+00    0.000000000e+00    0.000000000e+00    0.000000000e+00
      248750000   -3.384541571e-01    6.124030948e-01    3.484156041e-04    1.386280055e-04    0.000000000e+00    0.000000000e+00    0.000000000e+00    0.000000000e+00
      250375000   -3.186448216e-01    6.199678183e-01    3.349022591e-04    1.585832943e-04    0.000000000e+00    0.000000000e+00    0.000000000e+00    0.000000000e+00
      252000000   -2.987420261e-01    6.267536879e-01    3.572016722e-04    1.556526404e-04    0.000000000e+00    0.000000000e+00    0.000000000e+00    0.000000000e+00
      253625000   -2.788678706e-01    6.329398155e-01    3.546868975e-04    1.435924059e-04    0.000000000e+00    0.000000000e+00    0.000000000e+00    0.000000000e+00
      255250000   -2.587580979e-01    6.384917498e-01    3.585124796e-04    1.478001359e-04    0.000000000e+00    0.000000000e+00    0.000000000e+00    0.000000000e+00
      256875000   -2.388444692e-01    6.432224512e-01    3.591139102e-04    1.661399729e-04    0.000000000e+00    0.000000000e+00    0.000000000e+00    0.000000000e+00
      258500000   -2.186749876e-01    6.474648118e-01    3.621829092e-04    1.538898359e-04    0.000000000e+00    0.000000000e+00    0.000000000e+00    0.000000000e+00
      260125000   -1.988483965e-01    6.512017846e-01    3.627793922e-04    1.372348779e-04    0.000000000e+00    0.000000000e+00    0.000000000e+00    0.000000000e+00
      261750000   -1.787575036e-01    6.543973684e-01    3.797670070e-04    1.902046642e-04    0.000000000e+00    0.000000000e+00    0.000000000e+00    0.000000000e+00
      263375000   -1.585937589e-01    6.566200852e-01    3.518328595e-04    1.535043266e-04    0.000000000e+00    0.000000000e+00    0.000000000e+00    0.000000000e+00
      265000000   -1.385373324e-01    6.579748392e-01    3.626234829e-04    1.388442470e-04    0.000000000e+00    0.000000000e+00    0.000000000e+00    0.000000000e+00
      266625000   -1.187216118e-01    6.593149304e-01    3.664745600e-04    1.507092966e-04    0.000000000e+00    0.000000000e+00    0.000000000e+00    0.000000000e+00
      268250000   -9.875218570e-02    6.600565910e-01    3.443349560e-04    1.696240215e-04    0.000000000e+00    0.000000000e+00    0.000000000e+00    0.000000000e+00
      269875000   -7.900864631e-02    6.597169042e-01    3.466129419e-04    1.386390795e-04    0.000000000e+00    0.000000000e+00    0.000000000e+00    0.000000000e+00
      271500000   -5.931941792e-02    6.590952277e-01    3.694071784e-04    1.680387795e-04    0.000000000e+00    0.000000000e+00    0.000000000e+00    0.000000000e+00
      273125000   -3.968247399e-02    6.579555273e-01    3.381482966e-04    1.375384163e-04    0.000000000e+00    0.000000000e+00    0.000000000e+00    0.000000000e+00
      274750000   -2.002150565e-02    6.562726498e-01    3.589736880e-04    1.584966521e-04    0.000000000e+00    0.000000000e+00    0.000000000e+00    0.000000000e+00
      276375000   -9.685186669e-04    6.539872885e-01    3.281737154e-04    1.614906505e-04    0.000000000e+00    0.000000000e+00    0.000000000e+00    0.000000000e+00
      278000000    1.822679676e-02    6.510840654e-01    3.423042654e-04    1.440034684e-04    0.000000000e+00    0.000000000e+00    0.000000000e+00    0.000000000e+00
      279625000    3.717230633e-02    6.477825046e-01    3.583260113e-04    1.429266995e-04    0.000000000e+00    0.000000000e+00    0.000000000e+00    0.000000000e+00
      281250000    5.617718399e-02    6.439368129e-01    3.653017047e-04    1.470250281e-04    0.000000000e+00    0.000000000e+00    0.000000000e+00    0.000000000e+00
      282875000    7.460907847e-02    6.395921707e-01    3.355626832e-04    1.354296692e-04    0.000000000e+00    0.000000000e+00    0.000000000e+00    0.000000000e+00
      284500000    9.306398779e-02    6.347435117e-01    3.369991027e-04    1.526388951e-04    0.000000000e+00    0.000000000e+00    0.000000000e+00    0.000000000e+00
      286125000    1.112467274e-01    6.295327544e-01    3.240307560e-04    1.393051061e-04    0.000000000e+00    0.000000000e+00    0.000000000e+00    0.000000000e+00
      287750000    1.291505843e-01    6.238446832e-01    3.249490692e-04    1.103886971e-04    0.000000000e+00    0.000000000e+00    0.000000000e+00    0.000000000e+00
      289375000    1.468847096e-01    6.174442172e-01    3.320897522e-04    1.339946321e-04    0.000000000e+00    0.000000000e+00    0.000000000e+00    0.000000000e+00
      291000000    7.345382869e-02    5.792285204e-01   -2.294759033e-04   -7.882620412e-05    0.000000000e+00    0.000000000e+00    0.000000000e+00    0.000000000e+00
      292625000    9.025999904e-02    5.743263960e-01   -5.872394831e-05   -5.025371865e-05    0.000000000e+00    0.000000000e+00    0.000000000e+00    0.000000000e+00
      294250000    1.063021347e-01    5.685585141e-01    1.284351038e-05    3.579410259e-05    0.000000000e+00    0.000000000e+00    0.000000000e+00    0.000000000e+00
      295875000    1.230120361e-01    5.634400249e-01   -1.548965229e-04   -5.040359247e-05    0.000000000e+00    0.000000000e+00    0.000000000e+00    0.000000000e+00
      297500000    1.383055449e-01    5.566859245e-01    1.075920954e-05   -3.207367627e-05    0.000000000e+00    0.000000000e+00    0.000000000e+00    0.000000000e+00
      299125000    1.541919112e-01    5.501547456e-01    7.328692300e-05   -5.697016604e-05    0.000000000e+00    0.000000000e+00    0.000000000e+00    0.000000000e+00
      300750000    1.701153815e-01    5.434146523e-01    1.217982208e-05    1.327599603e-04    0.000000000e+00    0.000000000e+00    0.000000000e+00    0.000000000e+00
      302375000    1.849923879e-01    5.357493162e-01   -1.413190039e-04    4.910754069e-05    0.000000000e+00    0.000000000e+00    0.000000000e+00    0.000000000e+00
      304000000    1.993837804e-01    5.281732082e-01    7.487422408e-05    5.788024646e-05    0.000000000e+00    0.000000000e+00    0.000000000e+00    0.000000000e+00
      305625000    2.140264809e-01    5.195997357e-01   -3.709353041e-05    9.160591435e-05    0.000000000e+00    0.000000000e+00    0.000000000e+00    0.000000000e+00
      307250000    2.309666425e-01    5.131015778e-01   -1.441209024e-04    1.419240903e-06    0.000000000e+00    0.000000000e+00    0.000000000e+00    0.000000000e+00
      308875000    2.424218506e-01    5.032171607e-01   -1.332548854e-04   -1.027845865e-04    0.000000000e+00    0.000000000e+00    0.000000000e+00    0.000000000e+00
      310500000    2.559624314e-01    4.936560392e-01   -8.833856555e-05   -2.949736881e-06    0.000000000e+00    0.000000000e+00    0.000000000e+00    0.000000000e+00
      312125000    2.693150938e-01    4.844667614e-01   -6.685889093e-05    1.723321475e-04    0.000000000e+00    0.000000000e+00    0.000000000e+00    0.000000000e+00
      313750000    2.823788524e-01    4.748189449e-01   -7.397441368e-05    6.480081356e-05    0.000000000e+00    0.000000000e+00    0.000000000e+00    0.000000000e+00
      315375000    2.946313620e-01    4.643310606e-01   -6.364576984e-05    4.933878881e-05    0.000000000e+00    0.000000000e+00    0.000000000e+00    0.000000000e+00
      317000000    3.072712421e-01    4.543448091e-01   -1.422103669e-04    6.782326818e-05    0.000000000e+00    0.000000000e+00    0.000000000e+00    0.000000000e+00
      318625000    3.192628920e-01    4.439082146e-01   -6.036700506e-05    1.020569543e-04    0.000000000e+00    0.000000000e+00    0.000000000e+00    0.000000000e+00
      320250000    3.309180737e-01    4.331313074e-01   -2.135370014e-04    4.287281990e-05    0.000000000e+00    0.000000000e+00    0.000000000e+00    0.000000000e+00
      321875000    3.418269157e-01    4.219023883e-01    1.250110836e-05    6.179127377e-05    0.000000000e+00    0.000000000e+00    0.000000000e+00    0.000000000e+00
      323500000    3.533594608e-01    4.107156992e-01   -3.630320862e-05    3.467240094e-05    0.000000000e+00    0.000000000e+00    0.000000000e+00    0.000000000e+00
      325125000    3.636680543e-01    3.996251822e-01    5.407030767e-05   -1.121686146e-04    0.000000000e+00    0.000000000e+00    0.000000000e+00    0.000000000e+00
      326750000    3.739067018e-01    3.877723515e-01   -4.127765715e-05   -1.534388139e-05    0.000000000e+00    0.000000000e+00    0.000000000e+00    0.000000000e+00
      328375000    3.837023973e-01    3.759086430e-01   -1.268488813e-05    1.183244513e-05    0.000000000e+00    0.000000000e+00    0.000000000e+00    0.000000000e+00
      330000000    3.931178153e-01    3.637576699e-01   -2.388300709e-05    2.482365380e-05    0.000000000e+00    0.000000000e+00    0.000000000e+00    0.000000000e+00
      331625000    4.027249217e-01    3.515831530e-01   -1.434176193e-05    1.102529041e-05    0.000000000e+00    0.000000000e+00    0.000000000e+00    0.000000000e+00
      333250000    4.113716781e-01    3.393610716e-01   -1.750108495e-04    1.504056218e-05    0.000000000e+00    0.000000000e+00    0.000000000e+00    0.000000000e+00
      334875000    4.195242226e-01    3.270077407e-01   -9.867142944e-05    1.771695133e-05    0.000000000e+00    0.000000000e+00    0.000000000e+00    0.000000000e+00
      336500000    4.280686677e-01    3.141163290e-01    6.440941070e-05   -2.453583329e-05    0.000000000e+00    0.000000000e+00    0.000000000e+00    0.000000000e+00
      338125000    4.355219305e-01    3.016246557e-01   -9.091773973e-05    1.019137781e-04    0.000000000e+00    0.000000000e+00    0.000000000e+00    0.000000000e+00
      339750000    4.430586696e-01    2.886207104e-01   -5.731430065e-05   -8.173194510e-05    0.000000000e+00    0.000000000e+00    0.000000000e+00    0.000000000e+00
      341375000    4.503428340e-01    2.759923339e-01   -1.689060300e-04   -9.127109661e-05    0.000000000e+00    0.000000000e+00    0.000000000e+00    0.000000000e+00
      343000000    4.570288956e-01    2.629548609e-01    8.812013402e-05    5.176995728e-06    0.000000000e+00    0.000000000e+00    0.000000000e+00    0.000000000e+00
      344625000    4.634647965e-01    2.497676909e-01   -1.526672859e-04   -7.814548007e-05    0.000000000e+00    0.000000000e+00    0.000000000e+00    0.000000000e+00
      346250000    4.693404734e-01    2.364172786e-01   -4.709765562e-05   -2.408934961e-05    0.000000000e+00    0.000000000e+00    0.000000000e+00    0.000000000e+00
      347875000    4.752478302e-01    2.230752110e-01   -1.235882955e-04   -7.841005754e-06    0.000000000e+00    0.000000000e+00    0.000000000e+00    0.000000000e+00
      349500000    4.807814062e-01    2.099061012e-01   -6.513401604e-05   -5.332994260e-05    0.000000000e+00    0.000000000e+00    0.000000000e+00    0.000000000e+00
      351125000    4.857879281e-01    1.964208931e-01   -9.208248957e-05   -6.673503958e-05    0.000000000e+00    0.000000000e+00    0.000000000e+00    0.000000000e+00
      352750000    4.907449186e-01    1.827894449e-01   -8.041577530e-05    8.440467354e-05    0.000000000e+00    0.000000000e+00    0.000000000e+00    0.000000000e+00
      354375000    4.949829876e-01    1.693456620e-01    2.781517310e-07   -1.249023771e-04    0.000000000e+00    0.000000000e+00    0.000000000e+00    0.000000000e+00
      356000000    4.990715086e-01    1.558065712e-01   -8.702894411e-05    1.653245636e-05    0.000000000e+00    0.000000000e+00    0.000000000e+00    0.000000000e+00
      357625000    5.029935837e-01    1.423288882e-01   -1.363893680e-04   -1.483572705e-04    0.000000000e+00    0.000000000e+00    0.000000000e+00    0.000000000e+00
      359250000    5.063943267e-01    1.286191344e-01   -1.233316434e-04   -1.142949768e-04    0.000000000e+00    0.000000000e+00    0.000000000e+00    0.000000000e+00
      360875000    5.095115304e-01    1.150985062e-01   -1.045096215e-04    5.410257654e-05    0.000000000e+00    0.000000000e+00    0.000000000e+00    0.000000000e+00
      362500000    5.121517181e-01    1.014592350e-01   -7.256750541e-05   -5.656267967e-05    0.000000000e+00    0.000000000e+00    0.000000000e+00    0.000000000e+00
      364125000    5.149895549e-01    8.767557889e-02    7.827297668e-05   -2.255708387e-05    0.000000000e+00    0.000000000e+00    0.000000000e+00    0.000000000e+00
      365750000    5.172856450e-01    7.412806898e-02   -6.930600648e-05   -4.251440987e-05    0.000000000e+00    0.000000000e+00    0.000000000e+00    0.000000000e+00
      367375000    5.191565752e-01    6.064951420e-02   -3.162841676e-05    1.350031380e-05    0.000000000e+00    0.000000000e+00    0.000000000e+00    0.000000000e+00
      369000000    5.208340287e-01    4.682807997e-02   -3.909073348e-05   -2.851790555e-07    0.000000000e+00    0.000000000e+00    0.000000000e+00    0.000000000e+00
      370625000    5.222751498e-01    3.334153444e-02   -9.223567758e-05   -1.459613486e-05    0.000000000e+00    0.000000000e+00    0.000000000e+00    0.000000000e+00
      372250000    5.234010816e-01    2.013137750e-02   -1.908490231e-04   -1.577520452e-04    0.000000000e+00    0.000000000e+00    0.000000000e+00    0.000000000e+00
      373875000    5.240659714e-01    6.262122188e-03   -7.787010691e-05   -3.893033863e-05    0.000000000e+00    0.000000000e+00    0.000000000e+00    0.000000000e+00
      375500000    5.245264173e-01   -7.249963935e-03   -1.088638164e-04    1.211970739e-04    0.000000000e+00    0.000000000e+00    0.000000000e+00    0.000000000e+00
      377125000    5.244591832e-01   -2.074794844e-02    3.036227645e-05    1.481771906e-04    0.000000000e+00    0.000000000e+00    0.000000000e+00    0.000000000e+00
      378750000    5.244328976e-01   -3.418314457e-02   -1.249531633e-04    7.867226668e-05    0.000000000e+00    0.000000000e+00    0.000000000e+00    0.000000000e+00
      380375000    5.239549875e-01   -4.754499346e-02   -1.065760080e-04   -3.900221782e-05    0.000000000e+00    0.000000000e+00    0.000000000e+00    0.000000000e+00
      382000000    5.233817101e-01   -6.108136848e-02    1.496374352e-05   -8.967556641e-05    0.000000000e+00    0.000000000e+00    0.000000000e+00    0.000000000e+00
      383625000    5.221140385e-01   -7.437946647e-02   -6.642719381e-05    1.337298745e-04    0.000000000e+00    0.000000000e+00    0.000000000e+00    0.000000000e+00
      385250000    5.210003853e-01   -8.760450035e-02   -1.655182714e-04    1.483988453e-04    0.000000000e+00    0.000000000e+00    0.000000000e+00    0.000000000e+00
      386875000    5.195194483e-01   -1.007881463e-01   -3.416856634e-05    1.181835323e-04    0.000000000e+00    0.000000000e+00    0.000000000e+00    0.000000000e+00
      388500000    5.176505446e-01   -1.139928475e-01   -2.428579173e-04   -1.018111379e-05    0.000000000e+00    0.000000000e+00    0.000000000e+00    0.000000000e+00
