! NanoVNA-App by OneOfEleven et al v1.1.209 (+OD15) 
! Date: 2024-07-30 12:27:53
! Start: 50kHz Stop: 5MHz Points: 201
! S-Parameter data: F S11 S21 S12 S22
# Hz S RI R 50
!     Frequency           S11_Real           S11_Imag           S21_Real           S21_Imag           S12_Real           S12_Imag           S22_Real           S22_Imag
          50000    7.328631282e-01    7.754038670e-04   -6.857206699e-06   -8.034152415e-06    0.000000000e+00    0.000000000e+00    0.000000000e+00    0.000000000e+00
          74750    7.297080159e-01    3.203357337e-03    1.708482046e-06    2.779146052e-05    0.000000000e+00    0.000000000e+00    0.000000000e+00    0.000000000e+00
          99500    7.533717752e-01    1.112174988e-02    1.650043305e-05   -4.895387519e-06    0.000000000e+00    0.000000000e+00    0.000000000e+00    0.000000000e+00
         124250    7.531043291e-01    7.988052443e-03   -1.932707528e-05   -1.038472692e-05    0.000000000e+00    0.000000000e+00    0.000000000e+00    0.000000000e+00
         149000    6.976379752e-01   -3.211234137e-02    1.052794141e-05   -2.357593803e-05    0.000000000e+00    0.000000000e+00    0.000000000e+00    0.000000000e+00
         173750    7.586768270e-01   -3.158978187e-03    4.112930765e-05    8.136611541e-06    0.000000000e+00    0.000000000e+00    0.000000000e+00    0.000000000e+00
         198500    7.563707829e-01   -6.012722850e-03   -2.962983217e-06    4.616354272e-05    0.000000000e+00    0.000000000e+00    0.000000000e+00    0.000000000e+00
         223250    7.530946732e-01   -7.451752666e-03   -1.146090995e-06   -7.167511740e-06    0.000000000e+00    0.000000000e+00    0.000000000e+00    0.000000000e+00
         248000    7.515679002e-01   -8.429537527e-03    1.095735206e-05   -2.573139682e-05    0.000000000e+00    0.000000000e+00    0.000000000e+00    0.000000000e+00
         272750    7.097069025e-01   -4.322328046e-02   -5.921742741e-06    4.097665169e-06    0.000000000e+00    0.000000000e+00    0.000000000e+00    0.000000000e+00
         297500    7.112979293e-01   -4.326037690e-02   -5.170199984e-06    1.496007098e-05    0.000000000e+00    0.000000000e+00    0.000000000e+00    0.000000000e+00
         322250    7.125786543e-01   -4.349796101e-02    8.279234862e-06    1.070248982e-05    0.000000000e+00    0.000000000e+00    0.000000000e+00    0.000000000e+00
         347000    7.136783004e-01   -4.344192520e-02    8.500763215e-06    5.046465503e-06    0.000000000e+00    0.000000000e+00    0.000000000e+00    0.000000000e+00
         371750    7.146967649e-01   -4.340110719e-02    3.154033766e-05   -1.808462366e-05    0.000000000e+00    0.000000000e+00    0.000000000e+00    0.000000000e+00
         396500    7.159023285e-01   -4.376598075e-02    4.112504030e-06   -4.600777174e-06    0.000000000e+00    0.000000000e+00    0.000000000e+00    0.000000000e+00
         421250    7.333152890e-01    7.862652652e-03    2.094722504e-06    4.138290933e-06    0.000000000e+00    0.000000000e+00    0.000000000e+00    0.000000000e+00
         446000    7.333234549e-01    7.413538639e-03    3.637488044e-05    1.888191832e-06    0.000000000e+00    0.000000000e+00    0.000000000e+00    0.000000000e+00
         470750    7.337974906e-01    7.154123858e-03   -2.305654925e-05   -1.666559183e-05    0.000000000e+00    0.000000000e+00    0.000000000e+00    0.000000000e+00
         495500    7.331061959e-01    7.131946273e-03    1.848788816e-05    6.781141110e-06    0.000000000e+00    0.000000000e+00    0.000000000e+00    0.000000000e+00
         520250    7.331527472e-01    7.563534193e-03   -5.292130481e-06    1.703964335e-05    0.000000000e+00    0.000000000e+00    0.000000000e+00    0.000000000e+00
         545000    7.331395745e-01    7.207910065e-03   -5.058410807e-06   -2.503521682e-05    0.000000000e+00    0.000000000e+00    0.000000000e+00    0.000000000e+00
         569750    7.328460813e-01    6.878770422e-03    1.782011532e-05    1.869399512e-06    0.000000000e+00    0.000000000e+00    0.000000000e+00    0.000000000e+00
         594500    7.325792313e-01    7.419701200e-03   -2.836230851e-05   -4.267617442e-06    0.000000000e+00    0.000000000e+00    0.000000000e+00    0.000000000e+00
         619250    7.325922847e-01    7.294249255e-03   -4.560878733e-05    1.380978688e-06    0.000000000e+00    0.000000000e+00    0.000000000e+00    0.000000000e+00
         644000    7.327914834e-01    6.904724520e-03   -1.763587352e-05    2.429400638e-06    0.000000000e+00    0.000000000e+00    0.000000000e+00    0.000000000e+00
         668750    7.324371338e-01    7.138613146e-03   -6.217090231e-06    2.469187621e-06    0.000000000e+00    0.000000000e+00    0.000000000e+00    0.000000000e+00
         693500    7.323353291e-01    7.164936047e-03   -1.710204924e-05   -3.271684545e-05    0.000000000e+00    0.000000000e+00    0.000000000e+00    0.000000000e+00
         718250    7.331284285e-01    6.922074128e-03    1.866080675e-05   -2.095181117e-05    0.000000000e+00    0.000000000e+00    0.000000000e+00    0.000000000e+00
         743000    7.325246334e-01    7.364898454e-03    1.959318070e-05    1.851193338e-05    0.000000000e+00    0.000000000e+00    0.000000000e+00    0.000000000e+00
         767750    7.320357561e-01    7.374435663e-03   -3.070974708e-05    1.278773652e-05    0.000000000e+00    0.000000000e+00    0.000000000e+00    0.000000000e+00
         792500    7.324681282e-01    7.305776235e-03    1.308316951e-05   -1.794584705e-06    0.000000000e+00    0.000000000e+00    0.000000000e+00    0.000000000e+00
         817250    7.325692773e-01    7.528468966e-03    4.145372259e-07    3.747508526e-05    0.000000000e+00    0.000000000e+00    0.000000000e+00    0.000000000e+00
         842000    7.327346802e-01    7.613850757e-03    9.943112673e-06    2.999685421e-06    0.000000000e+00    0.000000000e+00    0.000000000e+00    0.000000000e+00
         866750    7.327790856e-01    7.752810139e-03   -5.201267868e-06   -1.279022763e-05    0.000000000e+00    0.000000000e+00    0.000000000e+00    0.000000000e+00
         891500    7.327577472e-01    7.171485107e-03    3.624714509e-06   -2.083955951e-05    0.000000000e+00    0.000000000e+00    0.000000000e+00    0.000000000e+00
         916250    7.324307561e-01    6.841672119e-03    2.948657857e-05    9.077178220e-06    0.000000000e+00    0.000000000e+00    0.000000000e+00    0.000000000e+00
         941000    7.323452830e-01    6.888900883e-03    2.525349191e-05   -8.598998647e-06    0.000000000e+00    0.000000000e+00    0.000000000e+00    0.000000000e+00
         965750    7.320650220e-01    7.063088473e-03   -1.302169130e-05   -2.533171482e-06    0.000000000e+00    0.000000000e+00    0.000000000e+00    0.000000000e+00
         990500    7.320615053e-01    7.111210842e-03    7.599709079e-06   -7.376736903e-06    0.000000000e+00    0.000000000e+00    0.000000000e+00    0.000000000e+00
        1015250    7.321200967e-01    7.194841746e-03   -1.352968047e-05   -1.087038891e-05    0.000000000e+00    0.000000000e+00    0.000000000e+00    0.000000000e+00
        1040000    7.322767377e-01    7.137626410e-03   -9.341228179e-06    1.927557605e-05    0.000000000e+00    0.000000000e+00    0.000000000e+00    0.000000000e+00
        1064750    7.318211794e-01    6.743695587e-03    1.423152298e-05   -2.159307769e-05    0.000000000e+00    0.000000000e+00    0.000000000e+00    0.000000000e+00
        1089500    7.324976325e-01    7.237673271e-03   -2.696288720e-05    2.424151171e-05    0.000000000e+00    0.000000000e+00    0.000000000e+00    0.000000000e+00
        1114250    7.325691581e-01    7.084753830e-03   -2.168468654e-06   -6.942235359e-06    0.000000000e+00    0.000000000e+00    0.000000000e+00    0.000000000e+00
        1139000    7.320509553e-01    7.043207064e-03    5.649064042e-05   -1.995449202e-05    0.000000000e+00    0.000000000e+00    0.000000000e+00    0.000000000e+00
        1163750    7.319886088e-01    6.773534231e-03    5.603336467e-05   -2.806518387e-05    0.000000000e+00    0.000000000e+00    0.000000000e+00    0.000000000e+00
        1188500    7.325376272e-01    7.122875191e-03    1.401799364e-05   -4.551166967e-06    0.000000000e+00    0.000000000e+00    0.000000000e+00    0.000000000e+00
        1213250    7.320524454e-01    6.604810711e-03    3.264239422e-05    9.791183402e-06    0.000000000e+00    0.000000000e+00    0.000000000e+00    0.000000000e+00
        1238000    7.319344282e-01    6.968823262e-03   -2.207115540e-05   -3.020728036e-05    0.000000000e+00    0.000000000e+00    0.000000000e+00    0.000000000e+00
        1262750    7.325282693e-01    7.334821858e-03   -3.319335883e-05    2.283981667e-05    0.000000000e+00    0.000000000e+00    0.000000000e+00    0.000000000e+00
        1287500    7.318792939e-01    6.748962216e-03    9.167614735e-06    1.179045921e-05    0.000000000e+00    0.000000000e+00    0.000000000e+00    0.000000000e+00
        1312250    7.318620682e-01    6.683908403e-03    4.174882270e-05   -2.546568794e-05    0.000000000e+00    0.000000000e+00    0.000000000e+00    0.000000000e+00
        1337000    7.323997617e-01    7.214865182e-03   -1.312069980e-05    4.130805246e-05    0.000000000e+00    0.000000000e+00    0.000000000e+00    0.000000000e+00
        1361750    7.317665815e-01    6.794977933e-03    4.986477870e-05    4.790141247e-06    0.000000000e+00    0.000000000e+00    0.000000000e+00    0.000000000e+00
        1386500    7.318664193e-01    6.750722416e-03    4.632719538e-06    2.320763451e-05    0.000000000e+00    0.000000000e+00    0.000000000e+00    0.000000000e+00
        1411250    7.323112488e-01    6.819778122e-03    1.139650703e-05    2.426334868e-05    0.000000000e+00    0.000000000e+00    0.000000000e+00    0.000000000e+00
        1436000    7.322237492e-01    6.721584126e-03   -4.995839390e-06   -1.232938757e-05    0.000000000e+00    0.000000000e+00    0.000000000e+00    0.000000000e+00
        1460750    7.317324281e-01    6.665174849e-03   -2.776664587e-06    2.495500667e-05    0.000000000e+00    0.000000000e+00    0.000000000e+00    0.000000000e+00
        1485500    7.323213220e-01    6.549311336e-03   -9.032162779e-06    1.563327714e-05    0.000000000e+00    0.000000000e+00    0.000000000e+00    0.000000000e+00
        1510250    7.322495580e-01    6.659882143e-03   -3.043564902e-06   -6.283396488e-06    0.000000000e+00    0.000000000e+00    0.000000000e+00    0.000000000e+00
        1535000    7.313548923e-01    6.598115433e-03    3.290447694e-06   -1.991770296e-05    0.000000000e+00    0.000000000e+00    0.000000000e+00    0.000000000e+00
        1559750    7.324607372e-01    6.835767534e-03   -4.950632956e-06   -4.651869403e-06    0.000000000e+00    0.000000000e+00    0.000000000e+00    0.000000000e+00
        1584500    7.316784859e-01    6.211904809e-03   -4.043086665e-05   -4.613068450e-05    0.000000000e+00    0.000000000e+00    0.000000000e+00    0.000000000e+00
        1609250    7.318084836e-01    6.406641100e-03    4.526423800e-05    1.157029419e-05    0.000000000e+00    0.000000000e+00    0.000000000e+00    0.000000000e+00
        1634000    7.320886254e-01    6.601967383e-03   -2.044076246e-05    4.866678864e-05    0.000000000e+00    0.000000000e+00    0.000000000e+00    0.000000000e+00
        1658750    7.321169972e-01    6.841839291e-03   -5.486537702e-06    2.664354724e-05    0.000000000e+00    0.000000000e+00    0.000000000e+00    0.000000000e+00
        1683500    7.316432595e-01    6.463022903e-03   -3.437437772e-05   -2.641423816e-05    0.000000000e+00    0.000000000e+00    0.000000000e+00    0.000000000e+00
        1708250    7.321228981e-01    6.527155638e-03   -5.400757800e-05    6.969657989e-06    0.000000000e+00    0.000000000e+00    0.000000000e+00    0.000000000e+00
        1733000    7.320528626e-01    6.726754829e-03   -2.768012746e-05   -2.782090996e-05    0.000000000e+00    0.000000000e+00    0.000000000e+00    0.000000000e+00
        1757750    7.316867709e-01    6.204034667e-03    8.568995327e-06   -1.877604154e-05    0.000000000e+00    0.000000000e+00    0.000000000e+00    0.000000000e+00
        1782500    7.318753004e-01    6.392762065e-03   -4.182931298e-05    1.132338548e-05    0.000000000e+00    0.000000000e+00    0.000000000e+00    0.000000000e+00
        1807250    7.317944765e-01    6.351141725e-03   -3.617603639e-08    4.750571406e-06    0.000000000e+00    0.000000000e+00    0.000000000e+00    0.000000000e+00
        1832000    7.315575480e-01    6.349503528e-03    2.489809594e-05   -4.022145276e-06    0.000000000e+00    0.000000000e+00    0.000000000e+00    0.000000000e+00
        1856750    7.320101857e-01    6.274745334e-03    1.886409882e-05    2.530707388e-05    0.000000000e+00    0.000000000e+00    0.000000000e+00    0.000000000e+00
        1881500    7.318996787e-01    6.388910115e-03    1.362149760e-05   -2.559012501e-06    0.000000000e+00    0.000000000e+00    0.000000000e+00    0.000000000e+00
        1906250    7.316197157e-01    6.297827698e-03    4.821689345e-06   -1.645990596e-05    0.000000000e+00    0.000000000e+00    0.000000000e+00    0.000000000e+00
        1931000    7.320424318e-01    6.439446472e-03    4.325653208e-06    1.242489418e-07    0.000000000e+00    0.000000000e+00    0.000000000e+00    0.000000000e+00
        1955750    7.318269610e-01    6.431336049e-03   -1.815161522e-05    2.587745803e-05    0.000000000e+00    0.000000000e+00    0.000000000e+00    0.000000000e+00
        1980500    7.313653231e-01    6.115876604e-03    1.560212513e-05   -2.244496318e-05    0.000000000e+00    0.000000000e+00    0.000000000e+00    0.000000000e+00
        2005250    7.317654490e-01    6.435664371e-03    4.153705595e-05   -1.893947592e-05    0.000000000e+00    0.000000000e+00    0.000000000e+00    0.000000000e+00
        2030000    7.317560315e-01    6.353671197e-03    1.156232997e-06    5.001749741e-05    0.000000000e+00    0.000000000e+00    0.000000000e+00    0.000000000e+00
        2054750    7.315346599e-01    5.847541615e-03   -2.264916293e-05    3.424209353e-05    0.000000000e+00    0.000000000e+00    0.000000000e+00    0.000000000e+00
        2079500    7.320625186e-01    6.431754213e-03    2.159826181e-05   -3.621343058e-05    0.000000000e+00    0.000000000e+00    0.000000000e+00    0.000000000e+00
        2104250    7.320486307e-01    6.100649480e-03   -7.474559879e-06   -5.986619726e-06    0.000000000e+00    0.000000000e+00    0.000000000e+00    0.000000000e+00
        2129000    7.315213680e-01    6.137140095e-03    8.148947018e-06   -1.711626464e-05    0.000000000e+00    0.000000000e+00    0.000000000e+00    0.000000000e+00
        2153750    7.315563560e-01    6.003086455e-03    2.837792636e-05   -1.560114833e-05    0.000000000e+00    0.000000000e+00    0.000000000e+00    0.000000000e+00
        2178500    7.318742275e-01    6.067536306e-03   -2.770858737e-05   -4.220534720e-06    0.000000000e+00    0.000000000e+00    0.000000000e+00    0.000000000e+00
        2203250    7.316535711e-01    5.567597225e-03    7.971275409e-06   -3.451734665e-05    0.000000000e+00    0.000000000e+00    0.000000000e+00    0.000000000e+00
        2228000    7.317540050e-01    5.808051676e-03    6.787614893e-06    8.257612535e-06    0.000000000e+00    0.000000000e+00    0.000000000e+00    0.000000000e+00
        2252750    7.318974137e-01    6.163189188e-03    3.314160494e-05   -8.255235298e-05    0.000000000e+00    0.000000000e+00    0.000000000e+00    0.000000000e+00
        2277500    7.316471338e-01    5.897561088e-03    4.577765867e-05   -4.424735380e-05    0.000000000e+00    0.000000000e+00    0.000000000e+00    0.000000000e+00
        2302250    7.320097089e-01    5.772016477e-03    1.841764788e-05    2.388276152e-05    0.000000000e+00    0.000000000e+00    0.000000000e+00    0.000000000e+00
        2327000    7.318113446e-01    5.970754195e-03    2.326355752e-05    1.141907887e-05    0.000000000e+00    0.000000000e+00    0.000000000e+00    0.000000000e+00
        2351750    7.314675450e-01    5.902785342e-03   -1.672058352e-05    1.496486948e-05    0.000000000e+00    0.000000000e+00    0.000000000e+00    0.000000000e+00
        2376500    7.312522531e-01    5.578798242e-03    2.903434870e-05   -1.875230009e-05    0.000000000e+00    0.000000000e+00    0.000000000e+00    0.000000000e+00
        2401250    7.315593362e-01    5.660943221e-03    2.839423541e-05    2.604934934e-06    0.000000000e+00    0.000000000e+00    0.000000000e+00    0.000000000e+00
        2426000    7.319434881e-01    5.821307190e-03    1.220001195e-05    1.808400521e-05    0.000000000e+00    0.000000000e+00    0.000000000e+00    0.000000000e+00
        2450750    7.315320373e-01    5.654692184e-03    1.438461140e-06   -3.624940291e-05    0.000000000e+00    0.000000000e+00    0.000000000e+00    0.000000000e+00
        2475500    7.313041091e-01    5.537813064e-03   -2.036822116e-05    9.179332665e-06    0.000000000e+00    0.000000000e+00    0.000000000e+00    0.000000000e+00
        2500250    7.319688201e-01    5.893947091e-03   -2.811575541e-05    7.130893209e-06    0.000000000e+00    0.000000000e+00    0.000000000e+00    0.000000000e+00
        2525000    7.316475511e-01    5.636397284e-03   -2.690110159e-05    3.195071940e-06    0.000000000e+00    0.000000000e+00    0.000000000e+00    0.000000000e+00
        2549750    7.312836647e-01    5.314045120e-03   -3.989831021e-05   -1.949647594e-05    0.000000000e+00    0.000000000e+00    0.000000000e+00    0.000000000e+00
        2574500    7.314393520e-01    5.627805833e-03   -2.074496297e-05    1.226933455e-05    0.000000000e+00    0.000000000e+00    0.000000000e+00    0.000000000e+00
        2599250    7.318268418e-01    5.590678658e-03   -4.424516737e-05    4.729336069e-05    0.000000000e+00    0.000000000e+00    0.000000000e+00    0.000000000e+00
        2624000    7.315466404e-01    5.418910645e-03   -1.155231416e-06   -1.442090797e-05    0.000000000e+00    0.000000000e+00    0.000000000e+00    0.000000000e+00
        2648750    7.312662601e-01    5.637016147e-03   -1.917268673e-05    5.169779342e-07    0.000000000e+00    0.000000000e+00    0.000000000e+00    0.000000000e+00
        2673500    7.319527268e-01    5.621981341e-03   -1.529062683e-05    6.753114690e-07    0.000000000e+00    0.000000000e+00    0.000000000e+00    0.000000000e+00
        2698250    7.315631509e-01    5.613539834e-03   -3.166453098e-05   -1.592758417e-05    0.000000000e+00    0.000000000e+00    0.000000000e+00    0.000000000e+00
        2723000    7.312098145e-01    5.433668848e-03    1.134227296e-05    6.126081189e-06    0.000000000e+00    0.000000000e+00    0.000000000e+00    0.000000000e+00
        2747750    7.319239378e-01    5.495291203e-03    3.434274277e-06    2.735881935e-05    0.000000000e+00    0.000000000e+00    0.000000000e+00    0.000000000e+00
        2772500    7.316368818e-01    5.395048298e-03   -2.770864921e-05    2.821233466e-05    0.000000000e+00    0.000000000e+00    0.000000000e+00    0.000000000e+00
        2797250    7.311578989e-01    5.100799259e-03    7.800886124e-06   -1.822538616e-05    0.000000000e+00    0.000000000e+00    0.000000000e+00    0.000000000e+00
        2822000    7.317116261e-01    5.236264784e-03   -2.658425365e-05   -2.227120603e-05    0.000000000e+00    0.000000000e+00    0.000000000e+00    0.000000000e+00
        2846750    7.314376235e-01    5.324030761e-03    1.818956844e-05    5.417269335e-07    0.000000000e+00    0.000000000e+00    0.000000000e+00    0.000000000e+00
        2871500    7.311775088e-01    4.963081330e-03    3.577387906e-05   -1.828595305e-05    0.000000000e+00    0.000000000e+00    0.000000000e+00    0.000000000e+00
        2896250    7.318908572e-01    5.350014661e-03   -8.340543900e-06    2.993843373e-05    0.000000000e+00    0.000000000e+00    0.000000000e+00    0.000000000e+00
        2921000    7.314987183e-01    5.429911427e-03    9.768688869e-06   -1.771519237e-05    0.000000000e+00    0.000000000e+00    0.000000000e+00    0.000000000e+00
