! NanoVNA-App by OneOfEleven et al v1.1.209 (+OD15) 
! Date: 2024-07-30 12:27:48
! Start: 50kHz Stop: 5MHz Points: 201
! S-Parameter data: F S11 S21 S12 S22
# Hz S RI R 50
!     Frequency           S11_Real           S11_Imag           S21_Real           S21_Imag           S12_Real           S12_Imag           S22_Real           S22_Imag
          50000    7.328205705e-01    1.057592803e-03    1.041794076e-05   -1.324376717e-05    0.000000000e+00    0.000000000e+00    0.000000000e+00    0.000000000e+00
          74750    7.307391167e-01    3.385209478e-03   -2.069316906e-05    1.315413465e-05    0.000000000e+00    0.000000000e+00    0.000000000e+00    0.000000000e+00
          99500    7.533426881e-01    1.127310470e-02    5.283849077e-06   -4.258885383e-06    0.000000000e+00    0.000000000e+00    0.000000000e+00    0.000000000e+00
         124250    7.533406019e-01    7.930934429e-03   -3.954968122e-07    2.863095915e-06    0.000000000e+00    0.000000000e+00    0.000000000e+00    0.000000000e+00
         149000    6.972870231e-01   -3.199221566e-02    7.304526662e-06   -6.340427262e-06    0.000000000e+00    0.000000000e+00    0.000000000e+00    0.000000000e+00
         173750    7.583581209e-01   -3.255295567e-03    5.912376764e-06   -1.618919850e-05    0.000000000e+00    0.000000000e+00    0.000000000e+00    0.000000000e+00
         198500    7.561436892e-01   -5.779019557e-03   -1.637760761e-05   -7.615036793e-06    0.000000000e+00    0.000000000e+00    0.000000000e+00    0.000000000e+00
         223250    7.530461550e-01   -7.545027882e-03    2.942890887e-06    2.810889964e-05    0.000000000e+00    0.000000000e+00    0.000000000e+00    0.000000000e+00
         248000    7.512934208e-01   -8.456532843e-03    9.187028240e-07    2.888468953e-05    0.000000000e+00    0.000000000e+00    0.000000000e+00    0.000000000e+00
         272750    7.096873522e-01   -4.339712858e-02   -1.712619678e-06   -1.707038064e-05    0.000000000e+00    0.000000000e+00    0.000000000e+00    0.000000000e+00
         297500    7.110615373e-01   -4.298569635e-02    6.171846053e-06    1.941218034e-05    0.000000000e+00    0.000000000e+00    0.000000000e+00    0.000000000e+00
         322250    7.126405239e-01   -4.317485914e-02    2.601487904e-05   -3.854657280e-06    0.000000000e+00    0.000000000e+00    0.000000000e+00    0.000000000e+00
         347000    7.136595845e-01   -4.307353869e-02    1.165717276e-05   -1.297566450e-05    0.000000000e+00    0.000000000e+00    0.000000000e+00    0.000000000e+00
         371750    7.146958113e-01   -4.306680709e-02   -5.583637630e-06   -2.861309804e-05    0.000000000e+00    0.000000000e+00    0.000000000e+00    0.000000000e+00
         396500    7.158728242e-01   -4.378339276e-02    2.133330781e-05   -9.124903045e-06    0.000000000e+00    0.000000000e+00    0.000000000e+00    0.000000000e+00
         421250    7.334120274e-01    7.789902855e-03    1.266669756e-06    2.555453102e-05    0.000000000e+00    0.000000000e+00    0.000000000e+00    0.000000000e+00
         446000    7.331103086e-01    7.711506449e-03   -6.636886951e-07    3.591315544e-05    0.000000000e+00    0.000000000e+00    0.000000000e+00    0.000000000e+00
         470750    7.337062955e-01    7.518130355e-03   -1.904188684e-05    1.210404662e-06    0.000000000e+00    0.000000000e+00    0.000000000e+00    0.000000000e+00
         495500    7.334228754e-01    7.352055516e-03   -1.000474276e-05    8.689884453e-06    0.000000000e+00    0.000000000e+00    0.000000000e+00    0.000000000e+00
         520250    7.334515452e-01    7.341483142e-03   -2.150558066e-05   -1.370766677e-05    0.000000000e+00    0.000000000e+00    0.000000000e+00    0.000000000e+00
         545000    7.334479690e-01    7.316677365e-03   -9.071306977e-07    6.957679034e-06    0.000000000e+00    0.000000000e+00    0.000000000e+00    0.000000000e+00
         569750    7.334091067e-01    6.858265493e-03   -8.644836271e-06   -6.624353318e-06    0.000000000e+00    0.000000000e+00    0.000000000e+00    0.000000000e+00
         594500    7.325347662e-01    7.614298258e-03   -2.518932342e-05   -1.936857734e-05    0.000000000e+00    0.000000000e+00    0.000000000e+00    0.000000000e+00
         619250    7.328149080e-01    7.258065511e-03   -7.105707937e-06   -1.904988858e-05    0.000000000e+00    0.000000000e+00    0.000000000e+00    0.000000000e+00
         644000    7.327740192e-01    7.062390447e-03   -1.248035187e-05    2.576622865e-05    0.000000000e+00    0.000000000e+00    0.000000000e+00    0.000000000e+00
         668750    7.325695753e-01    7.154752500e-03   -1.856233030e-05    1.230932230e-05    0.000000000e+00    0.000000000e+00    0.000000000e+00    0.000000000e+00
         693500    7.327873707e-01    7.282358129e-03   -1.969746154e-05    1.088003501e-06    0.000000000e+00    0.000000000e+00    0.000000000e+00    0.000000000e+00
         718250    7.331521511e-01    7.224661764e-03   -9.904763829e-06   -1.005117338e-05    0.000000000e+00    0.000000000e+00    0.000000000e+00    0.000000000e+00
         743000    7.325571775e-01    7.121119183e-03    2.707815838e-05    5.889130080e-06    0.000000000e+00    0.000000000e+00    0.000000000e+00    0.000000000e+00
         767750    7.327279449e-01    7.236059289e-03   -1.220321451e-06    1.660888120e-05    0.000000000e+00    0.000000000e+00    0.000000000e+00    0.000000000e+00
         792500    7.329158187e-01    7.181011606e-03   -3.211795411e-05   -3.169167758e-05    0.000000000e+00    0.000000000e+00    0.000000000e+00    0.000000000e+00
         817250    7.325563431e-01    7.231966127e-03   -1.369061010e-05    1.552611502e-05    0.000000000e+00    0.000000000e+00    0.000000000e+00    0.000000000e+00
         842000    7.326190472e-01    7.363280281e-03    1.685696475e-06   -1.962766873e-05    0.000000000e+00    0.000000000e+00    0.000000000e+00    0.000000000e+00
         866750    7.323054671e-01    7.342017256e-03    1.807372428e-05    6.944311281e-06    0.000000000e+00    0.000000000e+00    0.000000000e+00    0.000000000e+00
         891500    7.322756052e-01    7.363442797e-03   -1.128410986e-05   -1.227227040e-05    0.000000000e+00    0.000000000e+00    0.000000000e+00    0.000000000e+00
         916250    7.324225307e-01    7.189859170e-03   -2.889555981e-05   -7.073737379e-06    0.000000000e+00    0.000000000e+00    0.000000000e+00    0.000000000e+00
         941000    7.325584292e-01    7.374451961e-03   -1.005294689e-05   -1.716888801e-05    0.000000000e+00    0.000000000e+00    0.000000000e+00    0.000000000e+00
         965750    7.324029803e-01    7.148220669e-03   -1.391580463e-05   -6.711151173e-07    0.000000000e+00    0.000000000e+00    0.000000000e+00    0.000000000e+00
         990500    7.322803140e-01    7.185772061e-03    2.902321467e-05    3.324476711e-05    0.000000000e+00    0.000000000e+00    0.000000000e+00    0.000000000e+00
        1015250    7.323423028e-01    7.005202118e-03   -2.880151078e-05   -1.027149210e-05    0.000000000e+00    0.000000000e+00    0.000000000e+00    0.000000000e+00
        1040000    7.317137122e-01    6.983393803e-03    4.334542609e-05    1.678476656e-05    0.000000000e+00    0.000000000e+00    0.000000000e+00    0.000000000e+00
        1064750    7.325455546e-01    7.180930115e-03    1.792909461e-05   -2.355381639e-06    0.000000000e+00    0.000000000e+00    0.000000000e+00    0.000000000e+00
        1089500    7.322934270e-01    6.839179434e-03   -1.051638355e-05   -7.636882401e-06    0.000000000e+00    0.000000000e+00    0.000000000e+00    0.000000000e+00
        1114250    7.321768403e-01    6.950953975e-03    8.954635632e-06   -7.917472431e-06    0.000000000e+00    0.000000000e+00    0.000000000e+00    0.000000000e+00
        1139000    7.322439551e-01    7.365639787e-03    5.013843111e-05    1.113384315e-05    0.000000000e+00    0.000000000e+00    0.000000000e+00    0.000000000e+00
        1163750    7.322978377e-01    6.865703035e-03   -2.677254270e-05    7.555898719e-06    0.000000000e+00    0.000000000e+00    0.000000000e+00    0.000000000e+00
        1188500    7.319899201e-01    6.967850961e-03   -2.610205593e-05    4.489063940e-05    0.000000000e+00    0.000000000e+00    0.000000000e+00    0.000000000e+00
        1213250    7.324760556e-01    6.990858819e-03   -1.571177745e-05   -3.667158308e-05    0.000000000e+00    0.000000000e+00    0.000000000e+00    0.000000000e+00
        1238000    7.320497632e-01    6.985656917e-03   -1.184615849e-05   -3.239506987e-05    0.000000000e+00    0.000000000e+00    0.000000000e+00    0.000000000e+00
        1262750    7.320265770e-01    6.770036649e-03   -7.532074051e-06    3.412333535e-05    0.000000000e+00    0.000000000e+00    0.000000000e+00    0.000000000e+00
        1287500    7.316386104e-01    6.962553132e-03   -8.200623597e-06    1.936701119e-05    0.000000000e+00    0.000000000e+00    0.000000000e+00    0.000000000e+00
        1312250    7.323973179e-01    6.849957164e-03    2.188653161e-05   -3.075542918e-05    0.000000000e+00    0.000000000e+00    0.000000000e+00    0.000000000e+00
        1337000    7.318237424e-01    6.989492569e-03    2.374905989e-06    1.485616485e-05    0.000000000e+00    0.000000000e+00    0.000000000e+00    0.000000000e+00
        1361750    7.323446274e-01    7.012497168e-03    7.025412287e-06    2.853851220e-05    0.000000000e+00    0.000000000e+00    0.000000000e+00    0.000000000e+00
        1386500    7.319597006e-01    6.898304913e-03   -1.335872639e-05   -6.393435797e-06    0.000000000e+00    0.000000000e+00    0.000000000e+00    0.000000000e+00
        1411250    7.320561409e-01    6.488659419e-03    8.642309695e-06   -9.216773265e-07    0.000000000e+00    0.000000000e+00    0.000000000e+00    0.000000000e+00
        1436000    7.318844795e-01    6.831734907e-03    5.511650670e-06    1.640923438e-05    0.000000000e+00    0.000000000e+00    0.000000000e+00    0.000000000e+00
        1460750    7.323856950e-01    6.987697911e-03    1.812632217e-05   -1.436259572e-05    0.000000000e+00    0.000000000e+00    0.000000000e+00    0.000000000e+00
        1485500    7.322729230e-01    6.868517026e-03   -1.513543452e-06    2.830426092e-05    0.000000000e+00    0.000000000e+00    0.000000000e+00    0.000000000e+00
        1510250    7.318755388e-01    6.711698603e-03   -1.672941289e-05    5.041901659e-06    0.000000000e+00    0.000000000e+00    0.000000000e+00    0.000000000e+00
        1535000    7.311832905e-01    6.475457922e-03    2.814164145e-05    1.124647770e-05    0.000000000e+00    0.000000000e+00    0.000000000e+00    0.000000000e+00
        1559750    7.319638729e-01    6.980460137e-03    2.945673441e-05   -1.332602824e-05    0.000000000e+00    0.000000000e+00    0.000000000e+00    0.000000000e+00
        1584500    7.319020033e-01    6.396801677e-03    2.557826883e-05   -2.492342537e-05    0.000000000e+00    0.000000000e+00    0.000000000e+00    0.000000000e+00
        1609250    7.319111824e-01    6.730969530e-03   -1.074249849e-05   -1.650957711e-05    0.000000000e+00    0.000000000e+00    0.000000000e+00    0.000000000e+00
        1634000    7.320457101e-01    6.640926469e-03   -1.537150069e-06    2.204706107e-05    0.000000000e+00    0.000000000e+00    0.000000000e+00    0.000000000e+00
        1658750    7.319533825e-01    6.613399833e-03   -1.789634371e-05   -2.653078445e-05    0.000000000e+00    0.000000000e+00    0.000000000e+00    0.000000000e+00
        1683500    7.316663861e-01    6.487407256e-03   -8.699609680e-06   -5.355921076e-06    0.000000000e+00    0.000000000e+00    0.000000000e+00    0.000000000e+00
        1708250    7.322567105e-01    6.638904102e-03    5.841815437e-06    3.003830170e-05    0.000000000e+00    0.000000000e+00    0.000000000e+00    0.000000000e+00
        1733000    7.317281365e-01    6.861411501e-03   -1.667904144e-06   -5.709347079e-06    0.000000000e+00    0.000000000e+00    0.000000000e+00    0.000000000e+00
        1757750    7.315888405e-01    6.231850013e-03   -4.082531450e-05    1.284440714e-05    0.000000000e+00    0.000000000e+00    0.000000000e+00    0.000000000e+00
        1782500    7.318944335e-01    6.417324767e-03   -5.907690138e-05    2.294203841e-05    0.000000000e+00    0.000000000e+00    0.000000000e+00    0.000000000e+00
        1807250    7.320194244e-01    6.588391960e-03   -2.972216316e-05    9.235244761e-06    0.000000000e+00    0.000000000e+00    0.000000000e+00    0.000000000e+00
        1832000    7.320185304e-01    6.545180455e-03    5.309780681e-05   -1.780951607e-05    0.000000000e+00    0.000000000e+00    0.000000000e+00    0.000000000e+00
        1856750    7.316102386e-01    6.138839759e-03    3.253942850e-05   -1.001145938e-05    0.000000000e+00    0.000000000e+00    0.000000000e+00    0.000000000e+00
        1881500    7.320058346e-01    6.482445169e-03   -1.224427979e-05   -6.230894542e-06    0.000000000e+00    0.000000000e+00    0.000000000e+00    0.000000000e+00
        1906250    7.322087288e-01    6.543446332e-03   -6.216348083e-06   -1.607010381e-05    0.000000000e+00    0.000000000e+00    0.000000000e+00    0.000000000e+00
        1931000    7.315834761e-01    6.425599102e-03   -1.716960651e-05   -6.484549431e-06    0.000000000e+00    0.000000000e+00    0.000000000e+00    0.000000000e+00
        1955750    7.319721580e-01    6.254739128e-03   -2.384562140e-05    1.432788576e-05    0.000000000e+00    0.000000000e+00    0.000000000e+00    0.000000000e+00
        1980500    7.318251133e-01    6.360456347e-03    1.185826204e-05   -1.931612132e-05    0.000000000e+00    0.000000000e+00    0.000000000e+00    0.000000000e+00
        2005250    7.313687801e-01    5.936840083e-03    2.976011729e-06    6.908182058e-06    0.000000000e+00    0.000000000e+00    0.000000000e+00    0.000000000e+00
        2030000    7.316376567e-01    5.758795887e-03   -2.846581310e-06   -4.500907016e-05    0.000000000e+00    0.000000000e+00    0.000000000e+00    0.000000000e+00
        2054750    7.320719361e-01    6.194378715e-03   -2.697613854e-05    2.549951205e-05    0.000000000e+00    0.000000000e+00    0.000000000e+00    0.000000000e+00
        2079500    7.316092849e-01    6.149460562e-03    2.661479448e-05    4.565286872e-05    0.000000000e+00    0.000000000e+00    0.000000000e+00    0.000000000e+00
        2104250    7.312973738e-01    6.006144453e-03   -2.943957588e-05   -1.127730866e-05    0.000000000e+00    0.000000000e+00    0.000000000e+00    0.000000000e+00
        2129000    7.320081592e-01    5.979841109e-03    2.682054219e-05   -1.196119229e-05    0.000000000e+00    0.000000000e+00    0.000000000e+00    0.000000000e+00
        2153750    7.315543294e-01    6.121112499e-03    1.680287460e-05    3.744656351e-05    0.000000000e+00    0.000000000e+00    0.000000000e+00    0.000000000e+00
        2178500    7.312698960e-01    5.674162880e-03    3.010345063e-05    4.819931291e-06    0.000000000e+00    0.000000000e+00    0.000000000e+00    0.000000000e+00
        2203250    7.316862941e-01    6.198610179e-03   -1.043586690e-05   -3.485429988e-05    0.000000000e+00    0.000000000e+00    0.000000000e+00    0.000000000e+00
        2228000    7.316998243e-01    6.030499935e-03   -1.306013746e-05   -2.902890265e-05    0.000000000e+00    0.000000000e+00    0.000000000e+00    0.000000000e+00
        2252750    7.316020131e-01    5.851032678e-03    3.105618816e-05   -3.622951044e-05    0.000000000e+00    0.000000000e+00    0.000000000e+00    0.000000000e+00
        2277500    7.316970229e-01    5.795551930e-03   -1.184764369e-05   -3.168412150e-05    0.000000000e+00    0.000000000e+00    0.000000000e+00    0.000000000e+00
        2302250    7.319129705e-01    5.759878084e-03   -1.370161499e-05   -1.971456732e-05    0.000000000e+00    0.000000000e+00    0.000000000e+00    0.000000000e+00
        2327000    7.312424183e-01    5.618381780e-03   -4.638211612e-05    1.485842313e-05    0.000000000e+00    0.000000000e+00    0.000000000e+00    0.000000000e+00
        2351750    7.319869995e-01    5.946732126e-03   -4.126183921e-05    1.412206439e-05    0.000000000e+00    0.000000000e+00    0.000000000e+00    0.000000000e+00
        2376500    7.316437960e-01    5.946221296e-03    2.494559340e-06   -2.036490514e-06    0.000000000e+00    0.000000000e+00    0.000000000e+00    0.000000000e+00
        2401250    7.315909863e-01    5.470782984e-03   -2.928946287e-06   -3.509526869e-05    0.000000000e+00    0.000000000e+00    0.000000000e+00    0.000000000e+00
        2426000    7.312979698e-01    5.404874217e-03   -2.668533489e-05    1.884263293e-05    0.000000000e+00    0.000000000e+00    0.000000000e+00    0.000000000e+00
        2450750    7.318466306e-01    5.726856180e-03   -3.747364826e-05   -5.404903277e-06    0.000000000e+00    0.000000000e+00    0.000000000e+00    0.000000000e+00
        2475500    7.316474319e-01    5.979047157e-03   -2.518808105e-05   -3.859192020e-06    0.000000000e+00    0.000000000e+00    0.000000000e+00    0.000000000e+00
        2500250    7.311612964e-01    5.467253271e-03   -3.663643383e-06    2.205909482e-07    0.000000000e+00    0.000000000e+00    0.000000000e+00    0.000000000e+00
        2525000    7.317542434e-01    5.660571624e-03    5.395127118e-06   -1.886681093e-05    0.000000000e+00    0.000000000e+00    0.000000000e+00    0.000000000e+00
        2549750    7.320429683e-01    5.753098521e-03   -2.034787394e-05   -1.412100755e-05    0.000000000e+00    0.000000000e+00    0.000000000e+00    0.000000000e+00
        2574500    7.314040065e-01    5.508041941e-03   -4.368290683e-05    3.914548415e-06    0.000000000e+00    0.000000000e+00    0.000000000e+00    0.000000000e+00
        2599250    7.314243913e-01    5.413809791e-03    1.605082434e-05    2.632546784e-05    0.000000000e+00    0.000000000e+00    0.000000000e+00    0.000000000e+00
        2624000    7.318095565e-01    5.461363122e-03   -3.536870645e-05   -4.693947267e-05    0.000000000e+00    0.000000000e+00    0.000000000e+00    0.000000000e+00
        2648750    7.313230038e-01    5.794364028e-03    5.766262348e-06    5.085067096e-05    0.000000000e+00    0.000000000e+00    0.000000000e+00    0.000000000e+00
        2673500    7.313367724e-01    5.534833763e-03    1.250508376e-06    4.334111452e-07    0.000000000e+00    0.000000000e+00    0.000000000e+00    0.000000000e+00
        2698250    7.318202257e-01    5.513824057e-03   -1.893389526e-05    8.943938155e-06    0.000000000e+00    0.000000000e+00    0.000000000e+00    0.000000000e+00
        2723000    7.316082716e-01    5.514443386e-03   -5.432825219e-06   -1.782874824e-05    0.000000000e+00    0.000000000e+00    0.000000000e+00    0.000000000e+00
        2747750    7.314763069e-01    5.365316290e-03    1.632775820e-05   -3.689182995e-05    0.000000000e+00    0.000000000e+00    0.000000000e+00    0.000000000e+00
        2772500    7.316635847e-01    5.379600450e-03    1.391347632e-05    3.246985943e-05    0.000000000e+00    0.000000000e+00    0.000000000e+00    0.000000000e+00
        2797250    7.314128876e-01    5.465454422e-03   -4.579416327e-06   -3.489758740e-07    0.000000000e+00    0.000000000e+00    0.000000000e+00    0.000000000e+00
        2822000    7.315213084e-01    5.446412601e-03   -5.106934168e-06   -1.149902710e-05    0.000000000e+00    0.000000000e+00    0.000000000e+00    0.000000000e+00
        2846750    7.317019701e-01    5.199890584e-03   -5.272069393e-05   -1.233138391e-05    0.000000000e+00    0.000000000e+00    0.000000000e+00    0.000000000e+00
        2871500    7.317579389e-01    5.377197638e-03   -1.649037949e-05    7.836652912e-06    0.000000000e+00    0.000000000e+00    0.000000000e+00    0.000000000e+00
        2896250    7.313749790e-01    5.383076612e-03   -2.117423355e-05   -4.356324155e-07    0.000000000e+00    0.000000000e+00    0.000000000e+00    0.000000000e+00
        2921000    7.313466072e-01    5.259168334e-03    1.398186669e-05   -3.778144901e-06    0.000000000e+00    0.000000000e+00    0.000000000e+00    0.000000000e+00
