! NanoVNA-App by OneOfEleven et al v1.1.209 (+OD15) 
! Date: 2024-07-30 15:12:06
! Start: 200MHz Stop: 6GHz Points: 801
! S-Parameter data: F S11 S21 S12 S22
# Hz S RI R 50
!     Frequency           S11_Real           S11_Imag           S21_Real           S21_Imag           S12_Real           S12_Imag           S22_Real           S22_Imag
      200000000   -9.996263981e-01    3.899735631e-03    1.230299222e-05   -7.166819159e-06    0.000000000e+00    0.000000000e+00    0.000000000e+00    0.000000000e+00
      207250000   -9.996425509e-01    3.949821927e-03    3.045673111e-05    3.606189784e-05    0.000000000e+00    0.000000000e+00    0.000000000e+00    0.000000000e+00
      214500000   -9.995778203e-01    4.092337098e-03   -1.797675759e-05    2.351104740e-05    0.000000000e+00    0.000000000e+00    0.000000000e+00    0.000000000e+00
      221750000   -9.995716214e-01    4.267109092e-03    6.650271189e-06    1.578393858e-05    0.000000000e+00    0.000000000e+00    0.000000000e+00    0.000000000e+00
      229000000   -9.995291233e-01    4.366279580e-03   -3.239179568e-05   -9.105603567e-06    0.000000000e+00    0.000000000e+00    0.000000000e+00    0.000000000e+00
      236250000   -9.994982481e-01    4.547044635e-03    4.091874143e-05    2.735287853e-05    0.000000000e+00    0.000000000e+00    0.000000000e+00    0.000000000e+00
      243500000   -9.994679093e-01    4.716031719e-03   -1.955323205e-05    1.489220085e-05    0.000000000e+00    0.000000000e+00    0.000000000e+00    0.000000000e+00
      250750000   -9.994035363e-01    4.750733729e-03   -1.532891474e-05   -3.685023557e-06    0.000000000e+00    0.000000000e+00    0.000000000e+00    0.000000000e+00
      258000000   -9.993928671e-01    4.889807198e-03   -5.140917438e-06    3.185060996e-05    0.000000000e+00    0.000000000e+00    0.000000000e+00    0.000000000e+00
      265250000   -9.993062019e-01    4.975548480e-03    3.401027425e-05   -1.279342541e-05    0.000000000e+00    0.000000000e+00    0.000000000e+00    0.000000000e+00
      272500000   -9.992980361e-01    5.263483617e-03   -2.495984336e-05    1.520961905e-05    0.000000000e+00    0.000000000e+00    0.000000000e+00    0.000000000e+00
      279750000   -9.992165565e-01    5.300053861e-03    1.965691445e-05    5.910010714e-06    0.000000000e+00    0.000000000e+00    0.000000000e+00    0.000000000e+00
      287000000   -9.992529154e-01    5.472924560e-03    2.998785931e-05   -4.180072938e-05    0.000000000e+00    0.000000000e+00    0.000000000e+00    0.000000000e+00
      294250000   -9.991207719e-01    5.622704048e-03    2.624096305e-05   -3.698577711e-05    0.000000000e+00    0.000000000e+00    0.000000000e+00    0.000000000e+00
      301500000   -9.991714358e-01    5.740705412e-03    4.516454737e-06    9.503944966e-06    0.000000000e+00    0.000000000e+00    0.000000000e+00    0.000000000e+00
      308750000   -9.990904331e-01    5.906265695e-03   -2.359283144e-06   -4.159284344e-06    0.000000000e+00    0.000000000e+00    0.000000000e+00    0.000000000e+00
      316000000   -9.990387559e-01    6.035631057e-03    3.319409007e-05   -2.582905472e-05    0.000000000e+00    0.000000000e+00    0.000000000e+00    0.000000000e+00
      323250000   -9.990270734e-01    6.162227597e-03    5.012949987e-05   -1.072383475e-05    0.000000000e+00    0.000000000e+00    0.000000000e+00    0.000000000e+00
      330500000   -9.989640117e-01    6.287220865e-03    2.894496174e-05    2.023088200e-05    0.000000000e+00    0.000000000e+00    0.000000000e+00    0.000000000e+00
      337750000   -9.989444017e-01    6.345682312e-03    1.607656850e-05   -3.519786696e-05    0.000000000e+00    0.000000000e+00    0.000000000e+00    0.000000000e+00
      345000000   -9.988639951e-01    6.517027039e-03    1.604622412e-05    2.438303272e-05    0.000000000e+00    0.000000000e+00    0.000000000e+00    0.000000000e+00
      352250000   -9.988754392e-01    6.645923480e-03    5.869906090e-05    4.348213679e-06    0.000000000e+00    0.000000000e+00    0.000000000e+00    0.000000000e+00
      359500000   -9.988529086e-01    6.768034305e-03   -7.225875720e-07   -2.089691407e-05    0.000000000e+00    0.000000000e+00    0.000000000e+00    0.000000000e+00
      366750000   -9.987170100e-01    6.929322146e-03    2.014642268e-05    2.980805402e-05    0.000000000e+00    0.000000000e+00    0.000000000e+00    0.000000000e+00
      374000000   -9.987420440e-01    7.091553416e-03   -1.669975791e-05   -3.562554127e-07    0.000000000e+00    0.000000000e+00    0.000000000e+00    0.000000000e+00
      381250000   -9.985697269e-01    7.239052095e-03   -1.242280518e-07    1.028878728e-06    0.000000000e+00    0.000000000e+00    0.000000000e+00    0.000000000e+00
      388500000   -9.986396432e-01    7.318048738e-03    5.186423095e-06    1.086599013e-06    0.000000000e+00    0.000000000e+00    0.000000000e+00    0.000000000e+00
      395750000   -9.984288216e-01    7.411886472e-03    1.139468714e-05    8.408488611e-06    0.000000000e+00    0.000000000e+00    0.000000000e+00    0.000000000e+00
      403000000   -9.985847473e-01    7.561688311e-03   -1.863901957e-06   -2.044149824e-06    0.000000000e+00    0.000000000e+00    0.000000000e+00    0.000000000e+00
      410250000   -9.983514547e-01    7.738593500e-03    2.942154060e-05    1.420842727e-05    0.000000000e+00    0.000000000e+00    0.000000000e+00    0.000000000e+00
      417500000   -9.982937574e-01    7.711379789e-03    1.793368210e-05   -1.291473609e-06    0.000000000e+00    0.000000000e+00    0.000000000e+00    0.000000000e+00
      424750000   -9.982941747e-01    7.962335832e-03   -2.669274545e-05   -3.538505916e-05    0.000000000e+00    0.000000000e+00    0.000000000e+00    0.000000000e+00
      432000000   -9.982970953e-01    8.063039742e-03   -3.051862222e-05    1.379787045e-05    0.000000000e+00    0.000000000e+00    0.000000000e+00    0.000000000e+00
      439250000   -9.982216358e-01    8.120065555e-03    2.452975195e-06    3.018828829e-05    0.000000000e+00    0.000000000e+00    0.000000000e+00    0.000000000e+00
      446500000   -9.982168674e-01    8.266300894e-03    5.553842857e-05   -2.074472832e-06    0.000000000e+00    0.000000000e+00    0.000000000e+00    0.000000000e+00
      453750000   -9.979320765e-01    8.350143209e-03   -1.805461761e-05   -1.102418082e-05    0.000000000e+00    0.000000000e+00    0.000000000e+00    0.000000000e+00
      461000000   -9.980789423e-01    8.450248279e-03    1.843726204e-05   -3.767404166e-07    0.000000000e+00    0.000000000e+00    0.000000000e+00    0.000000000e+00
      468250000   -9.980108738e-01    8.724905550e-03    3.607465987e-05    1.646010605e-05    0.000000000e+00    0.000000000e+00    0.000000000e+00    0.000000000e+00
      475500000   -9.979619980e-01    8.716460317e-03   -4.043849458e-06    5.919016530e-06    0.000000000e+00    0.000000000e+00    0.000000000e+00    0.000000000e+00
      482750000   -9.979014993e-01    8.890327066e-03    1.352159779e-05    9.849686649e-06    0.000000000e+00    0.000000000e+00    0.000000000e+00    0.000000000e+00
      490000000   -9.978190064e-01    9.070928209e-03    2.295591003e-05   -3.310374086e-05    0.000000000e+00    0.000000000e+00    0.000000000e+00    0.000000000e+00
      497250000   -9.977999330e-01    9.135892615e-03    9.821943422e-06   -1.585328209e-05    0.000000000e+00    0.000000000e+00    0.000000000e+00    0.000000000e+00
      504500000   -9.975720644e-01    9.159422480e-03   -1.014169084e-05    9.614632290e-06    0.000000000e+00    0.000000000e+00    0.000000000e+00    0.000000000e+00
      511750000   -9.975533485e-01    9.493003599e-03    1.029157920e-05   -3.163677684e-05    0.000000000e+00    0.000000000e+00    0.000000000e+00    0.000000000e+00
      519000000   -9.976894855e-01    9.393521585e-03    1.110889571e-05   -2.996420881e-05    0.000000000e+00    0.000000000e+00    0.000000000e+00    0.000000000e+00
      526250000   -9.975278974e-01    9.564908221e-03   -5.280229288e-06    2.115393545e-05    0.000000000e+00    0.000000000e+00    0.000000000e+00    0.000000000e+00
      533500000   -9.971865416e-01    9.639543481e-03   -2.812853018e-05   -3.840076533e-05    0.000000000e+00    0.000000000e+00    0.000000000e+00    0.000000000e+00
      540750000   -9.972769022e-01    9.674757719e-03   -6.605151157e-06   -1.108287870e-05    0.000000000e+00    0.000000000e+00    0.000000000e+00    0.000000000e+00
      548000000   -9.971810579e-01    9.855314158e-03   -4.398135206e-05    5.427818905e-05    0.000000000e+00    0.000000000e+00    0.000000000e+00    0.000000000e+00
      555250000   -9.972559810e-01    1.000900939e-02    3.879714495e-05   -3.093814303e-05    0.000000000e+00    0.000000000e+00    0.000000000e+00    0.000000000e+00
      562500000   -9.970351458e-01    1.005025022e-02    4.834362244e-06    5.040020824e-06    0.000000000e+00    0.000000000e+00    0.000000000e+00    0.000000000e+00
      569750000   -9.971076250e-01    1.028874889e-02    3.644512162e-06   -6.956081961e-06    0.000000000e+00    0.000000000e+00    0.000000000e+00    0.000000000e+00
      577000000   -9.968942404e-01    1.040920056e-02    1.089820125e-05   -3.638480484e-05    0.000000000e+00    0.000000000e+00    0.000000000e+00    0.000000000e+00
      584250000   -9.965981841e-01    1.045460813e-02    2.230177643e-06    8.578306733e-06    0.000000000e+00    0.000000000e+00    0.000000000e+00    0.000000000e+00
      591500000   -9.967615604e-01    1.071751397e-02   -5.819174476e-06    2.714447874e-05    0.000000000e+00    0.000000000e+00    0.000000000e+00    0.000000000e+00
      598750000   -9.968228936e-01    1.089084428e-02   -2.643069092e-05   -6.376186502e-05    0.000000000e+00    0.000000000e+00    0.000000000e+00    0.000000000e+00
      606000000   -9.966864586e-01    1.083343290e-02    4.490305855e-06   -1.968000106e-05    0.000000000e+00    0.000000000e+00    0.000000000e+00    0.000000000e+00
      613250000   -9.965632558e-01    1.098781638e-02    5.160166438e-06    1.375558168e-05    0.000000000e+00    0.000000000e+00    0.000000000e+00    0.000000000e+00
      620500000   -9.963466525e-01    1.117881387e-02    4.834792890e-06    1.504716147e-05    0.000000000e+00    0.000000000e+00    0.000000000e+00    0.000000000e+00
      627750000   -9.962760806e-01    1.105893683e-02    3.033722351e-05    8.220546988e-06    0.000000000e+00    0.000000000e+00    0.000000000e+00    0.000000000e+00
      635000000   -9.962947965e-01    1.116839144e-02    2.997353249e-06    2.386281267e-05    0.000000000e+00    0.000000000e+00    0.000000000e+00    0.000000000e+00
      642250000   -9.962657690e-01    1.150031760e-02    1.364903710e-05   -2.801719711e-05    0.000000000e+00    0.000000000e+00    0.000000000e+00    0.000000000e+00
      649500000   -9.962922335e-01    1.146855019e-02    1.991886893e-05    4.245582204e-06    0.000000000e+00    0.000000000e+00    0.000000000e+00    0.000000000e+00
      656750000   -9.961284399e-01    1.163301710e-02   -2.465058787e-05    2.917306119e-05    0.000000000e+00    0.000000000e+00    0.000000000e+00    0.000000000e+00
      664000000   -9.959635735e-01    1.167513523e-02   -5.584272731e-05   -1.697695916e-05    0.000000000e+00    0.000000000e+00    0.000000000e+00    0.000000000e+00
      671250000   -9.958369732e-01    1.185514126e-02   -3.654076409e-06    1.722926208e-05    0.000000000e+00    0.000000000e+00    0.000000000e+00    0.000000000e+00
      678500000   -9.955360293e-01    1.186635811e-02    1.021859316e-05    4.149281722e-06    0.000000000e+00    0.000000000e+00    0.000000000e+00    0.000000000e+00
      685750000   -9.957412481e-01    1.214816514e-02   -3.006004408e-05   -5.980990863e-06    0.000000000e+00    0.000000000e+00    0.000000000e+00    0.000000000e+00
      693000000   -9.956102371e-01    1.223799307e-02    3.117620145e-05   -3.443233436e-05    0.000000000e+00    0.000000000e+00    0.000000000e+00    0.000000000e+00
      700250000   -9.959720969e-01    1.236480661e-02   -7.993684221e-07   -9.542193766e-06    0.000000000e+00    0.000000000e+00    0.000000000e+00    0.000000000e+00
      707500000   -9.949058294e-01    1.223327778e-02    3.696381782e-06    1.763123328e-05    0.000000000e+00    0.000000000e+00    0.000000000e+00    0.000000000e+00
      714750000   -9.954441190e-01    1.251448970e-02    2.353696254e-05   -3.947381174e-06    0.000000000e+00    0.000000000e+00    0.000000000e+00    0.000000000e+00
      722000000   -9.950236082e-01    1.255109813e-02   -2.637364378e-05   -3.137114254e-05    0.000000000e+00    0.000000000e+00    0.000000000e+00    0.000000000e+00
      729250000   -9.953146577e-01    1.259430312e-02    2.997393858e-05    1.863010766e-05    0.000000000e+00    0.000000000e+00    0.000000000e+00    0.000000000e+00
      736500000   -9.952388406e-01    1.287690178e-02   -8.572735169e-06   -2.563244379e-05    0.000000000e+00    0.000000000e+00    0.000000000e+00    0.000000000e+00
      743750000   -9.949232936e-01    1.289446559e-02   -1.713332858e-05   -1.775317287e-06    0.000000000e+00    0.000000000e+00    0.000000000e+00    0.000000000e+00
      751000000   -9.947014451e-01    1.303112600e-02    4.273159357e-05   -8.231971151e-06    0.000000000e+00    0.000000000e+00    0.000000000e+00    0.000000000e+00
      758250000   -9.951487780e-01    1.305487752e-02    1.396838343e-05   -2.584028334e-05    0.000000000e+00    0.000000000e+00    0.000000000e+00    0.000000000e+00
      765500000   -9.945796728e-01    1.311028283e-02    4.466778773e-05    1.298760526e-05    0.000000000e+00    0.000000000e+00    0.000000000e+00    0.000000000e+00
      772750000   -9.946736693e-01    1.332794968e-02   -9.371308806e-06   -1.219261503e-05    0.000000000e+00    0.000000000e+00    0.000000000e+00    0.000000000e+00
      780000000   -9.941983819e-01    1.329243649e-02   -2.281749403e-05   -1.174149133e-06    0.000000000e+00    0.000000000e+00    0.000000000e+00    0.000000000e+00
      787250000   -9.948687553e-01    1.317525283e-02   -1.879193587e-05    5.060261401e-07    0.000000000e+00    0.000000000e+00    0.000000000e+00    0.000000000e+00
      794500000   -9.941202402e-01    1.364460308e-02    3.917724825e-06    2.494974797e-05    0.000000000e+00    0.000000000e+00    0.000000000e+00    0.000000000e+00
      801750000   -9.942964315e-01    1.365684345e-02    6.033983027e-06    1.282793346e-05    0.000000000e+00    0.000000000e+00    0.000000000e+00    0.000000000e+00
      809000000   -9.943736196e-01    1.384636387e-02    4.730065120e-05    1.464823072e-05    0.000000000e+00    0.000000000e+00    0.000000000e+00    0.000000000e+00
      816250000   -9.940929413e-01    1.382276230e-02    8.017996151e-06   -6.232111627e-05    0.000000000e+00    0.000000000e+00    0.000000000e+00    0.000000000e+00
      823500000   -9.938050508e-01    1.389665250e-02   -2.305031558e-05    7.428448498e-06    0.000000000e+00    0.000000000e+00    0.000000000e+00    0.000000000e+00
      830750000   -9.937561750e-01    1.398013439e-02   -3.192483200e-05    3.428674245e-05    0.000000000e+00    0.000000000e+00    0.000000000e+00    0.000000000e+00
      838000000   -9.935691357e-01    1.397054177e-02    2.349450369e-05   -6.878092790e-06    0.000000000e+00    0.000000000e+00    0.000000000e+00    0.000000000e+00
      845250000   -9.935805202e-01    1.396945771e-02   -8.572138177e-05    1.078873447e-05    0.000000000e+00    0.000000000e+00    0.000000000e+00    0.000000000e+00
      852500000   -9.938426018e-01    1.425790414e-02    1.690682984e-05   -9.064606274e-06    0.000000000e+00    0.000000000e+00    0.000000000e+00    0.000000000e+00
      859750000   -9.936458468e-01    1.426472142e-02    1.146151681e-05    3.102127448e-05    0.000000000e+00    0.000000000e+00    0.000000000e+00    0.000000000e+00
      867000000   -9.932785630e-01    1.456710417e-02   -1.883535697e-05    7.727966477e-06    0.000000000e+00    0.000000000e+00    0.000000000e+00    0.000000000e+00
      874250000   -9.937056899e-01    1.452703960e-02   -2.424527338e-05   -2.826860691e-05    0.000000000e+00    0.000000000e+00    0.000000000e+00    0.000000000e+00
      881500000   -9.934502840e-01    1.472911704e-02   -7.687455764e-06   -9.976942238e-06    0.000000000e+00    0.000000000e+00    0.000000000e+00    0.000000000e+00
      888750000   -9.931855202e-01    1.462829672e-02    5.824519394e-05    1.590647298e-05    0.000000000e+00    0.000000000e+00    0.000000000e+00    0.000000000e+00
      896000000   -9.930899143e-01    1.498394553e-02   -1.827980850e-05   -2.603048961e-05    0.000000000e+00    0.000000000e+00    0.000000000e+00    0.000000000e+00
      903250000   -9.931516051e-01    1.481784321e-02    1.506666285e-05   -4.692624771e-06    0.000000000e+00    0.000000000e+00    0.000000000e+00    0.000000000e+00
      910500000   -9.928346872e-01    1.499886625e-02    1.857804818e-06    3.237379133e-05    0.000000000e+00    0.000000000e+00    0.000000000e+00    0.000000000e+00
      917750000   -9.928583503e-01    1.485743094e-02    3.495488636e-05   -2.209920967e-05    0.000000000e+00    0.000000000e+00    0.000000000e+00    0.000000000e+00
      925000000   -9.920879602e-01    1.514780987e-02    5.055350812e-06   -1.351906758e-05    0.000000000e+00    0.000000000e+00    0.000000000e+00    0.000000000e+00
      932250000   -9.927473664e-01    1.516571641e-02   -4.200064723e-06   -1.164340665e-05    0.000000000e+00    0.000000000e+00    0.000000000e+00    0.000000000e+00
      939500000   -9.928344488e-01    1.518952195e-02   -1.117902775e-05   -1.443354176e-05    0.000000000e+00    0.000000000e+00    0.000000000e+00    0.000000000e+00
      946750000   -9.925246239e-01    1.526395138e-02   -2.904914436e-05    2.399083496e-05    0.000000000e+00    0.000000000e+00    0.000000000e+00    0.000000000e+00
      954000000   -9.920946360e-01    1.571269892e-02   -1.086301836e-05   -7.856556294e-06    0.000000000e+00    0.000000000e+00    0.000000000e+00    0.000000000e+00
      961250000   -9.921745062e-01    1.553611923e-02    1.103622435e-05   -2.584256663e-06    0.000000000e+00    0.000000000e+00    0.000000000e+00    0.000000000e+00
      968500000   -9.923652411e-01    1.553933695e-02    7.275195912e-06   -2.596156992e-05    0.000000000e+00    0.000000000e+00    0.000000000e+00    0.000000000e+00
      975750000   -9.924806356e-01    1.568063535e-02   -1.647952195e-05    1.251037338e-05    0.000000000e+00    0.000000000e+00    0.000000000e+00    0.000000000e+00
      983000000   -9.922773242e-01    1.555597130e-02   -6.383384607e-05    1.625706682e-05    0.000000000e+00    0.000000000e+00    0.000000000e+00    0.000000000e+00
      990250000   -9.917990565e-01    1.577340625e-02    1.559409793e-05   -3.520547034e-05    0.000000000e+00    0.000000000e+00    0.000000000e+00    0.000000000e+00
      997500000   -9.919959307e-01    1.597857289e-02   -7.350908618e-06    2.757185575e-05    0.000000000e+00    0.000000000e+00    0.000000000e+00    0.000000000e+00
     1004750000   -9.913176894e-01    1.571296342e-02    1.899073504e-05    3.557484160e-05    0.000000000e+00    0.000000000e+00    0.000000000e+00    0.000000000e+00
     1012000000   -9.914154410e-01    1.608010754e-02    8.067194358e-06   -1.250103196e-05    0.000000000e+00    0.000000000e+00    0.000000000e+00    0.000000000e+00
     1019250000   -9.910845160e-01    1.615828276e-02   -3.016669689e-05   -3.047460086e-05    0.000000000e+00    0.000000000e+00    0.000000000e+00    0.000000000e+00
     1026500000   -9.912984371e-01    1.637855358e-02   -7.956215086e-06    6.827248853e-06    0.000000000e+00    0.000000000e+00    0.000000000e+00    0.000000000e+00
     1033750000   -9.908297062e-01    1.609548740e-02   -7.592014754e-06    2.016058534e-05    0.000000000e+00    0.000000000e+00    0.000000000e+00    0.000000000e+00
     1041000000   -9.906361699e-01    1.617357880e-02   -1.249968864e-05    3.379925693e-05    0.000000000e+00    0.000000000e+00    0.000000000e+00    0.000000000e+00
