! NanoVNA-App by OneOfEleven et al v1.1.209 (+OD15) 
! Date: 2024-07-30 15:12:10
! Start: 200MHz Stop: 6GHz Points: 801
! S-Parameter data: F S11 S21 S12 S22
# Hz S RI R 50
!     Frequency           S11_Real           S11_Imag           S21_Real           S21_Imag           S12_Real           S12_Imag           S22_Real           S22_Imag
      200000000   -9.996393919e-01    3.837002208e-03   -1.409717333e-05    7.231061772e-06    0.000000000e+00    0.000000000e+00    0.000000000e+00    0.000000000e+00
      207250000   -9.995985031e-01    3.948350437e-03   -5.134499133e-06    4.322484165e-05    0.000000000e+00    0.000000000e+00    0.000000000e+00    0.000000000e+00
      214500000   -9.995886087e-01    4.092840943e-03   -1.347930265e-05    1.683900337e-05    0.000000000e+00    0.000000000e+00    0.000000000e+00    0.000000000e+00
      221750000   -9.995295405e-01    4.159876611e-03    2.476276131e-05    3.122315684e-05    0.000000000e+00    0.000000000e+00    0.000000000e+00    0.000000000e+00
      229000000   -9.995114207e-01    4.379273392e-03   -1.942262770e-06    5.754513495e-06    0.000000000e+00    0.000000000e+00    0.000000000e+00    0.000000000e+00
      236250000   -9.995015860e-01    4.552139435e-03    1.115151099e-05   -1.630533006e-05    0.000000000e+00    0.000000000e+00    0.000000000e+00    0.000000000e+00
      243500000   -9.994624853e-01    4.614972975e-03    3.794353233e-06   -4.814733984e-05    0.000000000e+00    0.000000000e+00    0.000000000e+00    0.000000000e+00
      250750000   -9.994329810e-01    4.773941822e-03   -1.148535739e-05    1.800963037e-05    0.000000000e+00    0.000000000e+00    0.000000000e+00    0.000000000e+00
      258000000   -9.993386865e-01    4.934481345e-03   -1.989135308e-05    2.809089347e-05    0.000000000e+00    0.000000000e+00    0.000000000e+00    0.000000000e+00
      265250000   -9.993862510e-01    5.044319201e-03   -3.873952664e-06   -2.901737935e-05    0.000000000e+00    0.000000000e+00    0.000000000e+00    0.000000000e+00
      272500000   -9.992803335e-01    5.157534499e-03    1.012891403e-06    2.351133662e-05    0.000000000e+00    0.000000000e+00    0.000000000e+00    0.000000000e+00
      279750000   -9.993156791e-01    5.293201189e-03    2.958302139e-05   -6.508274964e-06    0.000000000e+00    0.000000000e+00    0.000000000e+00    0.000000000e+00
      287000000   -9.992867708e-01    5.557757337e-03   -1.409311972e-05   -1.502096893e-05    0.000000000e+00    0.000000000e+00    0.000000000e+00    0.000000000e+00
      294250000   -9.992423058e-01    5.633325316e-03   -3.267876673e-05    2.558061715e-05    0.000000000e+00    0.000000000e+00    0.000000000e+00    0.000000000e+00
      301500000   -9.991430044e-01    5.684830248e-03   -1.527724635e-05    1.812147457e-05    0.000000000e+00    0.000000000e+00    0.000000000e+00    0.000000000e+00
      308750000   -9.991914630e-01    5.932592787e-03   -2.593105637e-05    2.728831078e-06    0.000000000e+00    0.000000000e+00    0.000000000e+00    0.000000000e+00
      316000000   -9.990628362e-01    5.961311050e-03   -1.526830056e-05    4.475088190e-06    0.000000000e+00    0.000000000e+00    0.000000000e+00    0.000000000e+00
      323250000   -9.990724325e-01    6.163222715e-03    8.093183169e-06   -1.400325982e-05    0.000000000e+00    0.000000000e+00    0.000000000e+00    0.000000000e+00
      330500000   -9.989464283e-01    6.278696470e-03   -7.247110261e-06    3.226071203e-05    0.000000000e+00    0.000000000e+00    0.000000000e+00    0.000000000e+00
      337750000   -9.989954233e-01    6.316262763e-03    2.867713920e-05   -1.791446084e-05    0.000000000e+00    0.000000000e+00    0.000000000e+00    0.000000000e+00
      345000000   -9.989050031e-01    6.527116988e-03   -2.656479955e-05    7.215971891e-06    0.000000000e+00    0.000000000e+00    0.000000000e+00    0.000000000e+00
      352250000   -9.988798499e-01    6.701126229e-03   -4.297330088e-05    2.294297019e-07    0.000000000e+00    0.000000000e+00    0.000000000e+00    0.000000000e+00
      359500000   -9.986604452e-01    6.755396724e-03    2.306234273e-05   -3.824364467e-05    0.000000000e+00    0.000000000e+00    0.000000000e+00    0.000000000e+00
      366750000   -9.987546206e-01    6.871537771e-03   -7.557576282e-06    6.652536740e-06    0.000000000e+00    0.000000000e+00    0.000000000e+00    0.000000000e+00
      374000000   -9.986613393e-01    6.962460931e-03   -2.280462832e-05    1.063899526e-05    0.000000000e+00    0.000000000e+00    0.000000000e+00    0.000000000e+00
      381250000   -9.986820221e-01    7.175347768e-03   -9.947747458e-06   -5.968279766e-06    0.000000000e+00    0.000000000e+00    0.000000000e+00    0.000000000e+00
      388500000   -9.986844659e-01    7.212722208e-03    2.447140832e-05    2.257026608e-05    0.000000000e+00    0.000000000e+00    0.000000000e+00    0.000000000e+00
      395750000   -9.985083938e-01    7.373745088e-03   -1.900241659e-05    3.070591265e-05    0.000000000e+00    0.000000000e+00    0.000000000e+00    0.000000000e+00
      403000000   -9.985141158e-01    7.541737519e-03   -2.628390575e-05   -1.772223186e-05    0.000000000e+00    0.000000000e+00    0.000000000e+00    0.000000000e+00
      410250000   -9.985366464e-01    7.790309377e-03    1.052598873e-05    1.538400102e-05    0.000000000e+00    0.000000000e+00    0.000000000e+00    0.000000000e+00
      417500000   -9.982320070e-01    7.820204832e-03   -6.506105819e-06   -1.164866831e-06    0.000000000e+00    0.000000000e+00    0.000000000e+00    0.000000000e+00
      424750000   -9.983609915e-01    7.953913882e-03    8.413144315e-06   -2.954092452e-05    0.000000000e+00    0.000000000e+00    0.000000000e+00    0.000000000e+00
      432000000   -9.982404113e-01    8.035839535e-03   -2.247758857e-05    4.914699730e-06    0.000000000e+00    0.000000000e+00    0.000000000e+00    0.000000000e+00
      439250000   -9.982770085e-01    8.166415617e-03    4.619431820e-06   -2.063664033e-05    0.000000000e+00    0.000000000e+00    0.000000000e+00    0.000000000e+00
      446500000   -9.981634021e-01    8.297141641e-03    2.620845225e-05    9.303991646e-06    0.000000000e+00    0.000000000e+00    0.000000000e+00    0.000000000e+00
      453750000   -9.981333613e-01    8.361389861e-03   -1.185474048e-05   -2.380767728e-05    0.000000000e+00    0.000000000e+00    0.000000000e+00    0.000000000e+00
      461000000   -9.979745150e-01    8.577012457e-03    5.241490362e-05    1.169591815e-05    0.000000000e+00    0.000000000e+00    0.000000000e+00    0.000000000e+00
      468250000   -9.980505705e-01    8.744510822e-03    1.581376273e-05   -2.596445484e-05    0.000000000e+00    0.000000000e+00    0.000000000e+00    0.000000000e+00
      475500000   -9.978851080e-01    8.697217330e-03    6.548059446e-06    1.592617082e-05    0.000000000e+00    0.000000000e+00    0.000000000e+00    0.000000000e+00
      482750000   -9.977882504e-01    8.891508915e-03    4.819245987e-06   -1.177290778e-05    0.000000000e+00    0.000000000e+00    0.000000000e+00    0.000000000e+00
      490000000   -9.977970719e-01    8.927724324e-03   -8.061827430e-06   -3.150727537e-07    0.000000000e+00    0.000000000e+00    0.000000000e+00    0.000000000e+00
      497250000   -9.976482987e-01    9.012523107e-03    1.322684057e-05    1.632197745e-05    0.000000000e+00    0.000000000e+00    0.000000000e+00    0.000000000e+00
      504500000   -9.976027608e-01    9.278254583e-03    7.847645065e-06   -5.940112896e-05    0.000000000e+00    0.000000000e+00    0.000000000e+00    0.000000000e+00
      511750000   -9.975893497e-01    9.360909462e-03   -4.795216591e-05   -5.633427645e-05    0.000000000e+00    0.000000000e+00    0.000000000e+00    0.000000000e+00
      519000000   -9.976163507e-01    9.470165707e-03   -6.827471225e-06   -6.736258001e-06    0.000000000e+00    0.000000000e+00    0.000000000e+00    0.000000000e+00
      526250000   -9.974720478e-01    9.546362795e-03    4.779016649e-07    1.639932066e-06    0.000000000e+00    0.000000000e+00    0.000000000e+00    0.000000000e+00
      533500000   -9.974779487e-01    9.751965292e-03   -2.592076817e-05    1.382893515e-05    0.000000000e+00    0.000000000e+00    0.000000000e+00    0.000000000e+00
      540750000   -9.972634315e-01    9.751051664e-03   -1.101570797e-05   -3.559037214e-05    0.000000000e+00    0.000000000e+00    0.000000000e+00    0.000000000e+00
      548000000   -9.972855449e-01    9.946274571e-03   -5.247463559e-05   -2.111552385e-05    0.000000000e+00    0.000000000e+00    0.000000000e+00    0.000000000e+00
      555250000   -9.971238971e-01    9.932044894e-03   -6.829168342e-06   -3.079629460e-05    0.000000000e+00    0.000000000e+00    0.000000000e+00    0.000000000e+00
      562500000   -9.968805909e-01    1.017968636e-02   -3.255230695e-05    1.909057573e-06    0.000000000e+00    0.000000000e+00    0.000000000e+00    0.000000000e+00
      569750000   -9.970947504e-01    1.027052291e-02    2.335252702e-06   -3.302451660e-05    0.000000000e+00    0.000000000e+00    0.000000000e+00    0.000000000e+00
      577000000   -9.970200062e-01    1.052038465e-02   -2.254761711e-07    1.450283344e-05    0.000000000e+00    0.000000000e+00    0.000000000e+00    0.000000000e+00
      584250000   -9.967173338e-01    1.063136291e-02    4.658764374e-05   -8.508033716e-06    0.000000000e+00    0.000000000e+00    0.000000000e+00    0.000000000e+00
      591500000   -9.969292283e-01    1.068854332e-02   -2.913273647e-06    4.843707939e-05    0.000000000e+00    0.000000000e+00    0.000000000e+00    0.000000000e+00
      598750000   -9.967607260e-01    1.075029001e-02   -2.279148612e-05    6.954350624e-07    0.000000000e+00    0.000000000e+00    0.000000000e+00    0.000000000e+00
      606000000   -9.967213869e-01    1.074986812e-02    2.464513818e-05    1.443889960e-05    0.000000000e+00    0.000000000e+00    0.000000000e+00    0.000000000e+00
      613250000   -9.967883825e-01    1.113184728e-02   -3.566998930e-05   -1.110675566e-05    0.000000000e+00    0.000000000e+00    0.000000000e+00    0.000000000e+00
      620500000   -9.963012934e-01    1.114616729e-02   -2.132426562e-05   -2.214965753e-05    0.000000000e+00    0.000000000e+00    0.000000000e+00    0.000000000e+00
      627750000   -9.962794185e-01    1.104417816e-02    1.677167165e-05   -1.084715859e-05    0.000000000e+00    0.000000000e+00    0.000000000e+00    0.000000000e+00
      635000000   -9.963121414e-01    1.132004056e-02   -5.144068837e-06   -2.428984044e-05    0.000000000e+00    0.000000000e+00    0.000000000e+00    0.000000000e+00
      642250000   -9.963061810e-01    1.153312996e-02   -7.203310815e-05    3.604443918e-05    0.000000000e+00    0.000000000e+00    0.000000000e+00    0.000000000e+00
      649500000   -9.961588383e-01    1.148540806e-02    3.507093788e-05    3.421704605e-05    0.000000000e+00    0.000000000e+00    0.000000000e+00    0.000000000e+00
      656750000   -9.959751964e-01    1.160103362e-02   -4.852762686e-06    1.113317376e-05    0.000000000e+00    0.000000000e+00    0.000000000e+00    0.000000000e+00
      664000000   -9.958680272e-01    1.175041776e-02   -1.311619599e-05    6.290221336e-06    0.000000000e+00    0.000000000e+00    0.000000000e+00    0.000000000e+00
      671250000   -9.957703352e-01    1.169350557e-02    1.025057918e-05    2.912322634e-05    0.000000000e+00    0.000000000e+00    0.000000000e+00    0.000000000e+00
      678500000   -9.956582785e-01    1.185232960e-02    1.111560232e-05   -3.111585465e-05    0.000000000e+00    0.000000000e+00    0.000000000e+00    0.000000000e+00
      685750000   -9.958007932e-01    1.207887847e-02   -4.461311983e-05   -7.362304132e-06    0.000000000e+00    0.000000000e+00    0.000000000e+00    0.000000000e+00
      693000000   -9.956229925e-01    1.208913419e-02   -1.300119766e-05   -2.358629717e-05    0.000000000e+00    0.000000000e+00    0.000000000e+00    0.000000000e+00
      700250000   -9.954054952e-01    1.217842940e-02    4.417375294e-06    5.394142863e-05    0.000000000e+00    0.000000000e+00    0.000000000e+00    0.000000000e+00
      707500000   -9.955950379e-01    1.261682622e-02   -3.261938036e-05    2.171013512e-05    0.000000000e+00    0.000000000e+00    0.000000000e+00    0.000000000e+00
      714750000   -9.951607585e-01    1.259409823e-02   -4.005509254e-05    2.721887358e-05    0.000000000e+00    0.000000000e+00    0.000000000e+00    0.000000000e+00
      722000000   -9.955027103e-01    1.270035375e-02   -2.553087825e-06   -3.548192399e-05    0.000000000e+00    0.000000000e+00    0.000000000e+00    0.000000000e+00
      729250000   -9.952309728e-01    1.266966015e-02    1.008768322e-05   -3.112513241e-06    0.000000000e+00    0.000000000e+00    0.000000000e+00    0.000000000e+00
      736500000   -9.953129292e-01    1.312447898e-02   -4.791171523e-05    2.459132020e-06    0.000000000e+00    0.000000000e+00    0.000000000e+00    0.000000000e+00
      743750000   -9.952870011e-01    1.297482941e-02    7.323785667e-06   -2.890940232e-05    0.000000000e+00    0.000000000e+00    0.000000000e+00    0.000000000e+00
      751000000   -9.948683977e-01    1.301464252e-02   -1.272008922e-05    4.877805168e-06    0.000000000e+00    0.000000000e+00    0.000000000e+00    0.000000000e+00
      758250000   -9.950363636e-01    1.302180625e-02   -4.803662705e-06    3.594568398e-06    0.000000000e+00    0.000000000e+00    0.000000000e+00    0.000000000e+00
      765500000   -9.946760535e-01    1.315061562e-02   -3.559240577e-05    2.033714190e-05    0.000000000e+00    0.000000000e+00    0.000000000e+00    0.000000000e+00
      772750000   -9.944896698e-01    1.332962792e-02    4.878897471e-06   -1.911114850e-05    0.000000000e+00    0.000000000e+00    0.000000000e+00    0.000000000e+00
      780000000   -9.942078590e-01    1.354296971e-02   -2.652506737e-05   -5.416336080e-06    0.000000000e+00    0.000000000e+00    0.000000000e+00    0.000000000e+00
      787250000   -9.947074652e-01    1.365776174e-02   -1.368679932e-05    4.907956463e-05    0.000000000e+00    0.000000000e+00    0.000000000e+00    0.000000000e+00
      794500000   -9.939902425e-01    1.364915073e-02    4.402988907e-06    2.816840970e-05    0.000000000e+00    0.000000000e+00    0.000000000e+00    0.000000000e+00
      801750000   -9.945175648e-01    1.357134152e-02   -3.638852604e-06   -1.416835130e-05    0.000000000e+00    0.000000000e+00    0.000000000e+00    0.000000000e+00
      809000000   -9.942908883e-01    1.381930523e-02    2.829318873e-05    6.128709174e-06    0.000000000e+00    0.000000000e+00    0.000000000e+00    0.000000000e+00
      816250000   -9.941955805e-01    1.389574446e-02   -1.668104596e-05   -1.417814474e-05    0.000000000e+00    0.000000000e+00    0.000000000e+00    0.000000000e+00
      823500000   -9.938694239e-01    1.373189315e-02   -2.737576870e-05   -5.709896868e-05    0.000000000e+00    0.000000000e+00    0.000000000e+00    0.000000000e+00
      830750000   -9.940029979e-01    1.394170150e-02    6.044062957e-07    6.715516793e-05    0.000000000e+00    0.000000000e+00    0.000000000e+00    0.000000000e+00
      838000000   -9.937381148e-01    1.432054490e-02    8.817402886e-06   -2.871315519e-05    0.000000000e+00    0.000000000e+00    0.000000000e+00    0.000000000e+00
      845250000   -9.941461682e-01    1.414775010e-02   -1.295800394e-05   -1.377973149e-05    0.000000000e+00    0.000000000e+00    0.000000000e+00    0.000000000e+00
      852500000   -9.940262437e-01    1.431521680e-02   -2.378520003e-05   -4.697308759e-05    0.000000000e+00    0.000000000e+00    0.000000000e+00    0.000000000e+00
      859750000   -9.936901331e-01    1.428299397e-02    3.165363159e-05   -3.560678863e-07    0.000000000e+00    0.000000000e+00    0.000000000e+00    0.000000000e+00
      867000000   -9.938023090e-01    1.421420276e-02   -1.053823053e-05   -1.407906620e-05    0.000000000e+00    0.000000000e+00    0.000000000e+00    0.000000000e+00
      874250000   -9.936458468e-01    1.470279694e-02    2.138026866e-05    3.329962783e-05    0.000000000e+00    0.000000000e+00    0.000000000e+00    0.000000000e+00
      881500000   -9.928204417e-01    1.456843503e-02    1.352138588e-05   -2.849316115e-05    0.000000000e+00    0.000000000e+00    0.000000000e+00    0.000000000e+00
      888750000   -9.936057925e-01    1.462287176e-02    2.923771353e-05   -2.649395174e-05    0.000000000e+00    0.000000000e+00    0.000000000e+00    0.000000000e+00
      896000000   -9.930441380e-01    1.495642867e-02   -6.193710760e-06    2.284195762e-05    0.000000000e+00    0.000000000e+00    0.000000000e+00    0.000000000e+00
      903250000   -9.933075309e-01    1.483405475e-02    6.985426808e-06   -1.028618226e-05    0.000000000e+00    0.000000000e+00    0.000000000e+00    0.000000000e+00
      910500000   -9.935357571e-01    1.507670153e-02   -2.441608331e-06    8.680010797e-05    0.000000000e+00    0.000000000e+00    0.000000000e+00    0.000000000e+00
      917750000   -9.926423430e-01    1.479065977e-02   -2.014290112e-05   -3.013609785e-05    0.000000000e+00    0.000000000e+00    0.000000000e+00    0.000000000e+00
      925000000   -9.924176931e-01    1.495906059e-02    1.064076514e-05   -4.967892528e-05    0.000000000e+00    0.000000000e+00    0.000000000e+00    0.000000000e+00
      932250000   -9.927292466e-01    1.548571512e-02    3.463477697e-05   -3.172185461e-05    0.000000000e+00    0.000000000e+00    0.000000000e+00    0.000000000e+00
      939500000   -9.922116995e-01    1.531040389e-02    1.678487024e-05   -1.771884854e-05    0.000000000e+00    0.000000000e+00    0.000000000e+00    0.000000000e+00
      946750000   -9.922168255e-01    1.555509213e-02    2.027878509e-05   -1.369226538e-05    0.000000000e+00    0.000000000e+00    0.000000000e+00    0.000000000e+00
      954000000   -9.923484325e-01    1.575210504e-02   -2.044037274e-06   -1.903156044e-05    0.000000000e+00    0.000000000e+00    0.000000000e+00    0.000000000e+00
      961250000   -9.921298623e-01    1.548407413e-02   -5.380817925e-07   -1.479967250e-05    0.000000000e+00    0.000000000e+00    0.000000000e+00    0.000000000e+00
      968500000   -9.919216037e-01    1.547672413e-02    2.186392436e-07    4.557892680e-06    0.000000000e+00    0.000000000e+00    0.000000000e+00    0.000000000e+00
      975750000   -9.921444058e-01    1.565758884e-02   -2.222021612e-05    5.838506922e-07    0.000000000e+00    0.000000000e+00    0.000000000e+00    0.000000000e+00
      983000000   -9.919704199e-01    1.577982120e-02   -3.164497684e-05    4.602912304e-05    0.000000000e+00    0.000000000e+00    0.000000000e+00    0.000000000e+00
      990250000   -9.914951324e-01    1.584371738e-02   -2.867566764e-05    1.099655219e-05    0.000000000e+00    0.000000000e+00    0.000000000e+00    0.000000000e+00
      997500000   -9.914264083e-01    1.571206562e-02    1.506704302e-05    1.075947876e-05    0.000000000e+00    0.000000000e+00    0.000000000e+00    0.000000000e+00
     1004750000   -9.911207557e-01    1.571521908e-02    3.162546636e-05   -8.793049346e-06    0.000000000e+00    0.000000000e+00    0.000000000e+00    0.000000000e+00
     1012000000   -9.913488626e-01    1.607892476e-02   -1.155673726e-05   -2.277194471e-05    0.000000000e+00    0.000000000e+00    0.000000000e+00    0.000000000e+00
     1019250000   -9.906909466e-01    1.603071578e-02   -3.313784191e-06   -5.937342280e-07    0.000000000e+00    0.000000000e+00    0.000000000e+00    0.000000000e+00
     1026500000   -9.916232228e-01    1.593088359e-02    4.275954416e-05   -2.367590059e-05    0.000000000e+00    0.000000000e+00    0.000000000e+00    0.000000000e+00
     1033750000   -9.908500314e-01    1.601746306e-02    8.375466678e-06   -5.549916750e-05    0.000000000e+00    0.000000000e+00    0.000000000e+00    0.000000000e+00
     1041000000   -9.907085299e-01    1.633561775e-02   -2.605785812e-05    2.789939936e-05    0.000000000e+00    0.000000000e+00    0.000000000e+00    0.000000000e+00
