# HZ S RI R 50.000000000000
300000000.000000	0.956687	-0.273848
302851425.000000	0.955818	-0.276308
305702851.000000	0.954948	-0.278767
308554277.000000	0.954079	-0.281227
311405702.000000	0.953209	-0.283687
314257128.000000	0.952340	-0.286147
317108554.000000	0.951471	-0.288607
319959979.000000	0.950601	-0.291067
322811405.000000	0.949732	-0.293526
325662831.000000	0.948862	-0.295986
328514257.000000	0.947993	-0.298446
331365682.000000	0.947123	-0.300906
334217108.000000	0.946254	-0.303366
337068534.000000	0.945384	-0.305826
339919959.000000	0.944515	-0.308285
342771385.000000	0.943645	-0.310745
345622811.000000	0.942776	-0.313205
348474237.000000	0.941906	-0.315665
351325662.000000	0.940993	-0.318091
354177088.000000	0.940029	-0.320477
357028514.000000	0.939066	-0.322863
359879939.000000	0.938102	-0.325249
362731365.000000	0.937138	-0.327635
365582791.000000	0.936175	-0.330021
368434217.000000	0.935211	-0.332408
371285642.000000	0.934247	-0.334794
374137068.000000	0.933284	-0.337180
376988494.000000	0.932320	-0.339566
379839919.000000	0.931356	-0.341952
382691345.000000	0.930393	-0.344338
385542771.000000	0.929429	-0.346725
388394197.000000	0.928465	-0.349111
391245622.000000	0.927502	-0.351497
394097048.000000	0.926538	-0.353883
396948474.000000	0.925574	-0.356269
399799899.000000	0.924611	-0.358656
402651325.000000	0.923539	-0.360975
405502751.000000	0.922458	-0.363289
408354177.000000	0.921378	-0.365603
411205602.000000	0.920298	-0.367917
414057028.000000	0.919217	-0.370231
416908454.000000	0.918137	-0.372545
419759879.000000	0.917057	-0.374859
422611305.000000	0.915976	-0.377174
425462731.000000	0.914896	-0.379488
428314157.000000	0.913816	-0.381802
431165582.000000	0.912735	-0.384116
434017008.000000	0.911655	-0.386430
436868434.000000	0.910575	-0.388744
439719859.000000	0.909494	-0.391058
442571285.000000	0.908414	-0.393372
445422711.000000	0.907334	-0.395687
448274137.000000	0.906253	-0.398001
451125562.000000	0.905136	-0.400288
453976988.000000	0.903961	-0.402535
456828414.000000	0.902787	-0.404782
459679839.000000	0.901612	-0.407028
462531265.000000	0.900438	-0.409275
465382691.000000	0.899264	-0.411521
468234117.000000	0.898089	-0.413768
471085542.000000	0.896915	-0.416015
473936968.000000	0.895740	-0.418261
476788394.000000	0.894566	-0.420508
479639819.000000	0.893391	-0.422755
482491245.000000	0.892217	-0.425001
485342671.000000	0.891042	-0.427248
488194097.000000	0.889868	-0.429495
491045522.000000	0.888693	-0.431741
493896948.000000	0.887519	-0.433988
496748374.000000	0.886344	-0.436235
499599799.000000	0.885170	-0.438481
502451225.000000	0.883915	-0.440630
505302651.000000	0.882648	-0.442762
508154077.000000	0.881380	-0.444894
511005502.000000	0.880113	-0.447027
513856928.000000	0.878845	-0.449159
516708354.000000	0.877577	-0.451292
519559779.000000	0.876310	-0.453424
522411205.000000	0.875042	-0.455556
525262631.000000	0.873774	-0.457689
528114057.000000	0.872507	-0.459821
530965482.000000	0.871239	-0.461953
533816908.000000	0.869971	-0.464086
536668334.000000	0.868704	-0.466218
539519759.000000	0.867436	-0.468350
542371185.000000	0.866168	-0.470483
545222611.000000	0.864901	-0.472615
548074037.000000	0.863633	-0.474748
550925462.000000	0.862333	-0.476862
553776888.000000	0.860966	-0.478940
556628314.000000	0.859599	-0.481017
559479739.000000	0.858232	-0.483095
562331165.000000	0.856864	-0.485173
565182591.000000	0.855497	-0.487251
568034017.000000	0.854130	-0.489328
570885442.000000	0.852763	-0.491406
573736868.000000	0.851396	-0.493484
576588294.000000	0.850029	-0.495561
579439719.000000	0.848662	-0.497639
582291145.000000	0.847294	-0.499717
585142571.000000	0.845927	-0.501794
587993996.000000	0.844560	-0.503872
590845422.000000	0.843193	-0.505950
593696848.000000	0.841826	-0.508027
596548274.000000	0.840459	-0.510105
599399699.000000	0.839091	-0.512183
602251125.000000	0.837655	-0.514174
605102551.000000	0.836201	-0.516142
607953976.000000	0.834746	-0.518110
610805402.000000	0.833291	-0.520078
613656828.000000	0.831837	-0.522046
616508254.000000	0.830382	-0.524014
619359679.000000	0.828927	-0.525982
622211105.000000	0.827473	-0.527950
625062531.000000	0.826018	-0.529918
627913956.000000	0.824563	-0.531886
630765382.000000	0.823109	-0.533854
633616808.000000	0.821654	-0.535822
636468234.000000	0.820199	-0.537790
639319659.000000	0.818745	-0.539758
642171085.000000	0.817290	-0.541726
645022511.000000	0.815835	-0.543694
647873936.000000	0.814381	-0.545662
650725362.000000	0.812915	-0.547603
653576788.000000	0.811415	-0.549462
656428214.000000	0.809915	-0.551322
659279639.000000	0.808416	-0.553182
662131065.000000	0.806916	-0.555042
664982491.000000	0.805416	-0.556902
667833916.000000	0.803917	-0.558762
670685342.000000	0.802417	-0.560622
673536768.000000	0.800918	-0.562482
676388194.000000	0.799418	-0.564342
679239619.000000	0.797918	-0.566202
682091045.000000	0.796419	-0.568061
684942471.000000	0.794919	-0.569921
687793896.000000	0.793419	-0.571781
690645322.000000	0.791920	-0.573641
693496748.000000	0.790420	-0.575501
696348174.000000	0.788920	-0.577361
699199599.000000	0.787421	-0.579221
702051025.000000	0.785863	-0.581013
704902451.000000	0.784282	-0.582778
707753876.000000	0.782702	-0.584544
710605302.000000	0.781122	-0.586309
713456728.000000	0.779541	-0.588074
716308154.000000	0.777961	-0.589840
719159579.000000	0.776380	-0.591605
722011005.000000	0.774800	-0.593371
724862431.000000	0.773219	-0.595136
727713856.000000	0.771639	-0.596901
730565282.000000	0.770058	-0.598667
733416708.000000	0.768478	-0.600432
736268134.000000	0.766897	-0.602197
739119559.000000	0.765317	-0.603963
741970985.000000	0.763736	-0.605728
744822411.000000	0.762156	-0.607494
747673836.000000	0.760575	-0.609259
750525262.000000	0.758987	-0.611008
753376688.000000	0.757364	-0.612683
756228114.000000	0.755740	-0.614358
759079539.000000	0.754117	-0.616033
761930965.000000	0.752494	-0.617708
764782391.000000	0.750871	-0.619384
767633816.000000	0.749247	-0.621059
770485242.000000	0.747624	-0.622734
773336668.000000	0.746001	-0.624409
776188094.000000	0.744378	-0.626084
779039519.000000	0.742754	-0.627759
781890945.000000	0.741131	-0.629435
784742371.000000	0.739508	-0.631110
787593796.000000	0.737885	-0.632785
790445222.000000	0.736262	-0.634460
793296648.000000	0.734638	-0.636135
796148074.000000	0.733015	-0.637810
798999499.000000	0.731392	-0.639486
801850925.000000	0.729738	-0.641082
804702351.000000	0.728067	-0.642636
807553776.000000	0.726396	-0.644190
810405202.000000	0.724725	-0.645744
813256628.000000	0.723055	-0.647298
816108054.000000	0.721384	-0.648851
818959479.000000	0.719713	-0.650405
821810905.000000	0.718042	-0.651959
824662331.000000	0.716372	-0.653513
827513756.000000	0.714701	-0.655067
830365182.000000	0.713030	-0.656621
833216608.000000	0.711359	-0.658175
836068034.000000	0.709689	-0.659728
838919459.000000	0.708018	-0.661282
841770885.000000	0.706347	-0.662836
844622311.000000	0.704676	-0.664390
847473736.000000	0.703006	-0.665944
850325162.000000	0.701332	-0.667489
853176588.000000	0.699632	-0.668968
856028014.000000	0.697932	-0.670447
858879439.000000	0.696232	-0.671926
861730865.000000	0.694532	-0.673405
864582291.000000	0.692832	-0.674884
867433716.000000	0.691132	-0.676363
870285142.000000	0.689432	-0.677842
873136568.000000	0.687732	-0.679321
875987993.000000	0.686032	-0.680800
878839419.000000	0.684332	-0.682279
881690845.000000	0.682632	-0.683758
884542271.000000	0.680933	-0.685237
887393696.000000	0.679233	-0.686716
890245122.000000	0.677533	-0.688195
893096548.000000	0.675833	-0.689674
895947973.000000	0.674133	-0.691153
898799399.000000	0.672433	-0.692632
901650825.000000	0.670699	-0.694040
904502251.000000	0.668940	-0.695396
907353676.000000	0.667180	-0.696752
910205102.000000	0.665421	-0.698109
913056528.000000	0.663662	-0.699465
915907953.000000	0.661903	-0.700821
918759379.000000	0.660144	-0.702178
921610805.000000	0.658385	-0.703534
924462231.000000	0.656626	-0.704890
927313656.000000	0.654866	-0.706247
930165082.000000	0.653107	-0.707603
933016508.000000	0.651348	-0.708959
935867933.000000	0.649589	-0.710316
938719359.000000	0.647830	-0.711672
941570785.000000	0.646071	-0.713028
944422211.000000	0.644312	-0.714385
947273636.000000	0.642552	-0.715741
950125062.000000	0.640793	-0.717093
952976488.000000	0.639035	-0.718352
955827913.000000	0.637278	-0.719611
958679339.000000	0.635520	-0.720870
961530765.000000	0.633762	-0.722129
964382191.000000	0.632004	-0.723388
967233616.000000	0.630246	-0.724647
970085042.000000	0.628488	-0.725906
972936468.000000	0.626730	-0.727164
975787893.000000	0.624972	-0.728423
978639319.000000	0.623215	-0.729682
981490745.000000	0.621457	-0.730941
984342171.000000	0.619699	-0.732200
987193596.000000	0.617941	-0.733459
990045022.000000	0.616183	-0.734718
992896448.000000	0.614425	-0.735977
995747873.000000	0.612667	-0.737236
998599299.000000	0.610910	-0.738495
1001450725.000000	0.609132	-0.739708
1004302151.000000	0.607335	-0.740876
1007153576.000000	0.605538	-0.742044
1010005002.000000	0.603741	-0.743213
1012856428.000000	0.601944	-0.744381
1015707853.000000	0.600147	-0.745550
1018559279.000000	0.598350	-0.746718
1021410705.000000	0.596553	-0.747886
1024262131.000000	0.594756	-0.749055
1027113556.000000	0.592959	-0.750223
1029964982.000000	0.591162	-0.751392
1032816408.000000	0.589365	-0.752560
1035667833.000000	0.587568	-0.753728
1038519259.000000	0.585771	-0.754897
1041370685.000000	0.583974	-0.756065
1044222111.000000	0.582177	-0.757234
1047073536.000000	0.580380	-0.758402
1049924962.000000	0.578583	-0.759570
1052776388.000000	0.576761	-0.760652
1055627813.000000	0.574939	-0.761732
1058479239.000000	0.573116	-0.762811
1061330665.000000	0.571294	-0.763891
1064182091.000000	0.569471	-0.764971
1067033516.000000	0.567648	-0.766050
1069884942.000000	0.565826	-0.767130
1072736368.000000	0.564003	-0.768209
1075587793.000000	0.562180	-0.769289
1078439219.000000	0.560358	-0.770368
1081290645.000000	0.558535	-0.771448
1084142071.000000	0.556712	-0.772528
1086993496.000000	0.554890	-0.773607
1089844922.000000	0.553067	-0.774687
1092696348.000000	0.551244	-0.775766
1095547773.000000	0.549422	-0.776846
1098399199.000000	0.547599	-0.777925
1101250625.000000	0.545788	-0.778939
1104102051.000000	0.543991	-0.779869
1106953476.000000	0.542194	-0.780798
1109804902.000000	0.540398	-0.781727
1112656328.000000	0.538601	-0.782657
1115507753.000000	0.536804	-0.783586
1118359179.000000	0.535008	-0.784516
1121210605.000000	0.533211	-0.785445
1124062031.000000	0.531414	-0.786375
1126913456.000000	0.529618	-0.787304
1129764882.000000	0.527821	-0.788234
1132616308.000000	0.526024	-0.789163
1135467733.000000	0.524228	-0.790092
1138319159.000000	0.522431	-0.791022
1141170585.000000	0.520635	-0.791951
1144022011.000000	0.518838	-0.792881
1146873436.000000	0.517041	-0.793810
1149724862.000000	0.515245	-0.794740
1152576288.000000	0.513480	-0.795643
1155427713.000000	0.511719	-0.796543
1158279139.000000	0.509959	-0.797443
1161130565.000000	0.508198	-0.798343
1163981990.000000	0.506437	-0.799243
1166833416.000000	0.504676	-0.800143
1169684842.000000	0.502915	-0.801043
1172536268.000000	0.501154	-0.801944
1175387693.000000	0.499393	-0.802844
1178239119.000000	0.497633	-0.803744
1181090545.000000	0.495872	-0.804644
1183941970.000000	0.494111	-0.805544
1186793396.000000	0.492350	-0.806444
1189644822.000000	0.490589	-0.807344
1192496248.000000	0.488828	-0.808244
1195347673.000000	0.487067	-0.809145
1198199099.000000	0.485307	-0.810045
1201050525.000000	0.483525	-0.810908
1203901950.000000	0.481707	-0.811709
1206753376.000000	0.479889	-0.812509
1209604802.000000	0.478071	-0.813309
1212456228.000000	0.476254	-0.814110
1215307653.000000	0.474436	-0.814910
1218159079.000000	0.472618	-0.815711
1221010505.000000	0.470800	-0.816511
1223861930.000000	0.468983	-0.817312
1226713356.000000	0.467165	-0.818112
1229564782.000000	0.465347	-0.818913
1232416208.000000	0.463529	-0.819713
1235267633.000000	0.461712	-0.820514
1238119059.000000	0.459894	-0.821314
1240970485.000000	0.458076	-0.822114
1243821910.000000	0.456258	-0.822915
1246673336.000000	0.454441	-0.823715
1249524762.000000	0.452623	-0.824516
1252376188.000000	0.450840	-0.825228
1255227613.000000	0.449065	-0.825922
1258079039.000000	0.447290	-0.826616
1260930465.000000	0.445515	-0.827310
1263781890.000000	0.443740	-0.828004
1266633316.000000	0.441965	-0.828698
1269484742.000000	0.440190	-0.829393
1272336168.000000	0.438414	-0.830087
1275187593.000000	0.436639	-0.830781
1278039019.000000	0.434864	-0.831475
1280890445.000000	0.433089	-0.832169
1283741870.000000	0.431314	-0.832863
1286593296.000000	0.429539	-0.833557
1289444722.000000	0.427763	-0.834252
1292296148.000000	0.425988	-0.834946
1295147573.000000	0.424213	-0.835640
1297998999.000000	0.422438	-0.836334
1300850425.000000	0.420659	-0.837011
1303701850.000000	0.418873	-0.837646
1306553276.000000	0.417086	-0.838281
1309404702.000000	0.415299	-0.838917
1312256128.000000	0.413513	-0.839552
1315107553.000000	0.411726	-0.840188
1317958979.000000	0.409939	-0.840823
1320810405.000000	0.408153	-0.841458
1323661830.000000	0.406366	-0.842094
1326513256.000000	0.404579	-0.842729
1329364682.000000	0.402793	-0.843365
1332216108.000000	0.401006	-0.844000
1335067533.000000	0.399219	-0.844635
1337918959.000000	0.397432	-0.845271
1340770385.000000	0.395646	-0.845906
1343621810.000000	0.393859	-0.846542
1346473236.000000	0.392072	-0.847177
1349324662.000000	0.390286	-0.847812
1352176088.000000	0.388528	-0.848363
1355027513.000000	0.386780	-0.848889
1357878939.000000	0.385031	-0.849414
1360730365.000000	0.383283	-0.849939
1363581790.000000	0.381534	-0.850464
1366433216.000000	0.379785	-0.850989
1369284642.000000	0.378037	-0.851514
1372136068.000000	0.376288	-0.852039
1374987493.000000	0.374540	-0.852564
1377838919.000000	0.372791	-0.853089
1380690345.000000	0.371043	-0.853614
1383541770.000000	0.369294	-0.854139
1386393196.000000	0.367546	-0.854664
1389244622.000000	0.365797	-0.855189
1392096048.000000	0.364048	-0.855714
1394947473.000000	0.362300	-0.856239
1397798899.000000	0.360551	-0.856764
1400650325.000000	0.358809	-0.857278
1403501750.000000	0.357086	-0.857752
1406353176.000000	0.355364	-0.858226
1409204602.000000	0.353641	-0.858700
1412056028.000000	0.351919	-0.859174
1414907453.000000	0.350196	-0.859648
1417758879.000000	0.348474	-0.860123
1420610305.000000	0.346751	-0.860597
1423461730.000000	0.345029	-0.861071
1426313156.000000	0.343306	-0.861545
1429164582.000000	0.341584	-0.862019
1432016008.000000	0.339861	-0.862493
1434867433.000000	0.338139	-0.862967
1437718859.000000	0.336416	-0.863441
1440570285.000000	0.334694	-0.863916
1443421710.000000	0.332971	-0.864390
1446273136.000000	0.331249	-0.864864
1449124562.000000	0.329526	-0.865338
1451975987.000000	0.327809	-0.865753
1454827413.000000	0.326093	-0.866143
1457678839.000000	0.324378	-0.866532
1460530265.000000	0.322663	-0.866922
1463381690.000000	0.320948	-0.867311
1466233116.000000	0.319233	-0.867700
1469084542.000000	0.317518	-0.868090
1471935967.000000	0.315802	-0.868479
1474787393.000000	0.314087	-0.868869
1477638819.000000	0.312372	-0.869258
1480490245.000000	0.310657	-0.869647
1483341670.000000	0.308942	-0.870037
1486193096.000000	0.307226	-0.870426
1489044522.000000	0.305511	-0.870816
1491895947.000000	0.303796	-0.871205
1494747373.000000	0.302081	-0.871594
1497598799.000000	0.300366	-0.871984
1500450225.000000	0.298655	-0.872362
1503301650.000000	0.296971	-0.872679
1506153076.000000	0.295286	-0.872996
1509004502.000000	0.293602	-0.873314
1511855927.000000	0.291917	-0.873631
1514707353.000000	0.290233	-0.873948
1517558779.000000	0.288548	-0.874266
1520410205.000000	0.286864	-0.874583
1523261630.000000	0.285179	-0.874900
1526113056.000000	0.283495	-0.875218
1528964482.000000	0.281810	-0.875535
1531815907.000000	0.280126	-0.875852
1534667333.000000	0.278441	-0.876170
1537518759.000000	0.276757	-0.876487
1540370185.000000	0.275072	-0.876804
1543221610.000000	0.273388	-0.877122
1546073036.000000	0.271703	-0.877439
1548924462.000000	0.270019	-0.877756
1551775887.000000	0.268358	-0.878033
1554627313.000000	0.266711	-0.878286
1557478739.000000	0.265064	-0.878538
1560330165.000000	0.263417	-0.878790
1563181590.000000	0.261770	-0.879043
1566033016.000000	0.260123	-0.879295
1568884442.000000	0.258476	-0.879547
1571735867.000000	0.256830	-0.879800
1574587293.000000	0.255183	-0.880052
1577438719.000000	0.253536	-0.880305
1580290145.000000	0.251889	-0.880557
1583141570.000000	0.250242	-0.880809
1585992996.000000	0.248595	-0.881062
1588844422.000000	0.246948	-0.881314
1591695847.000000	0.245301	-0.881566
1594547273.000000	0.243654	-0.881819
1597398699.000000	0.242008	-0.882071
1600250125.000000	0.240363	-0.882318
1603101550.000000	0.238741	-0.882510
1605952976.000000	0.237120	-0.882702
1608804402.000000	0.235498	-0.882894
1611655827.000000	0.233876	-0.883086
1614507253.000000	0.232255	-0.883278
1617358679.000000	0.230633	-0.883470
1620210105.000000	0.229011	-0.883662
1623061530.000000	0.227390	-0.883854
1625912956.000000	0.225768	-0.884046
1628764382.000000	0.224146	-0.884238
1631615807.000000	0.222525	-0.884430
1634467233.000000	0.220903	-0.884622
1637318659.000000	0.219281	-0.884814
1640170085.000000	0.217660	-0.885006
1643021510.000000	0.216038	-0.885198
1645872936.000000	0.214416	-0.885390
1648724362.000000	0.212795	-0.885582
1651575787.000000	0.211215	-0.885752
1654427213.000000	0.209669	-0.885903
1657278639.000000	0.208123	-0.886055
1660130065.000000	0.206577	-0.886206
1662981490.000000	0.205030	-0.886358
1665832916.000000	0.203484	-0.886509
1668684342.000000	0.201938	-0.886660
1671535767.000000	0.200392	-0.886812
1674387193.000000	0.198846	-0.886963
1677238619.000000	0.197300	-0.887115
1680090045.000000	0.195754	-0.887266
1682941470.000000	0.194208	-0.887417
1685792896.000000	0.192662	-0.887569
1688644322.000000	0.191116	-0.887720
1691495747.000000	0.189570	-0.887871
1694347173.000000	0.188023	-0.888023
1697198599.000000	0.186477	-0.888174
1700050025.000000	0.184931	-0.888325
1702901450.000000	0.183388	-0.888414
1705752876.000000	0.181844	-0.888504
1708604302.000000	0.180301	-0.888594
1711455727.000000	0.178757	-0.888684
1714307153.000000	0.177214	-0.888774
1717158579.000000	0.175670	-0.888863
1720010005.000000	0.174127	-0.888953
1722861430.000000	0.172583	-0.889043
1725712856.000000	0.171040	-0.889133
1728564282.000000	0.169496	-0.889223
1731415707.000000	0.167953	-0.889313
1734267133.000000	0.166409	-0.889402
1737118559.000000	0.164866	-0.889492
1739969984.000000	0.163322	-0.889582
1742821410.000000	0.161779	-0.889672
1745672836.000000	0.160236	-0.889762
1748524262.000000	0.158692	-0.889852
1751375687.000000	0.157152	-0.889928
1754227113.000000	0.155614	-0.889990
1757078539.000000	0.154077	-0.890053
1759929964.000000	0.152540	-0.890115
1762781390.000000	0.151003	-0.890178
1765632816.000000	0.149466	-0.890240
1768484242.000000	0.147929	-0.890302
1771335667.000000	0.146392	-0.890365
1774187093.000000	0.144855	-0.890427
1777038519.000000	0.143318	-0.890489
1779889944.000000	0.141780	-0.890552
1782741370.000000	0.140243	-0.890614
1785592796.000000	0.138706	-0.890676
1788444222.000000	0.137169	-0.890739
1791295647.000000	0.135632	-0.890801
1794147073.000000	0.134095	-0.890863
1796998499.000000	0.132558	-0.890926
1799849924.000000	0.131021	-0.890988
1802701350.000000	0.129552	-0.890978
1805552776.000000	0.128087	-0.890964
1808404202.000000	0.126622	-0.890950
1811255627.000000	0.125157	-0.890936
1814107053.000000	0.123692	-0.890922
1816958479.000000	0.122227	-0.890908
1819809904.000000	0.120762	-0.890894
1822661330.000000	0.119297	-0.890880
1825512756.000000	0.117832	-0.890866
1828364182.000000	0.116367	-0.890852
1831215607.000000	0.114902	-0.890838
1834067033.000000	0.113437	-0.890824
1836918459.000000	0.111972	-0.890810
1839769884.000000	0.110507	-0.890796
1842621310.000000	0.109043	-0.890782
1845472736.000000	0.107578	-0.890768
1848324162.000000	0.106113	-0.890754
1851175587.000000	0.104665	-0.890717
1854027013.000000	0.103241	-0.890647
