! NanoVNA-App
! Date: 2024-06-25 16:06:04
! Start: 200MHz Stop: 6GHz Points: 801
! S-Parameter data: F S11 S21 S12 S22
# Hz S RI R 50
!     Frequency           S11_Real           S11_Imag           S21_Real           S21_Imag           S12_Real           S12_Imag           S22_Real           S22_Imag
      200000000   -9.066644311e-01   -1.085426882e-01   -2.471543849e-05   -2.822838724e-06    0.000000000e+00    0.000000000e+00    0.000000000e+00    0.000000000e+00
      207250000   -9.167537093e-01   -1.939453743e-02    2.327747643e-05   -3.361795098e-05    0.000000000e+00    0.000000000e+00    0.000000000e+00    0.000000000e+00
      214500000   -9.179475307e-01    7.220960408e-02    5.745328963e-06    2.444721758e-06    0.000000000e+00    0.000000000e+00    0.000000000e+00    0.000000000e+00
      221750000   -9.097248316e-01    1.642922759e-01   -6.351619959e-06    4.284456372e-05    0.000000000e+00    0.000000000e+00    0.000000000e+00    0.000000000e+00
      229000000   -8.905278444e-01    2.575987577e-01   -3.825314343e-05   -3.074482083e-05    0.000000000e+00    0.000000000e+00    0.000000000e+00    0.000000000e+00
      236250000   -8.618320227e-01    3.492594063e-01    4.749745131e-07   -2.186093479e-05    0.000000000e+00    0.000000000e+00    0.000000000e+00    0.000000000e+00
      243500000   -8.224639297e-01    4.385683239e-01   -1.348368824e-05    4.556030035e-05    0.000000000e+00    0.000000000e+00    0.000000000e+00    0.000000000e+00
      250750000   -7.711974382e-01    5.250978470e-01    1.525692642e-05    4.631467164e-06    0.000000000e+00    0.000000000e+00    0.000000000e+00    0.000000000e+00
      258000000   -7.104540467e-01    6.060923338e-01    1.732259989e-05    2.818740904e-05    0.000000000e+00    0.000000000e+00    0.000000000e+00    0.000000000e+00
      265250000   -6.392160654e-01    6.807467341e-01    4.671514034e-06   -8.703209460e-06    0.000000000e+00    0.000000000e+00    0.000000000e+00    0.000000000e+00
      272500000   -5.574528575e-01    7.477139235e-01    1.941900700e-05    2.014636993e-05    0.000000000e+00    0.000000000e+00    0.000000000e+00    0.000000000e+00
      279750000   -4.682233632e-01    8.049370050e-01    4.563480616e-06    2.762302756e-05    0.000000000e+00    0.000000000e+00    0.000000000e+00    0.000000000e+00
      287000000   -3.698287308e-01    8.509334922e-01    7.780268788e-06   -9.471550584e-07    0.000000000e+00    0.000000000e+00    0.000000000e+00    0.000000000e+00
      294250000   -2.661101520e-01    8.848824501e-01   -2.120155841e-05    9.363517165e-06    0.000000000e+00    0.000000000e+00    0.000000000e+00    0.000000000e+00
      301500000   -1.569486409e-01    9.057623148e-01   -7.223337889e-06    7.306225598e-06    0.000000000e+00    0.000000000e+00    0.000000000e+00    0.000000000e+00
      308750000   -4.530536383e-02    9.128472805e-01   -1.436099410e-05   -9.546987712e-06    0.000000000e+00    0.000000000e+00    0.000000000e+00    0.000000000e+00
      316000000    6.619789451e-02    9.068159461e-01    1.210160553e-05   -2.431683242e-06    0.000000000e+00    0.000000000e+00    0.000000000e+00    0.000000000e+00
      323250000    1.768077612e-01    8.851476312e-01    1.049786806e-05    1.425482333e-05    0.000000000e+00    0.000000000e+00    0.000000000e+00    0.000000000e+00
      330500000    2.842728496e-01    8.501730561e-01   -1.224130392e-05   -1.336634159e-05    0.000000000e+00    0.000000000e+00    0.000000000e+00    0.000000000e+00
      337750000    3.857201338e-01    8.020355105e-01    5.069188774e-06    6.631948054e-06    0.000000000e+00    0.000000000e+00    0.000000000e+00    0.000000000e+00
      345000000    4.805379212e-01    7.406771183e-01   -2.613384277e-05   -1.951679587e-05    0.000000000e+00    0.000000000e+00    0.000000000e+00    0.000000000e+00
      352250000    5.664281249e-01    6.696400046e-01    4.180893302e-05    8.966773748e-06    0.000000000e+00    0.000000000e+00    0.000000000e+00    0.000000000e+00
      359500000    6.424313188e-01    5.881862044e-01   -1.830048859e-06    1.646578312e-05    0.000000000e+00    0.000000000e+00    0.000000000e+00    0.000000000e+00
      366750000    7.076911330e-01    4.987875223e-01    2.828240395e-05    4.063453525e-05    0.000000000e+00    0.000000000e+00    0.000000000e+00    0.000000000e+00
      374000000    7.608137131e-01    4.033868909e-01   -1.305621117e-05   -8.854083717e-06    0.000000000e+00    0.000000000e+00    0.000000000e+00    0.000000000e+00
      381250000    8.023506403e-01    3.022057414e-01    5.713663995e-06    2.958159894e-05    0.000000000e+00    0.000000000e+00    0.000000000e+00    0.000000000e+00
      388500000    8.316159248e-01    1.993304044e-01   -3.112293780e-05   -2.880580723e-06    0.000000000e+00    0.000000000e+00    0.000000000e+00    0.000000000e+00
      395750000    8.481745720e-01    9.442093223e-02    1.574493945e-05    3.336928785e-06    0.000000000e+00    0.000000000e+00    0.000000000e+00    0.000000000e+00
      403000000    8.531928062e-01   -1.064212620e-02   -3.249384463e-06    1.937523484e-05    0.000000000e+00    0.000000000e+00    0.000000000e+00    0.000000000e+00
      410250000    8.465906978e-01   -1.149621680e-01    7.778406143e-06   -1.726672053e-06    0.000000000e+00    0.000000000e+00    0.000000000e+00    0.000000000e+00
      417500000    8.288730979e-01   -2.166817933e-01    3.316439688e-06   -4.025455564e-05    0.000000000e+00    0.000000000e+00    0.000000000e+00    0.000000000e+00
      424750000    8.002020717e-01   -3.153289855e-01    3.952346742e-05   -1.324526966e-05    0.000000000e+00    0.000000000e+00    0.000000000e+00    0.000000000e+00
      432000000    7.609793544e-01   -4.096721411e-01    3.771577030e-05    1.034140587e-05    0.000000000e+00    0.000000000e+00    0.000000000e+00    0.000000000e+00
      439250000    7.126793265e-01   -4.977533817e-01    1.342501491e-05   -1.515354961e-05    0.000000000e+00    0.000000000e+00    0.000000000e+00    0.000000000e+00
      446500000    6.561193466e-01   -5.799545646e-01    1.804810017e-05    1.175701618e-05    0.000000000e+00    0.000000000e+00    0.000000000e+00    0.000000000e+00
      453750000    5.901674032e-01   -6.564562917e-01    1.966580749e-05   -2.521835268e-05    0.000000000e+00    0.000000000e+00    0.000000000e+00    0.000000000e+00
      461000000    5.184493065e-01   -7.248961926e-01    1.398473978e-05   -6.264075637e-06    0.000000000e+00    0.000000000e+00    0.000000000e+00    0.000000000e+00
      468250000    4.394948184e-01   -7.846807837e-01   -2.468191087e-05    3.755278885e-05    0.000000000e+00    0.000000000e+00    0.000000000e+00    0.000000000e+00
      475500000    3.542712629e-01   -8.368999958e-01    2.863816917e-06   -5.964189768e-06    0.000000000e+00    0.000000000e+00    0.000000000e+00    0.000000000e+00
      482750000    2.651330829e-01   -8.796002865e-01   -1.400709152e-05    4.394166172e-05    0.000000000e+00    0.000000000e+00    0.000000000e+00    0.000000000e+00
      490000000    1.709558666e-01   -9.126657248e-01    1.899898052e-07    1.161359251e-06    0.000000000e+00    0.000000000e+00    0.000000000e+00    0.000000000e+00
      497250000    7.422339916e-02   -9.358855486e-01   -9.498558939e-06   -3.481749445e-05    0.000000000e+00    0.000000000e+00    0.000000000e+00    0.000000000e+00
      504500000   -2.557425946e-02   -9.482293129e-01   -2.214405686e-05    3.252085298e-05    0.000000000e+00    0.000000000e+00    0.000000000e+00    0.000000000e+00
      511750000   -1.265680492e-01   -9.506236911e-01    8.565373719e-06   -1.839362085e-05    0.000000000e+00    0.000000000e+00    0.000000000e+00    0.000000000e+00
      519000000   -2.280414104e-01   -9.420367479e-01   -1.740735024e-05    3.459583968e-05    0.000000000e+00    0.000000000e+00    0.000000000e+00    0.000000000e+00
      526250000   -3.286617100e-01   -9.210848212e-01   -2.123322338e-05    2.140179276e-05    0.000000000e+00    0.000000000e+00    0.000000000e+00    0.000000000e+00
      533500000   -4.260883331e-01   -8.902234435e-01   -4.700664431e-05   -1.057237387e-05    0.000000000e+00    0.000000000e+00    0.000000000e+00    0.000000000e+00
      540750000   -5.211513638e-01   -8.472820520e-01   -2.816691995e-05    6.721355021e-06    0.000000000e+00    0.000000000e+00    0.000000000e+00    0.000000000e+00
      548000000   -6.109845042e-01   -7.944586873e-01    1.124199480e-05   -1.152325422e-05    0.000000000e+00    0.000000000e+00    0.000000000e+00    0.000000000e+00
      555250000   -6.947688460e-01   -7.303469181e-01    2.511963248e-05   -2.073682845e-05    0.000000000e+00    0.000000000e+00    0.000000000e+00    0.000000000e+00
      562500000   -7.713181973e-01   -6.567789912e-01    5.652196705e-06    3.532413393e-05    0.000000000e+00    0.000000000e+00    0.000000000e+00    0.000000000e+00
      569750000   -8.385726810e-01   -5.739116669e-01   -1.728441566e-05    9.073875844e-06    0.000000000e+00    0.000000000e+00    0.000000000e+00    0.000000000e+00
      577000000   -8.954627514e-01   -4.842732549e-01   -1.593120396e-05   -1.668930054e-06    0.000000000e+00    0.000000000e+00    0.000000000e+00    0.000000000e+00
      584250000   -9.425610304e-01   -3.864133656e-01   -1.078471541e-05   -6.693415344e-06    0.000000000e+00    0.000000000e+00    0.000000000e+00    0.000000000e+00
      591500000   -9.769958258e-01   -2.843205333e-01    6.861053407e-06    7.438473403e-06    0.000000000e+00    0.000000000e+00    0.000000000e+00    0.000000000e+00
      598750000   -9.995352030e-01   -1.778401285e-01   -5.724839866e-06   -5.632545799e-05    0.000000000e+00    0.000000000e+00    0.000000000e+00    0.000000000e+00
      606000000   -1.008935094e+00   -6.989167631e-02   -1.283269376e-05   -1.048482955e-05    0.000000000e+00    0.000000000e+00    0.000000000e+00    0.000000000e+00
      613250000   -1.004734874e+00    3.953877836e-02    5.569308996e-07   -2.031959593e-05    0.000000000e+00    0.000000000e+00    0.000000000e+00    0.000000000e+00
      620500000   -9.875220656e-01    1.460290253e-01    4.346482456e-06    2.405326813e-05    0.000000000e+00    0.000000000e+00    0.000000000e+00    0.000000000e+00
      627750000   -9.573817849e-01    2.508271635e-01   -6.503425539e-06   -1.435354352e-05    0.000000000e+00    0.000000000e+00    0.000000000e+00    0.000000000e+00
      635000000   -9.167951345e-01    3.473528624e-01    9.099952877e-06   -2.726353705e-05    0.000000000e+00    0.000000000e+00    0.000000000e+00    0.000000000e+00
      642250000   -8.625667095e-01    4.403524697e-01   -7.513910532e-06   -1.004524529e-05    0.000000000e+00    0.000000000e+00    0.000000000e+00    0.000000000e+00
      649500000   -7.991769314e-01    5.254257321e-01   -1.971609890e-05    7.583759725e-06    0.000000000e+00    0.000000000e+00    0.000000000e+00    0.000000000e+00
      656750000   -7.272749543e-01    6.015318036e-01    1.140963286e-05   -1.796055585e-05    0.000000000e+00    0.000000000e+00    0.000000000e+00    0.000000000e+00
      664000000   -6.477643251e-01    6.686404943e-01   -3.261771053e-05   -6.474927068e-05    0.000000000e+00    0.000000000e+00    0.000000000e+00    0.000000000e+00
      671250000   -5.619446039e-01    7.243847251e-01   -1.329462975e-05   -4.707835615e-06    0.000000000e+00    0.000000000e+00    0.000000000e+00    0.000000000e+00
      678500000   -4.705152214e-01    7.702227235e-01    7.743947208e-06   -2.873688936e-05    0.000000000e+00    0.000000000e+00    0.000000000e+00    0.000000000e+00
      685750000   -3.772300780e-01    8.051424026e-01    4.154164344e-05   -1.409370452e-05    0.000000000e+00    0.000000000e+00    0.000000000e+00    0.000000000e+00
      693000000   -2.787967324e-01    8.292934895e-01    2.411101013e-05   -3.025680780e-05    0.000000000e+00    0.000000000e+00    0.000000000e+00    0.000000000e+00
      700250000   -1.822474599e-01    8.421045542e-01    1.400057226e-05    3.725942224e-05    0.000000000e+00    0.000000000e+00    0.000000000e+00    0.000000000e+00
      707500000   -8.396761119e-02    8.447848558e-01   -6.969086826e-06   -8.275732398e-06    0.000000000e+00    0.000000000e+00    0.000000000e+00    0.000000000e+00
      714750000    1.336452458e-02    8.363491297e-01   -1.429114491e-05   -4.210509360e-06    0.000000000e+00    0.000000000e+00    0.000000000e+00    0.000000000e+00
      722000000    1.070698947e-01    8.188086748e-01   -2.187211066e-05    2.038944513e-05    0.000000000e+00    0.000000000e+00    0.000000000e+00    0.000000000e+00
      729250000    1.990550011e-01    7.909793854e-01    4.079192877e-06   -1.384224743e-05    0.000000000e+00    0.000000000e+00    0.000000000e+00    0.000000000e+00
      736500000    2.850260735e-01    7.550162673e-01    2.605840564e-06   -1.663062721e-05    0.000000000e+00    0.000000000e+00    0.000000000e+00    0.000000000e+00
      743750000    3.674461246e-01    7.101812363e-01    2.491194755e-05    7.795169950e-06    0.000000000e+00    0.000000000e+00    0.000000000e+00    0.000000000e+00
      751000000    4.444384277e-01    6.584035754e-01   -1.285318285e-05    3.848597407e-05    0.000000000e+00    0.000000000e+00    0.000000000e+00    0.000000000e+00
      758250000    5.149689317e-01    5.983347893e-01   -2.395361662e-06    1.636520028e-05    0.000000000e+00    0.000000000e+00    0.000000000e+00    0.000000000e+00
      765500000    5.797345638e-01    5.329424143e-01   -9.468756616e-06   -2.514012158e-05    0.000000000e+00    0.000000000e+00    0.000000000e+00    0.000000000e+00
      772750000    6.380444765e-01    4.597240388e-01    1.429859549e-05    4.305317998e-05    0.000000000e+00    0.000000000e+00    0.000000000e+00    0.000000000e+00
      780000000    6.870112419e-01    3.832226098e-01   -1.656170934e-05   -9.954907000e-06    0.000000000e+00    0.000000000e+00    0.000000000e+00    0.000000000e+00
      787250000    7.300481796e-01    3.009067476e-01   -1.474190503e-05    9.522773325e-06    0.000000000e+00    0.000000000e+00    0.000000000e+00    0.000000000e+00
      794500000    7.644851208e-01    2.147593796e-01   -1.851376146e-05    1.150183380e-06    0.000000000e+00    0.000000000e+00    0.000000000e+00    0.000000000e+00
      801750000    7.898161411e-01    1.239601001e-01    5.729496479e-06   -9.071081877e-07    0.000000000e+00    0.000000000e+00    0.000000000e+00    0.000000000e+00
      809000000    8.062714934e-01    3.099017777e-02   -4.095956683e-06    2.403277904e-05    0.000000000e+00    0.000000000e+00    0.000000000e+00    0.000000000e+00
      816250000    8.131985068e-01   -6.466870010e-02   -1.632981002e-05   -6.680004299e-05    0.000000000e+00    0.000000000e+00    0.000000000e+00    0.000000000e+00
      823500000    8.093427420e-01   -1.610519588e-01    4.814099520e-05    2.783909440e-05    0.000000000e+00    0.000000000e+00    0.000000000e+00    0.000000000e+00
      830750000    7.960425019e-01   -2.574215531e-01   -1.256912947e-05    1.259427518e-05    0.000000000e+00    0.000000000e+00    0.000000000e+00    0.000000000e+00
      838000000    7.716849446e-01   -3.531624377e-01   -6.897374988e-06   -3.210641444e-05    0.000000000e+00    0.000000000e+00    0.000000000e+00    0.000000000e+00
      845250000    7.360917926e-01   -4.459832311e-01   -1.239404082e-05   -2.651475370e-05    0.000000000e+00    0.000000000e+00    0.000000000e+00    0.000000000e+00
      852500000    6.902733445e-01   -5.370096564e-01   -1.118052751e-05    2.840254456e-05    0.000000000e+00    0.000000000e+00    0.000000000e+00    0.000000000e+00
      859750000    6.341470480e-01   -6.210076213e-01    2.085510641e-05   -1.327134669e-06    0.000000000e+00    0.000000000e+00    0.000000000e+00    0.000000000e+00
      867000000    5.647601485e-01   -7.019516826e-01    1.082941890e-05    5.027279258e-06    0.000000000e+00    0.000000000e+00    0.000000000e+00    0.000000000e+00
      874250000    4.875743687e-01   -7.729111910e-01   -4.572793841e-06   -3.379955888e-05    0.000000000e+00    0.000000000e+00    0.000000000e+00    0.000000000e+00
      881500000    3.996099830e-01   -8.368620276e-01   -1.978408545e-05   -7.193535566e-06    0.000000000e+00    0.000000000e+00    0.000000000e+00    0.000000000e+00
      888750000    3.045628965e-01   -8.878527284e-01    9.190291166e-06    2.728775144e-06    0.000000000e+00    0.000000000e+00    0.000000000e+00    0.000000000e+00
      896000000    2.009737790e-01   -9.279019237e-01   -1.517217606e-05    3.627594560e-05    0.000000000e+00    0.000000000e+00    0.000000000e+00    0.000000000e+00
      903250000    9.384738654e-02   -9.540510774e-01   -1.262128353e-05    6.734672934e-05    0.000000000e+00    0.000000000e+00    0.000000000e+00    0.000000000e+00
      910500000   -2.086546458e-02   -9.661288857e-01   -2.931058407e-05   -2.146419138e-05    0.000000000e+00    0.000000000e+00    0.000000000e+00    0.000000000e+00
      917750000   -1.328843087e-01   -9.623861909e-01    1.532118767e-05   -2.191122621e-05    0.000000000e+00    0.000000000e+00    0.000000000e+00    0.000000000e+00
      925000000   -2.428459376e-01   -9.439618587e-01   -2.314522862e-05    1.925323159e-05    0.000000000e+00    0.000000000e+00    0.000000000e+00    0.000000000e+00
      932250000   -3.531493843e-01   -9.104697108e-01    1.699756831e-05    1.631211489e-05    0.000000000e+00    0.000000000e+00    0.000000000e+00    0.000000000e+00
      939500000   -4.542405605e-01   -8.631604314e-01   -4.483573139e-05    1.121778041e-05    0.000000000e+00    0.000000000e+00    0.000000000e+00    0.000000000e+00
      946750000   -5.471994281e-01   -8.031901121e-01   -1.713633537e-07    2.814736217e-05    0.000000000e+00    0.000000000e+00    0.000000000e+00    0.000000000e+00
      954000000   -6.339565516e-01   -7.295055985e-01    5.209818482e-06   -1.685973257e-05    0.000000000e+00    0.000000000e+00    0.000000000e+00    0.000000000e+00
      961250000   -7.053259611e-01   -6.499676704e-01   -3.589503467e-05    1.957081258e-05    0.000000000e+00    0.000000000e+00    0.000000000e+00    0.000000000e+00
      968500000   -7.672576904e-01   -5.597025752e-01   -2.400018275e-06   -1.052860171e-05    0.000000000e+00    0.000000000e+00    0.000000000e+00    0.000000000e+00
      975750000   -8.146743178e-01   -4.651237130e-01    1.792609692e-05   -2.679135650e-05    0.000000000e+00    0.000000000e+00    0.000000000e+00    0.000000000e+00
      983000000   -8.492474556e-01   -3.674302101e-01   -4.828069359e-05    1.803319901e-05    0.000000000e+00    0.000000000e+00    0.000000000e+00    0.000000000e+00
      990250000   -8.709867001e-01   -2.684511840e-01    3.109872341e-05    5.219224840e-05    0.000000000e+00    0.000000000e+00    0.000000000e+00    0.000000000e+00
      997500000   -8.806260228e-01   -1.689311713e-01    7.239170372e-06    1.168809831e-05    0.000000000e+00    0.000000000e+00    0.000000000e+00    0.000000000e+00
     1004750000   -8.775174618e-01   -7.109349966e-02    2.546235919e-06    2.230983227e-05    0.000000000e+00    0.000000000e+00    0.000000000e+00    0.000000000e+00
     1012000000   -8.640972972e-01    2.360372990e-02   -1.393631101e-05    2.623256296e-05    0.000000000e+00    0.000000000e+00    0.000000000e+00    0.000000000e+00
     1019250000   -8.408642411e-01    1.119833589e-01    2.667587250e-05    8.288770914e-06    0.000000000e+00    0.000000000e+00    0.000000000e+00    0.000000000e+00
     1026500000   -8.078168035e-01    1.987390369e-01   -2.305023372e-06    2.206582576e-05    0.000000000e+00    0.000000000e+00    0.000000000e+00    0.000000000e+00
     1033750000   -7.671113014e-01    2.764628232e-01   -2.900045365e-05   -2.039596438e-05    0.000000000e+00    0.000000000e+00    0.000000000e+00    0.000000000e+00
     1041000000   -7.207544446e-01    3.481723368e-01    1.185201108e-05   -1.867767423e-05    0.000000000e+00    0.000000000e+00    0.000000000e+00    0.000000000e+00
