! NanoVNA-App
! Date: 2024-06-25 16:06:09
! Start: 200MHz Stop: 6GHz Points: 801
! S-Parameter data: F S11 S21 S12 S22
# Hz S RI R 50
!     Frequency           S11_Real           S11_Imag           S21_Real           S21_Imag           S12_Real           S12_Imag           S22_Real           S22_Imag
      200000000   -9.071296453e-01   -1.091303229e-01    1.481082290e-05    1.923833042e-05    0.000000000e+00    0.000000000e+00    0.000000000e+00    0.000000000e+00
      207250000   -9.171277285e-01   -1.923099160e-02    2.286769450e-05   -3.772694618e-05    0.000000000e+00    0.000000000e+00    0.000000000e+00    0.000000000e+00
      214500000   -9.183169603e-01    7.203565538e-02    1.695007086e-06    2.486631274e-05    0.000000000e+00    0.000000000e+00    0.000000000e+00    0.000000000e+00
      221750000   -9.096367359e-01    1.647721827e-01    1.977477223e-05   -2.007558942e-05    0.000000000e+00    0.000000000e+00    0.000000000e+00    0.000000000e+00
      229000000   -8.904010057e-01    2.573770285e-01    3.557652235e-07   -1.913588494e-05    0.000000000e+00    0.000000000e+00    0.000000000e+00    0.000000000e+00
      236250000   -8.622763753e-01    3.491292894e-01    7.996335626e-06    4.656612873e-06    0.000000000e+00    0.000000000e+00    0.000000000e+00    0.000000000e+00
      243500000   -8.220006824e-01    4.389067590e-01    1.239590347e-05   -1.431815326e-05    0.000000000e+00    0.000000000e+00    0.000000000e+00    0.000000000e+00
      250750000   -7.717176080e-01    5.250006318e-01   -1.259800047e-05    1.107156277e-05    0.000000000e+00    0.000000000e+00    0.000000000e+00    0.000000000e+00
      258000000   -7.099649310e-01    6.062993407e-01    1.078285277e-05    9.154900908e-06    0.000000000e+00    0.000000000e+00    0.000000000e+00    0.000000000e+00
      265250000   -6.390399933e-01    6.807553768e-01   -1.441035420e-05    5.153007805e-06    0.000000000e+00    0.000000000e+00    0.000000000e+00    0.000000000e+00
      272500000   -5.569101572e-01    7.471265793e-01   -3.024190664e-05    1.345854253e-05    0.000000000e+00    0.000000000e+00    0.000000000e+00    0.000000000e+00
      279750000   -4.682483375e-01    8.045835495e-01   -1.543201506e-05   -1.167878509e-06    0.000000000e+00    0.000000000e+00    0.000000000e+00    0.000000000e+00
      287000000   -3.696349561e-01    8.510176539e-01    2.116616815e-05   -2.859439701e-05    0.000000000e+00    0.000000000e+00    0.000000000e+00    0.000000000e+00
      294250000   -2.660343051e-01    8.850412965e-01    2.084951848e-05    1.937896013e-05    0.000000000e+00    0.000000000e+00    0.000000000e+00    0.000000000e+00
      301500000   -1.572610587e-01    9.067201018e-01   -3.278255463e-07    2.367701381e-05    0.000000000e+00    0.000000000e+00    0.000000000e+00    0.000000000e+00
      308750000   -4.544575885e-02    9.133285880e-01   -9.493902326e-06    2.357363701e-05    0.000000000e+00    0.000000000e+00    0.000000000e+00    0.000000000e+00
      316000000    6.623111665e-02    9.065536261e-01    9.654089808e-06    5.673617125e-06    0.000000000e+00    0.000000000e+00    0.000000000e+00    0.000000000e+00
      323250000    1.769806594e-01    8.861199021e-01    2.007093281e-05   -3.285147250e-05    0.000000000e+00    0.000000000e+00    0.000000000e+00    0.000000000e+00
      330500000    2.840557992e-01    8.506028652e-01    1.483783126e-05    9.470619261e-06    0.000000000e+00    0.000000000e+00    0.000000000e+00    0.000000000e+00
      337750000    3.860165775e-01    8.019492030e-01    2.439506352e-05   -5.169771612e-06    0.000000000e+00    0.000000000e+00    0.000000000e+00    0.000000000e+00
      345000000    4.807241559e-01    7.415679097e-01   -7.580034435e-06    1.691933721e-05    0.000000000e+00    0.000000000e+00    0.000000000e+00    0.000000000e+00
      352250000    5.666888356e-01    6.697902679e-01   -7.174909115e-06   -1.774169505e-05    0.000000000e+00    0.000000000e+00    0.000000000e+00    0.000000000e+00
      359500000    6.429985166e-01    5.884033442e-01    9.074807167e-06    1.836009324e-05    0.000000000e+00    0.000000000e+00    0.000000000e+00    0.000000000e+00
      366750000    7.077770829e-01    4.988149703e-01    1.751165837e-05   -9.936280549e-06    0.000000000e+00    0.000000000e+00    0.000000000e+00    0.000000000e+00
      374000000    7.611024976e-01    4.037875235e-01    1.376681030e-05    1.664552838e-05    0.000000000e+00    0.000000000e+00    0.000000000e+00    0.000000000e+00
      381250000    8.032588959e-01    3.025929034e-01    2.736225724e-06    1.545995474e-07    0.000000000e+00    0.000000000e+00    0.000000000e+00    0.000000000e+00
      388500000    8.315778375e-01    1.995382160e-01   -1.232232898e-05    7.924623787e-06    0.000000000e+00    0.000000000e+00    0.000000000e+00    0.000000000e+00
      395750000    8.483725190e-01    9.498824179e-02   -3.822427243e-05    2.430751920e-07    0.000000000e+00    0.000000000e+00    0.000000000e+00    0.000000000e+00
      403000000    8.535757065e-01   -1.087217778e-02   -4.520174116e-05    3.034342080e-05    0.000000000e+00    0.000000000e+00    0.000000000e+00    0.000000000e+00
      410250000    8.465949893e-01   -1.147812754e-01    1.456122845e-05    5.253590643e-06    0.000000000e+00    0.000000000e+00    0.000000000e+00    0.000000000e+00
      417500000    8.287010789e-01   -2.170684040e-01    2.052634954e-06    2.993922681e-05    0.000000000e+00    0.000000000e+00    0.000000000e+00    0.000000000e+00
      424750000    7.995697856e-01   -3.151045442e-01   -2.751685679e-05    1.230835915e-05    0.000000000e+00    0.000000000e+00    0.000000000e+00    0.000000000e+00
      432000000    7.613369823e-01   -4.091553092e-01    1.998618245e-06    1.704040915e-05    0.000000000e+00    0.000000000e+00    0.000000000e+00    0.000000000e+00
      439250000    7.127154469e-01   -4.980474710e-01    1.430418342e-05   -8.650124073e-06    0.000000000e+00    0.000000000e+00    0.000000000e+00    0.000000000e+00
      446500000    6.563047171e-01   -5.796502829e-01    9.118579328e-06   -2.521276474e-05    0.000000000e+00    0.000000000e+00    0.000000000e+00    0.000000000e+00
      453750000    5.907449722e-01   -6.568098068e-01   -6.305053830e-06    2.661254257e-05    0.000000000e+00    0.000000000e+00    0.000000000e+00    0.000000000e+00
      461000000    5.187649727e-01   -7.247672677e-01    1.234933734e-06   -1.061242074e-05    0.000000000e+00    0.000000000e+00    0.000000000e+00    0.000000000e+00
      468250000    4.398469627e-01   -7.845194340e-01   -2.256780863e-05   -3.869365901e-05    0.000000000e+00    0.000000000e+00    0.000000000e+00    0.000000000e+00
      475500000    3.539371192e-01   -8.368232250e-01   -1.757405698e-06   -4.340242594e-05    0.000000000e+00    0.000000000e+00    0.000000000e+00    0.000000000e+00
      482750000    2.656292319e-01   -8.797844052e-01    4.517007619e-05    4.856847227e-05    0.000000000e+00    0.000000000e+00    0.000000000e+00    0.000000000e+00
      490000000    1.712311953e-01   -9.127795100e-01    2.451241016e-05   -1.186132431e-05    0.000000000e+00    0.000000000e+00    0.000000000e+00    0.000000000e+00
      497250000    7.389010489e-02   -9.358214736e-01    5.960464478e-08   -1.032650471e-05    0.000000000e+00    0.000000000e+00    0.000000000e+00    0.000000000e+00
      504500000   -2.560527809e-02   -9.484378099e-01   -3.026053309e-05    4.027597606e-05    0.000000000e+00    0.000000000e+00    0.000000000e+00    0.000000000e+00
      511750000   -1.266802847e-01   -9.510622025e-01    3.874395043e-05   -2.208352089e-05    0.000000000e+00    0.000000000e+00    0.000000000e+00    0.000000000e+00
      519000000   -2.277868390e-01   -9.427765012e-01    1.553352922e-05    8.749775589e-06    0.000000000e+00    0.000000000e+00    0.000000000e+00    0.000000000e+00
      526250000   -3.286801577e-01   -9.214874506e-01   -5.870126188e-06    8.268281817e-06    0.000000000e+00    0.000000000e+00    0.000000000e+00    0.000000000e+00
      533500000   -4.270855188e-01   -8.897097707e-01    8.049421012e-06    2.383254468e-05    0.000000000e+00    0.000000000e+00    0.000000000e+00    0.000000000e+00
      540750000   -5.212451220e-01   -8.477265239e-01   -4.644133151e-05    1.916661859e-05    0.000000000e+00    0.000000000e+00    0.000000000e+00    0.000000000e+00
      548000000   -6.106093526e-01   -7.943174839e-01    6.239861250e-06    4.854705185e-05    0.000000000e+00    0.000000000e+00    0.000000000e+00    0.000000000e+00
      555250000   -6.951329112e-01   -7.299564481e-01    9.211711586e-06   -2.762395889e-05    0.000000000e+00    0.000000000e+00    0.000000000e+00    0.000000000e+00
      562500000   -7.712816596e-01   -6.567227840e-01   -2.859346569e-05   -1.635588706e-05    0.000000000e+00    0.000000000e+00    0.000000000e+00    0.000000000e+00
      569750000   -8.384226561e-01   -5.749996305e-01   -3.024004400e-05   -2.263672650e-05    0.000000000e+00    0.000000000e+00    0.000000000e+00    0.000000000e+00
      577000000   -8.958361745e-01   -4.842052758e-01    5.275942385e-06   -1.906417310e-06    0.000000000e+00    0.000000000e+00    0.000000000e+00    0.000000000e+00
      584250000   -9.424570799e-01   -3.864553571e-01    9.872019291e-06    3.207847476e-05    0.000000000e+00    0.000000000e+00    0.000000000e+00    0.000000000e+00
      591500000   -9.780865312e-01   -2.843362093e-01   -1.181289554e-05   -3.560725600e-05    0.000000000e+00    0.000000000e+00    0.000000000e+00    0.000000000e+00
      598750000   -1.000448585e+00   -1.771313697e-01    1.299288124e-05   -1.650955528e-05    0.000000000e+00    0.000000000e+00    0.000000000e+00    0.000000000e+00
      606000000   -1.009051919e+00   -6.964128464e-02   -7.898546755e-06    6.646849215e-06    0.000000000e+00    0.000000000e+00    0.000000000e+00    0.000000000e+00
      613250000   -1.005094290e+00    3.854320571e-02   -2.637784928e-05    1.880340278e-05    0.000000000e+00    0.000000000e+00    0.000000000e+00    0.000000000e+00
      620500000   -9.877814054e-01    1.470676810e-01   -2.174638212e-05    5.024485290e-06    0.000000000e+00    0.000000000e+00    0.000000000e+00    0.000000000e+00
      627750000   -9.583883286e-01    2.497760653e-01    8.259899914e-06   -2.662371844e-05    0.000000000e+00    0.000000000e+00    0.000000000e+00    0.000000000e+00
      635000000   -9.163883924e-01    3.475714028e-01    5.733221769e-06   -1.904275268e-05    0.000000000e+00    0.000000000e+00    0.000000000e+00    0.000000000e+00
      642250000   -8.636144996e-01    4.404353797e-01   -6.311573088e-06    1.782737672e-05    0.000000000e+00    0.000000000e+00    0.000000000e+00    0.000000000e+00
      649500000   -7.991246581e-01    5.259019136e-01    2.771709114e-05    1.304131001e-05    0.000000000e+00    0.000000000e+00    0.000000000e+00    0.000000000e+00
      656750000   -7.274262905e-01    6.022270918e-01   -6.581656635e-06    4.386529326e-06    0.000000000e+00    0.000000000e+00    0.000000000e+00    0.000000000e+00
      664000000   -6.479359269e-01    6.682454944e-01    4.872679710e-06    1.682620496e-05    0.000000000e+00    0.000000000e+00    0.000000000e+00    0.000000000e+00
      671250000   -5.618181825e-01    7.250350118e-01   -3.226101398e-06    3.255438060e-05    0.000000000e+00    0.000000000e+00    0.000000000e+00    0.000000000e+00
      678500000   -4.709625840e-01    7.708697915e-01   -2.317409962e-05   -2.227723598e-05    0.000000000e+00    0.000000000e+00    0.000000000e+00    0.000000000e+00
      685750000   -3.757313788e-01    8.054647446e-01    3.355089575e-05    4.965439439e-05    0.000000000e+00    0.000000000e+00    0.000000000e+00    0.000000000e+00
      693000000   -2.786670625e-01    8.289140463e-01   -3.162119538e-05    4.580244422e-06    0.000000000e+00    0.000000000e+00    0.000000000e+00    0.000000000e+00
      700250000   -1.809463799e-01    8.422588110e-01   -1.141801476e-05    1.699663699e-05    0.000000000e+00    0.000000000e+00    0.000000000e+00    0.000000000e+00
      707500000   -8.471959084e-02    8.442599773e-01   -2.225209028e-05    1.556240022e-05    0.000000000e+00    0.000000000e+00    0.000000000e+00    0.000000000e+00
      714750000    1.267602202e-02    8.367235065e-01   -6.837770343e-06   -1.247040927e-05    0.000000000e+00    0.000000000e+00    0.000000000e+00    0.000000000e+00
      722000000    1.074687243e-01    8.188401461e-01    8.077360690e-06   -1.961179078e-05    0.000000000e+00    0.000000000e+00    0.000000000e+00    0.000000000e+00
      729250000    1.985723674e-01    7.912511826e-01    1.181662083e-05   -9.967945516e-06    0.000000000e+00    0.000000000e+00    0.000000000e+00    0.000000000e+00
      736500000    2.846483290e-01    7.553126216e-01    2.210028470e-06   -2.678949386e-05    0.000000000e+00    0.000000000e+00    0.000000000e+00    0.000000000e+00
      743750000    3.672654927e-01    7.105185986e-01    2.358015627e-05    1.625996083e-05    0.000000000e+00    0.000000000e+00    0.000000000e+00    0.000000000e+00
      751000000    4.446896613e-01    6.584485769e-01    9.852461517e-06   -1.509953290e-05    0.000000000e+00    0.000000000e+00    0.000000000e+00    0.000000000e+00
      758250000    5.154432654e-01    5.992505550e-01   -2.163648605e-05   -4.132278264e-06    0.000000000e+00    0.000000000e+00    0.000000000e+00    0.000000000e+00
      765500000    5.789833665e-01    5.332595110e-01    1.972261816e-05    1.220032573e-06    0.000000000e+00    0.000000000e+00    0.000000000e+00    0.000000000e+00
      772750000    6.381056905e-01    4.602833390e-01   -1.050345600e-05    1.053325832e-06    0.000000000e+00    0.000000000e+00    0.000000000e+00    0.000000000e+00
      780000000    6.870264411e-01    3.841110766e-01    1.514796168e-05    3.645103425e-05    0.000000000e+00    0.000000000e+00    0.000000000e+00    0.000000000e+00
      787250000    7.306264639e-01    3.002385199e-01    6.311945617e-05   -4.773028195e-06    0.000000000e+00    0.000000000e+00    0.000000000e+00    0.000000000e+00
      794500000    7.652646899e-01    2.137932777e-01   -1.775193959e-05    1.192558557e-05    0.000000000e+00    0.000000000e+00    0.000000000e+00    0.000000000e+00
      801750000    7.905974388e-01    1.232361868e-01    1.725088805e-05   -4.140567034e-05    0.000000000e+00    0.000000000e+00    0.000000000e+00    0.000000000e+00
      809000000    8.062923551e-01    3.083708137e-02    3.543496132e-05    1.866370440e-06    0.000000000e+00    0.000000000e+00    0.000000000e+00    0.000000000e+00
      816250000    8.130682111e-01   -6.471061707e-02    8.330680430e-06   -1.670699567e-05    0.000000000e+00    0.000000000e+00    0.000000000e+00    0.000000000e+00
      823500000    8.098264933e-01   -1.608068347e-01    2.822466195e-05   -3.473740071e-05    0.000000000e+00    0.000000000e+00    0.000000000e+00    0.000000000e+00
      830750000    7.960867882e-01   -2.566912770e-01    6.770249456e-05   -4.407018423e-05    0.000000000e+00    0.000000000e+00    0.000000000e+00    0.000000000e+00
      838000000    7.712956071e-01   -3.531875908e-01   -1.471955329e-05   -1.521781087e-06    0.000000000e+00    0.000000000e+00    0.000000000e+00    0.000000000e+00
      845250000    7.368791699e-01   -4.462620318e-01    2.563837916e-05    1.351535320e-05    0.000000000e+00    0.000000000e+00    0.000000000e+00    0.000000000e+00
      852500000    6.901149750e-01   -5.368099213e-01    2.546049654e-05    2.310331911e-05    0.000000000e+00    0.000000000e+00    0.000000000e+00    0.000000000e+00
      859750000    6.333063841e-01   -6.224226952e-01    4.509836435e-05   -2.518668771e-05    0.000000000e+00    0.000000000e+00    0.000000000e+00    0.000000000e+00
      867000000    5.657453537e-01   -7.021861076e-01   -4.357099533e-05    1.666415483e-05    0.000000000e+00    0.000000000e+00    0.000000000e+00    0.000000000e+00
      874250000    4.872777164e-01   -7.732433081e-01    1.596752554e-05   -2.101156861e-05    0.000000000e+00    0.000000000e+00    0.000000000e+00    0.000000000e+00
      881500000    3.998934627e-01   -8.365625739e-01    3.180559725e-05    1.061428338e-05    0.000000000e+00    0.000000000e+00    0.000000000e+00    0.000000000e+00
      888750000    3.040833473e-01   -8.881667256e-01   -1.088529825e-05    3.215763718e-05    0.000000000e+00    0.000000000e+00    0.000000000e+00    0.000000000e+00
      896000000    2.016672194e-01   -9.289085269e-01    3.884918988e-05   -2.983678132e-05    0.000000000e+00    0.000000000e+00    0.000000000e+00    0.000000000e+00
      903250000    9.434980899e-02   -9.541805983e-01    3.208033741e-05    1.615658402e-05    0.000000000e+00    0.000000000e+00    0.000000000e+00    0.000000000e+00
      910500000   -2.071752772e-02   -9.660215378e-01   -9.015481919e-05    1.685880125e-05    0.000000000e+00    0.000000000e+00    0.000000000e+00    0.000000000e+00
      917750000   -1.315052062e-01   -9.637391567e-01   -4.025734961e-05   -2.899859101e-05    0.000000000e+00    0.000000000e+00    0.000000000e+00    0.000000000e+00
      925000000   -2.436617464e-01   -9.438905716e-01   -2.725049853e-06   -3.890972584e-05    0.000000000e+00    0.000000000e+00    0.000000000e+00    0.000000000e+00
      932250000   -3.526112139e-01   -9.108408689e-01    2.513919026e-05   -4.159472883e-05    0.000000000e+00    0.000000000e+00    0.000000000e+00    0.000000000e+00
      939500000   -4.529604018e-01   -8.642950654e-01    8.475035429e-06   -2.873968333e-05    0.000000000e+00    0.000000000e+00    0.000000000e+00    0.000000000e+00
      946750000   -5.491663218e-01   -8.028762937e-01   -2.645887434e-06   -4.656612873e-07    0.000000000e+00    0.000000000e+00    0.000000000e+00    0.000000000e+00
      954000000   -6.329981089e-01   -7.308505177e-01   -2.633780241e-06   -3.472808748e-05    0.000000000e+00    0.000000000e+00    0.000000000e+00    0.000000000e+00
      961250000   -7.059582472e-01   -6.495577097e-01   -2.622976899e-05   -2.674013376e-05    0.000000000e+00    0.000000000e+00    0.000000000e+00    0.000000000e+00
      968500000   -7.667128444e-01   -5.601775646e-01   -7.393769920e-06   -1.604016870e-05    0.000000000e+00    0.000000000e+00    0.000000000e+00    0.000000000e+00
      975750000   -8.144158125e-01   -4.665472806e-01   -3.496557474e-05    1.026876271e-05    0.000000000e+00    0.000000000e+00    0.000000000e+00    0.000000000e+00
      983000000   -8.496248722e-01   -3.674435318e-01    2.973247319e-05   -1.227017492e-05    0.000000000e+00    0.000000000e+00    0.000000000e+00    0.000000000e+00
      990250000   -8.715060353e-01   -2.679411173e-01    5.199573934e-06    1.614727080e-05    0.000000000e+00    0.000000000e+00    0.000000000e+00    0.000000000e+00
      997500000   -8.807935715e-01   -1.689112633e-01    1.003406942e-05    2.214033157e-05    0.000000000e+00    0.000000000e+00    0.000000000e+00    0.000000000e+00
     1004750000   -8.782137632e-01   -7.086675614e-02   -4.751607776e-06    1.681502908e-05    0.000000000e+00    0.000000000e+00    0.000000000e+00    0.000000000e+00
     1012000000   -8.643070459e-01    2.400208451e-02    9.232200682e-06    1.176260412e-06    0.000000000e+00    0.000000000e+00    0.000000000e+00    0.000000000e+00
     1019250000   -8.402487636e-01    1.139506325e-01   -2.079457045e-05    3.304053098e-05    0.000000000e+00    0.000000000e+00    0.000000000e+00    0.000000000e+00
     1026500000   -8.085792065e-01    1.968302578e-01   -1.995172352e-05   -1.875590533e-05    0.000000000e+00    0.000000000e+00    0.000000000e+00    0.000000000e+00
     1033750000   -7.671982646e-01    2.771342099e-01   -1.446157694e-05    7.624737918e-06    0.000000000e+00    0.000000000e+00    0.000000000e+00    0.000000000e+00
     1041000000   -7.203321457e-01    3.490740657e-01   -1.103617251e-06   -1.835078001e-05    0.000000000e+00    0.000000000e+00    0.000000000e+00    0.000000000e+00
