! NanoVNA-App
! Date: 2024-06-25 16:06:14
! Start: 200MHz Stop: 6GHz Points: 801
! S-Parameter data: F S11 S21 S12 S22
# Hz S RI R 50
!     Frequency           S11_Real           S11_Imag           S21_Real           S21_Imag           S12_Real           S12_Imag           S22_Real           S22_Imag
      200000000   -9.071879387e-01   -1.088459864e-01    1.421011984e-05   -1.767650247e-05    0.000000000e+00    0.000000000e+00    0.000000000e+00    0.000000000e+00
      207250000   -9.174849987e-01   -1.957604289e-02    7.111579180e-06   -1.391489059e-05    0.000000000e+00    0.000000000e+00    0.000000000e+00    0.000000000e+00
      214500000   -9.178951383e-01    7.194531709e-02   -8.787028491e-06    3.959052265e-05    0.000000000e+00    0.000000000e+00    0.000000000e+00    0.000000000e+00
      221750000   -9.092081189e-01    1.650142819e-01   -3.023073077e-06    5.302019417e-06    0.000000000e+00    0.000000000e+00    0.000000000e+00    0.000000000e+00
      229000000   -8.911122680e-01    2.572182119e-01    1.007504761e-05   -2.655014396e-05    0.000000000e+00    0.000000000e+00    0.000000000e+00    0.000000000e+00
      236250000   -8.623633981e-01    3.494205773e-01    1.401640475e-05    3.658235073e-06    0.000000000e+00    0.000000000e+00    0.000000000e+00    0.000000000e+00
      243500000   -8.223886490e-01    4.387435317e-01    2.964399755e-06    5.221925676e-06    0.000000000e+00    0.000000000e+00    0.000000000e+00    0.000000000e+00
      250750000   -7.715534568e-01    5.248454809e-01    5.208887160e-06    2.906937152e-05    0.000000000e+00    0.000000000e+00    0.000000000e+00    0.000000000e+00
      258000000   -7.105979919e-01    6.061999202e-01    3.567151725e-05    1.317914575e-05    0.000000000e+00    0.000000000e+00    0.000000000e+00    0.000000000e+00
      265250000   -6.392082572e-01    6.807704568e-01    9.452924132e-06    2.832990140e-05    0.000000000e+00    0.000000000e+00    0.000000000e+00    0.000000000e+00
      272500000   -5.575680137e-01    7.476713657e-01   -6.537884474e-06    2.330634743e-05    0.000000000e+00    0.000000000e+00    0.000000000e+00    0.000000000e+00
      279750000   -4.679018855e-01    8.047954440e-01    7.411465049e-06    3.989785910e-06    0.000000000e+00    0.000000000e+00    0.000000000e+00    0.000000000e+00
      287000000   -3.694095016e-01    8.515434861e-01    2.250075340e-05   -1.413654536e-05    0.000000000e+00    0.000000000e+00    0.000000000e+00    0.000000000e+00
      294250000   -2.659345567e-01    8.856922388e-01    2.188514918e-05   -6.783753633e-05    0.000000000e+00    0.000000000e+00    0.000000000e+00    0.000000000e+00
      301500000   -1.572427303e-01    9.063677192e-01   -1.450162381e-05   -3.974884748e-05    0.000000000e+00    0.000000000e+00    0.000000000e+00    0.000000000e+00
      308750000   -4.551889375e-02    9.134588838e-01    3.347732127e-05   -1.679174602e-06    0.000000000e+00    0.000000000e+00    0.000000000e+00    0.000000000e+00
      316000000    6.647617370e-02    9.067022800e-01    4.996545613e-06   -3.030430526e-05    0.000000000e+00    0.000000000e+00    0.000000000e+00    0.000000000e+00
      323250000    1.771684289e-01    8.856703043e-01    1.315958798e-06   -1.403875649e-05    0.000000000e+00    0.000000000e+00    0.000000000e+00    0.000000000e+00
      330500000    2.844969928e-01    8.505235910e-01    1.345761120e-06   -2.698041499e-06    0.000000000e+00    0.000000000e+00    0.000000000e+00    0.000000000e+00
      337750000    3.858562708e-01    8.026240468e-01   -1.242104918e-05   -1.934450120e-05    0.000000000e+00    0.000000000e+00    0.000000000e+00    0.000000000e+00
      345000000    4.812057018e-01    7.416333556e-01    3.986526281e-05   -1.064408571e-05    0.000000000e+00    0.000000000e+00    0.000000000e+00    0.000000000e+00
      352250000    5.664868951e-01    6.693996787e-01    1.994054765e-05   -1.104176044e-05    0.000000000e+00    0.000000000e+00    0.000000000e+00    0.000000000e+00
      359500000    6.426476240e-01    5.889276266e-01    6.171874702e-06    9.420327842e-06    0.000000000e+00    0.000000000e+00    0.000000000e+00    0.000000000e+00
      366750000    7.083492279e-01    4.995240867e-01    6.020069122e-06   -4.622526467e-05    0.000000000e+00    0.000000000e+00    0.000000000e+00    0.000000000e+00
      374000000    7.613764405e-01    4.040910900e-01    4.190951586e-07   -2.354104072e-05    0.000000000e+00    0.000000000e+00    0.000000000e+00    0.000000000e+00
      381250000    8.027845621e-01    3.025424480e-01    1.206435263e-05    2.173706889e-05    0.000000000e+00    0.000000000e+00    0.000000000e+00    0.000000000e+00
      388500000    8.314802051e-01    1.993572563e-01   -3.719609231e-05   -3.767199814e-05    0.000000000e+00    0.000000000e+00    0.000000000e+00    0.000000000e+00
      395750000    8.486581445e-01    9.445691109e-02    1.798756421e-05   -1.568160951e-05    0.000000000e+00    0.000000000e+00    0.000000000e+00    0.000000000e+00
      403000000    8.536925316e-01   -1.150158141e-02   -3.184471279e-05    1.348275691e-05    0.000000000e+00    0.000000000e+00    0.000000000e+00    0.000000000e+00
      410250000    8.467251658e-01   -1.148639768e-01   -1.833867282e-05   -3.493763506e-05    0.000000000e+00    0.000000000e+00    0.000000000e+00    0.000000000e+00
      417500000    8.289778829e-01   -2.168058753e-01   -4.738569260e-06   -1.003872603e-05    0.000000000e+00    0.000000000e+00    0.000000000e+00    0.000000000e+00
      424750000    8.005039096e-01   -3.155173957e-01   -1.154094934e-05   -1.409836113e-05    0.000000000e+00    0.000000000e+00    0.000000000e+00    0.000000000e+00
      432000000    7.608563900e-01   -4.096721709e-01    3.111921251e-05    2.532452345e-05    0.000000000e+00    0.000000000e+00    0.000000000e+00    0.000000000e+00
      439250000    7.128818631e-01   -4.981635511e-01    8.580274880e-06   -2.019107342e-06    0.000000000e+00    0.000000000e+00    0.000000000e+00    0.000000000e+00
      446500000    6.553889513e-01   -5.808978081e-01    1.144595444e-06    8.139759302e-07    0.000000000e+00    0.000000000e+00    0.000000000e+00    0.000000000e+00
      453750000    5.915444493e-01   -6.562983990e-01    4.306435585e-06    5.246140063e-06    0.000000000e+00    0.000000000e+00    0.000000000e+00    0.000000000e+00
      461000000    5.189533830e-01   -7.250298262e-01   -3.019906580e-05    4.876218736e-05    0.000000000e+00    0.000000000e+00    0.000000000e+00    0.000000000e+00
      468250000    4.393632412e-01   -7.851595283e-01    2.863816917e-05   -1.014862210e-05    0.000000000e+00    0.000000000e+00    0.000000000e+00    0.000000000e+00
      475500000    3.542304933e-01   -8.369552493e-01    1.850817353e-05    1.396797597e-05    0.000000000e+00    0.000000000e+00    0.000000000e+00    0.000000000e+00
      482750000    2.650516331e-01   -8.798307776e-01   -1.185107976e-05    3.958120942e-06    0.000000000e+00    0.000000000e+00    0.000000000e+00    0.000000000e+00
      490000000    1.716848761e-01   -9.132062197e-01    1.684296876e-05    2.060644329e-05    0.000000000e+00    0.000000000e+00    0.000000000e+00    0.000000000e+00
      497250000    7.343369722e-02   -9.356144667e-01   -2.913735807e-05    2.525467426e-05    0.000000000e+00    0.000000000e+00    0.000000000e+00    0.000000000e+00
      504500000   -2.564052679e-02   -9.489082098e-01   -1.180730760e-05    1.034140587e-05    0.000000000e+00    0.000000000e+00    0.000000000e+00    0.000000000e+00
      511750000   -1.265470684e-01   -9.509209394e-01    5.587935448e-07    2.952292562e-07    0.000000000e+00    0.000000000e+00    0.000000000e+00    0.000000000e+00
      519000000   -2.276252210e-01   -9.422771335e-01    3.362074494e-06    1.004152000e-05    0.000000000e+00    0.000000000e+00    0.000000000e+00    0.000000000e+00
      526250000   -3.284094334e-01   -9.217458963e-01    1.626834273e-05   -1.921318471e-05    0.000000000e+00    0.000000000e+00    0.000000000e+00    0.000000000e+00
      533500000   -4.266068637e-01   -8.903052807e-01    1.325272024e-05   -1.666042954e-05    0.000000000e+00    0.000000000e+00    0.000000000e+00    0.000000000e+00
      540750000   -5.211496949e-01   -8.473900557e-01    3.571342677e-05   -1.726672053e-06    0.000000000e+00    0.000000000e+00    0.000000000e+00    0.000000000e+00
      548000000   -6.112918854e-01   -7.945996523e-01   -2.232845873e-05    1.270603389e-05    0.000000000e+00    0.000000000e+00    0.000000000e+00    0.000000000e+00
      555250000   -6.944121718e-01   -7.308922410e-01   -1.659244299e-05    6.436370313e-06    0.000000000e+00    0.000000000e+00    0.000000000e+00    0.000000000e+00
      562500000   -7.712360024e-01   -6.566808820e-01    4.024244845e-06   -8.469447494e-06    0.000000000e+00    0.000000000e+00    0.000000000e+00    0.000000000e+00
      569750000   -8.387177587e-01   -5.747008324e-01    1.013372093e-05    1.856405288e-05    0.000000000e+00    0.000000000e+00    0.000000000e+00    0.000000000e+00
      577000000   -8.962345719e-01   -4.840608239e-01   -2.744235098e-05   -2.042390406e-05    0.000000000e+00    0.000000000e+00    0.000000000e+00    0.000000000e+00
      584250000   -9.431800842e-01   -3.877801001e-01   -1.222081482e-05   -2.635736018e-05    0.000000000e+00    0.000000000e+00    0.000000000e+00    0.000000000e+00
      591500000   -9.778541923e-01   -2.832847238e-01   -4.278495908e-05   -2.012122422e-05    0.000000000e+00    0.000000000e+00    0.000000000e+00    0.000000000e+00
      598750000   -1.000489116e+00   -1.773540080e-01    1.291744411e-06    4.613772035e-06    0.000000000e+00    0.000000000e+00    0.000000000e+00    0.000000000e+00
      606000000   -1.009182334e+00   -6.967234612e-02   -2.021063119e-05    1.199543476e-06    0.000000000e+00    0.000000000e+00    0.000000000e+00    0.000000000e+00
      613250000   -1.004869103e+00    3.932523355e-02    1.023337245e-05   -2.906937152e-05    0.000000000e+00    0.000000000e+00    0.000000000e+00    0.000000000e+00
      620500000   -9.876288772e-01    1.465355009e-01   -3.233365715e-05   -3.585778177e-05    0.000000000e+00    0.000000000e+00    0.000000000e+00    0.000000000e+00
      627750000   -9.577385187e-01    2.502918839e-01    2.235267311e-05    1.077260822e-05    0.000000000e+00    0.000000000e+00    0.000000000e+00    0.000000000e+00
      635000000   -9.157924056e-01    3.485760093e-01    3.653578460e-06    8.194707334e-06    0.000000000e+00    0.000000000e+00    0.000000000e+00    0.000000000e+00
      642250000   -8.627201319e-01    4.421940148e-01    2.794060856e-05   -2.845562994e-05    0.000000000e+00    0.000000000e+00    0.000000000e+00    0.000000000e+00
      649500000   -8.003411889e-01    5.253127217e-01    4.311464727e-05   -2.712476999e-05    0.000000000e+00    0.000000000e+00    0.000000000e+00    0.000000000e+00
      656750000   -7.277594209e-01    6.017010808e-01    1.836474985e-05   -1.954846084e-05    0.000000000e+00    0.000000000e+00    0.000000000e+00    0.000000000e+00
      664000000   -6.478509903e-01    6.687230468e-01    2.847053111e-06   -9.720213711e-06    0.000000000e+00    0.000000000e+00    0.000000000e+00    0.000000000e+00
      671250000   -5.616831183e-01    7.246950269e-01   -2.656318247e-05   -1.039914787e-05    0.000000000e+00    0.000000000e+00    0.000000000e+00    0.000000000e+00
      678500000   -4.702280462e-01    7.711489201e-01   -7.852911949e-06    2.820231020e-05    0.000000000e+00    0.000000000e+00    0.000000000e+00    0.000000000e+00
      685750000   -3.753926158e-01    8.056162596e-01   -5.930662155e-06   -2.631917596e-05    0.000000000e+00    0.000000000e+00    0.000000000e+00    0.000000000e+00
      693000000   -2.798133790e-01    8.294309378e-01    1.636520028e-05   -2.696551383e-05    0.000000000e+00    0.000000000e+00    0.000000000e+00    0.000000000e+00
      700250000   -1.806664169e-01    8.424545527e-01    9.867362678e-06    4.228204489e-07    0.000000000e+00    0.000000000e+00    0.000000000e+00    0.000000000e+00
      707500000   -8.396513760e-02    8.444743156e-01    1.432374120e-05    1.504551619e-05    0.000000000e+00    0.000000000e+00    0.000000000e+00    0.000000000e+00
      714750000    1.355754957e-02    8.370082378e-01   -5.509704351e-06    3.779586405e-05    0.000000000e+00    0.000000000e+00    0.000000000e+00    0.000000000e+00
      722000000    1.070602834e-01    8.191146851e-01    1.497101039e-05    2.434290946e-05    0.000000000e+00    0.000000000e+00    0.000000000e+00    0.000000000e+00
      729250000    1.980737001e-01    7.914544344e-01   -4.777684808e-05   -3.667455167e-05    0.000000000e+00    0.000000000e+00    0.000000000e+00    0.000000000e+00
      736500000    2.852531672e-01    7.554048300e-01   -2.086069435e-05   -2.013705671e-05    0.000000000e+00    0.000000000e+00    0.000000000e+00    0.000000000e+00
      743750000    3.672811091e-01    7.106780410e-01    1.129601151e-05   -1.220684499e-05    0.000000000e+00    0.000000000e+00    0.000000000e+00    0.000000000e+00
      751000000    4.440244734e-01    6.590507030e-01    4.732981324e-06   -7.658265531e-06    0.000000000e+00    0.000000000e+00    0.000000000e+00    0.000000000e+00
      758250000    5.153145194e-01    5.983956456e-01   -3.076903522e-05    1.803133637e-05    0.000000000e+00    0.000000000e+00    0.000000000e+00    0.000000000e+00
      765500000    5.798374414e-01    5.334112644e-01   -2.584699541e-05    4.983972758e-05    0.000000000e+00    0.000000000e+00    0.000000000e+00    0.000000000e+00
      772750000    6.379851103e-01    4.602288604e-01    6.909482181e-06    2.620741725e-05    0.000000000e+00    0.000000000e+00    0.000000000e+00    0.000000000e+00
      780000000    6.869583726e-01    3.834305406e-01    5.637761205e-05   -6.493180990e-06    0.000000000e+00    0.000000000e+00    0.000000000e+00    0.000000000e+00
      787250000    7.312239408e-01    3.002319634e-01    1.538917422e-05    2.106279135e-05    0.000000000e+00    0.000000000e+00    0.000000000e+00    0.000000000e+00
      794500000    7.649754286e-01    2.145598233e-01    3.843195736e-05    1.247599721e-05    0.000000000e+00    0.000000000e+00    0.000000000e+00    0.000000000e+00
      801750000    7.906043530e-01    1.234410629e-01   -1.267157495e-05    3.929995000e-05    0.000000000e+00    0.000000000e+00    0.000000000e+00    0.000000000e+00
      809000000    8.067862391e-01    3.108283505e-02    2.845097333e-05   -3.395322710e-05    0.000000000e+00    0.000000000e+00    0.000000000e+00    0.000000000e+00
      816250000    8.133397102e-01   -6.383500993e-02   -6.360933185e-06   -2.376735210e-05    0.000000000e+00    0.000000000e+00    0.000000000e+00    0.000000000e+00
      823500000    8.093991280e-01   -1.614627689e-01   -1.968722790e-05   -1.413840801e-05    0.000000000e+00    0.000000000e+00    0.000000000e+00    0.000000000e+00
      830750000    7.961904407e-01   -2.580530047e-01    2.036802471e-06    1.543480903e-05    0.000000000e+00    0.000000000e+00    0.000000000e+00    0.000000000e+00
      838000000    7.721630335e-01   -3.522583842e-01    5.050562322e-06    2.422090620e-05    0.000000000e+00    0.000000000e+00    0.000000000e+00    0.000000000e+00
      845250000    7.359691262e-01   -4.463625550e-01   -1.990236342e-06    4.791934043e-05    0.000000000e+00    0.000000000e+00    0.000000000e+00    0.000000000e+00
      852500000    6.903039217e-01   -5.369080305e-01   -3.271922469e-05    4.884321243e-05    0.000000000e+00    0.000000000e+00    0.000000000e+00    0.000000000e+00
      859750000    6.338443160e-01   -6.219459772e-01   -1.353956759e-05    1.688674092e-05    0.000000000e+00    0.000000000e+00    0.000000000e+00    0.000000000e+00
      867000000    5.648517013e-01   -7.026181221e-01   -2.001412213e-06    1.708418131e-05    0.000000000e+00    0.000000000e+00    0.000000000e+00    0.000000000e+00
      874250000    4.890606999e-01   -7.740340233e-01    4.905182868e-05    4.409812391e-05    0.000000000e+00    0.000000000e+00    0.000000000e+00    0.000000000e+00
      881500000    3.989762664e-01   -8.375441432e-01    1.336634159e-05    1.626834273e-05    0.000000000e+00    0.000000000e+00    0.000000000e+00    0.000000000e+00
      888750000    3.048439026e-01   -8.884641528e-01   -1.814682037e-05   -7.722526789e-06    0.000000000e+00    0.000000000e+00    0.000000000e+00    0.000000000e+00
      896000000    2.018571943e-01   -9.283806086e-01   -7.641501725e-06   -1.964159310e-06    0.000000000e+00    0.000000000e+00    0.000000000e+00    0.000000000e+00
      903250000    9.286131710e-02   -9.541112781e-01   -1.970212907e-05   -4.423782229e-07    0.000000000e+00    0.000000000e+00    0.000000000e+00    0.000000000e+00
      910500000   -2.023462020e-02   -9.662976265e-01   -1.888349652e-05   -2.910848707e-05    0.000000000e+00    0.000000000e+00    0.000000000e+00    0.000000000e+00
      917750000   -1.323719621e-01   -9.630256295e-01    3.502052277e-05    1.576915383e-05    0.000000000e+00    0.000000000e+00    0.000000000e+00    0.000000000e+00
      925000000   -2.427434623e-01   -9.452574849e-01    2.050958574e-05   -4.447065294e-06    0.000000000e+00    0.000000000e+00    0.000000000e+00    0.000000000e+00
      932250000   -3.531828821e-01   -9.108006954e-01    1.418963075e-05    2.521090209e-06    0.000000000e+00    0.000000000e+00    0.000000000e+00    0.000000000e+00
      939500000   -4.541774988e-01   -8.631505370e-01   -5.972199142e-05    3.091245890e-05    0.000000000e+00    0.000000000e+00    0.000000000e+00    0.000000000e+00
      946750000   -5.493151546e-01   -8.023908734e-01   -1.801643521e-05   -1.726485789e-05    0.000000000e+00    0.000000000e+00    0.000000000e+00    0.000000000e+00
      954000000   -6.321737766e-01   -7.313574553e-01   -1.384038478e-05   -5.420204252e-05    0.000000000e+00    0.000000000e+00    0.000000000e+00    0.000000000e+00
      961250000   -7.055944800e-01   -6.501311064e-01   -1.351907849e-05   -2.384185791e-07    0.000000000e+00    0.000000000e+00    0.000000000e+00    0.000000000e+00
      968500000   -7.671135068e-01   -5.598276258e-01   -5.452428013e-05    2.405233681e-05    0.000000000e+00    0.000000000e+00    0.000000000e+00    0.000000000e+00
      975750000   -8.147819638e-01   -4.658015966e-01    1.906324178e-05    4.365108907e-06    0.000000000e+00    0.000000000e+00    0.000000000e+00    0.000000000e+00
      983000000   -8.496895432e-01   -3.670111597e-01    1.936219633e-05   -8.998438716e-06    0.000000000e+00    0.000000000e+00    0.000000000e+00    0.000000000e+00
      990250000   -8.714146018e-01   -2.676876485e-01    3.902241588e-07    1.445692033e-05    0.000000000e+00    0.000000000e+00    0.000000000e+00    0.000000000e+00
      997500000   -8.803542852e-01   -1.676469743e-01    3.690179437e-05   -1.659803092e-05    0.000000000e+00    0.000000000e+00    0.000000000e+00    0.000000000e+00
     1004750000   -8.779988289e-01   -7.150629908e-02    8.616596460e-06   -1.200661063e-05    0.000000000e+00    0.000000000e+00    0.000000000e+00    0.000000000e+00
     1012000000   -8.643777966e-01    2.333093807e-02    1.847464591e-05    4.644412547e-05    0.000000000e+00    0.000000000e+00    0.000000000e+00    0.000000000e+00
     1019250000   -8.406654000e-01    1.132715270e-01   -1.471117139e-05   -9.613111615e-06    0.000000000e+00    0.000000000e+00    0.000000000e+00    0.000000000e+00
     1026500000   -8.082802892e-01    1.978486776e-01    1.511070877e-05    1.160427928e-05    0.000000000e+00    0.000000000e+00    0.000000000e+00    0.000000000e+00
     1033750000   -7.669955492e-01    2.771960795e-01    2.740323544e-05   -6.171874702e-06    0.000000000e+00    0.000000000e+00    0.000000000e+00    0.000000000e+00
     1041000000   -7.207747102e-01    3.488052189e-01   -2.113264054e-05   -4.735775292e-06    0.000000000e+00    0.000000000e+00    0.000000000e+00    0.000000000e+00
