! NanoVNA-App
! Date: 2024-06-25 16:06:19
! Start: 200MHz Stop: 6GHz Points: 801
! S-Parameter data: F S11 S21 S12 S22
# Hz S RI R 50
!     Frequency           S11_Real           S11_Imag           S21_Real           S21_Imag           S12_Real           S12_Imag           S22_Real           S22_Imag
      200000000   -9.070429206e-01   -1.090325043e-01   -1.876242459e-05   -5.746260285e-06    0.000000000e+00    0.000000000e+00    0.000000000e+00    0.000000000e+00
      207250000   -9.175770283e-01   -1.964590885e-02    1.708045602e-06    1.508742571e-07    0.000000000e+00    0.000000000e+00    0.000000000e+00    0.000000000e+00
      214500000   -9.184013009e-01    7.156593353e-02   -7.254071534e-06   -8.502975106e-07    0.000000000e+00    0.000000000e+00    0.000000000e+00    0.000000000e+00
      221750000   -9.096885324e-01    1.649481058e-01   -5.927868187e-06   -1.455470920e-05    0.000000000e+00    0.000000000e+00    0.000000000e+00    0.000000000e+00
      229000000   -8.915763497e-01    2.569483817e-01    1.050531864e-06    2.014264464e-05    0.000000000e+00    0.000000000e+00    0.000000000e+00    0.000000000e+00
      236250000   -8.617050648e-01    3.493038118e-01   -1.303851604e-08    1.974869519e-05    0.000000000e+00    0.000000000e+00    0.000000000e+00    0.000000000e+00
      243500000   -8.223498464e-01    4.390034378e-01    5.923211575e-06    2.921652049e-05    0.000000000e+00    0.000000000e+00    0.000000000e+00    0.000000000e+00
      250750000   -7.718037963e-01    5.251374245e-01    2.467446029e-05    1.784972847e-05    0.000000000e+00    0.000000000e+00    0.000000000e+00    0.000000000e+00
      258000000   -7.105405331e-01    6.062064767e-01    1.042149961e-06   -5.252659321e-06    0.000000000e+00    0.000000000e+00    0.000000000e+00    0.000000000e+00
      265250000   -6.398681998e-01    6.810076237e-01    9.248964489e-06   -2.250541002e-05    0.000000000e+00    0.000000000e+00    0.000000000e+00    0.000000000e+00
      272500000   -5.577241778e-01    7.481046915e-01    1.235492527e-05   -1.634750515e-05    0.000000000e+00    0.000000000e+00    0.000000000e+00    0.000000000e+00
      279750000   -4.677268267e-01    8.049247265e-01    8.217990398e-06    1.906976104e-05    0.000000000e+00    0.000000000e+00    0.000000000e+00    0.000000000e+00
      287000000   -3.698198497e-01    8.515692353e-01    7.040798664e-06   -1.280847937e-05    0.000000000e+00    0.000000000e+00    0.000000000e+00    0.000000000e+00
      294250000   -2.657069564e-01    8.854227662e-01    2.032611519e-05    5.308538675e-07    0.000000000e+00    0.000000000e+00    0.000000000e+00    0.000000000e+00
      301500000   -1.573044360e-01    9.070055485e-01   -6.848946214e-06   -1.656822860e-06    0.000000000e+00    0.000000000e+00    0.000000000e+00    0.000000000e+00
      308750000   -4.532472044e-02    9.131083488e-01   -3.725569695e-05    1.870375127e-05    0.000000000e+00    0.000000000e+00    0.000000000e+00    0.000000000e+00
      316000000    6.603243947e-02    9.072972536e-01    4.654843360e-05    1.627951860e-06    0.000000000e+00    0.000000000e+00    0.000000000e+00    0.000000000e+00
      323250000    1.771254241e-01    8.857398629e-01    8.120201528e-06   -3.220513463e-06    0.000000000e+00    0.000000000e+00    0.000000000e+00    0.000000000e+00
      330500000    2.844143808e-01    8.504119515e-01    2.130866051e-06    4.711374640e-05    0.000000000e+00    0.000000000e+00    0.000000000e+00    0.000000000e+00
      337750000    3.858589530e-01    8.020855188e-01   -8.938834071e-06    1.489184797e-06    0.000000000e+00    0.000000000e+00    0.000000000e+00    0.000000000e+00
      345000000    4.812946022e-01    7.417204976e-01    1.184642315e-06    8.563511074e-06    0.000000000e+00    0.000000000e+00    0.000000000e+00    0.000000000e+00
      352250000    5.664444566e-01    6.696904302e-01    3.920868039e-06   -3.759749234e-06    0.000000000e+00    0.000000000e+00    0.000000000e+00    0.000000000e+00
      359500000    6.428757906e-01    5.882864594e-01    1.979991794e-05    2.811290324e-05    0.000000000e+00    0.000000000e+00    0.000000000e+00    0.000000000e+00
      366750000    7.075792551e-01    4.995378256e-01   -8.476898074e-06    8.777715266e-06    0.000000000e+00    0.000000000e+00    0.000000000e+00    0.000000000e+00
      374000000    7.612500191e-01    4.034632146e-01    5.975365639e-06    1.984369010e-05    0.000000000e+00    0.000000000e+00    0.000000000e+00    0.000000000e+00
      381250000    8.028276563e-01    3.026714027e-01    1.289602369e-05   -8.073635399e-06    0.000000000e+00    0.000000000e+00    0.000000000e+00    0.000000000e+00
      388500000    8.316914439e-01    1.989765018e-01   -2.420693636e-05    2.073217183e-05    0.000000000e+00    0.000000000e+00    0.000000000e+00    0.000000000e+00
      395750000    8.490150571e-01    9.512667358e-02   -7.627531886e-07   -1.673586667e-05    0.000000000e+00    0.000000000e+00    0.000000000e+00    0.000000000e+00
      403000000    8.535025716e-01   -1.129807718e-02   -2.345349640e-05    4.250463098e-05    0.000000000e+00    0.000000000e+00    0.000000000e+00    0.000000000e+00
      410250000    8.467594981e-01   -1.147733182e-01   -3.066752106e-05   -1.461338252e-05    0.000000000e+00    0.000000000e+00    0.000000000e+00    0.000000000e+00
      417500000    8.285917044e-01   -2.172569335e-01   -8.271075785e-06   -1.349300146e-05    0.000000000e+00    0.000000000e+00    0.000000000e+00    0.000000000e+00
      424750000    7.995411158e-01   -3.157640398e-01   -5.252659321e-05    2.468004823e-05    0.000000000e+00    0.000000000e+00    0.000000000e+00    0.000000000e+00
      432000000    7.613811493e-01   -4.095200896e-01   -2.017244697e-06   -1.609325409e-06    0.000000000e+00    0.000000000e+00    0.000000000e+00    0.000000000e+00
      439250000    7.135230303e-01   -4.980982840e-01   -3.745779395e-06   -1.844018698e-07    0.000000000e+00    0.000000000e+00    0.000000000e+00    0.000000000e+00
      446500000    6.559565663e-01   -5.806350112e-01    2.211984247e-05   -3.294087946e-06    0.000000000e+00    0.000000000e+00    0.000000000e+00    0.000000000e+00
      453750000    5.901521444e-01   -6.566791534e-01    2.453569323e-05    2.486631274e-05    0.000000000e+00    0.000000000e+00    0.000000000e+00    0.000000000e+00
      461000000    5.182099342e-01   -7.244786024e-01   -1.092161983e-05    4.067085683e-06    0.000000000e+00    0.000000000e+00    0.000000000e+00    0.000000000e+00
      468250000    4.395430982e-01   -7.851818204e-01   -9.245239198e-06    1.384317875e-05    0.000000000e+00    0.000000000e+00    0.000000000e+00    0.000000000e+00
      475500000    3.548375666e-01   -8.372229338e-01   -8.067116141e-06   -6.386078894e-06    0.000000000e+00    0.000000000e+00    0.000000000e+00    0.000000000e+00
      482750000    2.649266720e-01   -8.798277378e-01    4.940666258e-06   -9.361654520e-06    0.000000000e+00    0.000000000e+00    0.000000000e+00    0.000000000e+00
      490000000    1.712535024e-01   -9.126901627e-01   -5.157664418e-06    2.188328654e-05    0.000000000e+00    0.000000000e+00    0.000000000e+00    0.000000000e+00
      497250000    7.391637564e-02   -9.357942343e-01    8.011236787e-06    1.580361277e-05    0.000000000e+00    0.000000000e+00    0.000000000e+00    0.000000000e+00
      504500000   -2.586922608e-02   -9.483974576e-01   -3.518536687e-06   -1.314282417e-05    0.000000000e+00    0.000000000e+00    0.000000000e+00    0.000000000e+00
      511750000   -1.265159696e-01   -9.512698054e-01   -4.767626524e-05   -8.089467883e-06    0.000000000e+00    0.000000000e+00    0.000000000e+00    0.000000000e+00
      519000000   -2.283599228e-01   -9.416815639e-01   -1.060031354e-05   -6.003305316e-06    0.000000000e+00    0.000000000e+00    0.000000000e+00    0.000000000e+00
      526250000   -3.289068937e-01   -9.216220379e-01    2.301577479e-05    2.602115273e-06    0.000000000e+00    0.000000000e+00    0.000000000e+00    0.000000000e+00
      533500000   -4.262177944e-01   -8.903096914e-01   -1.046899706e-05    2.986844629e-05    0.000000000e+00    0.000000000e+00    0.000000000e+00    0.000000000e+00
      540750000   -5.212305188e-01   -8.477182984e-01    1.649744809e-05    1.568719745e-05    0.000000000e+00    0.000000000e+00    0.000000000e+00    0.000000000e+00
      548000000   -6.116942167e-01   -7.953189015e-01   -5.440786481e-06   -2.948567271e-06    0.000000000e+00    0.000000000e+00    0.000000000e+00    0.000000000e+00
      555250000   -6.950498819e-01   -7.304381728e-01    1.457240433e-05   -1.113954931e-05    0.000000000e+00    0.000000000e+00    0.000000000e+00    0.000000000e+00
      562500000   -7.714945078e-01   -6.577265859e-01    2.945773304e-06   -3.257766366e-06    0.000000000e+00    0.000000000e+00    0.000000000e+00    0.000000000e+00
      569750000   -8.388764262e-01   -5.749936700e-01   -1.320987940e-05    1.857429743e-05    0.000000000e+00    0.000000000e+00    0.000000000e+00    0.000000000e+00
      577000000   -8.964304924e-01   -4.831135273e-01   -6.305053830e-07   -1.761689782e-05    0.000000000e+00    0.000000000e+00    0.000000000e+00    0.000000000e+00
      584250000   -9.428182840e-01   -3.879399300e-01    1.788884401e-05   -2.465210855e-06    0.000000000e+00    0.000000000e+00    0.000000000e+00    0.000000000e+00
      591500000   -9.781990051e-01   -2.841994464e-01   -3.064796329e-05   -8.808448911e-06    0.000000000e+00    0.000000000e+00    0.000000000e+00    0.000000000e+00
      598750000   -1.000754356e+00   -1.772305518e-01    4.386529326e-06   -1.719221473e-06    0.000000000e+00    0.000000000e+00    0.000000000e+00    0.000000000e+00
      606000000   -1.008950353e+00   -6.952747703e-02    1.213885844e-05   -9.117648005e-07    0.000000000e+00    0.000000000e+00    0.000000000e+00    0.000000000e+00
      613250000   -1.005287409e+00    3.821045160e-02   -3.673508763e-05    3.312528133e-05    0.000000000e+00    0.000000000e+00    0.000000000e+00    0.000000000e+00
      620500000   -9.882491827e-01    1.459486634e-01    7.191672921e-06   -2.278760076e-05    0.000000000e+00    0.000000000e+00    0.000000000e+00    0.000000000e+00
      627750000   -9.580801129e-01    2.502140999e-01   -5.019828677e-06   -4.418846220e-05    0.000000000e+00    0.000000000e+00    0.000000000e+00    0.000000000e+00
      635000000   -9.165958762e-01    3.485069573e-01   -3.193598241e-05    8.814036846e-06    0.000000000e+00    0.000000000e+00    0.000000000e+00    0.000000000e+00
      642250000   -8.633795381e-01    4.403578937e-01    4.547089338e-05   -3.577210009e-05    0.000000000e+00    0.000000000e+00    0.000000000e+00    0.000000000e+00
      649500000   -7.996951342e-01    5.261740685e-01   -4.585832357e-06   -1.689977944e-05    0.000000000e+00    0.000000000e+00    0.000000000e+00    0.000000000e+00
      656750000   -7.280226350e-01    6.014417410e-01   -4.348531365e-05   -1.008342952e-05    0.000000000e+00    0.000000000e+00    0.000000000e+00    0.000000000e+00
      664000000   -6.478371620e-01    6.686911583e-01   -3.274809569e-05    1.862738281e-05    0.000000000e+00    0.000000000e+00    0.000000000e+00    0.000000000e+00
      671250000   -5.616711378e-01    7.250694633e-01   -1.472327858e-05   -4.610046744e-07    0.000000000e+00    0.000000000e+00    0.000000000e+00    0.000000000e+00
      678500000   -4.708837867e-01    7.707030177e-01   -3.541540354e-05   -1.396052539e-05    0.000000000e+00    0.000000000e+00    0.000000000e+00    0.000000000e+00
      685750000   -3.764573932e-01    8.058009148e-01   -3.768876195e-05    2.253334969e-05    0.000000000e+00    0.000000000e+00    0.000000000e+00    0.000000000e+00
      693000000   -2.798490822e-01    8.288836479e-01   -1.969002187e-05    1.168344170e-05    0.000000000e+00    0.000000000e+00    0.000000000e+00    0.000000000e+00
      700250000   -1.804835349e-01    8.422581553e-01    1.857895404e-05    7.235445082e-06    0.000000000e+00    0.000000000e+00    0.000000000e+00    0.000000000e+00
      707500000   -8.388829231e-02    8.448189497e-01   -2.066418529e-05    7.309950888e-06    0.000000000e+00    0.000000000e+00    0.000000000e+00    0.000000000e+00
      714750000    1.326598041e-02    8.367259502e-01   -9.412877262e-06    7.015652955e-06    0.000000000e+00    0.000000000e+00    0.000000000e+00    0.000000000e+00
      722000000    1.076124087e-01    8.185264468e-01    1.601874828e-05    2.392940223e-05    0.000000000e+00    0.000000000e+00    0.000000000e+00    0.000000000e+00
      729250000    1.981571764e-01    7.915626168e-01    3.271643072e-05   -1.999828964e-05    0.000000000e+00    0.000000000e+00    0.000000000e+00    0.000000000e+00
      736500000    2.855446637e-01    7.553037405e-01   -1.670978963e-05   -1.031532884e-05    0.000000000e+00    0.000000000e+00    0.000000000e+00    0.000000000e+00
      743750000    3.672015369e-01    7.104795575e-01    2.973806113e-05    6.086286157e-05    0.000000000e+00    0.000000000e+00    0.000000000e+00    0.000000000e+00
      751000000    4.443670511e-01    6.587198377e-01    4.373863339e-05    5.172565579e-06    0.000000000e+00    0.000000000e+00    0.000000000e+00    0.000000000e+00
      758250000    5.157215595e-01    5.987443328e-01   -2.102274448e-05    2.765096724e-06    0.000000000e+00    0.000000000e+00    0.000000000e+00    0.000000000e+00
      765500000    5.806304812e-01    5.331360102e-01    2.067536116e-07    2.446584404e-06    0.000000000e+00    0.000000000e+00    0.000000000e+00    0.000000000e+00
      772750000    6.374937892e-01    4.611183405e-01   -6.307847798e-06    2.272054553e-05    0.000000000e+00    0.000000000e+00    0.000000000e+00    0.000000000e+00
      780000000    6.868135333e-01    3.841548860e-01   -3.586523235e-06    4.301778972e-06    0.000000000e+00    0.000000000e+00    0.000000000e+00    0.000000000e+00
      787250000    7.310169339e-01    2.996419966e-01    1.968257129e-05   -3.454089165e-05    0.000000000e+00    0.000000000e+00    0.000000000e+00    0.000000000e+00
      794500000    7.652210593e-01    2.144378722e-01    2.343207598e-05   -1.309346408e-05    0.000000000e+00    0.000000000e+00    0.000000000e+00    0.000000000e+00
      801750000    7.902773023e-01    1.239732802e-01    1.314282417e-05   -5.644839257e-05    0.000000000e+00    0.000000000e+00    0.000000000e+00    0.000000000e+00
      809000000    8.067320585e-01    3.101173043e-02    1.127459109e-05    2.136453986e-06    0.000000000e+00    0.000000000e+00    0.000000000e+00    0.000000000e+00
      816250000    8.132020831e-01   -6.385098398e-02    1.948699355e-05   -6.473623216e-06    0.000000000e+00    0.000000000e+00    0.000000000e+00    0.000000000e+00
      823500000    8.093644381e-01   -1.616608948e-01    1.083966345e-05    3.771390766e-05    0.000000000e+00    0.000000000e+00    0.000000000e+00    0.000000000e+00
      830750000    7.963709831e-01   -2.577074170e-01   -4.313886166e-05   -3.631226718e-06    0.000000000e+00    0.000000000e+00    0.000000000e+00    0.000000000e+00
      838000000    7.723242640e-01   -3.524929285e-01    3.790482879e-06    1.356471330e-05    0.000000000e+00    0.000000000e+00    0.000000000e+00    0.000000000e+00
      845250000    7.364002466e-01   -4.466186166e-01    8.161179721e-06   -4.046596587e-06    0.000000000e+00    0.000000000e+00    0.000000000e+00    0.000000000e+00
      852500000    6.906123161e-01   -5.364863276e-01    8.997507393e-06   -4.721526057e-05    0.000000000e+00    0.000000000e+00    0.000000000e+00    0.000000000e+00
      859750000    6.342132092e-01   -6.216962934e-01    1.615006477e-05    4.061497748e-06    0.000000000e+00    0.000000000e+00    0.000000000e+00    0.000000000e+00
      867000000    5.648414493e-01   -7.024629116e-01    1.615937799e-05   -1.191627234e-05    0.000000000e+00    0.000000000e+00    0.000000000e+00    0.000000000e+00
      874250000    4.875157475e-01   -7.740944624e-01   -4.343036562e-05    2.038571984e-05    0.000000000e+00    0.000000000e+00    0.000000000e+00    0.000000000e+00
      881500000    4.006366432e-01   -8.370520473e-01   -2.535898238e-05    1.102127135e-05    0.000000000e+00    0.000000000e+00    0.000000000e+00    0.000000000e+00
      888750000    3.039296567e-01   -8.884408474e-01   -1.894310117e-06    2.058781683e-05    0.000000000e+00    0.000000000e+00    0.000000000e+00    0.000000000e+00
      896000000    2.010916173e-01   -9.278914928e-01    8.673407137e-06    1.976359636e-05    0.000000000e+00    0.000000000e+00    0.000000000e+00    0.000000000e+00
      903250000    9.380502254e-02   -9.545514584e-01    3.518909216e-05    1.338962466e-05    0.000000000e+00    0.000000000e+00    0.000000000e+00    0.000000000e+00
      910500000   -1.942424662e-02   -9.660784602e-01   -4.125013947e-05   -1.978129148e-06    0.000000000e+00    0.000000000e+00    0.000000000e+00    0.000000000e+00
      917750000   -1.320964843e-01   -9.634179473e-01    2.523977309e-05    1.172907650e-05    0.000000000e+00    0.000000000e+00    0.000000000e+00    0.000000000e+00
      925000000   -2.429058701e-01   -9.451561570e-01    5.643814802e-07    9.170733392e-06    0.000000000e+00    0.000000000e+00    0.000000000e+00    0.000000000e+00
      932250000   -3.533523679e-01   -9.108495712e-01   -1.849792898e-05    3.794860095e-05    0.000000000e+00    0.000000000e+00    0.000000000e+00    0.000000000e+00
      939500000   -4.548304677e-01   -8.635365963e-01    6.184913218e-06   -7.453374565e-06    0.000000000e+00    0.000000000e+00    0.000000000e+00    0.000000000e+00
      946750000   -5.477412939e-01   -8.041914105e-01    2.173520625e-05    6.150454283e-06    0.000000000e+00    0.000000000e+00    0.000000000e+00    0.000000000e+00
      954000000   -6.349413395e-01   -7.282187343e-01   -3.280397505e-05   -2.011749893e-05    0.000000000e+00    0.000000000e+00    0.000000000e+00    0.000000000e+00
      961250000   -7.059881091e-01   -6.498135924e-01    6.318744272e-05   -1.166947186e-06    0.000000000e+00    0.000000000e+00    0.000000000e+00    0.000000000e+00
      968500000   -7.674130797e-01   -5.595338941e-01   -2.844352275e-05    1.020822674e-05    0.000000000e+00    0.000000000e+00    0.000000000e+00    0.000000000e+00
      975750000   -8.153091669e-01   -4.656445682e-01   -3.893207759e-05   -3.086589277e-05    0.000000000e+00    0.000000000e+00    0.000000000e+00    0.000000000e+00
      983000000   -8.495372534e-01   -3.670258820e-01   -1.089647412e-06    8.541159332e-06    0.000000000e+00    0.000000000e+00    0.000000000e+00    0.000000000e+00
      990250000   -8.719401360e-01   -2.678735852e-01    1.146737486e-05   -4.853587598e-05    0.000000000e+00    0.000000000e+00    0.000000000e+00    0.000000000e+00
      997500000   -8.805343509e-01   -1.676510721e-01    6.390828639e-05    5.188211799e-05    0.000000000e+00    0.000000000e+00    0.000000000e+00    0.000000000e+00
     1004750000   -8.782355785e-01   -7.113906741e-02   -1.052394509e-06   -4.250183702e-05    0.000000000e+00    0.000000000e+00    0.000000000e+00    0.000000000e+00
     1012000000   -8.646149635e-01    2.422346734e-02    2.585723996e-05    2.628192306e-05    0.000000000e+00    0.000000000e+00    0.000000000e+00    0.000000000e+00
     1019250000   -8.409643769e-01    1.127600893e-01   -2.498086542e-05   -7.484108210e-06    0.000000000e+00    0.000000000e+00    0.000000000e+00    0.000000000e+00
     1026500000   -8.088011742e-01    1.974183470e-01   -7.512047887e-06    1.221336424e-05    0.000000000e+00    0.000000000e+00    0.000000000e+00    0.000000000e+00
     1033750000   -7.676621079e-01    2.779242396e-01   -9.565614164e-06    5.396082997e-06    0.000000000e+00    0.000000000e+00    0.000000000e+00    0.000000000e+00
     1041000000   -7.206754684e-01    3.485320807e-01    6.888993084e-06   -2.140179276e-06    0.000000000e+00    0.000000000e+00    0.000000000e+00    0.000000000e+00
