! NanoVNA-App
! Date: 2024-06-25 16:14:07
! Start: 200MHz Stop: 6GHz Points: 801
! S-Parameter data: F S11 S21 S12 S22
# Hz S RI R 50
!     Frequency           S11_Real           S11_Imag           S21_Real           S21_Imag           S12_Real           S12_Imag           S22_Real           S22_Imag
      200000000   -9.987160563e-01   -1.151356176e-01   -7.572583854e-06    1.500640064e-05    0.000000000e+00    0.000000000e+00    0.000000000e+00    0.000000000e+00
      207250000   -1.009924650e+00   -1.615474746e-02   -1.057703048e-05    2.647563815e-05    0.000000000e+00    0.000000000e+00    0.000000000e+00    0.000000000e+00
      214500000   -1.010864019e+00    8.504150063e-02   -1.963134855e-05   -4.282966256e-05    0.000000000e+00    0.000000000e+00    0.000000000e+00    0.000000000e+00
      221750000   -1.001987338e+00    1.882403344e-01    1.980643719e-05    5.849637091e-06    0.000000000e+00    0.000000000e+00    0.000000000e+00    0.000000000e+00
      229000000   -9.806781411e-01    2.913713455e-01    2.729147673e-05   -9.340234101e-06    0.000000000e+00    0.000000000e+00    0.000000000e+00    0.000000000e+00
      236250000   -9.495616555e-01    3.936552405e-01    1.885183156e-05   -6.208196282e-06    0.000000000e+00    0.000000000e+00    0.000000000e+00    0.000000000e+00
      243500000   -9.055764079e-01    4.938375056e-01    1.682899892e-06   -1.780502498e-05    0.000000000e+00    0.000000000e+00    0.000000000e+00    0.000000000e+00
      250750000   -8.490088582e-01    5.898892283e-01    1.627672464e-05   -1.323409379e-05    0.000000000e+00    0.000000000e+00    0.000000000e+00    0.000000000e+00
      258000000   -7.803080082e-01    6.807743907e-01   -1.961179078e-05    3.403332084e-05    0.000000000e+00    0.000000000e+00    0.000000000e+00    0.000000000e+00
      265250000   -7.005562782e-01    7.644271255e-01   -5.369074643e-06    7.776543498e-06    0.000000000e+00    0.000000000e+00    0.000000000e+00    0.000000000e+00
      272500000   -6.082323194e-01    8.393685222e-01   -7.773749530e-06   -1.079682261e-05    0.000000000e+00    0.000000000e+00    0.000000000e+00    0.000000000e+00
      279750000   -5.082834363e-01    9.035408497e-01   -1.083221287e-05   -2.162903547e-05    0.000000000e+00    0.000000000e+00    0.000000000e+00    0.000000000e+00
      287000000   -3.974238932e-01    9.549549222e-01    1.320522279e-05   -1.740921289e-05    0.000000000e+00    0.000000000e+00    0.000000000e+00    0.000000000e+00
      294250000   -2.808159590e-01    9.928051829e-01   -2.250634134e-05   -2.017896622e-05    0.000000000e+00    0.000000000e+00    0.000000000e+00    0.000000000e+00
      301500000   -1.573316455e-01    1.015133858e+00   -1.379568130e-05    1.235306263e-05    0.000000000e+00    0.000000000e+00    0.000000000e+00    0.000000000e+00
      308750000   -3.230570629e-02    1.022066832e+00   -3.397557884e-05    8.724629879e-06    0.000000000e+00    0.000000000e+00    0.000000000e+00    0.000000000e+00
      316000000    9.382256866e-02    1.013665199e+00   -2.725888044e-05    1.346692443e-05    0.000000000e+00    0.000000000e+00    0.000000000e+00    0.000000000e+00
      323250000    2.180326879e-01    9.877860546e-01    1.390278339e-05    3.013759851e-06    0.000000000e+00    0.000000000e+00    0.000000000e+00    0.000000000e+00
      330500000    3.378337920e-01    9.463999867e-01   -2.125091851e-05    2.032145858e-06    0.000000000e+00    0.000000000e+00    0.000000000e+00    0.000000000e+00
      337750000    4.516150653e-01    8.897671700e-01   -2.500321716e-05    1.497101039e-05    0.000000000e+00    0.000000000e+00    0.000000000e+00    0.000000000e+00
      345000000    5.563881993e-01    8.206596375e-01   -1.526810229e-05   -1.958757639e-05    0.000000000e+00    0.000000000e+00    0.000000000e+00    0.000000000e+00
      352250000    6.513404250e-01    7.367731333e-01    2.354104072e-05    2.500507981e-05    0.000000000e+00    0.000000000e+00    0.000000000e+00    0.000000000e+00
      359500000    7.342509627e-01    6.441745758e-01    2.079550177e-05    3.001652658e-06    0.000000000e+00    0.000000000e+00    0.000000000e+00    0.000000000e+00
      366750000    8.048434258e-01    5.430976748e-01    2.564396709e-05    3.980472684e-05    0.000000000e+00    0.000000000e+00    0.000000000e+00    0.000000000e+00
      374000000    8.618813157e-01    4.342841506e-01    2.053938806e-05    8.839182556e-06    0.000000000e+00    0.000000000e+00    0.000000000e+00    0.000000000e+00
      381250000    9.054210186e-01    3.215182424e-01   -1.642014831e-05   -2.915039659e-07    0.000000000e+00    0.000000000e+00    0.000000000e+00    0.000000000e+00
      388500000    9.349703789e-01    2.059035599e-01   -6.132759154e-06   -4.610139877e-05    0.000000000e+00    0.000000000e+00    0.000000000e+00    0.000000000e+00
      395750000    9.499601126e-01    8.827544004e-02   -2.853386104e-05   -8.319504559e-06    0.000000000e+00    0.000000000e+00    0.000000000e+00    0.000000000e+00
      403000000    9.524129629e-01   -2.812400833e-02    3.291387111e-05   -5.416478962e-05    0.000000000e+00    0.000000000e+00    0.000000000e+00    0.000000000e+00
      410250000    9.416893125e-01   -1.437290907e-01   -5.462765694e-05   -1.363828778e-05    0.000000000e+00    0.000000000e+00    0.000000000e+00    0.000000000e+00
      417500000    9.195225239e-01   -2.556623816e-01   -2.577435225e-05   -3.755930811e-05    0.000000000e+00    0.000000000e+00    0.000000000e+00    0.000000000e+00
      424750000    8.848449588e-01   -3.636378646e-01    1.795869321e-05    2.537295222e-05    0.000000000e+00    0.000000000e+00    0.000000000e+00    0.000000000e+00
      432000000    8.381801844e-01   -4.665072858e-01    8.290633559e-06   -1.714471728e-05    0.000000000e+00    0.000000000e+00    0.000000000e+00    0.000000000e+00
      439250000    7.841682434e-01   -5.619978309e-01    1.096725464e-05   -9.917654097e-06    0.000000000e+00    0.000000000e+00    0.000000000e+00    0.000000000e+00
      446500000    7.188988924e-01   -6.516271830e-01    8.810311556e-06    2.987682819e-06    0.000000000e+00    0.000000000e+00    0.000000000e+00    0.000000000e+00
      453750000    6.440027952e-01   -7.344359756e-01   -1.651234925e-05    1.820735633e-05    0.000000000e+00    0.000000000e+00    0.000000000e+00    0.000000000e+00
      461000000    5.642064810e-01   -8.075013757e-01    2.373196185e-05    2.252310514e-05    0.000000000e+00    0.000000000e+00    0.000000000e+00    0.000000000e+00
      468250000    4.756662250e-01   -8.711640239e-01   -5.383044481e-07    9.986571968e-06    0.000000000e+00    0.000000000e+00    0.000000000e+00    0.000000000e+00
      475500000    3.812966645e-01   -9.269784093e-01    6.404705346e-06   -1.696217805e-05    0.000000000e+00    0.000000000e+00    0.000000000e+00    0.000000000e+00
      482750000    2.809719741e-01   -9.714635611e-01   -7.114373147e-06    7.711350918e-07    0.000000000e+00    0.000000000e+00    0.000000000e+00    0.000000000e+00
      490000000    1.772688627e-01   -1.005593657e+00    2.352520823e-05    3.591272980e-05    0.000000000e+00    0.000000000e+00    0.000000000e+00    0.000000000e+00
      497250000    7.074317336e-02   -1.029276252e+00   -2.851244062e-05   -4.369765520e-06    0.000000000e+00    0.000000000e+00    0.000000000e+00    0.000000000e+00
      504500000   -3.950506449e-02   -1.041193843e+00    2.397410572e-05   -2.250634134e-05    0.000000000e+00    0.000000000e+00    0.000000000e+00    0.000000000e+00
      511750000   -1.507399976e-01   -1.040778518e+00    4.132278264e-05    1.672655344e-05    0.000000000e+00    0.000000000e+00    0.000000000e+00    0.000000000e+00
      519000000   -2.622894049e-01   -1.029048920e+00   -1.158658415e-05   -3.492459655e-06    0.000000000e+00    0.000000000e+00    0.000000000e+00    0.000000000e+00
      526250000   -3.720485866e-01   -1.004157543e+00   -2.025160939e-05    1.316796988e-05    0.000000000e+00    0.000000000e+00    0.000000000e+00    0.000000000e+00
      533500000   -4.793772995e-01   -9.682671428e-01    1.545529813e-05    8.819624782e-07    0.000000000e+00    0.000000000e+00    0.000000000e+00    0.000000000e+00
      540750000   -5.832017660e-01   -9.180374742e-01   -3.709178418e-05    3.646686673e-05    0.000000000e+00    0.000000000e+00    0.000000000e+00    0.000000000e+00
      548000000   -6.811239123e-01   -8.580874801e-01   -3.372412175e-05    3.899354488e-05    0.000000000e+00    0.000000000e+00    0.000000000e+00    0.000000000e+00
      555250000   -7.722320557e-01   -7.852749228e-01    3.926083446e-05   -2.035498619e-05    0.000000000e+00    0.000000000e+00    0.000000000e+00    0.000000000e+00
      562500000   -8.545552492e-01   -7.023926377e-01   -2.738833427e-05   -1.302268356e-05    0.000000000e+00    0.000000000e+00    0.000000000e+00    0.000000000e+00
      569750000   -9.269033074e-01   -6.095972657e-01   -7.413327694e-06   -2.603791654e-05    0.000000000e+00    0.000000000e+00    0.000000000e+00    0.000000000e+00
      577000000   -9.878022075e-01   -5.088149905e-01    1.748092473e-05    1.379009336e-05    0.000000000e+00    0.000000000e+00    0.000000000e+00    0.000000000e+00
      584250000   -1.036526322e+00   -3.995104432e-01    3.011059016e-05    3.423448652e-05    0.000000000e+00    0.000000000e+00    0.000000000e+00    0.000000000e+00
      591500000   -1.072611690e+00   -2.852831185e-01   -4.447065294e-06   -9.054318070e-06    0.000000000e+00    0.000000000e+00    0.000000000e+00    0.000000000e+00
      598750000   -1.093746662e+00   -1.661735326e-01    1.921691000e-05    7.348135114e-06    0.000000000e+00    0.000000000e+00    0.000000000e+00    0.000000000e+00
      606000000   -1.100454807e+00   -4.835560918e-02    2.157688141e-05   -1.402106136e-05    0.000000000e+00    0.000000000e+00    0.000000000e+00    0.000000000e+00
      613250000   -1.092496634e+00    7.073209435e-02   -1.948978752e-05    1.865997910e-05    0.000000000e+00    0.000000000e+00    0.000000000e+00    0.000000000e+00
      620500000   -1.070905328e+00    1.885526925e-01    5.645677447e-06    3.966595978e-05    0.000000000e+00    0.000000000e+00    0.000000000e+00    0.000000000e+00
      627750000   -1.033117771e+00    3.022236824e-01    2.330541611e-05   -4.982575774e-07    0.000000000e+00    0.000000000e+00    0.000000000e+00    0.000000000e+00
      635000000   -9.842374921e-01    4.082318246e-01   -2.124346793e-06    1.305714250e-06    0.000000000e+00    0.000000000e+00    0.000000000e+00    0.000000000e+00
      642250000   -9.232093096e-01    5.088218451e-01   -1.219101250e-06    1.928210258e-05    0.000000000e+00    0.000000000e+00    0.000000000e+00    0.000000000e+00
      649500000   -8.519095778e-01    5.987131596e-01    9.134411812e-06   -1.526251435e-05    0.000000000e+00    0.000000000e+00    0.000000000e+00    0.000000000e+00
      656750000   -7.689335942e-01    6.799089909e-01   -1.471862197e-05    1.242570579e-05    0.000000000e+00    0.000000000e+00    0.000000000e+00    0.000000000e+00
      664000000   -6.798911691e-01    7.499852777e-01   -7.013790309e-06   -1.397449523e-05    0.000000000e+00    0.000000000e+00    0.000000000e+00    0.000000000e+00
      671250000   -5.835571885e-01    8.074705601e-01   -9.682029486e-06   -3.425404429e-06    0.000000000e+00    0.000000000e+00    0.000000000e+00    0.000000000e+00
      678500000   -4.835293591e-01    8.544227481e-01    3.542657942e-05    2.559833229e-05    0.000000000e+00    0.000000000e+00    0.000000000e+00    0.000000000e+00
      685750000   -3.782252669e-01    8.892650008e-01    1.061707735e-06    3.210734576e-05    0.000000000e+00    0.000000000e+00    0.000000000e+00    0.000000000e+00
      693000000   -2.734554410e-01    9.113582969e-01    1.961365342e-06   -5.042925477e-05    0.000000000e+00    0.000000000e+00    0.000000000e+00    0.000000000e+00
      700250000   -1.666749269e-01    9.228094220e-01    1.331511885e-05    3.208499402e-05    0.000000000e+00    0.000000000e+00    0.000000000e+00    0.000000000e+00
      707500000   -6.056199223e-02    9.214276075e-01    4.810281098e-06   -1.377146691e-05    0.000000000e+00    0.000000000e+00    0.000000000e+00    0.000000000e+00
      714750000    4.362899438e-02    9.106306434e-01    1.626089215e-05    1.265760511e-05    0.000000000e+00    0.000000000e+00    0.000000000e+00    0.000000000e+00
      722000000    1.459938884e-01    8.876062632e-01   -6.703659892e-06   -3.323424608e-05    0.000000000e+00    0.000000000e+00    0.000000000e+00    0.000000000e+00
      729250000    2.440897673e-01    8.554961681e-01   -4.237890244e-05   -3.791693598e-05    0.000000000e+00    0.000000000e+00    0.000000000e+00    0.000000000e+00
      736500000    3.362326026e-01    8.138709068e-01    4.196818918e-05   -1.098215580e-05    0.000000000e+00    0.000000000e+00    0.000000000e+00    0.000000000e+00
      743750000    4.244843721e-01    7.630674243e-01   -1.410953701e-06    1.269392669e-06    0.000000000e+00    0.000000000e+00    0.000000000e+00    0.000000000e+00
      751000000    5.059106350e-01    7.039538622e-01    1.652818173e-05   -1.242384315e-06    0.000000000e+00    0.000000000e+00    0.000000000e+00    0.000000000e+00
      758250000    5.802740455e-01    6.388038993e-01   -7.588416338e-06   -5.324557424e-05    0.000000000e+00    0.000000000e+00    0.000000000e+00    0.000000000e+00
      765500000    6.489852667e-01    5.651647449e-01   -2.602208406e-05   -1.442618668e-05    0.000000000e+00    0.000000000e+00    0.000000000e+00    0.000000000e+00
      772750000    7.102696300e-01    4.848463833e-01    4.570279270e-05    4.073604941e-06    0.000000000e+00    0.000000000e+00    0.000000000e+00    0.000000000e+00
      780000000    7.619866133e-01    4.010969996e-01   -3.745779395e-06   -2.396479249e-05    0.000000000e+00    0.000000000e+00    0.000000000e+00    0.000000000e+00
      787250000    8.064157963e-01    3.100679815e-01   -2.636853606e-05   -1.666136086e-05    0.000000000e+00    0.000000000e+00    0.000000000e+00    0.000000000e+00
      794500000    8.421208262e-01    2.152854055e-01   -9.194016457e-06   -1.302920282e-05    0.000000000e+00    0.000000000e+00    0.000000000e+00    0.000000000e+00
      801750000    8.671537042e-01    1.171191558e-01   -9.275972843e-06    2.663582563e-07    0.000000000e+00    0.000000000e+00    0.000000000e+00    0.000000000e+00
      809000000    8.831871748e-01    1.667217165e-02   -4.698429257e-05    1.673679799e-05    0.000000000e+00    0.000000000e+00    0.000000000e+00    0.000000000e+00
      816250000    8.880122304e-01   -8.668068051e-02    1.728720963e-05    9.343959391e-06    0.000000000e+00    0.000000000e+00    0.000000000e+00    0.000000000e+00
      823500000    8.819782138e-01   -1.926460862e-01   -5.429610610e-07   -1.567509025e-05    0.000000000e+00    0.000000000e+00    0.000000000e+00    0.000000000e+00
      830750000    8.660981059e-01   -2.950575054e-01    9.579584002e-06    1.325551420e-05    0.000000000e+00    0.000000000e+00    0.000000000e+00    0.000000000e+00
      838000000    8.365020752e-01   -4.009447396e-01   -3.451388329e-05    1.212581992e-06    0.000000000e+00    0.000000000e+00    0.000000000e+00    0.000000000e+00
      845250000    7.963320613e-01   -5.021299124e-01   -3.056321293e-05    1.649931073e-05    0.000000000e+00    0.000000000e+00    0.000000000e+00    0.000000000e+00
      852500000    7.431949377e-01   -5.993738174e-01    1.982692629e-05   -2.823956311e-05    0.000000000e+00    0.000000000e+00    0.000000000e+00    0.000000000e+00
      859750000    6.810017824e-01   -6.912279725e-01    2.956762910e-05    2.155080438e-06    0.000000000e+00    0.000000000e+00    0.000000000e+00    0.000000000e+00
      867000000    6.024123430e-01   -7.783164978e-01    1.418683678e-05    6.177462637e-06    0.000000000e+00    0.000000000e+00    0.000000000e+00    0.000000000e+00
      874250000    5.159872770e-01   -8.534376621e-01   -8.042901754e-06   -2.753175795e-05    0.000000000e+00    0.000000000e+00    0.000000000e+00    0.000000000e+00
      881500000    4.185319841e-01   -9.211007953e-01    2.668239176e-06    4.438683391e-06    0.000000000e+00    0.000000000e+00    0.000000000e+00    0.000000000e+00
      888750000    3.113976121e-01   -9.746902585e-01   -1.650303602e-05    9.531155229e-06    0.000000000e+00    0.000000000e+00    0.000000000e+00    0.000000000e+00
      896000000    1.966158450e-01   -1.015678763e+00    2.822093666e-05   -4.777684808e-07    0.000000000e+00    0.000000000e+00    0.000000000e+00    0.000000000e+00
      903250000    7.861548662e-02   -1.040545821e+00    4.338286817e-05   -3.833044320e-05    0.000000000e+00    0.000000000e+00    0.000000000e+00    0.000000000e+00
      910500000   -4.595399275e-02   -1.050002217e+00   -3.902334720e-05    1.432094723e-05    0.000000000e+00    0.000000000e+00    0.000000000e+00    0.000000000e+00
      917750000   -1.704497635e-01   -1.041933894e+00   -1.737661660e-05    5.545280874e-05    0.000000000e+00    0.000000000e+00    0.000000000e+00    0.000000000e+00
      925000000   -2.921423614e-01   -1.017417669e+00    3.452412784e-06   -1.986417919e-05    0.000000000e+00    0.000000000e+00    0.000000000e+00    0.000000000e+00
      932250000   -4.089936018e-01   -9.762599468e-01   -1.976918429e-05    6.490387022e-06    0.000000000e+00    0.000000000e+00    0.000000000e+00    0.000000000e+00
      939500000   -5.190328360e-01   -9.197869897e-01   -2.102926373e-06   -1.809559762e-06    0.000000000e+00    0.000000000e+00    0.000000000e+00    0.000000000e+00
      946750000   -6.193979383e-01   -8.487885594e-01   -7.902272046e-06    2.825260162e-05    0.000000000e+00    0.000000000e+00    0.000000000e+00    0.000000000e+00
      954000000   -7.076775432e-01   -7.665188313e-01    1.769512892e-06    1.835543662e-05    0.000000000e+00    0.000000000e+00    0.000000000e+00    0.000000000e+00
      961250000   -7.837050557e-01   -6.746177077e-01   -2.153124660e-05    1.483969390e-05    0.000000000e+00    0.000000000e+00    0.000000000e+00    0.000000000e+00
      968500000   -8.457238674e-01   -5.744272470e-01    2.317130566e-06    5.281530321e-05    0.000000000e+00    0.000000000e+00    0.000000000e+00    0.000000000e+00
      975750000   -8.916317821e-01   -4.707482159e-01    3.096647561e-06   -2.701766789e-06    0.000000000e+00    0.000000000e+00    0.000000000e+00    0.000000000e+00
      983000000   -9.253579378e-01   -3.615089953e-01   -2.024043351e-05    1.595169306e-05    0.000000000e+00    0.000000000e+00    0.000000000e+00    0.000000000e+00
      990250000   -9.428631067e-01   -2.522996366e-01   -1.057051122e-06   -4.396773875e-06    0.000000000e+00    0.000000000e+00    0.000000000e+00    0.000000000e+00
      997500000   -9.479950070e-01   -1.468586773e-01   -6.703659892e-06    4.655681551e-06    0.000000000e+00    0.000000000e+00    0.000000000e+00    0.000000000e+00
     1004750000   -9.401936531e-01   -4.192393646e-02    1.770164818e-05   -4.288740456e-06    0.000000000e+00    0.000000000e+00    0.000000000e+00    0.000000000e+00
     1012000000   -9.213621020e-01    5.837352574e-02    4.359520972e-06    1.888815314e-05    0.000000000e+00    0.000000000e+00    0.000000000e+00    0.000000000e+00
     1019250000   -8.917596936e-01    1.525799036e-01    1.240521669e-05   -2.643093467e-06    0.000000000e+00    0.000000000e+00    0.000000000e+00    0.000000000e+00
     1026500000   -8.541719913e-01    2.400913239e-01    2.285651863e-05    2.459250391e-05    0.000000000e+00    0.000000000e+00    0.000000000e+00    0.000000000e+00
     1033750000   -8.077076077e-01    3.235571086e-01    5.456618965e-06   -1.549720764e-05    0.000000000e+00    0.000000000e+00    0.000000000e+00    0.000000000e+00
     1041000000   -7.543975711e-01    3.981519639e-01   -7.558614016e-06    1.266039908e-05    0.000000000e+00    0.000000000e+00    0.000000000e+00    0.000000000e+00
