! NanoVNA-App
! Date: 2024-06-25 16:14:10
! Start: 200MHz Stop: 6GHz Points: 801
! S-Parameter data: F S11 S21 S12 S22
# Hz S RI R 50
!     Frequency           S11_Real           S11_Imag           S21_Real           S21_Imag           S12_Real           S12_Imag           S22_Real           S22_Imag
      200000000   -9.985882044e-01   -1.153618097e-01    1.278985292e-05   -1.545716077e-05    0.000000000e+00    0.000000000e+00    0.000000000e+00    0.000000000e+00
      207250000   -1.010117650e+00   -1.601942815e-02   -1.050904393e-05    6.468035281e-06    0.000000000e+00    0.000000000e+00    0.000000000e+00    0.000000000e+00
      214500000   -1.011183143e+00    8.480942249e-02   -7.753260434e-06    7.524155080e-06    0.000000000e+00    0.000000000e+00    0.000000000e+00    0.000000000e+00
      221750000   -1.001558542e+00    1.882941276e-01    1.786742359e-05   -3.113877028e-05    0.000000000e+00    0.000000000e+00    0.000000000e+00    0.000000000e+00
      229000000   -9.817032814e-01    2.909605801e-01    3.249756992e-05   -1.206435263e-05    0.000000000e+00    0.000000000e+00    0.000000000e+00    0.000000000e+00
      236250000   -9.500434399e-01    3.935578167e-01    2.341996878e-05   -1.337379217e-06    0.000000000e+00    0.000000000e+00    0.000000000e+00    0.000000000e+00
      243500000   -9.051486254e-01    4.940077066e-01    4.349742085e-05    4.168506712e-05    0.000000000e+00    0.000000000e+00    0.000000000e+00    0.000000000e+00
      250750000   -8.488523364e-01    5.897064805e-01   -1.011695713e-05   -6.666406989e-06    0.000000000e+00    0.000000000e+00    0.000000000e+00    0.000000000e+00
      258000000   -7.802765965e-01    6.809403300e-01    2.464279532e-06    1.929700375e-05    0.000000000e+00    0.000000000e+00    0.000000000e+00    0.000000000e+00
      265250000   -7.006890774e-01    7.649424076e-01   -2.132728696e-07    9.400770068e-06    0.000000000e+00    0.000000000e+00    0.000000000e+00    0.000000000e+00
      272500000   -6.086183190e-01    8.394796252e-01    1.440010965e-05   -1.474656165e-05    0.000000000e+00    0.000000000e+00    0.000000000e+00    0.000000000e+00
      279750000   -5.082857609e-01    9.032756686e-01   -2.093613148e-06    2.362672240e-05    0.000000000e+00    0.000000000e+00    0.000000000e+00    0.000000000e+00
      287000000   -3.973790109e-01    9.552992582e-01   -2.766028047e-06   -1.640617847e-05    0.000000000e+00    0.000000000e+00    0.000000000e+00    0.000000000e+00
      294250000   -2.802893519e-01    9.925457239e-01    8.732080460e-06   -9.648501873e-06    0.000000000e+00    0.000000000e+00    0.000000000e+00    0.000000000e+00
      301500000   -1.578038186e-01    1.015261173e+00   -1.924019307e-05    3.081094474e-05    0.000000000e+00    0.000000000e+00    0.000000000e+00    0.000000000e+00
      308750000   -3.242231533e-02    1.021668553e+00    3.385357559e-05    3.619585186e-05    0.000000000e+00    0.000000000e+00    0.000000000e+00    0.000000000e+00
      316000000    9.335697442e-02    1.013498664e+00   -4.809349775e-06   -2.388656139e-05    0.000000000e+00    0.000000000e+00    0.000000000e+00    0.000000000e+00
      323250000    2.182246745e-01    9.874711633e-01    3.806501627e-05   -1.151300967e-05    0.000000000e+00    0.000000000e+00    0.000000000e+00    0.000000000e+00
      330500000    3.385044634e-01    9.458345771e-01    6.696209311e-07   -4.038214684e-06    0.000000000e+00    0.000000000e+00    0.000000000e+00    0.000000000e+00
      337750000    4.517927468e-01    8.901296258e-01    1.893099397e-05    2.718530595e-06    0.000000000e+00    0.000000000e+00    0.000000000e+00    0.000000000e+00
      345000000    5.565439463e-01    8.196513057e-01    2.507865429e-05    2.255756408e-05    0.000000000e+00    0.000000000e+00    0.000000000e+00    0.000000000e+00
      352250000    6.513473392e-01    7.375349402e-01   -2.136547118e-05    6.234273314e-06    0.000000000e+00    0.000000000e+00    0.000000000e+00    0.000000000e+00
      359500000    7.342207432e-01    6.443048716e-01    1.912936568e-06   -1.790653914e-05    0.000000000e+00    0.000000000e+00    0.000000000e+00    0.000000000e+00
      366750000    8.045883775e-01    5.426956415e-01    4.298053682e-06    1.602526754e-05    0.000000000e+00    0.000000000e+00    0.000000000e+00    0.000000000e+00
      374000000    8.615655303e-01    4.349904954e-01    1.541338861e-06    2.325046808e-05    0.000000000e+00    0.000000000e+00    0.000000000e+00    0.000000000e+00
      381250000    9.047166705e-01    3.213312030e-01    4.670210183e-05    1.422315836e-05    0.000000000e+00    0.000000000e+00    0.000000000e+00    0.000000000e+00
      388500000    9.347354770e-01    2.063210160e-01    2.685654908e-05    8.102506399e-06    0.000000000e+00    0.000000000e+00    0.000000000e+00    0.000000000e+00
      395750000    9.504219890e-01    8.876287192e-02   -1.648720354e-05    7.276423275e-06    0.000000000e+00    0.000000000e+00    0.000000000e+00    0.000000000e+00
      403000000    9.526340365e-01   -2.851224318e-02    4.786998034e-06    7.478520274e-06    0.000000000e+00    0.000000000e+00    0.000000000e+00    0.000000000e+00
      410250000    9.421336651e-01   -1.431523561e-01   -1.195911318e-05   -1.067668200e-05    0.000000000e+00    0.000000000e+00    0.000000000e+00    0.000000000e+00
      417500000    9.189469814e-01   -2.560681105e-01   -8.252449334e-06   -6.847362965e-05    0.000000000e+00    0.000000000e+00    0.000000000e+00    0.000000000e+00
      424750000    8.853254914e-01   -3.637357652e-01   -1.097097993e-06    5.699507892e-05    0.000000000e+00    0.000000000e+00    0.000000000e+00    0.000000000e+00
      432000000    8.384877443e-01   -4.662021399e-01    2.783723176e-05    1.297891140e-05    0.000000000e+00    0.000000000e+00    0.000000000e+00    0.000000000e+00
      439250000    7.835125923e-01   -5.627182126e-01   -2.140831202e-05   -1.865997910e-05    0.000000000e+00    0.000000000e+00    0.000000000e+00    0.000000000e+00
      446500000    7.193571329e-01   -6.515294909e-01   -5.461275578e-06    1.850631088e-05    0.000000000e+00    0.000000000e+00    0.000000000e+00    0.000000000e+00
      453750000    6.448075175e-01   -7.340995073e-01   -4.420988262e-06    1.050718129e-05    0.000000000e+00    0.000000000e+00    0.000000000e+00    0.000000000e+00
      461000000    5.635405779e-01   -8.066398501e-01    1.217145473e-05   -1.181848347e-05    0.000000000e+00    0.000000000e+00    0.000000000e+00    0.000000000e+00
      468250000    4.764482379e-01   -8.712650537e-01   -1.056585461e-05   -5.204230547e-06    0.000000000e+00    0.000000000e+00    0.000000000e+00    0.000000000e+00
      475500000    3.803462684e-01   -9.261543751e-01   -2.831872553e-05    2.724211663e-05    0.000000000e+00    0.000000000e+00    0.000000000e+00    0.000000000e+00
      482750000    2.813135386e-01   -9.711635709e-01    1.915358007e-05    1.262035221e-05    0.000000000e+00    0.000000000e+00    0.000000000e+00    0.000000000e+00
      490000000    1.778268963e-01   -1.005735278e+00   -2.855435014e-06   -1.971144229e-05    0.000000000e+00    0.000000000e+00    0.000000000e+00    0.000000000e+00
      497250000    7.008581609e-02   -1.028504014e+00   -2.734456211e-05   -2.126581967e-05    0.000000000e+00    0.000000000e+00    0.000000000e+00    0.000000000e+00
      504500000   -3.975085914e-02   -1.040663719e+00   -2.505164593e-05   -2.006348222e-05    0.000000000e+00    0.000000000e+00    0.000000000e+00    0.000000000e+00
      511750000   -1.507457644e-01   -1.040530920e+00   -1.856125891e-05   -1.056492329e-05    0.000000000e+00    0.000000000e+00    0.000000000e+00    0.000000000e+00
      519000000   -2.622599006e-01   -1.028374195e+00    1.624226570e-06   -5.984678864e-06    0.000000000e+00    0.000000000e+00    0.000000000e+00    0.000000000e+00
      526250000   -3.723935783e-01   -1.004168034e+00   -1.984927803e-05    4.383735359e-06    0.000000000e+00    0.000000000e+00    0.000000000e+00    0.000000000e+00
      533500000   -4.798019528e-01   -9.679565430e-01   -4.453212023e-05   -3.252178431e-05    0.000000000e+00    0.000000000e+00    0.000000000e+00    0.000000000e+00
      540750000   -5.832967162e-01   -9.190626740e-01    1.650210470e-05    1.283828169e-05    0.000000000e+00    0.000000000e+00    0.000000000e+00    0.000000000e+00
      548000000   -6.812320352e-01   -8.585468531e-01   -1.486204565e-05    3.032386303e-06    0.000000000e+00    0.000000000e+00    0.000000000e+00    0.000000000e+00
      555250000   -7.726519704e-01   -7.854303718e-01    2.810731530e-06   -1.942738891e-06    0.000000000e+00    0.000000000e+00    0.000000000e+00    0.000000000e+00
      562500000   -8.540951014e-01   -7.020522952e-01    8.108094335e-06    1.126434654e-05    0.000000000e+00    0.000000000e+00    0.000000000e+00    0.000000000e+00
      569750000   -9.270082712e-01   -6.091372371e-01    3.064796329e-05    1.215375960e-06    0.000000000e+00    0.000000000e+00    0.000000000e+00    0.000000000e+00
      577000000   -9.876463413e-01   -5.085677505e-01   -2.607796341e-05    1.886114478e-05    0.000000000e+00    0.000000000e+00    0.000000000e+00    0.000000000e+00
      584250000   -1.037254214e+00   -3.998657167e-01    3.479421139e-06    7.773749530e-06    0.000000000e+00    0.000000000e+00    0.000000000e+00    0.000000000e+00
      591500000   -1.072566986e+00   -2.859059274e-01    1.463107765e-05    1.371465623e-05    0.000000000e+00    0.000000000e+00    0.000000000e+00    0.000000000e+00
      598750000   -1.093372822e+00   -1.670584381e-01    1.144967973e-05   -4.662107676e-05    0.000000000e+00    0.000000000e+00    0.000000000e+00    0.000000000e+00
      606000000   -1.100703239e+00   -4.776031896e-02   -1.743994653e-05    1.713261008e-05    0.000000000e+00    0.000000000e+00    0.000000000e+00    0.000000000e+00
      613250000   -1.092531323e+00    7.132326066e-02   -4.472211003e-06   -3.601703793e-05    0.000000000e+00    0.000000000e+00    0.000000000e+00    0.000000000e+00
      620500000   -1.070278049e+00    1.890802830e-01    3.078021109e-05   -2.358946949e-05    0.000000000e+00    0.000000000e+00    0.000000000e+00    0.000000000e+00
      627750000   -1.033380628e+00    3.021808863e-01    2.792291343e-05   -2.541486174e-05    0.000000000e+00    0.000000000e+00    0.000000000e+00    0.000000000e+00
      635000000   -9.857413173e-01    4.080919623e-01   -9.713694453e-06    1.700688154e-05    0.000000000e+00    0.000000000e+00    0.000000000e+00    0.000000000e+00
      642250000   -9.228208065e-01    5.092447996e-01   -1.251325011e-05   -4.227273166e-06    0.000000000e+00    0.000000000e+00    0.000000000e+00    0.000000000e+00
      649500000   -8.511857986e-01    5.992808938e-01    3.972277045e-05    3.532972187e-05    0.000000000e+00    0.000000000e+00    0.000000000e+00    0.000000000e+00
      656750000   -7.688571811e-01    6.799271703e-01    3.098882735e-05   -2.881884575e-05    0.000000000e+00    0.000000000e+00    0.000000000e+00    0.000000000e+00
      664000000   -6.792902350e-01    7.501196861e-01    2.968683839e-05   -1.828745008e-05    0.000000000e+00    0.000000000e+00    0.000000000e+00    0.000000000e+00
      671250000   -5.843557715e-01    8.085049987e-01    7.319264114e-06    2.139247954e-05    0.000000000e+00    0.000000000e+00    0.000000000e+00    0.000000000e+00
      678500000   -4.831120968e-01    8.549085259e-01   -2.227723598e-05    1.700967550e-05    0.000000000e+00    0.000000000e+00    0.000000000e+00    0.000000000e+00
      685750000   -3.793263733e-01    8.892682195e-01   -3.093015403e-05    3.173947334e-06    0.000000000e+00    0.000000000e+00    0.000000000e+00    0.000000000e+00
      693000000   -2.725649178e-01    9.117370248e-01   -8.488073945e-06    1.644622535e-05    0.000000000e+00    0.000000000e+00    0.000000000e+00    0.000000000e+00
      700250000   -1.669736356e-01    9.225172997e-01   -2.658925951e-06   -8.230935782e-05    0.000000000e+00    0.000000000e+00    0.000000000e+00    0.000000000e+00
      707500000   -5.956511572e-02    9.215226769e-01   -7.752329111e-06    2.073124051e-05    0.000000000e+00    0.000000000e+00    0.000000000e+00    0.000000000e+00
      714750000    4.394919053e-02    9.100456834e-01    3.737770021e-05    2.561975271e-05    0.000000000e+00    0.000000000e+00    0.000000000e+00    0.000000000e+00
      722000000    1.447389573e-01    8.882065415e-01   -1.929420978e-05   -5.452800542e-05    0.000000000e+00    0.000000000e+00    0.000000000e+00    0.000000000e+00
      729250000    2.439931482e-01    8.551676273e-01    2.296362072e-05    8.273869753e-06    0.000000000e+00    0.000000000e+00    0.000000000e+00    0.000000000e+00
      736500000    3.361563981e-01    8.139125705e-01   -2.209376544e-05   -5.252659321e-06    0.000000000e+00    0.000000000e+00    0.000000000e+00    0.000000000e+00
      743750000    4.237918258e-01    7.630010843e-01    2.267770469e-06   -3.105960786e-06    0.000000000e+00    0.000000000e+00    0.000000000e+00    0.000000000e+00
      751000000    5.057757497e-01    7.041397095e-01   -7.217749953e-07    1.266598701e-05    0.000000000e+00    0.000000000e+00    0.000000000e+00    0.000000000e+00
      758250000    5.808231831e-01    6.376547813e-01    5.118548870e-06   -8.894130588e-07    0.000000000e+00    0.000000000e+00    0.000000000e+00    0.000000000e+00
      765500000    6.487035751e-01    5.655134320e-01    2.061296254e-05   -6.826594472e-06    0.000000000e+00    0.000000000e+00    0.000000000e+00    0.000000000e+00
      772750000    7.098568082e-01    4.854941666e-01   -2.420600504e-05   -2.628006041e-05    0.000000000e+00    0.000000000e+00    0.000000000e+00    0.000000000e+00
      780000000    7.614783049e-01    4.012644291e-01    6.902031600e-06    1.108366996e-05    0.000000000e+00    0.000000000e+00    0.000000000e+00    0.000000000e+00
      787250000    8.065412641e-01    3.107360303e-01   -1.368205994e-05    2.161692828e-05    0.000000000e+00    0.000000000e+00    0.000000000e+00    0.000000000e+00
      794500000    8.412719965e-01    2.162674665e-01    1.668184996e-05    2.562068403e-06    0.000000000e+00    0.000000000e+00    0.000000000e+00    0.000000000e+00
      801750000    8.676597476e-01    1.181044504e-01   -6.735324860e-06    1.647882164e-05    0.000000000e+00    0.000000000e+00    0.000000000e+00    0.000000000e+00
      809000000    8.830850124e-01    1.643439569e-02   -1.690350473e-06   -6.009824574e-06    0.000000000e+00    0.000000000e+00    0.000000000e+00    0.000000000e+00
      816250000    8.878973126e-01   -8.747266233e-02   -2.984330058e-05    1.748558134e-05    0.000000000e+00    0.000000000e+00    0.000000000e+00    0.000000000e+00
      823500000    8.821495175e-01   -1.918758154e-01    5.145277828e-05    5.807355046e-05    0.000000000e+00    0.000000000e+00    0.000000000e+00    0.000000000e+00
      830750000    8.648639917e-01   -2.975197732e-01   -1.002568752e-05   -2.653338015e-06    0.000000000e+00    0.000000000e+00    0.000000000e+00    0.000000000e+00
      838000000    8.368054032e-01   -3.999791145e-01    5.565583706e-06    3.649573773e-05    0.000000000e+00    0.000000000e+00    0.000000000e+00    0.000000000e+00
      845250000    7.965633273e-01   -5.017541051e-01    9.404495358e-06    5.401112139e-05    0.000000000e+00    0.000000000e+00    0.000000000e+00    0.000000000e+00
      852500000    7.434887886e-01   -5.996652842e-01    1.279544085e-05   -2.282205969e-05    0.000000000e+00    0.000000000e+00    0.000000000e+00    0.000000000e+00
      859750000    6.797022223e-01   -6.911453009e-01   -9.996816516e-06    3.754626960e-05    0.000000000e+00    0.000000000e+00    0.000000000e+00    0.000000000e+00
      867000000    6.025584340e-01   -7.776381373e-01   -6.446149200e-05    1.771748066e-05    0.000000000e+00    0.000000000e+00    0.000000000e+00    0.000000000e+00
      874250000    5.167770386e-01   -8.541921377e-01   -1.313444227e-05    2.994388342e-05    0.000000000e+00    0.000000000e+00    0.000000000e+00    0.000000000e+00
      881500000    4.183615148e-01   -9.211171269e-01    2.977903932e-05   -5.279667675e-06    0.000000000e+00    0.000000000e+00    0.000000000e+00    0.000000000e+00
      888750000    3.115404546e-01   -9.748595953e-01   -1.217238605e-06    2.206582576e-05    0.000000000e+00    0.000000000e+00    0.000000000e+00    0.000000000e+00
      896000000    1.984112710e-01   -1.015324593e+00   -2.122484148e-06    1.276005059e-05    0.000000000e+00    0.000000000e+00    0.000000000e+00    0.000000000e+00
      903250000    7.800193131e-02   -1.040333271e+00    5.910173059e-06    2.363603562e-05    0.000000000e+00    0.000000000e+00    0.000000000e+00    0.000000000e+00
      910500000   -4.750737920e-02   -1.049928784e+00    1.799687743e-05    2.006813884e-05    0.000000000e+00    0.000000000e+00    0.000000000e+00    0.000000000e+00
      917750000   -1.696739197e-01   -1.042117834e+00   -6.786547601e-06    2.188235521e-05    0.000000000e+00    0.000000000e+00    0.000000000e+00    0.000000000e+00
      925000000   -2.909700572e-01   -1.017471552e+00    2.121552825e-05   -1.218263060e-05    0.000000000e+00    0.000000000e+00    0.000000000e+00    0.000000000e+00
      932250000   -4.093203247e-01   -9.759643078e-01    5.706213415e-06   -4.205573350e-05    0.000000000e+00    0.000000000e+00    0.000000000e+00    0.000000000e+00
      939500000   -5.191534758e-01   -9.196557403e-01    5.946494639e-06   -2.130120993e-05    0.000000000e+00    0.000000000e+00    0.000000000e+00    0.000000000e+00
      946750000   -6.191989183e-01   -8.488293886e-01   -1.100357622e-05   -2.680718899e-05    0.000000000e+00    0.000000000e+00    0.000000000e+00    0.000000000e+00
      954000000   -7.077421546e-01   -7.651993036e-01    7.583759725e-06   -2.972595394e-05    0.000000000e+00    0.000000000e+00    0.000000000e+00    0.000000000e+00
      961250000   -7.830678821e-01   -6.749588251e-01    6.298534572e-06   -1.542922109e-05    0.000000000e+00    0.000000000e+00    0.000000000e+00    0.000000000e+00
      968500000   -8.448606133e-01   -5.744765997e-01    1.402758062e-05   -3.779865801e-05    0.000000000e+00    0.000000000e+00    0.000000000e+00    0.000000000e+00
      975750000   -8.918616772e-01   -4.710068703e-01    4.324130714e-05   -1.256819814e-05    0.000000000e+00    0.000000000e+00    0.000000000e+00    0.000000000e+00
      983000000   -9.256010652e-01   -3.601633906e-01   -2.812594175e-06   -1.030415297e-05    0.000000000e+00    0.000000000e+00    0.000000000e+00    0.000000000e+00
      990250000   -9.433705807e-01   -2.533337474e-01    1.964345574e-05    5.035661161e-06    0.000000000e+00    0.000000000e+00    0.000000000e+00    0.000000000e+00
      997500000   -9.487386346e-01   -1.457126141e-01    2.202857286e-05   -2.511497587e-05    0.000000000e+00    0.000000000e+00    0.000000000e+00    0.000000000e+00
     1004750000   -9.402129054e-01   -4.297180846e-02    3.606639802e-05    2.742744982e-06    0.000000000e+00    0.000000000e+00    0.000000000e+00    0.000000000e+00
     1012000000   -9.216943979e-01    5.811999738e-02   -5.598179996e-06   -4.533492029e-05    0.000000000e+00    0.000000000e+00    0.000000000e+00    0.000000000e+00
     1019250000   -8.921852708e-01    1.525289118e-01    1.289881766e-06   -3.467127681e-05    0.000000000e+00    0.000000000e+00    0.000000000e+00    0.000000000e+00
     1026500000   -8.536909819e-01    2.410063893e-01   -2.274848521e-05    3.173947334e-06    0.000000000e+00    0.000000000e+00    0.000000000e+00    0.000000000e+00
     1033750000   -8.073611259e-01    3.247107863e-01    7.499940693e-06    1.702271402e-05    0.000000000e+00    0.000000000e+00    0.000000000e+00    0.000000000e+00
     1041000000   -7.549868226e-01    3.974010944e-01    3.162771463e-06   -2.897437662e-05    0.000000000e+00    0.000000000e+00    0.000000000e+00    0.000000000e+00
