! NanoVNA-App
! Date: 2024-06-25 16:14:13
! Start: 200MHz Stop: 6GHz Points: 801
! S-Parameter data: F S11 S21 S12 S22
# Hz S RI R 50
!     Frequency           S11_Real           S11_Imag           S21_Real           S21_Imag           S12_Real           S12_Imag           S22_Real           S22_Imag
      200000000   -9.985104799e-01   -1.149452180e-01    1.231860369e-05   -2.839230001e-05    0.000000000e+00    0.000000000e+00    0.000000000e+00    0.000000000e+00
      207250000   -1.009832144e+00   -1.612047479e-02   -1.305062324e-05   -9.434297681e-06    0.000000000e+00    0.000000000e+00    0.000000000e+00    0.000000000e+00
      214500000   -1.010814190e+00    8.514256030e-02   -2.298410982e-05    3.630947322e-05    0.000000000e+00    0.000000000e+00    0.000000000e+00    0.000000000e+00
      221750000   -1.001546741e+00    1.880133152e-01    9.359791875e-07   -8.009374142e-06    0.000000000e+00    0.000000000e+00    0.000000000e+00    0.000000000e+00
      229000000   -9.815298319e-01    2.908287644e-01   -3.249943256e-05   -2.492684871e-05    0.000000000e+00    0.000000000e+00    0.000000000e+00    0.000000000e+00
      236250000   -9.486243725e-01    3.936588168e-01   -1.856219023e-05    5.413778126e-06    0.000000000e+00    0.000000000e+00    0.000000000e+00    0.000000000e+00
      243500000   -9.055746198e-01    4.934306443e-01    5.554407835e-06    5.961395800e-06    0.000000000e+00    0.000000000e+00    0.000000000e+00    0.000000000e+00
      250750000   -8.490871787e-01    5.898090005e-01   -2.954900265e-05   -3.719236702e-05    0.000000000e+00    0.000000000e+00    0.000000000e+00    0.000000000e+00
      258000000   -7.800900340e-01    6.809336543e-01    2.335757017e-05   -2.397224307e-05    0.000000000e+00    0.000000000e+00    0.000000000e+00    0.000000000e+00
      265250000   -7.005052567e-01    7.642670870e-01   -5.017966032e-06   -3.215856850e-05    0.000000000e+00    0.000000000e+00    0.000000000e+00    0.000000000e+00
      272500000   -6.088789701e-01    8.392747045e-01    1.455750316e-05    2.467632294e-05    0.000000000e+00    0.000000000e+00    0.000000000e+00    0.000000000e+00
      279750000   -5.079170465e-01    9.035158753e-01    2.035498619e-05    5.728565156e-06    0.000000000e+00    0.000000000e+00    0.000000000e+00    0.000000000e+00
      287000000   -3.978006840e-01    9.550940394e-01    1.894496381e-05   -2.347212285e-05    0.000000000e+00    0.000000000e+00    0.000000000e+00    0.000000000e+00
      294250000   -2.801221311e-01    9.927801490e-01   -1.280661672e-05   -2.547167242e-06    0.000000000e+00    0.000000000e+00    0.000000000e+00    0.000000000e+00
      301500000   -1.582242996e-01    1.016174436e+00   -2.500507981e-05    3.494229168e-05    0.000000000e+00    0.000000000e+00    0.000000000e+00    0.000000000e+00
      308750000   -3.179636598e-02    1.021956205e+00   -4.040822387e-05    5.364418030e-06    0.000000000e+00    0.000000000e+00    0.000000000e+00    0.000000000e+00
      316000000    9.395883232e-02    1.012747526e+00    2.932734787e-06   -1.475121826e-05    0.000000000e+00    0.000000000e+00    0.000000000e+00    0.000000000e+00
      323250000    2.180082500e-01    9.875692725e-01    1.900177449e-05    4.285946488e-06    0.000000000e+00    0.000000000e+00    0.000000000e+00    0.000000000e+00
      330500000    3.383808136e-01    9.463225603e-01    2.194661647e-05    3.626663238e-05    0.000000000e+00    0.000000000e+00    0.000000000e+00    0.000000000e+00
      337750000    4.512317479e-01    8.902596235e-01    2.200808376e-05    1.620315015e-05    0.000000000e+00    0.000000000e+00    0.000000000e+00    0.000000000e+00
      345000000    5.561707616e-01    8.192452192e-01    1.153443009e-05   -5.104485899e-05    0.000000000e+00    0.000000000e+00    0.000000000e+00    0.000000000e+00
      352250000    6.514157653e-01    7.376730442e-01    6.120651960e-06    1.659337431e-05    0.000000000e+00    0.000000000e+00    0.000000000e+00    0.000000000e+00
      359500000    7.348702550e-01    6.437294483e-01    2.691522241e-07   -2.909172326e-05    0.000000000e+00    0.000000000e+00    0.000000000e+00    0.000000000e+00
      366750000    8.046377897e-01    5.431389809e-01   -2.420973033e-05    3.391504288e-05    0.000000000e+00    0.000000000e+00    0.000000000e+00    0.000000000e+00
      374000000    8.620322347e-01    4.348521233e-01   -3.589224070e-05   -1.749023795e-05    0.000000000e+00    0.000000000e+00    0.000000000e+00    0.000000000e+00
      381250000    9.056025743e-01    3.215987086e-01    8.059665561e-06    7.022172213e-07    0.000000000e+00    0.000000000e+00    0.000000000e+00    0.000000000e+00
      388500000    9.347397089e-01    2.063363194e-01    2.185069025e-05   -2.803374082e-05    0.000000000e+00    0.000000000e+00    0.000000000e+00    0.000000000e+00
      395750000    9.503061175e-01    8.853321522e-02   -1.296121627e-05   -1.778546721e-05    0.000000000e+00    0.000000000e+00    0.000000000e+00    0.000000000e+00
      403000000    9.527547956e-01   -2.805585228e-02   -2.402625978e-05   -6.900168955e-06    0.000000000e+00    0.000000000e+00    0.000000000e+00    0.000000000e+00
      410250000    9.422932267e-01   -1.436040998e-01   -1.439359039e-05    4.931259900e-05    0.000000000e+00    0.000000000e+00    0.000000000e+00    0.000000000e+00
      417500000    9.197061658e-01   -2.553510666e-01    4.748813808e-06    1.447461545e-05    0.000000000e+00    0.000000000e+00    0.000000000e+00    0.000000000e+00
      424750000    8.845136166e-01   -3.634036481e-01    9.602867067e-06    5.024392158e-05    0.000000000e+00    0.000000000e+00    0.000000000e+00    0.000000000e+00
      432000000    8.393425345e-01   -4.661686420e-01   -1.301802695e-05   -1.352280378e-05    0.000000000e+00    0.000000000e+00    0.000000000e+00    0.000000000e+00
      439250000    7.835564017e-01   -5.629974008e-01    3.380142152e-05    1.386459917e-05    0.000000000e+00    0.000000000e+00    0.000000000e+00    0.000000000e+00
      446500000    7.191561460e-01   -6.515661478e-01   -3.200862557e-05   -2.278015018e-06    0.000000000e+00    0.000000000e+00    0.000000000e+00    0.000000000e+00
      453750000    6.450538039e-01   -7.338744998e-01    7.184222341e-06    2.987403423e-05    0.000000000e+00    0.000000000e+00    0.000000000e+00    0.000000000e+00
      461000000    5.636804104e-01   -8.068126440e-01    7.587485015e-06    2.298317850e-05    0.000000000e+00    0.000000000e+00    0.000000000e+00    0.000000000e+00
      468250000    4.766321182e-01   -8.714076877e-01    6.387196481e-05    2.527888864e-05    0.000000000e+00    0.000000000e+00    0.000000000e+00    0.000000000e+00
      475500000    3.814294040e-01   -9.270530343e-01   -2.108514309e-06    7.145106792e-06    0.000000000e+00    0.000000000e+00    0.000000000e+00    0.000000000e+00
      482750000    2.815918624e-01   -9.711894393e-01   -6.398186088e-06   -2.042762935e-05    0.000000000e+00    0.000000000e+00    0.000000000e+00    0.000000000e+00
      490000000    1.778136194e-01   -1.005389690e+00   -2.515222877e-05    4.198309034e-05    0.000000000e+00    0.000000000e+00    0.000000000e+00    0.000000000e+00
      497250000    7.051386684e-02   -1.029895782e+00    4.693865776e-06    6.800517440e-06    0.000000000e+00    0.000000000e+00    0.000000000e+00    0.000000000e+00
      504500000   -3.981599957e-02   -1.040763617e+00    9.666197002e-06    6.461516023e-06    0.000000000e+00    0.000000000e+00    0.000000000e+00    0.000000000e+00
      511750000   -1.514153183e-01   -1.040739417e+00    3.612507135e-05   -2.452917397e-05    0.000000000e+00    0.000000000e+00    0.000000000e+00    0.000000000e+00
      519000000   -2.619521320e-01   -1.029282093e+00    5.384907126e-06    8.665025234e-06    0.000000000e+00    0.000000000e+00    0.000000000e+00    0.000000000e+00
      526250000   -3.725467026e-01   -1.004066229e+00    3.133900464e-06    8.915551007e-06    0.000000000e+00    0.000000000e+00    0.000000000e+00    0.000000000e+00
      533500000   -4.796895385e-01   -9.680152535e-01   -1.645460725e-05    1.079309732e-05    0.000000000e+00    0.000000000e+00    0.000000000e+00    0.000000000e+00
      540750000   -5.831887126e-01   -9.188005924e-01    2.689007670e-05    2.649612725e-06    0.000000000e+00    0.000000000e+00    0.000000000e+00    0.000000000e+00
      548000000   -6.815938950e-01   -8.585307002e-01    3.230385482e-05   -3.157183528e-06    0.000000000e+00    0.000000000e+00    0.000000000e+00    0.000000000e+00
      555250000   -7.718305588e-01   -7.852524519e-01   -7.487833500e-06    3.155227751e-05    0.000000000e+00    0.000000000e+00    0.000000000e+00    0.000000000e+00
      562500000   -8.547369838e-01   -7.014989257e-01    1.657754183e-05   -4.128739238e-05    0.000000000e+00    0.000000000e+00    0.000000000e+00    0.000000000e+00
      569750000   -9.267629385e-01   -6.092722416e-01   -9.797513485e-07   -1.097563654e-05    0.000000000e+00    0.000000000e+00    0.000000000e+00    0.000000000e+00
      577000000   -9.880009890e-01   -5.087987185e-01   -2.188608050e-07   -2.439133823e-06    0.000000000e+00    0.000000000e+00    0.000000000e+00    0.000000000e+00
      584250000   -1.036489010e+00   -3.998372257e-01   -5.095452070e-05   -7.406808436e-06    0.000000000e+00    0.000000000e+00    0.000000000e+00    0.000000000e+00
      591500000   -1.071857572e+00   -2.854409218e-01    3.425404429e-05   -2.342462540e-05    0.000000000e+00    0.000000000e+00    0.000000000e+00    0.000000000e+00
      598750000   -1.093952179e+00   -1.669179797e-01    4.398636520e-06    3.216974437e-05    0.000000000e+00    0.000000000e+00    0.000000000e+00    0.000000000e+00
      606000000   -1.100395322e+00   -4.827334359e-02    1.864694059e-05    4.106201231e-05    0.000000000e+00    0.000000000e+00    0.000000000e+00    0.000000000e+00
      613250000   -1.092747808e+00    7.214470208e-02    4.367437214e-05    2.978183329e-05    0.000000000e+00    0.000000000e+00    0.000000000e+00    0.000000000e+00
      620500000   -1.070297718e+00    1.879033297e-01   -7.368624210e-06    4.075840116e-05    0.000000000e+00    0.000000000e+00    0.000000000e+00    0.000000000e+00
      627750000   -1.034132004e+00    3.027569354e-01   -1.462362707e-05   -8.733011782e-06    0.000000000e+00    0.000000000e+00    0.000000000e+00    0.000000000e+00
      635000000   -9.842988849e-01    4.083410203e-01   -2.184789628e-05    9.154900908e-07    0.000000000e+00    0.000000000e+00    0.000000000e+00    0.000000000e+00
      642250000   -9.236859083e-01    5.080994964e-01   -5.371868610e-06    7.329508662e-06    0.000000000e+00    0.000000000e+00    0.000000000e+00    0.000000000e+00
      649500000   -8.513216376e-01    5.987358093e-01   -9.673647583e-06   -1.999363303e-05    0.000000000e+00    0.000000000e+00    0.000000000e+00    0.000000000e+00
      656750000   -7.698100805e-01    6.794847846e-01    1.254212111e-05   -6.891787052e-06    0.000000000e+00    0.000000000e+00    0.000000000e+00    0.000000000e+00
      664000000   -6.801214218e-01    7.496144772e-01   -3.227125853e-05    3.408920020e-05    0.000000000e+00    0.000000000e+00    0.000000000e+00    0.000000000e+00
      671250000   -5.841188431e-01    8.079610467e-01    2.239923924e-05    1.168809831e-06    0.000000000e+00    0.000000000e+00    0.000000000e+00    0.000000000e+00
      678500000   -4.823839068e-01    8.547639251e-01   -3.512669355e-05   -1.841597259e-05    0.000000000e+00    0.000000000e+00    0.000000000e+00    0.000000000e+00
      685750000   -3.789411783e-01    8.892626166e-01   -1.552142203e-05   -2.716481686e-05    0.000000000e+00    0.000000000e+00    0.000000000e+00    0.000000000e+00
      693000000   -2.723952234e-01    9.122775197e-01    9.398907423e-06    5.953013897e-06    0.000000000e+00    0.000000000e+00    0.000000000e+00    0.000000000e+00
      700250000   -1.666556299e-01    9.227914810e-01   -2.739392221e-05    1.432187855e-05    0.000000000e+00    0.000000000e+00    0.000000000e+00    0.000000000e+00
      707500000   -5.940901116e-02    9.213831425e-01   -1.296307892e-05   -6.613321602e-06    0.000000000e+00    0.000000000e+00    0.000000000e+00    0.000000000e+00
      714750000    4.468915984e-02    9.101394415e-01   -3.562029451e-05   -1.419056207e-05    0.000000000e+00    0.000000000e+00    0.000000000e+00    0.000000000e+00
      722000000    1.444377601e-01    8.878602386e-01    1.164060086e-05    1.618638635e-06    0.000000000e+00    0.000000000e+00    0.000000000e+00    0.000000000e+00
      729250000    2.439798266e-01    8.553894162e-01    3.165844828e-05   -1.121219248e-05    0.000000000e+00    0.000000000e+00    0.000000000e+00    0.000000000e+00
      736500000    3.361267745e-01    8.137950897e-01   -1.333933324e-05   -1.885648817e-05    0.000000000e+00    0.000000000e+00    0.000000000e+00    0.000000000e+00
      743750000    4.235197008e-01    7.638759613e-01    7.871538401e-06    3.142189234e-05    0.000000000e+00    0.000000000e+00    0.000000000e+00    0.000000000e+00
      751000000    5.059677362e-01    7.049700618e-01    3.907922655e-05   -2.920813859e-05    0.000000000e+00    0.000000000e+00    0.000000000e+00    0.000000000e+00
      758250000    5.805262327e-01    6.385369301e-01    2.551171929e-05    2.361834049e-06    0.000000000e+00    0.000000000e+00    0.000000000e+00    0.000000000e+00
      765500000    6.487302780e-01    5.663241148e-01    1.876335591e-05    2.019479871e-05    0.000000000e+00    0.000000000e+00    0.000000000e+00    0.000000000e+00
      772750000    7.098720074e-01    4.855369329e-01    1.531466842e-05    2.508703619e-05    0.000000000e+00    0.000000000e+00    0.000000000e+00    0.000000000e+00
      780000000    7.615248561e-01    4.017468989e-01   -2.360343933e-05   -6.624497473e-06    0.000000000e+00    0.000000000e+00    0.000000000e+00    0.000000000e+00
      787250000    8.062199354e-01    3.111249506e-01    1.123081893e-05    6.286427379e-06    0.000000000e+00    0.000000000e+00    0.000000000e+00    0.000000000e+00
      794500000    8.415513635e-01    2.159860581e-01   -1.607462764e-06   -5.164183676e-06    0.000000000e+00    0.000000000e+00    0.000000000e+00    0.000000000e+00
      801750000    8.669655919e-01    1.176603585e-01    5.665235221e-06   -1.383014023e-06    0.000000000e+00    0.000000000e+00    0.000000000e+00    0.000000000e+00
      809000000    8.831017017e-01    1.561263949e-02   -6.435438991e-07    2.834945917e-05    0.000000000e+00    0.000000000e+00    0.000000000e+00    0.000000000e+00
      816250000    8.879351020e-01   -8.758158237e-02   -1.176726073e-05    5.809590220e-06    0.000000000e+00    0.000000000e+00    0.000000000e+00    0.000000000e+00
      823500000    8.824231029e-01   -1.918089837e-01    2.373289317e-05   -1.544039696e-05    0.000000000e+00    0.000000000e+00    0.000000000e+00    0.000000000e+00
      830750000    8.649759293e-01   -2.970847487e-01    8.141621947e-06   -2.351868898e-05    0.000000000e+00    0.000000000e+00    0.000000000e+00    0.000000000e+00
      838000000    8.367391825e-01   -4.004876912e-01    7.122755051e-06   -7.404945791e-06    0.000000000e+00    0.000000000e+00    0.000000000e+00    0.000000000e+00
      845250000    7.960742712e-01   -5.011299253e-01    5.614105612e-05   -2.429820597e-05    0.000000000e+00    0.000000000e+00    0.000000000e+00    0.000000000e+00
      852500000    7.436826229e-01   -5.992946625e-01    1.851934940e-05   -7.181428373e-06    0.000000000e+00    0.000000000e+00    0.000000000e+00    0.000000000e+00
      859750000    6.800780296e-01   -6.910676956e-01   -3.203749657e-07    2.640299499e-05    0.000000000e+00    0.000000000e+00    0.000000000e+00    0.000000000e+00
      867000000    6.026145816e-01   -7.775733471e-01    1.212209463e-05   -1.931190491e-05    0.000000000e+00    0.000000000e+00    0.000000000e+00    0.000000000e+00
      874250000    5.159640312e-01   -8.538703322e-01   -2.110656351e-05    2.980325371e-05    0.000000000e+00    0.000000000e+00    0.000000000e+00    0.000000000e+00
      881500000    4.172641933e-01   -9.214279056e-01    1.540035009e-05   -1.478567719e-05    0.000000000e+00    0.000000000e+00    0.000000000e+00    0.000000000e+00
      888750000    3.118543327e-01   -9.742283225e-01    4.303641617e-06    4.859641194e-06    0.000000000e+00    0.000000000e+00    0.000000000e+00    0.000000000e+00
      896000000    1.983742714e-01   -1.015291691e+00   -5.627050996e-06    7.471069694e-06    0.000000000e+00    0.000000000e+00    0.000000000e+00    0.000000000e+00
      903250000    7.895784825e-02   -1.040241957e+00    2.507120371e-06   -2.224929631e-06    0.000000000e+00    0.000000000e+00    0.000000000e+00    0.000000000e+00
      910500000   -4.708857834e-02   -1.049208283e+00   -4.685483873e-06   -3.041885793e-05    0.000000000e+00    0.000000000e+00    0.000000000e+00    0.000000000e+00
      917750000   -1.707702130e-01   -1.042068481e+00    1.757498831e-05    3.447756171e-06    0.000000000e+00    0.000000000e+00    0.000000000e+00    0.000000000e+00
      925000000   -2.908053696e-01   -1.017261028e+00   -1.108739525e-05   -3.653671592e-05    0.000000000e+00    0.000000000e+00    0.000000000e+00    0.000000000e+00
      932250000   -4.109979868e-01   -9.751048684e-01    2.492591739e-05    8.902512491e-06    0.000000000e+00    0.000000000e+00    0.000000000e+00    0.000000000e+00
      939500000   -5.188894272e-01   -9.194518924e-01   -1.514796168e-05    1.311395317e-05    0.000000000e+00    0.000000000e+00    0.000000000e+00    0.000000000e+00
      946750000   -6.207215786e-01   -8.475165963e-01    3.134552389e-05    1.605041325e-05    0.000000000e+00    0.000000000e+00    0.000000000e+00    0.000000000e+00
      954000000   -7.076097727e-01   -7.675022483e-01   -2.323556691e-05   -9.549781680e-06    0.000000000e+00    0.000000000e+00    0.000000000e+00    0.000000000e+00
      961250000   -7.829685807e-01   -6.746162772e-01    2.854503691e-05    1.330021769e-05    0.000000000e+00    0.000000000e+00    0.000000000e+00    0.000000000e+00
      968500000   -8.457734585e-01   -5.731739402e-01    2.635736018e-05    5.798414350e-06    0.000000000e+00    0.000000000e+00    0.000000000e+00    0.000000000e+00
      975750000   -8.923376203e-01   -4.684565067e-01    2.463068813e-05   -1.830141991e-05    0.000000000e+00    0.000000000e+00    0.000000000e+00    0.000000000e+00
      983000000   -9.245949388e-01   -3.619028628e-01    4.791654646e-06   -3.153365105e-05    0.000000000e+00    0.000000000e+00    0.000000000e+00    0.000000000e+00
      990250000   -9.430297017e-01   -2.527551353e-01    7.061287761e-06   -1.300312579e-05    0.000000000e+00    0.000000000e+00    0.000000000e+00    0.000000000e+00
      997500000   -9.481579661e-01   -1.460125893e-01   -3.541633487e-05    4.699733108e-05    0.000000000e+00    0.000000000e+00    0.000000000e+00    0.000000000e+00
     1004750000   -9.405481219e-01   -4.161722213e-02   -4.416145384e-05    6.839632988e-06    0.000000000e+00    0.000000000e+00    0.000000000e+00    0.000000000e+00
     1012000000   -9.216119647e-01    5.772396550e-02   -3.001559526e-05   -3.157649189e-05    0.000000000e+00    0.000000000e+00    0.000000000e+00    0.000000000e+00
     1019250000   -8.925524354e-01    1.518369615e-01    1.961272210e-05   -6.080605090e-06    0.000000000e+00    0.000000000e+00    0.000000000e+00    0.000000000e+00
     1026500000   -8.539572954e-01    2.398016155e-01   -1.739244908e-05   -1.300685108e-05    0.000000000e+00    0.000000000e+00    0.000000000e+00    0.000000000e+00
     1033750000   -8.070094585e-01    3.235244155e-01    5.065463483e-06   -2.921558917e-05    0.000000000e+00    0.000000000e+00    0.000000000e+00    0.000000000e+00
     1041000000   -7.549381852e-01    3.974877894e-01   -1.072697341e-05    3.907084465e-05    0.000000000e+00    0.000000000e+00    0.000000000e+00    0.000000000e+00
