! NanoVNA-App
! Date: 2024-06-25 16:14:18
! Start: 200MHz Stop: 6GHz Points: 801
! S-Parameter data: F S11 S21 S12 S22
# Hz S RI R 50
!     Frequency           S11_Real           S11_Imag           S21_Real           S21_Imag           S12_Real           S12_Imag           S22_Real           S22_Imag
      200000000   -9.986925721e-01   -1.153591350e-01   -1.340825111e-05   -3.043841571e-05    0.000000000e+00    0.000000000e+00    0.000000000e+00    0.000000000e+00
      207250000   -1.010081172e+00   -1.609505713e-02    4.479661584e-06   -2.871640027e-05    0.000000000e+00    0.000000000e+00    0.000000000e+00    0.000000000e+00
      214500000   -1.011567235e+00    8.508598059e-02   -2.454966307e-06   -1.790374517e-05    0.000000000e+00    0.000000000e+00    0.000000000e+00    0.000000000e+00
      221750000   -1.001571417e+00    1.881656647e-01    2.223066986e-06    1.065060496e-05    0.000000000e+00    0.000000000e+00    0.000000000e+00    0.000000000e+00
      229000000   -9.816214442e-01    2.910701931e-01   -2.957880497e-06   -1.335982233e-05    0.000000000e+00    0.000000000e+00    0.000000000e+00    0.000000000e+00
      236250000   -9.501720071e-01    3.939208388e-01   -5.288049579e-06   -2.582464367e-05    0.000000000e+00    0.000000000e+00    0.000000000e+00    0.000000000e+00
      243500000   -9.057363868e-01    4.936895072e-01   -1.307576895e-06    6.889924407e-06    0.000000000e+00    0.000000000e+00    0.000000000e+00    0.000000000e+00
      250750000   -8.490148783e-01    5.902449489e-01   -1.398567110e-05    1.888070256e-05    0.000000000e+00    0.000000000e+00    0.000000000e+00    0.000000000e+00
      258000000   -7.799571157e-01    6.806069613e-01   -7.023103535e-06    5.873851478e-06    0.000000000e+00    0.000000000e+00    0.000000000e+00    0.000000000e+00
      265250000   -7.004507780e-01    7.646538615e-01    2.917833626e-06   -3.356393427e-05    0.000000000e+00    0.000000000e+00    0.000000000e+00    0.000000000e+00
      272500000   -6.091812849e-01    8.391120434e-01   -9.806826711e-06    1.300685108e-05    0.000000000e+00    0.000000000e+00    0.000000000e+00    0.000000000e+00
      279750000   -5.074459910e-01    9.030743241e-01    5.562789738e-06    1.168344170e-05    0.000000000e+00    0.000000000e+00    0.000000000e+00    0.000000000e+00
      287000000   -3.978380561e-01    9.547878504e-01    2.281647176e-05    3.924593329e-06    0.000000000e+00    0.000000000e+00    0.000000000e+00    0.000000000e+00
      294250000   -2.802580595e-01    9.926746488e-01    4.010275006e-06    1.855939627e-05    0.000000000e+00    0.000000000e+00    0.000000000e+00    0.000000000e+00
      301500000   -1.580667943e-01    1.015372634e+00   -5.230400711e-05   -1.989584416e-05    0.000000000e+00    0.000000000e+00    0.000000000e+00    0.000000000e+00
      308750000   -3.259619698e-02    1.022581220e+00   -5.275756121e-05    8.236616850e-06    0.000000000e+00    0.000000000e+00    0.000000000e+00    0.000000000e+00
      316000000    9.399244934e-02    1.012706995e+00   -2.318993211e-06   -2.034846693e-05    0.000000000e+00    0.000000000e+00    0.000000000e+00    0.000000000e+00
      323250000    2.183751464e-01    9.878618717e-01   -2.226047218e-05   -1.732259989e-07    0.000000000e+00    0.000000000e+00    0.000000000e+00    0.000000000e+00
      330500000    3.382380307e-01    9.462701082e-01   -3.421679139e-05   -1.504924148e-05    0.000000000e+00    0.000000000e+00    0.000000000e+00    0.000000000e+00
      337750000    4.516086876e-01    8.894469142e-01   -3.116670996e-05    1.142360270e-05    0.000000000e+00    0.000000000e+00    0.000000000e+00    0.000000000e+00
      345000000    5.562556386e-01    8.190138936e-01   -2.065580338e-05    7.551163435e-06    0.000000000e+00    0.000000000e+00    0.000000000e+00    0.000000000e+00
      352250000    6.512796283e-01    7.379477024e-01    6.196089089e-06    3.254041076e-06    0.000000000e+00    0.000000000e+00    0.000000000e+00    0.000000000e+00
      359500000    7.344316840e-01    6.442784071e-01    4.817731678e-06   -6.863847375e-07    0.000000000e+00    0.000000000e+00    0.000000000e+00    0.000000000e+00
      366750000    8.046234250e-01    5.429139137e-01   -2.133473754e-05    1.461058855e-05    0.000000000e+00    0.000000000e+00    0.000000000e+00    0.000000000e+00
      374000000    8.618962169e-01    4.352589250e-01    1.896452159e-05    1.422781497e-05    0.000000000e+00    0.000000000e+00    0.000000000e+00    0.000000000e+00
      381250000    9.055137038e-01    3.212926984e-01   -2.104043961e-05   -2.005696297e-05    0.000000000e+00    0.000000000e+00    0.000000000e+00    0.000000000e+00
      388500000    9.342589378e-01    2.052772343e-01   -1.950841397e-05   -2.321694046e-05    0.000000000e+00    0.000000000e+00    0.000000000e+00    0.000000000e+00
      395750000    9.504118562e-01    8.937919140e-02    2.102553844e-05   -1.578312367e-05    0.000000000e+00    0.000000000e+00    0.000000000e+00    0.000000000e+00
      403000000    9.528006315e-01   -2.868234925e-02    3.795046359e-05   -5.678273737e-06    0.000000000e+00    0.000000000e+00    0.000000000e+00    0.000000000e+00
      410250000    9.420415163e-01   -1.433817893e-01    2.481695265e-05   -4.625506699e-05    0.000000000e+00    0.000000000e+00    0.000000000e+00    0.000000000e+00
      417500000    9.191569090e-01   -2.552412152e-01   -8.908100426e-06   -9.397976100e-06    0.000000000e+00    0.000000000e+00    0.000000000e+00    0.000000000e+00
      424750000    8.846973777e-01   -3.640605211e-01    4.188157618e-06    2.040062100e-05    0.000000000e+00    0.000000000e+00    0.000000000e+00    0.000000000e+00
      432000000    8.387507200e-01   -4.659835994e-01    4.940666258e-06   -4.471279681e-06    0.000000000e+00    0.000000000e+00    0.000000000e+00    0.000000000e+00
      439250000    7.836135626e-01   -5.626071095e-01   -2.616643906e-05   -3.858748823e-05    0.000000000e+00    0.000000000e+00    0.000000000e+00    0.000000000e+00
      446500000    7.190805078e-01   -6.518094540e-01    4.993192852e-05    1.964066178e-05    0.000000000e+00    0.000000000e+00    0.000000000e+00    0.000000000e+00
      453750000    6.449635625e-01   -7.339827418e-01   -1.017656177e-05   -2.416782081e-05    0.000000000e+00    0.000000000e+00    0.000000000e+00    0.000000000e+00
      461000000    5.637983084e-01   -8.067731857e-01   -2.843327820e-06    1.760385931e-05    0.000000000e+00    0.000000000e+00    0.000000000e+00    0.000000000e+00
      468250000    4.761438668e-01   -8.712753057e-01    1.885555685e-05    2.020318061e-05    0.000000000e+00    0.000000000e+00    0.000000000e+00    0.000000000e+00
      475500000    3.813306093e-01   -9.268186688e-01    2.780184150e-05   -1.087877899e-05    0.000000000e+00    0.000000000e+00    0.000000000e+00    0.000000000e+00
      482750000    2.815149724e-01   -9.711353779e-01   -1.991633326e-05   -3.626849502e-05    0.000000000e+00    0.000000000e+00    0.000000000e+00    0.000000000e+00
      490000000    1.776552200e-01   -1.005822539e+00   -1.396611333e-05   -4.644785076e-05    0.000000000e+00    0.000000000e+00    0.000000000e+00    0.000000000e+00
      497250000    6.990883499e-02   -1.029177427e+00   -4.234723747e-06   -7.860362530e-06    0.000000000e+00    0.000000000e+00    0.000000000e+00    0.000000000e+00
      504500000   -3.974538296e-02   -1.040878177e+00   -2.235639840e-05    5.381368101e-05    0.000000000e+00    0.000000000e+00    0.000000000e+00    0.000000000e+00
      511750000   -1.513725519e-01   -1.040669084e+00    2.814456820e-05    2.222135663e-06    0.000000000e+00    0.000000000e+00    0.000000000e+00    0.000000000e+00
      519000000   -2.624139488e-01   -1.028589129e+00   -9.551644325e-06   -1.464039087e-06    0.000000000e+00    0.000000000e+00    0.000000000e+00    0.000000000e+00
      526250000   -3.719299734e-01   -1.004493833e+00    9.729526937e-06   -2.381298691e-05    0.000000000e+00    0.000000000e+00    0.000000000e+00    0.000000000e+00
      533500000   -4.793588817e-01   -9.671287537e-01    2.115126699e-05   -4.230067134e-05    0.000000000e+00    0.000000000e+00    0.000000000e+00    0.000000000e+00
      540750000   -5.839446783e-01   -9.186671376e-01    8.028000593e-06   -2.641603351e-05    0.000000000e+00    0.000000000e+00    0.000000000e+00    0.000000000e+00
      548000000   -6.819614768e-01   -8.583731651e-01   -1.238659024e-05    1.427717507e-06    0.000000000e+00    0.000000000e+00    0.000000000e+00    0.000000000e+00
      555250000   -7.721295953e-01   -7.844231129e-01    2.166442573e-05   -6.334856153e-06    0.000000000e+00    0.000000000e+00    0.000000000e+00    0.000000000e+00
      562500000   -8.544782400e-01   -7.014983296e-01    3.416649997e-05    1.708231866e-05    0.000000000e+00    0.000000000e+00    0.000000000e+00    0.000000000e+00
      569750000   -9.265385866e-01   -6.097567677e-01   -3.198906779e-05    3.784894943e-05    0.000000000e+00    0.000000000e+00    0.000000000e+00    0.000000000e+00
      577000000   -9.871531129e-01   -5.083206892e-01    5.201436579e-06    8.866190910e-06    0.000000000e+00    0.000000000e+00    0.000000000e+00    0.000000000e+00
      584250000   -1.036845565e+00   -3.991180658e-01   -2.976972610e-05   -5.215965211e-05    0.000000000e+00    0.000000000e+00    0.000000000e+00    0.000000000e+00
      591500000   -1.072645783e+00   -2.858189642e-01    1.104734838e-05    3.290642053e-05    0.000000000e+00    0.000000000e+00    0.000000000e+00    0.000000000e+00
      598750000   -1.093537927e+00   -1.666571200e-01    1.369602978e-05   -3.475323319e-05    0.000000000e+00    0.000000000e+00    0.000000000e+00    0.000000000e+00
      606000000   -1.100617886e+00   -4.832849279e-02   -2.673082054e-05   -1.794751734e-05    0.000000000e+00    0.000000000e+00    0.000000000e+00    0.000000000e+00
      613250000   -1.092602134e+00    7.207462937e-02   -3.678537905e-05    8.930452168e-06    0.000000000e+00    0.000000000e+00    0.000000000e+00    0.000000000e+00
      620500000   -1.070861697e+00    1.879016012e-01   -3.641378134e-05    3.504753113e-05    0.000000000e+00    0.000000000e+00    0.000000000e+00    0.000000000e+00
      627750000   -1.034319401e+00    3.018808663e-01   -3.775581717e-05   -2.720393240e-06    0.000000000e+00    0.000000000e+00    0.000000000e+00    0.000000000e+00
      635000000   -9.852341413e-01    4.083122909e-01    3.810506314e-05    1.601036638e-05    0.000000000e+00    0.000000000e+00    0.000000000e+00    0.000000000e+00
      642250000   -9.232434034e-01    5.089342594e-01   -1.954846084e-06   -3.900658339e-05    0.000000000e+00    0.000000000e+00    0.000000000e+00    0.000000000e+00
      649500000   -8.510528207e-01    5.993649364e-01    7.264316082e-07    2.997741103e-05    0.000000000e+00    0.000000000e+00    0.000000000e+00    0.000000000e+00
      656750000   -7.691184282e-01    6.800447702e-01   -5.459599197e-05    3.061629832e-05    0.000000000e+00    0.000000000e+00    0.000000000e+00    0.000000000e+00
      664000000   -6.803693175e-01    7.494783998e-01    2.369750291e-05   -1.799780875e-05    0.000000000e+00    0.000000000e+00    0.000000000e+00    0.000000000e+00
      671250000   -5.841743350e-01    8.089664578e-01    1.579895616e-05   -1.916103065e-05    0.000000000e+00    0.000000000e+00    0.000000000e+00    0.000000000e+00
      678500000   -4.835667014e-01    8.543910980e-01    1.822784543e-05    2.462975681e-05    0.000000000e+00    0.000000000e+00    0.000000000e+00    0.000000000e+00
      685750000   -3.785067797e-01    8.896313906e-01    2.314802259e-05    3.722496331e-06    0.000000000e+00    0.000000000e+00    0.000000000e+00    0.000000000e+00
      693000000   -2.734164298e-01    9.117861390e-01   -1.313257962e-05   -3.295950592e-06    0.000000000e+00    0.000000000e+00    0.000000000e+00    0.000000000e+00
      700250000   -1.670822352e-01    9.226825833e-01    1.147203147e-05    2.294871956e-05    0.000000000e+00    0.000000000e+00    0.000000000e+00    0.000000000e+00
      707500000   -6.066048518e-02    9.222518802e-01    7.425434887e-06    5.796086043e-05    0.000000000e+00    0.000000000e+00    0.000000000e+00    0.000000000e+00
      714750000    4.459523782e-02    9.106470942e-01   -4.025455564e-05   -8.379109204e-06    0.000000000e+00    0.000000000e+00    0.000000000e+00    0.000000000e+00
      722000000    1.449401528e-01    8.878371119e-01    3.494322300e-06   -2.298783511e-05    0.000000000e+00    0.000000000e+00    0.000000000e+00    0.000000000e+00
      729250000    2.438756973e-01    8.551732302e-01   -2.152193338e-05    3.085471690e-06    0.000000000e+00    0.000000000e+00    0.000000000e+00    0.000000000e+00
      736500000    3.363934159e-01    8.135596514e-01   -1.799315214e-06   -3.764219582e-05    0.000000000e+00    0.000000000e+00    0.000000000e+00    0.000000000e+00
      743750000    4.242163002e-01    7.633631825e-01   -1.443549991e-07    3.496278077e-05    0.000000000e+00    0.000000000e+00    0.000000000e+00    0.000000000e+00
      751000000    5.056676865e-01    7.044628859e-01    7.606111467e-06    2.077128738e-05    0.000000000e+00    0.000000000e+00    0.000000000e+00    0.000000000e+00
      758250000    5.803423524e-01    6.384485960e-01   -9.339302778e-06   -9.666197002e-06    0.000000000e+00    0.000000000e+00    0.000000000e+00    0.000000000e+00
      765500000    6.489506960e-01    5.658395290e-01   -1.053325832e-06   -4.746858031e-05    0.000000000e+00    0.000000000e+00    0.000000000e+00    0.000000000e+00
      772750000    7.096756101e-01    4.854033887e-01   -7.250905037e-05   -2.210307866e-05    0.000000000e+00    0.000000000e+00    0.000000000e+00    0.000000000e+00
      780000000    7.611616254e-01    4.016132653e-01    3.154948354e-05    5.703419447e-06    0.000000000e+00    0.000000000e+00    0.000000000e+00    0.000000000e+00
      787250000    8.070252538e-01    3.096273839e-01    1.203082502e-05   -8.620321751e-06    0.000000000e+00    0.000000000e+00    0.000000000e+00    0.000000000e+00
      794500000    8.416692615e-01    2.166454792e-01   -2.929568291e-05   -2.572312951e-06    0.000000000e+00    0.000000000e+00    0.000000000e+00    0.000000000e+00
      801750000    8.672141433e-01    1.179570630e-01    3.626570106e-06   -2.860091627e-06    0.000000000e+00    0.000000000e+00    0.000000000e+00    0.000000000e+00
      809000000    8.827672005e-01    1.664028317e-02    2.293661237e-05   -8.184462786e-06    0.000000000e+00    0.000000000e+00    0.000000000e+00    0.000000000e+00
      816250000    8.879182935e-01   -8.774433285e-02   -1.309998333e-05   -1.113675535e-05    0.000000000e+00    0.000000000e+00    0.000000000e+00    0.000000000e+00
      823500000    8.826757073e-01   -1.920344085e-01    3.859959543e-05   -4.233792424e-05    0.000000000e+00    0.000000000e+00    0.000000000e+00    0.000000000e+00
      830750000    8.651990294e-01   -2.965548933e-01   -6.479211152e-06    1.999735832e-05    0.000000000e+00    0.000000000e+00    0.000000000e+00    0.000000000e+00
      838000000    8.367561698e-01   -4.002116919e-01   -8.726492524e-06    2.209097147e-05    0.000000000e+00    0.000000000e+00    0.000000000e+00    0.000000000e+00
      845250000    7.965941429e-01   -5.014975071e-01    1.310184598e-05   -1.364853233e-05    0.000000000e+00    0.000000000e+00    0.000000000e+00    0.000000000e+00
      852500000    7.434177995e-01   -5.998157859e-01   -4.382804036e-06    5.087349564e-05    0.000000000e+00    0.000000000e+00    0.000000000e+00    0.000000000e+00
      859750000    6.802923679e-01   -6.909806132e-01   -2.996530384e-05    2.668239176e-06    0.000000000e+00    0.000000000e+00    0.000000000e+00    0.000000000e+00
      867000000    6.025245190e-01   -7.779350877e-01    2.899207175e-06    2.138130367e-05    0.000000000e+00    0.000000000e+00    0.000000000e+00    0.000000000e+00
      874250000    5.160996914e-01   -8.540787101e-01   -4.685577005e-05   -2.793967724e-09    0.000000000e+00    0.000000000e+00    0.000000000e+00    0.000000000e+00
      881500000    4.180128872e-01   -9.205143452e-01   -1.928862184e-05   -1.677684486e-05    0.000000000e+00    0.000000000e+00    0.000000000e+00    0.000000000e+00
      888750000    3.132205307e-01   -9.742250443e-01    8.017756045e-06    1.232698560e-05    0.000000000e+00    0.000000000e+00    0.000000000e+00    0.000000000e+00
      896000000    1.984687001e-01   -1.015404820e+00   -2.415850759e-05    2.237968147e-06    0.000000000e+00    0.000000000e+00    0.000000000e+00    0.000000000e+00
      903250000    7.801695913e-02   -1.041135550e+00   -1.009367406e-05   -1.002103090e-06    0.000000000e+00    0.000000000e+00    0.000000000e+00    0.000000000e+00
      910500000   -4.680002108e-02   -1.049935579e+00   -1.118797809e-05    1.002755016e-05    0.000000000e+00    0.000000000e+00    0.000000000e+00    0.000000000e+00
      917750000   -1.694127172e-01   -1.042423368e+00   -1.670885831e-05   -7.951632142e-06    0.000000000e+00    0.000000000e+00    0.000000000e+00    0.000000000e+00
      925000000   -2.906950414e-01   -1.018001795e+00    2.154987305e-05   -2.048071474e-05    0.000000000e+00    0.000000000e+00    0.000000000e+00    0.000000000e+00
      932250000   -4.096764326e-01   -9.761536121e-01    2.471357584e-05    6.216857582e-05    0.000000000e+00    0.000000000e+00    0.000000000e+00    0.000000000e+00
      939500000   -5.184909105e-01   -9.200853705e-01   -2.898834646e-05    2.984888852e-05    0.000000000e+00    0.000000000e+00    0.000000000e+00    0.000000000e+00
      946750000   -6.203030944e-01   -8.481010795e-01   -3.874301910e-07    3.309734166e-05    0.000000000e+00    0.000000000e+00    0.000000000e+00    0.000000000e+00
      954000000   -7.071857452e-01   -7.664330602e-01    2.550054342e-05   -1.762993634e-06    0.000000000e+00    0.000000000e+00    0.000000000e+00    0.000000000e+00
      961250000   -7.836220860e-01   -6.744731665e-01    1.899711788e-05   -4.018098116e-05    0.000000000e+00    0.000000000e+00    0.000000000e+00    0.000000000e+00
      968500000   -8.449625969e-01   -5.742101669e-01   -4.239846021e-05   -1.772958785e-05    0.000000000e+00    0.000000000e+00    0.000000000e+00    0.000000000e+00
      975750000   -8.916151524e-01   -4.703938663e-01    2.213660628e-05    3.966409713e-05    0.000000000e+00    0.000000000e+00    0.000000000e+00    0.000000000e+00
      983000000   -9.256523252e-01   -3.610481620e-01    2.797413617e-05   -3.199093044e-06    0.000000000e+00    0.000000000e+00    0.000000000e+00    0.000000000e+00
      990250000   -9.430505633e-01   -2.529842257e-01   -2.922117710e-05    1.737847924e-05    0.000000000e+00    0.000000000e+00    0.000000000e+00    0.000000000e+00
      997500000   -9.484030008e-01   -1.463071853e-01   -2.314895391e-05   -4.704855382e-05    0.000000000e+00    0.000000000e+00    0.000000000e+00    0.000000000e+00
     1004750000   -9.406552315e-01   -4.225263745e-02    4.121195525e-05   -3.345124424e-05    0.000000000e+00    0.000000000e+00    0.000000000e+00    0.000000000e+00
     1012000000   -9.217663407e-01    5.656182766e-02   -8.255243301e-06   -3.609340638e-05    0.000000000e+00    0.000000000e+00    0.000000000e+00    0.000000000e+00
     1019250000   -8.918877840e-01    1.529726088e-01   -1.717358828e-06    4.335027188e-05    0.000000000e+00    0.000000000e+00    0.000000000e+00    0.000000000e+00
     1026500000   -8.541021943e-01    2.404380441e-01   -1.128762960e-05    1.803971827e-06    0.000000000e+00    0.000000000e+00    0.000000000e+00    0.000000000e+00
     1033750000   -8.076640964e-01    3.233841658e-01   -2.209935337e-05    4.691071808e-06    0.000000000e+00    0.000000000e+00    0.000000000e+00    0.000000000e+00
     1041000000   -7.552797198e-01    3.972153366e-01    2.229493111e-05    3.389455378e-05    0.000000000e+00    0.000000000e+00    0.000000000e+00    0.000000000e+00
