! NanoVNA-App
! Date: 2024-06-25 16:14:23
! Start: 200MHz Stop: 6GHz Points: 801
! S-Parameter data: F S11 S21 S12 S22
# Hz S RI R 50
!     Frequency           S11_Real           S11_Imag           S21_Real           S21_Imag           S12_Real           S12_Imag           S22_Real           S22_Imag
      200000000   -9.981373549e-01   -1.152122617e-01   -4.613772035e-06   -1.867208630e-05    0.000000000e+00    0.000000000e+00    0.000000000e+00    0.000000000e+00
      207250000   -1.009951234e+00   -1.614872180e-02   -2.027023584e-05    1.531094313e-05    0.000000000e+00    0.000000000e+00    0.000000000e+00    0.000000000e+00
      214500000   -1.010789752e+00    8.506115526e-02    4.499219358e-06   -6.593763828e-07    0.000000000e+00    0.000000000e+00    0.000000000e+00    0.000000000e+00
      221750000   -1.001167655e+00    1.881310940e-01    1.045502722e-05    8.754432201e-07    0.000000000e+00    0.000000000e+00    0.000000000e+00    0.000000000e+00
      229000000   -9.812240601e-01    2.910860777e-01    5.589798093e-06   -9.947456419e-06    0.000000000e+00    0.000000000e+00    0.000000000e+00    0.000000000e+00
      236250000   -9.487976432e-01    3.934637308e-01    1.939944923e-05    3.603566438e-05    0.000000000e+00    0.000000000e+00    0.000000000e+00    0.000000000e+00
      243500000   -9.048909545e-01    4.938725233e-01   -1.102685928e-06    4.981644452e-06    0.000000000e+00    0.000000000e+00    0.000000000e+00    0.000000000e+00
      250750000   -8.491665125e-01    5.897791386e-01    2.070702612e-05    2.103298903e-05    0.000000000e+00    0.000000000e+00    0.000000000e+00    0.000000000e+00
      258000000   -7.804726362e-01    6.810715795e-01   -1.723133028e-05   -2.639088780e-05    0.000000000e+00    0.000000000e+00    0.000000000e+00    0.000000000e+00
      265250000   -7.006925344e-01    7.645890117e-01   -2.428423613e-05    1.081172377e-05    0.000000000e+00    0.000000000e+00    0.000000000e+00    0.000000000e+00
      272500000   -6.087641120e-01    8.393285275e-01    3.118999302e-06    2.757925540e-05    0.000000000e+00    0.000000000e+00    0.000000000e+00    0.000000000e+00
      279750000   -5.079129934e-01    9.037905931e-01    1.385807991e-06    3.851391375e-05    0.000000000e+00    0.000000000e+00    0.000000000e+00    0.000000000e+00
      287000000   -3.975424469e-01    9.551658034e-01   -1.876335591e-05   -3.864988685e-07    0.000000000e+00    0.000000000e+00    0.000000000e+00    0.000000000e+00
      294250000   -2.798173428e-01    9.927561879e-01   -3.582518548e-05   -4.150439054e-05    0.000000000e+00    0.000000000e+00    0.000000000e+00    0.000000000e+00
      301500000   -1.578741223e-01    1.016284704e+00    3.010593355e-05   -9.015202522e-07    0.000000000e+00    0.000000000e+00    0.000000000e+00    0.000000000e+00
      308750000   -3.258829564e-02    1.022576809e+00    1.755543053e-06    7.800757885e-06    0.000000000e+00    0.000000000e+00    0.000000000e+00    0.000000000e+00
      316000000    9.387980402e-02    1.012941837e+00   -7.803551853e-06    9.213574231e-06    0.000000000e+00    0.000000000e+00    0.000000000e+00    0.000000000e+00
      323250000    2.183726430e-01    9.876875877e-01   -1.236237586e-05   -3.165937960e-05    0.000000000e+00    0.000000000e+00    0.000000000e+00    0.000000000e+00
      330500000    3.381213844e-01    9.463241100e-01   -1.129973680e-05    1.035816967e-05    0.000000000e+00    0.000000000e+00    0.000000000e+00    0.000000000e+00
      337750000    4.515428543e-01    8.895425200e-01   -2.509448677e-05    3.981404006e-06    0.000000000e+00    0.000000000e+00    0.000000000e+00    0.000000000e+00
      345000000    5.560176373e-01    8.192552924e-01    1.195818186e-05    9.248033166e-07    0.000000000e+00    0.000000000e+00    0.000000000e+00    0.000000000e+00
      352250000    6.511232257e-01    7.382044196e-01    5.875714123e-06    1.251883805e-05    0.000000000e+00    0.000000000e+00    0.000000000e+00    0.000000000e+00
      359500000    7.342469096e-01    6.447035074e-01    1.231953502e-05    1.532863826e-05    0.000000000e+00    0.000000000e+00    0.000000000e+00    0.000000000e+00
      366750000    8.050169349e-01    5.426673293e-01    4.376284778e-06   -4.047527909e-06    0.000000000e+00    0.000000000e+00    0.000000000e+00    0.000000000e+00
      374000000    8.620667458e-01    4.348747730e-01   -2.563465387e-05   -2.834014595e-06    0.000000000e+00    0.000000000e+00    0.000000000e+00    0.000000000e+00
      381250000    9.054506421e-01    3.214891553e-01   -1.727603376e-06    1.779291779e-05    0.000000000e+00    0.000000000e+00    0.000000000e+00    0.000000000e+00
      388500000    9.345510602e-01    2.060687244e-01    1.963973045e-05   -1.787208021e-06    0.000000000e+00    0.000000000e+00    0.000000000e+00    0.000000000e+00
      395750000    9.505080581e-01    8.928440511e-02    4.588626325e-06   -2.267770469e-06    0.000000000e+00    0.000000000e+00    0.000000000e+00    0.000000000e+00
      403000000    9.526219964e-01   -2.871601470e-02    1.204200089e-06    1.312792301e-05    0.000000000e+00    0.000000000e+00    0.000000000e+00    0.000000000e+00
      410250000    9.421666861e-01   -1.435366124e-01    5.096197128e-06    2.895109355e-05    0.000000000e+00    0.000000000e+00    0.000000000e+00    0.000000000e+00
      417500000    9.194875360e-01   -2.554011345e-01   -2.695526928e-05    3.203749657e-05    0.000000000e+00    0.000000000e+00    0.000000000e+00    0.000000000e+00
      424750000    8.852273226e-01   -3.633995056e-01    5.246140063e-06    2.154149115e-06    0.000000000e+00    0.000000000e+00    0.000000000e+00    0.000000000e+00
      432000000    8.390517831e-01   -4.661230147e-01   -2.576503903e-05   -3.695767373e-05    0.000000000e+00    0.000000000e+00    0.000000000e+00    0.000000000e+00
      439250000    7.838928103e-01   -5.624252558e-01    3.359839320e-05    1.130625606e-05    0.000000000e+00    0.000000000e+00    0.000000000e+00    0.000000000e+00
      446500000    7.188287973e-01   -6.514814496e-01   -5.664117634e-05    1.764670014e-05    0.000000000e+00    0.000000000e+00    0.000000000e+00    0.000000000e+00
      453750000    6.444327831e-01   -7.338832617e-01   -5.195382982e-05    1.335702837e-05    0.000000000e+00    0.000000000e+00    0.000000000e+00    0.000000000e+00
      461000000    5.638787746e-01   -8.077183366e-01    3.490224481e-05    3.201514482e-05    0.000000000e+00    0.000000000e+00    0.000000000e+00    0.000000000e+00
      468250000    4.766393900e-01   -8.715566397e-01   -3.745779395e-06   -1.559965312e-06    0.000000000e+00    0.000000000e+00    0.000000000e+00    0.000000000e+00
      475500000    3.809577823e-01   -9.265249372e-01    2.842396498e-05    6.457790732e-06    0.000000000e+00    0.000000000e+00    0.000000000e+00    0.000000000e+00
      482750000    2.814026773e-01   -9.713062048e-01   -2.436898649e-05   -2.510938793e-05    0.000000000e+00    0.000000000e+00    0.000000000e+00    0.000000000e+00
      490000000    1.777320504e-01   -1.005675077e+00    3.363937140e-06   -4.786998034e-06    0.000000000e+00    0.000000000e+00    0.000000000e+00    0.000000000e+00
      497250000    7.015194744e-02   -1.028907776e+00   -1.471489668e-06    2.653338015e-06    0.000000000e+00    0.000000000e+00    0.000000000e+00    0.000000000e+00
      504500000   -3.971252218e-02   -1.041172147e+00    2.632569522e-05   -1.603830606e-05    0.000000000e+00    0.000000000e+00    0.000000000e+00    0.000000000e+00
      511750000   -1.509683132e-01   -1.040591121e+00   -1.826975495e-05    2.930406481e-05    0.000000000e+00    0.000000000e+00    0.000000000e+00    0.000000000e+00
      519000000   -2.621648908e-01   -1.028989792e+00   -3.403425217e-05   -1.212209463e-05    0.000000000e+00    0.000000000e+00    0.000000000e+00    0.000000000e+00
      526250000   -3.720327616e-01   -1.004183173e+00   -9.989365935e-06    3.514532000e-05    0.000000000e+00    0.000000000e+00    0.000000000e+00    0.000000000e+00
      533500000   -4.795573056e-01   -9.674031734e-01   -2.014171332e-05    2.830661833e-05    0.000000000e+00    0.000000000e+00    0.000000000e+00    0.000000000e+00
      540750000   -5.831366777e-01   -9.179511070e-01   -9.219162166e-06   -4.061590880e-05    0.000000000e+00    0.000000000e+00    0.000000000e+00    0.000000000e+00
      548000000   -6.812637448e-01   -8.571987152e-01    4.419125617e-06   -2.214312553e-05    0.000000000e+00    0.000000000e+00    0.000000000e+00    0.000000000e+00
      555250000   -7.722604871e-01   -7.853365541e-01   -5.012936890e-05   -1.668930054e-06    0.000000000e+00    0.000000000e+00    0.000000000e+00    0.000000000e+00
      562500000   -8.546836972e-01   -7.015240788e-01   -4.334375262e-05   -1.284293830e-06    0.000000000e+00    0.000000000e+00    0.000000000e+00    0.000000000e+00
      569750000   -9.269176722e-01   -6.087334752e-01    8.205883205e-06    3.342982382e-05    0.000000000e+00    0.000000000e+00    0.000000000e+00    0.000000000e+00
      577000000   -9.876977205e-01   -5.085934401e-01    2.102088183e-05   -3.351923078e-05    0.000000000e+00    0.000000000e+00    0.000000000e+00    0.000000000e+00
      584250000   -1.037375331e+00   -3.998282850e-01    2.549029887e-06   -8.871778846e-06    0.000000000e+00    0.000000000e+00    0.000000000e+00    0.000000000e+00
      591500000   -1.072199225e+00   -2.849698365e-01    4.780199379e-05   -3.265775740e-05    0.000000000e+00    0.000000000e+00    0.000000000e+00    0.000000000e+00
      598750000   -1.093409419e+00   -1.676033884e-01    3.667455167e-05    1.176167279e-05    0.000000000e+00    0.000000000e+00    0.000000000e+00    0.000000000e+00
      606000000   -1.100566506e+00   -4.829880595e-02    3.231596202e-05    1.711398363e-05    0.000000000e+00    0.000000000e+00    0.000000000e+00    0.000000000e+00
      613250000   -1.092578650e+00    7.193947583e-02   -2.620462328e-05    4.776753485e-06    0.000000000e+00    0.000000000e+00    0.000000000e+00    0.000000000e+00
      620500000   -1.070580125e+00    1.889207661e-01    4.504807293e-06    2.408400178e-06    0.000000000e+00    0.000000000e+00    0.000000000e+00    0.000000000e+00
      627750000   -1.034351110e+00    3.024654388e-01   -1.509767026e-05   -3.064516932e-05    0.000000000e+00    0.000000000e+00    0.000000000e+00    0.000000000e+00
      635000000   -9.850565791e-01    4.079111814e-01   -5.433335900e-06    1.195166260e-05    0.000000000e+00    0.000000000e+00    0.000000000e+00    0.000000000e+00
      642250000   -9.231778383e-01    5.086703897e-01    3.552995622e-06    2.950150520e-05    0.000000000e+00    0.000000000e+00    0.000000000e+00    0.000000000e+00
      649500000   -8.512066603e-01    5.994271040e-01    3.240071237e-06    1.202151179e-05    0.000000000e+00    0.000000000e+00    0.000000000e+00    0.000000000e+00
      656750000   -7.700250149e-01    6.797385216e-01    1.436658204e-05   -1.935474575e-05    0.000000000e+00    0.000000000e+00    0.000000000e+00    0.000000000e+00
      664000000   -6.801017523e-01    7.494630218e-01    1.798197627e-05   -1.474563032e-05    0.000000000e+00    0.000000000e+00    0.000000000e+00    0.000000000e+00
      671250000   -5.843752623e-01    8.083639145e-01   -8.439645171e-06   -4.619359970e-07    0.000000000e+00    0.000000000e+00    0.000000000e+00    0.000000000e+00
      678500000   -4.837876260e-01    8.540537357e-01   -1.833308488e-05    3.689061850e-05    0.000000000e+00    0.000000000e+00    0.000000000e+00    0.000000000e+00
      685750000   -3.781878054e-01    8.898015618e-01    1.824647188e-05    1.820921898e-05    0.000000000e+00    0.000000000e+00    0.000000000e+00    0.000000000e+00
      693000000   -2.732908130e-01    9.112282991e-01    2.239551395e-05   -1.559499651e-05    0.000000000e+00    0.000000000e+00    0.000000000e+00    0.000000000e+00
      700250000   -1.656316072e-01    9.228118062e-01    1.925043762e-05   -1.502223313e-05    0.000000000e+00    0.000000000e+00    0.000000000e+00    0.000000000e+00
      707500000   -6.028921157e-02    9.223943949e-01    2.184975892e-05   -4.273094237e-05    0.000000000e+00    0.000000000e+00    0.000000000e+00    0.000000000e+00
      714750000    4.474055395e-02    9.098220468e-01   -1.438427716e-05   -9.999610484e-06    0.000000000e+00    0.000000000e+00    0.000000000e+00    0.000000000e+00
      722000000    1.440391541e-01    8.885433674e-01   -9.723007679e-06    3.230385482e-05    0.000000000e+00    0.000000000e+00    0.000000000e+00    0.000000000e+00
      729250000    2.441765666e-01    8.558989167e-01    1.915637404e-05   -1.718383282e-05    0.000000000e+00    0.000000000e+00    0.000000000e+00    0.000000000e+00
      736500000    3.358195722e-01    8.137623668e-01    2.335663885e-05   -2.182740718e-05    0.000000000e+00    0.000000000e+00    0.000000000e+00    0.000000000e+00
      743750000    4.239268899e-01    7.629292011e-01    7.159076631e-06   -4.082918167e-06    0.000000000e+00    0.000000000e+00    0.000000000e+00    0.000000000e+00
      751000000    5.056956410e-01    7.052333951e-01   -1.968443394e-05   -3.545917571e-05    0.000000000e+00    0.000000000e+00    0.000000000e+00    0.000000000e+00
      758250000    5.802406669e-01    6.391243339e-01    9.418465197e-06    6.537884474e-07    0.000000000e+00    0.000000000e+00    0.000000000e+00    0.000000000e+00
      765500000    6.490187049e-01    5.649525523e-01    6.647780538e-06    1.017004251e-05    0.000000000e+00    0.000000000e+00    0.000000000e+00    0.000000000e+00
      772750000    7.095758915e-01    4.865297079e-01   -2.263486385e-05   -2.128351480e-05    0.000000000e+00    0.000000000e+00    0.000000000e+00    0.000000000e+00
      780000000    7.617145777e-01    4.015948176e-01    5.523115396e-05    4.531256855e-05    0.000000000e+00    0.000000000e+00    0.000000000e+00    0.000000000e+00
      787250000    8.061390519e-01    3.106124997e-01   -1.854728907e-05   -1.139752567e-05    0.000000000e+00    0.000000000e+00    0.000000000e+00    0.000000000e+00
      794500000    8.413257003e-01    2.167382836e-01   -4.674214870e-05    2.283602953e-06    0.000000000e+00    0.000000000e+00    0.000000000e+00    0.000000000e+00
      801750000    8.673753142e-01    1.188314706e-01    3.048032522e-05    3.981404006e-06    0.000000000e+00    0.000000000e+00    0.000000000e+00    0.000000000e+00
      809000000    8.832679391e-01    1.582663134e-02   -4.873611033e-06    1.406390220e-05    0.000000000e+00    0.000000000e+00    0.000000000e+00    0.000000000e+00
      816250000    8.878358006e-01   -8.764015138e-02   -1.871120185e-05   -5.871988833e-06    0.000000000e+00    0.000000000e+00    0.000000000e+00    0.000000000e+00
      823500000    8.820542097e-01   -1.918538809e-01    1.004431397e-05   -8.550472558e-06    0.000000000e+00    0.000000000e+00    0.000000000e+00    0.000000000e+00
      830750000    8.654611111e-01   -2.964930236e-01    3.783963621e-06   -1.038890332e-05    0.000000000e+00    0.000000000e+00    0.000000000e+00    0.000000000e+00
      838000000    8.362146020e-01   -4.006313086e-01   -5.258899182e-05    2.847146243e-05    0.000000000e+00    0.000000000e+00    0.000000000e+00    0.000000000e+00
      845250000    7.959727645e-01   -5.016484857e-01    3.351550549e-05    2.210028470e-06    0.000000000e+00    0.000000000e+00    0.000000000e+00    0.000000000e+00
      852500000    7.443062663e-01   -5.991193652e-01   -1.316703856e-05   -2.311542630e-06    0.000000000e+00    0.000000000e+00    0.000000000e+00    0.000000000e+00
      859750000    6.804385185e-01   -6.907092929e-01    5.468260497e-05   -2.391077578e-05    0.000000000e+00    0.000000000e+00    0.000000000e+00    0.000000000e+00
      867000000    6.027258635e-01   -7.779686451e-01   -1.025293022e-05    9.653158486e-06    0.000000000e+00    0.000000000e+00    0.000000000e+00    0.000000000e+00
      874250000    5.157206655e-01   -8.543974757e-01   -1.127179712e-05    1.657754183e-07    0.000000000e+00    0.000000000e+00    0.000000000e+00    0.000000000e+00
      881500000    4.182517231e-01   -9.207139611e-01   -1.941807568e-06    1.864507794e-06    0.000000000e+00    0.000000000e+00    0.000000000e+00    0.000000000e+00
      888750000    3.122731149e-01   -9.745121598e-01    7.441267371e-07    2.447329462e-05    0.000000000e+00    0.000000000e+00    0.000000000e+00    0.000000000e+00
      896000000    1.969527006e-01   -1.015190482e+00   -2.239737660e-05   -4.343222827e-05    0.000000000e+00    0.000000000e+00    0.000000000e+00    0.000000000e+00
      903250000    7.814399898e-02   -1.040454030e+00   -9.207054973e-06    2.420227975e-05    0.000000000e+00    0.000000000e+00    0.000000000e+00    0.000000000e+00
      910500000   -4.616795480e-02   -1.049768209e+00   -5.182716995e-05    2.941582352e-05    0.000000000e+00    0.000000000e+00    0.000000000e+00    0.000000000e+00
      917750000   -1.694416255e-01   -1.041771889e+00    2.445746213e-05    2.838484943e-05    0.000000000e+00    0.000000000e+00    0.000000000e+00    0.000000000e+00
      925000000   -2.909735441e-01   -1.017700672e+00   -1.906417310e-05    3.459770232e-05    0.000000000e+00    0.000000000e+00    0.000000000e+00    0.000000000e+00
      932250000   -4.098896086e-01   -9.756619930e-01    6.025657058e-07    2.418830991e-05    0.000000000e+00    0.000000000e+00    0.000000000e+00    0.000000000e+00
      939500000   -5.192511678e-01   -9.197552800e-01   -1.225527376e-05    6.705522537e-07    0.000000000e+00    0.000000000e+00    0.000000000e+00    0.000000000e+00
      946750000   -6.177049875e-01   -8.502998352e-01    6.104353815e-05    1.153908670e-06    0.000000000e+00    0.000000000e+00    0.000000000e+00    0.000000000e+00
      954000000   -7.090401053e-01   -7.656858563e-01   -2.351589501e-06   -1.311302185e-05    0.000000000e+00    0.000000000e+00    0.000000000e+00    0.000000000e+00
      961250000   -7.838354707e-01   -6.738291383e-01    8.956342936e-05    5.429610610e-07    0.000000000e+00    0.000000000e+00    0.000000000e+00    0.000000000e+00
      968500000   -8.463144898e-01   -5.736911297e-01   -2.710428089e-05   -1.964252442e-05    0.000000000e+00    0.000000000e+00    0.000000000e+00    0.000000000e+00
      975750000   -8.921843767e-01   -4.706827700e-01   -1.232884824e-05   -2.522487193e-05    0.000000000e+00    0.000000000e+00    0.000000000e+00    0.000000000e+00
      983000000   -9.249560237e-01   -3.611485362e-01   -1.153908670e-06    3.008265048e-05    0.000000000e+00    0.000000000e+00    0.000000000e+00    0.000000000e+00
      990250000   -9.432290196e-01   -2.539129257e-01    2.551823854e-07    7.173977792e-06    0.000000000e+00    0.000000000e+00    0.000000000e+00    0.000000000e+00
      997500000   -9.479238987e-01   -1.455560476e-01   -5.756225437e-05    1.015234739e-05    0.000000000e+00    0.000000000e+00    0.000000000e+00    0.000000000e+00
     1004750000   -9.404699802e-01   -4.287254810e-02   -1.688487828e-05   -1.496449113e-05    0.000000000e+00    0.000000000e+00    0.000000000e+00    0.000000000e+00
     1012000000   -9.217773080e-01    5.794911459e-02   -1.758616418e-05    1.317355782e-05    0.000000000e+00    0.000000000e+00    0.000000000e+00    0.000000000e+00
     1019250000   -8.919267654e-01    1.526739299e-01   -5.968846381e-06   -9.261071682e-06    0.000000000e+00    0.000000000e+00    0.000000000e+00    0.000000000e+00
     1026500000   -8.537427187e-01    2.414564490e-01   -1.173373312e-05    3.431923687e-06    0.000000000e+00    0.000000000e+00    0.000000000e+00    0.000000000e+00
     1033750000   -8.076493740e-01    3.227054179e-01   -2.235826105e-05    1.019518822e-05    0.000000000e+00    0.000000000e+00    0.000000000e+00    0.000000000e+00
     1041000000   -7.551938891e-01    3.971178830e-01   -8.006580174e-06   -8.649192750e-06    0.000000000e+00    0.000000000e+00    0.000000000e+00    0.000000000e+00
