! NanoVNA-App
! Date: 2024-06-25 16:52:32
! Start: 200MHz Stop: 1.5GHz Points: 801
! S-Parameter data: F S11 S21 S12 S22
# Hz S RI R 50
!     Frequency           S11_Real           S11_Imag           S21_Real           S21_Imag           S12_Real           S12_Imag           S22_Real           S22_Imag
      200000000   -7.507477999e-01    1.169084758e-01    1.793063857e-04    6.045522969e-05    0.000000000e+00    0.000000000e+00    0.000000000e+00    0.000000000e+00
      201625000   -7.459552288e-01    1.399636567e-01    1.998801890e-04    8.560223796e-05    0.000000000e+00    0.000000000e+00    0.000000000e+00    0.000000000e+00
      203250000   -7.403374910e-01    1.629132777e-01    2.161656739e-04    4.353350232e-05    0.000000000e+00    0.000000000e+00    0.000000000e+00    0.000000000e+00
      204875000   -7.339761853e-01    1.853373945e-01    2.023681591e-04    5.228571536e-05    0.000000000e+00    0.000000000e+00    0.000000000e+00    0.000000000e+00
      206500000   -7.268309593e-01    2.076284140e-01    2.265287185e-04    6.988905079e-05    0.000000000e+00    0.000000000e+00    0.000000000e+00    0.000000000e+00
      208125000   -7.189002633e-01    2.294943929e-01    2.271685953e-04    9.563411732e-05    0.000000000e+00    0.000000000e+00    0.000000000e+00    0.000000000e+00
      209750000   -7.103029490e-01    2.512318790e-01    2.380985243e-04    1.013637739e-04    0.000000000e+00    0.000000000e+00    0.000000000e+00    0.000000000e+00
      211375000   -7.010233998e-01    2.722955644e-01    2.517081739e-04    9.296434291e-05    0.000000000e+00    0.000000000e+00    0.000000000e+00    0.000000000e+00
      213000000   -6.909567118e-01    2.930612564e-01    2.562851878e-04    1.028371626e-04    0.000000000e+00    0.000000000e+00    0.000000000e+00    0.000000000e+00
      214625000   -6.801279187e-01    3.133398890e-01    2.671547409e-04    1.059257993e-04    0.000000000e+00    0.000000000e+00    0.000000000e+00    0.000000000e+00
      216250000   -6.686719656e-01    3.331831992e-01    2.608227660e-04    1.335024572e-04    0.000000000e+00    0.000000000e+00    0.000000000e+00    0.000000000e+00
      217875000   -6.567288637e-01    3.526410460e-01    2.688094683e-04    1.437158062e-04    0.000000000e+00    0.000000000e+00    0.000000000e+00    0.000000000e+00
      219500000   -6.439685225e-01    3.714922071e-01    2.947747707e-04    1.185729416e-04    0.000000000e+00    0.000000000e+00    0.000000000e+00    0.000000000e+00
      221125000   -6.308842301e-01    3.899655938e-01    2.672575647e-04    1.249127235e-04    0.000000000e+00    0.000000000e+00    0.000000000e+00    0.000000000e+00
      222750000   -6.169496179e-01    4.079072475e-01    2.842005051e-04    1.372245897e-04    0.000000000e+00    0.000000000e+00    0.000000000e+00    0.000000000e+00
      224375000   -6.026015878e-01    4.251564443e-01    3.015697293e-04    1.493773889e-04    0.000000000e+00    0.000000000e+00    0.000000000e+00    0.000000000e+00
      226000000   -5.878507495e-01    4.418683350e-01    3.137260501e-04    1.385654177e-04    0.000000000e+00    0.000000000e+00    0.000000000e+00    0.000000000e+00
      227625000   -5.724025369e-01    4.579018652e-01    2.950636263e-04    1.617441303e-04    0.000000000e+00    0.000000000e+00    0.000000000e+00    0.000000000e+00
      229250000   -5.565541387e-01    4.735095203e-01    2.978192642e-04    1.486787223e-04    0.000000000e+00    0.000000000e+00    0.000000000e+00    0.000000000e+00
      230875000   -5.403790474e-01    4.884741008e-01    3.003138117e-04    1.357185392e-04    0.000000000e+00    0.000000000e+00    0.000000000e+00    0.000000000e+00
      232500000   -5.237284899e-01    5.029599071e-01    3.212080046e-04    1.391990518e-04    0.000000000e+00    0.000000000e+00    0.000000000e+00    0.000000000e+00
      234125000   -5.067834854e-01    5.168027282e-01    3.278200165e-04    1.623707358e-04    0.000000000e+00    0.000000000e+00    0.000000000e+00    0.000000000e+00
      235750000   -4.891504347e-01    5.299615860e-01    3.260324593e-04    1.545844134e-04    0.000000000e+00    0.000000000e+00    0.000000000e+00    0.000000000e+00
      237375000   -4.714751542e-01    5.423932076e-01    3.202417574e-04    1.418225438e-04    0.000000000e+00    0.000000000e+00    0.000000000e+00    0.000000000e+00
      239000000   -4.532777965e-01    5.540436506e-01    3.191945143e-04    1.391736587e-04    0.000000000e+00    0.000000000e+00    0.000000000e+00    0.000000000e+00
      240625000   -4.348629117e-01    5.653243661e-01    3.362579737e-04    1.296634437e-04    0.000000000e+00    0.000000000e+00    0.000000000e+00    0.000000000e+00
      242250000   -4.162374139e-01    5.760872960e-01    3.361390845e-04    1.494342578e-04    0.000000000e+00    0.000000000e+00    0.000000000e+00    0.000000000e+00
      243875000   -3.972663581e-01    5.860783458e-01    3.286763676e-04    1.606973383e-04    0.000000000e+00    0.000000000e+00    0.000000000e+00    0.000000000e+00
      245500000   -3.776071966e-01    5.953961015e-01    3.396162356e-04    1.530400041e-04    0.000000000e+00    0.000000000e+00    0.000000000e+00    0.000000000e+00
      247125000   -3.581541479e-01    6.044452786e-01    3.321248223e-04    1.369515085e-04    0.000000000e+00    0.000000000e+00    0.000000000e+00    0.000000000e+00
      248750000   -3.385068476e-01    6.125945449e-01    3.299696255e-04    1.458209736e-04    0.000000000e+00    0.000000000e+00    0.000000000e+00    0.000000000e+00
      250375000   -3.185732961e-01    6.201332211e-01    3.399667621e-04    1.355619752e-04    0.000000000e+00    0.000000000e+00    0.000000000e+00    0.000000000e+00
      252000000   -2.987242341e-01    6.270735860e-01    3.354581713e-04    1.527578424e-04    0.000000000e+00    0.000000000e+00    0.000000000e+00    0.000000000e+00
      253625000   -2.788075209e-01    6.330667138e-01    3.660054645e-04    1.409210090e-04    0.000000000e+00    0.000000000e+00    0.000000000e+00    0.000000000e+00
      255250000   -2.587749660e-01    6.385071278e-01    3.529341775e-04    1.607385784e-04    0.000000000e+00    0.000000000e+00    0.000000000e+00    0.000000000e+00
      256875000   -2.387532741e-01    6.435556412e-01    3.499819140e-04    1.382706687e-04    0.000000000e+00    0.000000000e+00    0.000000000e+00    0.000000000e+00
      258500000   -2.185768038e-01    6.475143433e-01    3.491650568e-04    1.406576630e-04    0.000000000e+00    0.000000000e+00    0.000000000e+00    0.000000000e+00
      260125000   -1.986621916e-01    6.512614489e-01    3.679370566e-04    1.588648011e-04    0.000000000e+00    0.000000000e+00    0.000000000e+00    0.000000000e+00
      261750000   -1.786000878e-01    6.545009017e-01    3.520675818e-04    1.409545075e-04    0.000000000e+00    0.000000000e+00    0.000000000e+00    0.000000000e+00
      263375000   -1.587350667e-01    6.566482782e-01    3.456837730e-04    1.597553492e-04    0.000000000e+00    0.000000000e+00    0.000000000e+00    0.000000000e+00
      265000000   -1.385265738e-01    6.582572460e-01    3.482642060e-04    1.421187626e-04    0.000000000e+00    0.000000000e+00    0.000000000e+00    0.000000000e+00
      266625000   -1.186368614e-01    6.594012976e-01    3.719553060e-04    1.480108767e-04    0.000000000e+00    0.000000000e+00    0.000000000e+00    0.000000000e+00
      268250000   -9.881725907e-02    6.598390937e-01    3.489005903e-04    1.357493602e-04    0.000000000e+00    0.000000000e+00    0.000000000e+00    0.000000000e+00
      269875000   -7.898370177e-02    6.598992348e-01    3.638325143e-04    1.537757489e-04    0.000000000e+00    0.000000000e+00    0.000000000e+00    0.000000000e+00
      271500000   -5.920251459e-02    6.592816114e-01    3.444485192e-04    1.704860915e-04    0.000000000e+00    0.000000000e+00    0.000000000e+00    0.000000000e+00
      273125000   -3.984423354e-02    6.581441760e-01    3.588859399e-04    1.336905116e-04    0.000000000e+00    0.000000000e+00    0.000000000e+00    0.000000000e+00
      274750000   -2.020758204e-02    6.562948227e-01    3.324018326e-04    1.384910283e-04    0.000000000e+00    0.000000000e+00    0.000000000e+00    0.000000000e+00
      276375000   -9.627360268e-04    6.540443897e-01    3.500474268e-04    1.430131088e-04    0.000000000e+00    0.000000000e+00    0.000000000e+00    0.000000000e+00
      278000000    1.828360930e-02    6.511958838e-01    3.844190505e-04    1.363296615e-04    0.000000000e+00    0.000000000e+00    0.000000000e+00    0.000000000e+00
      279625000    3.728819266e-02    6.477890015e-01    3.407332697e-04    1.390891994e-04    0.000000000e+00    0.000000000e+00    0.000000000e+00    0.000000000e+00
      281250000    5.612333119e-02    6.441851854e-01    3.504531342e-04    1.346515055e-04    0.000000000e+00    0.000000000e+00    0.000000000e+00    0.000000000e+00
      282875000    7.466370612e-02    6.396322250e-01    3.464948095e-04    1.440740452e-04    0.000000000e+00    0.000000000e+00    0.000000000e+00    0.000000000e+00
      284500000    9.317512065e-02    6.349874735e-01    3.284588165e-04    1.380989124e-04    0.000000000e+00    0.000000000e+00    0.000000000e+00    0.000000000e+00
      286125000    1.112724170e-01    6.295160055e-01    3.157941683e-04    1.429484837e-04    0.000000000e+00    0.000000000e+00    0.000000000e+00    0.000000000e+00
      287750000    1.294682622e-01    6.240203381e-01    3.089416132e-04    1.243879815e-04    0.000000000e+00    0.000000000e+00    0.000000000e+00    0.000000000e+00
      289375000    1.470549852e-01    6.175191402e-01    3.344986471e-04    1.211118361e-04    0.000000000e+00    0.000000000e+00    0.000000000e+00    0.000000000e+00
      291000000    7.382046431e-02    5.791645646e-01   -1.148893207e-04   -2.766508442e-05    0.000000000e+00    0.000000000e+00    0.000000000e+00    0.000000000e+00
      292625000    9.030406177e-02    5.750554204e-01   -5.541311839e-05    1.786908251e-04    0.000000000e+00    0.000000000e+00    0.000000000e+00    0.000000000e+00
      294250000    1.066099778e-01    5.692172647e-01   -1.668924233e-04    1.288778294e-04    0.000000000e+00    0.000000000e+00    0.000000000e+00    0.000000000e+00
      295875000    1.224848330e-01    5.635145307e-01   -5.015637362e-05   -3.319329335e-05    0.000000000e+00    0.000000000e+00    0.000000000e+00    0.000000000e+00
      297500000    1.387948096e-01    5.568169355e-01   -3.406503674e-05   -8.755674935e-05    0.000000000e+00    0.000000000e+00    0.000000000e+00    0.000000000e+00
      299125000    1.542485654e-01    5.502212644e-01   -3.588873733e-05   -1.777436701e-04    0.000000000e+00    0.000000000e+00    0.000000000e+00    0.000000000e+00
      300750000    1.701289117e-01    5.435255766e-01    7.476656901e-05   -1.503687872e-05    0.000000000e+00    0.000000000e+00    0.000000000e+00    0.000000000e+00
      302375000    1.848672032e-01    5.359459519e-01   -7.554386684e-05   -2.329318704e-05    0.000000000e+00    0.000000000e+00    0.000000000e+00    0.000000000e+00
      304000000    1.997343302e-01    5.282194614e-01    6.960261089e-05    6.047535499e-05    0.000000000e+00    0.000000000e+00    0.000000000e+00    0.000000000e+00
      305625000    2.144238502e-01    5.197523236e-01   -8.944990259e-05    5.707027958e-05    0.000000000e+00    0.000000000e+00    0.000000000e+00    0.000000000e+00
      307250000    2.308347523e-01    5.106953382e-01   -7.443637878e-05    1.864629303e-05    0.000000000e+00    0.000000000e+00    0.000000000e+00    0.000000000e+00
      308875000    2.428258806e-01    5.029823780e-01   -1.698597189e-04   -8.212022294e-06    0.000000000e+00    0.000000000e+00    0.000000000e+00    0.000000000e+00
      310500000    2.562025785e-01    4.936506748e-01    5.534989396e-05   -7.284437015e-05    0.000000000e+00    0.000000000e+00    0.000000000e+00    0.000000000e+00
      312125000    2.693941593e-01    4.842646420e-01   -5.086286546e-05   -6.981796469e-05    0.000000000e+00    0.000000000e+00    0.000000000e+00    0.000000000e+00
      313750000    2.823067904e-01    4.749476910e-01   -5.883420090e-05    8.794145833e-05    0.000000000e+00    0.000000000e+00    0.000000000e+00    0.000000000e+00
      315375000    2.950325310e-01    4.646618664e-01   -1.480855135e-04    2.660115024e-05    0.000000000e+00    0.000000000e+00    0.000000000e+00    0.000000000e+00
      317000000    3.075094521e-01    4.542473555e-01   -1.380878675e-04    3.897598071e-05    0.000000000e+00    0.000000000e+00    0.000000000e+00    0.000000000e+00
      318625000    3.194274008e-01    4.440075159e-01   -2.849062184e-05    7.683178410e-05    0.000000000e+00    0.000000000e+00    0.000000000e+00    0.000000000e+00
      320250000    3.306847811e-01    4.330249727e-01   -7.753109094e-05   -1.520596707e-04    0.000000000e+00    0.000000000e+00    0.000000000e+00    0.000000000e+00
      321875000    3.421234488e-01    4.217995703e-01   -4.788929800e-05    4.083843305e-05    0.000000000e+00    0.000000000e+00    0.000000000e+00    0.000000000e+00
      323500000    3.532718122e-01    4.108806252e-01    2.153761488e-05    7.941301737e-05    0.000000000e+00    0.000000000e+00    0.000000000e+00    0.000000000e+00
      325125000    3.640445173e-01    3.994649649e-01   -2.845090239e-05    1.745066984e-04    0.000000000e+00    0.000000000e+00    0.000000000e+00    0.000000000e+00
      326750000    3.741452694e-01    3.876892030e-01   -6.714936171e-05   -4.514560351e-05    0.000000000e+00    0.000000000e+00    0.000000000e+00    0.000000000e+00
      328375000    3.837116957e-01    3.761997521e-01   -2.162852034e-04   -4.179840289e-06    0.000000000e+00    0.000000000e+00    0.000000000e+00    0.000000000e+00
      330000000    3.931366801e-01    3.637878895e-01   -6.688830035e-05   -5.785307803e-05    0.000000000e+00    0.000000000e+00    0.000000000e+00    0.000000000e+00
      331625000    4.025301337e-01    3.515854776e-01   -7.121056115e-05   -8.066331793e-05    0.000000000e+00    0.000000000e+00    0.000000000e+00    0.000000000e+00
      333250000    4.114591181e-01    3.392918408e-01   -7.902851212e-05    5.611057713e-05    0.000000000e+00    0.000000000e+00    0.000000000e+00    0.000000000e+00
      334875000    4.198351204e-01    3.268678486e-01   -7.359658775e-05    8.028974116e-05    0.000000000e+00    0.000000000e+00    0.000000000e+00    0.000000000e+00
      336500000    4.279513061e-01    3.143818080e-01   -6.633490557e-06   -5.960334602e-05    0.000000000e+00    0.000000000e+00    0.000000000e+00    0.000000000e+00
      338125000    4.356243312e-01    3.016999364e-01   -2.699548895e-05   -1.937897650e-05    0.000000000e+00    0.000000000e+00    0.000000000e+00    0.000000000e+00
      339750000    4.433946908e-01    2.888282537e-01    4.626346708e-06   -1.776626777e-05    0.000000000e+00    0.000000000e+00    0.000000000e+00    0.000000000e+00
      341375000    4.502787292e-01    2.757749259e-01    1.164135756e-05    8.003811672e-05    0.000000000e+00    0.000000000e+00    0.000000000e+00    0.000000000e+00
      343000000    4.569780827e-01    2.626678944e-01   -1.259231431e-05   -5.198333020e-05    0.000000000e+00    0.000000000e+00    0.000000000e+00    0.000000000e+00
      344625000    4.634963870e-01    2.495635748e-01   -7.686314348e-05   -1.381891343e-05    0.000000000e+00    0.000000000e+00    0.000000000e+00    0.000000000e+00
      346250000    4.699073732e-01    2.363312095e-01   -6.636593025e-05   -1.604684621e-05    0.000000000e+00    0.000000000e+00    0.000000000e+00    0.000000000e+00
      347875000    4.753412604e-01    2.231128663e-01    1.765613342e-05    1.251649956e-04    0.000000000e+00    0.000000000e+00    0.000000000e+00    0.000000000e+00
      349500000    4.809450507e-01    2.099401206e-01    1.385795331e-04    4.444443039e-05    0.000000000e+00    0.000000000e+00    0.000000000e+00    0.000000000e+00
      351125000    4.858921170e-01    1.964082867e-01   -5.960727867e-05   -1.621687079e-05    0.000000000e+00    0.000000000e+00    0.000000000e+00    0.000000000e+00
      352750000    4.906545281e-01    1.830796003e-01   -1.899110794e-04    3.082672265e-05    0.000000000e+00    0.000000000e+00    0.000000000e+00    0.000000000e+00
      354375000    4.951656163e-01    1.694900841e-01   -1.792374242e-04   -4.618755338e-05    0.000000000e+00    0.000000000e+00    0.000000000e+00    0.000000000e+00
      356000000    4.989543855e-01    1.558351368e-01   -5.839548248e-05   -4.288789205e-05    0.000000000e+00    0.000000000e+00    0.000000000e+00    0.000000000e+00
      357625000    5.031144023e-01    1.422528177e-01   -1.659910777e-04    1.841554149e-05    0.000000000e+00    0.000000000e+00    0.000000000e+00    0.000000000e+00
      359250000    5.064504147e-01    1.285194308e-01   -2.897872764e-05   -5.825697372e-05    0.000000000e+00    0.000000000e+00    0.000000000e+00    0.000000000e+00
      360875000    5.097522140e-01    1.150209308e-01   -1.452730648e-04    8.967395843e-05    0.000000000e+00    0.000000000e+00    0.000000000e+00    0.000000000e+00
      362500000    5.124884248e-01    1.013501137e-01    2.421673742e-07   -1.377267154e-06    0.000000000e+00    0.000000000e+00    0.000000000e+00    0.000000000e+00
      364125000    5.150224566e-01    8.781965822e-02   -2.205149758e-05    1.080952497e-04    0.000000000e+00    0.000000000e+00    0.000000000e+00    0.000000000e+00
      365750000    5.173444152e-01    7.417196780e-02   -1.570886670e-04   -7.199289394e-05    0.000000000e+00    0.000000000e+00    0.000000000e+00    0.000000000e+00
      367375000    5.192980170e-01    6.032996252e-02   -1.466511167e-04    3.493061377e-05    0.000000000e+00    0.000000000e+00    0.000000000e+00    0.000000000e+00
      369000000    5.209862590e-01    4.673849046e-02    3.719769302e-05   -5.048074672e-05    0.000000000e+00    0.000000000e+00    0.000000000e+00    0.000000000e+00
      370625000    5.224475265e-01    3.340135887e-02    2.668307570e-05    6.098648555e-07    0.000000000e+00    0.000000000e+00    0.000000000e+00    0.000000000e+00
      372250000    5.231759548e-01    1.952050254e-02   -1.036792673e-04    1.038122355e-04    0.000000000e+00    0.000000000e+00    0.000000000e+00    0.000000000e+00
      373875000    5.240053535e-01    6.183432881e-03   -8.108421025e-05   -4.507029735e-05    0.000000000e+00    0.000000000e+00    0.000000000e+00    0.000000000e+00
      375500000    5.243765116e-01   -7.365546189e-03    4.519324648e-05    1.319177954e-05    0.000000000e+00    0.000000000e+00    0.000000000e+00    0.000000000e+00
      377125000    5.246114731e-01   -2.075891383e-02   -1.424339862e-04    2.174194196e-05    0.000000000e+00    0.000000000e+00    0.000000000e+00    0.000000000e+00
      378750000    5.246089697e-01   -3.435669839e-02   -1.717915147e-04    1.269847708e-04    0.000000000e+00    0.000000000e+00    0.000000000e+00    0.000000000e+00
      380375000    5.239450336e-01   -4.782420397e-02   -1.472205768e-04    9.492289246e-05    0.000000000e+00    0.000000000e+00    0.000000000e+00    0.000000000e+00
      382000000    5.233215094e-01   -6.103657931e-02   -3.881305020e-05    1.556027855e-04    0.000000000e+00    0.000000000e+00    0.000000000e+00    0.000000000e+00
      383625000    5.222116709e-01   -7.443151623e-02   -1.791089016e-04    1.430927368e-04    0.000000000e+00    0.000000000e+00    0.000000000e+00    0.000000000e+00
      385250000    5.209745765e-01   -8.793183416e-02   -1.558373478e-04    1.151171527e-04    0.000000000e+00    0.000000000e+00    0.000000000e+00    0.000000000e+00
      386875000    5.194981098e-01   -1.009784937e-01   -1.441809582e-04    6.332471003e-06    0.000000000e+00    0.000000000e+00    0.000000000e+00    0.000000000e+00
      388500000    5.175678730e-01   -1.141749322e-01   -1.032534346e-04    3.744141213e-05    0.000000000e+00    0.000000000e+00    0.000000000e+00    0.000000000e+00
