! NanoVNA-App
! Date: 2024-06-25 16:52:35
! Start: 200MHz Stop: 1.5GHz Points: 801
! S-Parameter data: F S11 S21 S12 S22
# Hz S RI R 50
!     Frequency           S11_Real           S11_Imag           S21_Real           S21_Imag           S12_Real           S12_Imag           S22_Real           S22_Imag
      200000000   -7.507431507e-01    1.168232784e-01    1.740235311e-04    8.862344112e-05    0.000000000e+00    0.000000000e+00    0.000000000e+00    0.000000000e+00
      201625000   -7.458598614e-01    1.399648786e-01    1.948385179e-04    6.799897528e-05    0.000000000e+00    0.000000000e+00    0.000000000e+00    0.000000000e+00
      203250000   -7.403110266e-01    1.628214270e-01    2.155030961e-04    5.712257189e-05    0.000000000e+00    0.000000000e+00    0.000000000e+00    0.000000000e+00
      204875000   -7.339280844e-01    1.854156852e-01    1.989724988e-04    6.071668395e-05    0.000000000e+00    0.000000000e+00    0.000000000e+00    0.000000000e+00
      206500000   -7.267861962e-01    2.075404972e-01    2.254825813e-04    5.567117842e-05    0.000000000e+00    0.000000000e+00    0.000000000e+00    0.000000000e+00
      208125000   -7.189223766e-01    2.294673771e-01    2.421464596e-04    8.228578372e-05    0.000000000e+00    0.000000000e+00    0.000000000e+00    0.000000000e+00
      209750000   -7.102677822e-01    2.510915399e-01    2.461015247e-04    8.998643898e-05    0.000000000e+00    0.000000000e+00    0.000000000e+00    0.000000000e+00
      211375000   -7.009315491e-01    2.722049654e-01    2.493206703e-04    1.016408860e-04    0.000000000e+00    0.000000000e+00    0.000000000e+00    0.000000000e+00
      213000000   -6.909454465e-01    2.930487692e-01    2.639715676e-04    1.061743678e-04    0.000000000e+00    0.000000000e+00    0.000000000e+00    0.000000000e+00
      214625000   -6.801830530e-01    3.132600188e-01    2.552458318e-04    1.148015435e-04    0.000000000e+00    0.000000000e+00    0.000000000e+00    0.000000000e+00
      216250000   -6.687949896e-01    3.333254158e-01    2.950508497e-04    9.999250324e-05    0.000000000e+00    0.000000000e+00    0.000000000e+00    0.000000000e+00
      217875000   -6.566708684e-01    3.527389765e-01    2.863230184e-04    1.296969276e-04    0.000000000e+00    0.000000000e+00    0.000000000e+00    0.000000000e+00
      219500000   -6.441169977e-01    3.715099990e-01    2.873183694e-04    1.067242192e-04    0.000000000e+00    0.000000000e+00    0.000000000e+00    0.000000000e+00
      221125000   -6.308617592e-01    3.897611201e-01    2.871537581e-04    1.479246857e-04    0.000000000e+00    0.000000000e+00    0.000000000e+00    0.000000000e+00
      222750000   -6.170205474e-01    4.077849984e-01    2.864894341e-04    1.232561190e-04    0.000000000e+00    0.000000000e+00    0.000000000e+00    0.000000000e+00
      224375000   -6.025426388e-01    4.250415266e-01    2.930718765e-04    1.420897606e-04    0.000000000e+00    0.000000000e+00    0.000000000e+00    0.000000000e+00
      226000000   -5.877698660e-01    4.418223500e-01    2.893777855e-04    1.416777377e-04    0.000000000e+00    0.000000000e+00    0.000000000e+00    0.000000000e+00
      227625000   -5.723300576e-01    4.578584135e-01    3.098408924e-04    1.618898677e-04    0.000000000e+00    0.000000000e+00    0.000000000e+00    0.000000000e+00
      229250000   -5.566579103e-01    4.735531211e-01    3.137733729e-04    1.345289493e-04    0.000000000e+00    0.000000000e+00    0.000000000e+00    0.000000000e+00
      230875000   -5.404897928e-01    4.884923398e-01    3.100309987e-04    1.492731099e-04    0.000000000e+00    0.000000000e+00    0.000000000e+00    0.000000000e+00
      232500000   -5.237151384e-01    5.029721260e-01    3.261702950e-04    1.588699088e-04    0.000000000e+00    0.000000000e+00    0.000000000e+00    0.000000000e+00
      234125000   -5.067342520e-01    5.166475177e-01    3.117590095e-04    1.562955586e-04    0.000000000e+00    0.000000000e+00    0.000000000e+00    0.000000000e+00
      235750000   -4.892122447e-01    5.298744440e-01    3.189383715e-04    1.648160833e-04    0.000000000e+00    0.000000000e+00    0.000000000e+00    0.000000000e+00
      237375000   -4.713985920e-01    5.422704816e-01    3.358284011e-04    1.599626266e-04    0.000000000e+00    0.000000000e+00    0.000000000e+00    0.000000000e+00
      239000000   -4.533485770e-01    5.540933013e-01    3.122694616e-04    1.439041371e-04    0.000000000e+00    0.000000000e+00    0.000000000e+00    0.000000000e+00
      240625000   -4.349800944e-01    5.653159022e-01    3.065097262e-04    1.594008500e-04    0.000000000e+00    0.000000000e+00    0.000000000e+00    0.000000000e+00
      242250000   -4.161250293e-01    5.759756565e-01    3.284363484e-04    1.351497631e-04    0.000000000e+00    0.000000000e+00    0.000000000e+00    0.000000000e+00
      243875000   -3.969618380e-01    5.859568119e-01    3.461474553e-04    1.436061430e-04    0.000000000e+00    0.000000000e+00    0.000000000e+00    0.000000000e+00
      245500000   -3.776562214e-01    5.955749750e-01    3.256407508e-04    1.501671650e-04    0.000000000e+00    0.000000000e+00    0.000000000e+00    0.000000000e+00
      247125000   -3.582578301e-01    6.044261456e-01    3.384811571e-04    1.764385233e-04    0.000000000e+00    0.000000000e+00    0.000000000e+00    0.000000000e+00
      248750000   -3.381911814e-01    6.125848889e-01    3.358802933e-04    1.521176600e-04    0.000000000e+00    0.000000000e+00    0.000000000e+00    0.000000000e+00
      250375000   -3.184845448e-01    6.200729012e-01    3.348992905e-04    1.456019818e-04    0.000000000e+00    0.000000000e+00    0.000000000e+00    0.000000000e+00
      252000000   -2.985318899e-01    6.269228458e-01    3.389847698e-04    1.313966350e-04    0.000000000e+00    0.000000000e+00    0.000000000e+00    0.000000000e+00
      253625000   -2.787212133e-01    6.329759359e-01    3.413798986e-04    1.765368652e-04    0.000000000e+00    0.000000000e+00    0.000000000e+00    0.000000000e+00
      255250000   -2.586858869e-01    6.385341287e-01    3.517370787e-04    1.544644474e-04    0.000000000e+00    0.000000000e+00    0.000000000e+00    0.000000000e+00
      256875000   -2.388370633e-01    6.432862282e-01    3.396098909e-04    1.399386674e-04    0.000000000e+00    0.000000000e+00    0.000000000e+00    0.000000000e+00
      258500000   -2.185904533e-01    6.475834250e-01    3.710276796e-04    1.698911219e-04    0.000000000e+00    0.000000000e+00    0.000000000e+00    0.000000000e+00
      260125000   -1.987243742e-01    6.513496637e-01    3.504488559e-04    1.644507283e-04    0.000000000e+00    0.000000000e+00    0.000000000e+00    0.000000000e+00
      261750000   -1.785225868e-01    6.544492841e-01    3.772602358e-04    1.715668914e-04    0.000000000e+00    0.000000000e+00    0.000000000e+00    0.000000000e+00
      263375000   -1.584979296e-01    6.566853523e-01    3.466108756e-04    1.388451055e-04    0.000000000e+00    0.000000000e+00    0.000000000e+00    0.000000000e+00
      265000000   -1.386404634e-01    6.584265232e-01    3.486417118e-04    1.668375335e-04    0.000000000e+00    0.000000000e+00    0.000000000e+00    0.000000000e+00
      266625000   -1.186246201e-01    6.593294740e-01    3.611055436e-04    1.474730234e-04    0.000000000e+00    0.000000000e+00    0.000000000e+00    0.000000000e+00
      268250000   -9.856129438e-02    6.599269509e-01    3.779750259e-04    1.469550480e-04    0.000000000e+00    0.000000000e+00    0.000000000e+00    0.000000000e+00
      269875000   -7.889676839e-02    6.599606872e-01    3.755070793e-04    1.442226494e-04    0.000000000e+00    0.000000000e+00    0.000000000e+00    0.000000000e+00
      271500000   -5.930934101e-02    6.593058705e-01    3.799497499e-04    1.535180490e-04    0.000000000e+00    0.000000000e+00    0.000000000e+00    0.000000000e+00
      273125000   -3.968638927e-02    6.580694914e-01    3.740487155e-04    1.241743448e-04    0.000000000e+00    0.000000000e+00    0.000000000e+00    0.000000000e+00
      274750000   -2.010504715e-02    6.562787294e-01    3.430177167e-04    1.503770472e-04    0.000000000e+00    0.000000000e+00    0.000000000e+00    0.000000000e+00
      276375000   -7.526688278e-04    6.540465355e-01    3.562532074e-04    1.398124732e-04    0.000000000e+00    0.000000000e+00    0.000000000e+00    0.000000000e+00
      278000000    1.822525263e-02    6.513188481e-01    3.494277189e-04    1.539487857e-04    0.000000000e+00    0.000000000e+00    0.000000000e+00    0.000000000e+00
      279625000    3.731503338e-02    6.479192376e-01    3.542813065e-04    1.555128838e-04    0.000000000e+00    0.000000000e+00    0.000000000e+00    0.000000000e+00
      281250000    5.623070896e-02    6.441344023e-01    3.241690283e-04    1.367905643e-04    0.000000000e+00    0.000000000e+00    0.000000000e+00    0.000000000e+00
      282875000    7.479290664e-02    6.396649480e-01    3.690150043e-04    1.355524728e-04    0.000000000e+00    0.000000000e+00    0.000000000e+00    0.000000000e+00
      284500000    9.319338202e-02    6.349661350e-01    3.499157028e-04    1.292642119e-04    0.000000000e+00    0.000000000e+00    0.000000000e+00    0.000000000e+00
      286125000    1.113526374e-01    6.296277642e-01    3.286400170e-04    1.456503524e-04    0.000000000e+00    0.000000000e+00    0.000000000e+00    0.000000000e+00
      287750000    1.293032169e-01    6.238778830e-01    3.203738306e-04    1.015366506e-04    0.000000000e+00    0.000000000e+00    0.000000000e+00    0.000000000e+00
      289375000    1.471359283e-01    6.175327897e-01    3.298824886e-04    1.243034349e-04    0.000000000e+00    0.000000000e+00    0.000000000e+00    0.000000000e+00
      291000000    7.403092831e-02    5.800129771e-01    5.404034164e-05    3.760915206e-05    0.000000000e+00    0.000000000e+00    0.000000000e+00    0.000000000e+00
      292625000    8.943466842e-02    5.747529268e-01   -2.808465797e-04    1.499550126e-05    0.000000000e+00    0.000000000e+00    0.000000000e+00    0.000000000e+00
      294250000    1.067254394e-01    5.690774322e-01   -2.795698674e-05    7.979185466e-05    0.000000000e+00    0.000000000e+00    0.000000000e+00    0.000000000e+00
      295875000    1.228800416e-01    5.631614923e-01    2.870588651e-05   -4.860187255e-05    0.000000000e+00    0.000000000e+00    0.000000000e+00    0.000000000e+00
      297500000    1.388658732e-01    5.566070676e-01    8.762682410e-05   -3.623996690e-06    0.000000000e+00    0.000000000e+00    0.000000000e+00    0.000000000e+00
      299125000    1.541323066e-01    5.503625870e-01    8.705905202e-05    3.053433829e-05    0.000000000e+00    0.000000000e+00    0.000000000e+00    0.000000000e+00
      300750000    1.701231748e-01    5.432585478e-01   -6.238439528e-05    3.018914686e-05    0.000000000e+00    0.000000000e+00    0.000000000e+00    0.000000000e+00
      302375000    1.847076118e-01    5.358018875e-01    7.672807260e-05   -5.624382538e-05    0.000000000e+00    0.000000000e+00    0.000000000e+00    0.000000000e+00
      304000000    1.997765601e-01    5.280295014e-01   -7.790020027e-05   -5.673525084e-05    0.000000000e+00    0.000000000e+00    0.000000000e+00    0.000000000e+00
      305625000    2.142249048e-01    5.205563307e-01    4.412792623e-05   -6.970328172e-07    0.000000000e+00    0.000000000e+00    0.000000000e+00    0.000000000e+00
      307250000    2.286562175e-01    5.136618018e-01   -8.743244507e-06    6.215106259e-05    0.000000000e+00    0.000000000e+00    0.000000000e+00    0.000000000e+00
      308875000    2.427208573e-01    5.028598905e-01    8.098292165e-05   -5.550193964e-05    0.000000000e+00    0.000000000e+00    0.000000000e+00    0.000000000e+00
      310500000    2.559849024e-01    4.939838052e-01   -8.657998114e-05    1.791369577e-04    0.000000000e+00    0.000000000e+00    0.000000000e+00    0.000000000e+00
      312125000    2.695807815e-01    4.844508171e-01    2.286280051e-06    5.876017894e-05    0.000000000e+00    0.000000000e+00    0.000000000e+00    0.000000000e+00
      313750000    2.822380662e-01    4.745390415e-01    3.802192441e-05    8.777533367e-05    0.000000000e+00    0.000000000e+00    0.000000000e+00    0.000000000e+00
      315375000    2.955384851e-01    4.644635916e-01   -1.415139704e-04    1.475305762e-04    0.000000000e+00    0.000000000e+00    0.000000000e+00    0.000000000e+00
      317000000    3.073075116e-01    4.544778764e-01    3.678538269e-05    3.717062646e-05    0.000000000e+00    0.000000000e+00    0.000000000e+00    0.000000000e+00
      318625000    3.196764290e-01    4.442998469e-01   -1.432855497e-04    1.261508442e-04    0.000000000e+00    0.000000000e+00    0.000000000e+00    0.000000000e+00
      320250000    3.310110867e-01    4.330747128e-01   -1.164868081e-04    1.220517079e-04    0.000000000e+00    0.000000000e+00    0.000000000e+00    0.000000000e+00
      321875000    3.419444263e-01    4.218309224e-01   -1.436364255e-04    8.184058970e-05    0.000000000e+00    0.000000000e+00    0.000000000e+00    0.000000000e+00
      323500000    3.529527485e-01    4.104823470e-01   -3.900064257e-05    2.204527409e-04    0.000000000e+00    0.000000000e+00    0.000000000e+00    0.000000000e+00
      325125000    3.638129532e-01    3.994138539e-01    1.254683502e-05    1.408628668e-05    0.000000000e+00    0.000000000e+00    0.000000000e+00    0.000000000e+00
      326750000    3.739830256e-01    3.875316381e-01   -1.514127234e-06    1.175384114e-05    0.000000000e+00    0.000000000e+00    0.000000000e+00    0.000000000e+00
      328375000    3.837970197e-01    3.758685291e-01   -1.005665181e-04   -6.496858259e-05    0.000000000e+00    0.000000000e+00    0.000000000e+00    0.000000000e+00
      330000000    3.930853903e-01    3.635026217e-01   -6.439014396e-05   -4.834247011e-05    0.000000000e+00    0.000000000e+00    0.000000000e+00    0.000000000e+00
      331625000    4.023300409e-01    3.516881466e-01   -7.846935478e-05   -1.457968119e-05    0.000000000e+00    0.000000000e+00    0.000000000e+00    0.000000000e+00
      333250000    4.113886952e-01    3.393716216e-01   -3.456914055e-05   -6.435320392e-05    0.000000000e+00    0.000000000e+00    0.000000000e+00    0.000000000e+00
      334875000    4.200075567e-01    3.268399537e-01   -1.242703584e-04    3.367338650e-05    0.000000000e+00    0.000000000e+00    0.000000000e+00    0.000000000e+00
      336500000    4.279887676e-01    3.142734468e-01    4.561631795e-05   -9.827031317e-05    0.000000000e+00    0.000000000e+00    0.000000000e+00    0.000000000e+00
      338125000    4.358288348e-01    3.016622663e-01   -1.344107150e-04   -3.087592631e-05    0.000000000e+00    0.000000000e+00    0.000000000e+00    0.000000000e+00
      339750000    4.432874918e-01    2.890018523e-01   -1.442988723e-04    6.034575199e-05    0.000000000e+00    0.000000000e+00    0.000000000e+00    0.000000000e+00
      341375000    4.503963888e-01    2.757985890e-01   -1.029798932e-05    9.988302918e-05    0.000000000e+00    0.000000000e+00    0.000000000e+00    0.000000000e+00
      343000000    4.570388198e-01    2.627606094e-01    1.748559589e-05   -6.925695197e-05    0.000000000e+00    0.000000000e+00    0.000000000e+00    0.000000000e+00
      344625000    4.634231925e-01    2.496660948e-01   -7.813062257e-05   -6.984097854e-05    0.000000000e+00    0.000000000e+00    0.000000000e+00    0.000000000e+00
      346250000    4.697705805e-01    2.364800870e-01   -8.898084343e-05    3.017629297e-06    0.000000000e+00    0.000000000e+00    0.000000000e+00    0.000000000e+00
      347875000    4.753368199e-01    2.232761234e-01    5.355559915e-05    4.908307528e-05    0.000000000e+00    0.000000000e+00    0.000000000e+00    0.000000000e+00
      349500000    4.808470309e-01    2.098830640e-01   -6.420678255e-05   -4.403846106e-05    0.000000000e+00    0.000000000e+00    0.000000000e+00    0.000000000e+00
      351125000    4.858635962e-01    1.963378489e-01    3.561441190e-05   -3.240159640e-05    0.000000000e+00    0.000000000e+00    0.000000000e+00    0.000000000e+00
      352750000    4.906583726e-01    1.829552948e-01    1.229764166e-04    8.860213711e-05    0.000000000e+00    0.000000000e+00    0.000000000e+00    0.000000000e+00
      354375000    4.948665500e-01    1.693545282e-01   -1.393446437e-04    1.017236937e-04    0.000000000e+00    0.000000000e+00    0.000000000e+00    0.000000000e+00
      356000000    4.992624223e-01    1.557852477e-01    2.695847616e-05   -8.023586270e-05    0.000000000e+00    0.000000000e+00    0.000000000e+00    0.000000000e+00
      357625000    5.028987527e-01    1.422185302e-01   -6.002713417e-05   -9.631812645e-06    0.000000000e+00    0.000000000e+00    0.000000000e+00    0.000000000e+00
      359250000    5.066121221e-01    1.285521090e-01    1.712353514e-05   -3.685450793e-05    0.000000000e+00    0.000000000e+00    0.000000000e+00    0.000000000e+00
      360875000    5.097458363e-01    1.150576174e-01    4.204167999e-05   -5.862652324e-05    0.000000000e+00    0.000000000e+00    0.000000000e+00    0.000000000e+00
      362500000    5.124204755e-01    1.011828482e-01   -5.119551861e-05    9.878668061e-05    0.000000000e+00    0.000000000e+00    0.000000000e+00    0.000000000e+00
      364125000    5.149937868e-01    8.766860515e-02    5.141842121e-05   -7.597281365e-05    0.000000000e+00    0.000000000e+00    0.000000000e+00    0.000000000e+00
      365750000    5.173339248e-01    7.414003462e-02   -5.283726932e-05    1.174325153e-04    0.000000000e+00    0.000000000e+00    0.000000000e+00    0.000000000e+00
      367375000    5.192013979e-01    6.047631055e-02   -6.999354810e-05   -1.518193221e-05    0.000000000e+00    0.000000000e+00    0.000000000e+00    0.000000000e+00
      369000000    5.210134983e-01    4.690165073e-02   -3.253560135e-05   -1.060419090e-04    0.000000000e+00    0.000000000e+00    0.000000000e+00    0.000000000e+00
      370625000    5.225556493e-01    3.326553851e-02   -8.225293277e-05    7.385762274e-06    0.000000000e+00    0.000000000e+00    0.000000000e+00    0.000000000e+00
      372250000    5.235645175e-01    1.950501837e-02   -9.753138147e-05    6.861885777e-05    0.000000000e+00    0.000000000e+00    0.000000000e+00    0.000000000e+00
      373875000    5.240591764e-01    6.249876227e-03   -1.130916426e-04   -2.258572567e-05    0.000000000e+00    0.000000000e+00    0.000000000e+00    0.000000000e+00
      375500000    5.244352818e-01   -7.232677191e-03   -1.157389306e-05    1.341407915e-04    0.000000000e+00    0.000000000e+00    0.000000000e+00    0.000000000e+00
      377125000    5.246263146e-01   -2.092374861e-02    2.001297980e-05    3.407289842e-05    0.000000000e+00    0.000000000e+00    0.000000000e+00    0.000000000e+00
      378750000    5.244907737e-01   -3.414202854e-02    3.080616079e-05    1.102399765e-04    0.000000000e+00    0.000000000e+00    0.000000000e+00    0.000000000e+00
      380375000    5.239272714e-01   -4.756524414e-02    2.856374158e-05    7.905946404e-05    0.000000000e+00    0.000000000e+00    0.000000000e+00    0.000000000e+00
      382000000    5.233635306e-01   -6.101518497e-02   -1.278814016e-04    1.586035069e-04    0.000000000e+00    0.000000000e+00    0.000000000e+00    0.000000000e+00
      383625000    5.222461820e-01   -7.440342009e-02   -1.980875386e-04    7.114865002e-05    0.000000000e+00    0.000000000e+00    0.000000000e+00    0.000000000e+00
      385250000    5.209916830e-01   -8.770627528e-02   -1.047223705e-04   -5.753036749e-05    0.000000000e+00    0.000000000e+00    0.000000000e+00    0.000000000e+00
      386875000    5.193775296e-01   -1.009403318e-01   -2.842781396e-05    1.042854783e-04    0.000000000e+00    0.000000000e+00    0.000000000e+00    0.000000000e+00
      388500000    5.175179243e-01   -1.139040142e-01   -2.200673189e-04    8.557532419e-05    0.000000000e+00    0.000000000e+00    0.000000000e+00    0.000000000e+00
