! NanoVNA-App
! Date: 2024-06-25 16:53:03
! Start: 200MHz Stop: 1.5GHz Points: 801
! S-Parameter data: F S11 S21 S12 S22
# Hz S RI R 50
!     Frequency           S11_Real           S11_Imag           S21_Real           S21_Imag           S12_Real           S12_Imag           S22_Real           S22_Imag
      200000000   -7.506635189e-01    1.167939231e-01    1.622775017e-04    6.252247113e-05    0.000000000e+00    0.000000000e+00    0.000000000e+00    0.000000000e+00
      201625000   -7.457706928e-01    1.398895234e-01    1.639314723e-04    6.087322618e-05    0.000000000e+00    0.000000000e+00    0.000000000e+00    0.000000000e+00
      203250000   -7.401399612e-01    1.627869308e-01    1.813523122e-04    5.933143984e-05    0.000000000e+00    0.000000000e+00    0.000000000e+00    0.000000000e+00
      204875000   -7.338160872e-01    1.852778643e-01    2.043531713e-04    7.631532208e-05    0.000000000e+00    0.000000000e+00    0.000000000e+00    0.000000000e+00
      206500000   -7.267126441e-01    2.075019181e-01    2.204362536e-04    7.091930456e-05    0.000000000e+00    0.000000000e+00    0.000000000e+00    0.000000000e+00
      208125000   -7.188549638e-01    2.294159383e-01    2.297640749e-04    1.130256351e-04    0.000000000e+00    0.000000000e+00    0.000000000e+00    0.000000000e+00
      209750000   -7.102292180e-01    2.510663271e-01    2.483938006e-04    9.462424350e-05    0.000000000e+00    0.000000000e+00    0.000000000e+00    0.000000000e+00
      211375000   -7.009018064e-01    2.721268833e-01    2.478241222e-04    8.341350622e-05    0.000000000e+00    0.000000000e+00    0.000000000e+00    0.000000000e+00
      213000000   -6.907273531e-01    2.929391563e-01    2.413486218e-04    9.141990449e-05    0.000000000e+00    0.000000000e+00    0.000000000e+00    0.000000000e+00
      214625000   -6.800519824e-01    3.131661415e-01    2.507388999e-04    1.208834656e-04    0.000000000e+00    0.000000000e+00    0.000000000e+00    0.000000000e+00
      216250000   -6.686584353e-01    3.332546949e-01    2.844925039e-04    1.186834561e-04    0.000000000e+00    0.000000000e+00    0.000000000e+00    0.000000000e+00
      217875000   -6.565870047e-01    3.524376452e-01    2.656493161e-04    1.271774381e-04    0.000000000e+00    0.000000000e+00    0.000000000e+00    0.000000000e+00
      219500000   -6.441059113e-01    3.714044094e-01    2.754059678e-04    1.328351063e-04    0.000000000e+00    0.000000000e+00    0.000000000e+00    0.000000000e+00
      221125000   -6.308186054e-01    3.896223307e-01    2.732546418e-04    1.360008318e-04    0.000000000e+00    0.000000000e+00    0.000000000e+00    0.000000000e+00
      222750000   -6.168526411e-01    4.076953530e-01    3.055075067e-04    1.310015359e-04    0.000000000e+00    0.000000000e+00    0.000000000e+00    0.000000000e+00
      224375000   -6.026153564e-01    4.249401689e-01    2.818100329e-04    1.471152791e-04    0.000000000e+00    0.000000000e+00    0.000000000e+00    0.000000000e+00
      226000000   -5.877828002e-01    4.417228699e-01    2.946632158e-04    1.400229521e-04    0.000000000e+00    0.000000000e+00    0.000000000e+00    0.000000000e+00
      227625000   -5.723533630e-01    4.576286077e-01    2.863298287e-04    1.598305098e-04    0.000000000e+00    0.000000000e+00    0.000000000e+00    0.000000000e+00
      229250000   -5.565493107e-01    4.734413922e-01    3.106179647e-04    1.522362436e-04    0.000000000e+00    0.000000000e+00    0.000000000e+00    0.000000000e+00
      230875000   -5.403172374e-01    4.883897603e-01    2.975507523e-04    1.481048093e-04    0.000000000e+00    0.000000000e+00    0.000000000e+00    0.000000000e+00
      232500000   -5.237802267e-01    5.028608441e-01    3.085493809e-04    1.260339341e-04    0.000000000e+00    0.000000000e+00    0.000000000e+00    0.000000000e+00
      234125000   -5.066909194e-01    5.164805651e-01    3.161004570e-04    1.449297124e-04    0.000000000e+00    0.000000000e+00    0.000000000e+00    0.000000000e+00
      235750000   -4.891270995e-01    5.296661854e-01    3.260195663e-04    1.392693230e-04    0.000000000e+00    0.000000000e+00    0.000000000e+00    0.000000000e+00
      237375000   -4.713508189e-01    5.420362949e-01    3.299471282e-04    1.425229275e-04    0.000000000e+00    0.000000000e+00    0.000000000e+00    0.000000000e+00
      239000000   -4.533345103e-01    5.539326072e-01    3.177022445e-04    1.424643124e-04    0.000000000e+00    0.000000000e+00    0.000000000e+00    0.000000000e+00
      240625000   -4.349733889e-01    5.652105808e-01    3.309984750e-04    1.605420111e-04    0.000000000e+00    0.000000000e+00    0.000000000e+00    0.000000000e+00
      242250000   -4.162577987e-01    5.759960413e-01    3.478353901e-04    1.404887007e-04    0.000000000e+00    0.000000000e+00    0.000000000e+00    0.000000000e+00
      243875000   -3.970041573e-01    5.859651566e-01    3.433489182e-04    1.314533729e-04    0.000000000e+00    0.000000000e+00    0.000000000e+00    0.000000000e+00
      245500000   -3.776369095e-01    5.953995585e-01    3.513072443e-04    1.559202938e-04    0.000000000e+00    0.000000000e+00    0.000000000e+00    0.000000000e+00
      247125000   -3.581410348e-01    6.042637825e-01    3.456936392e-04    1.210826158e-04    0.000000000e+00    0.000000000e+00    0.000000000e+00    0.000000000e+00
      248750000   -3.384234011e-01    6.123543978e-01    3.434662940e-04    1.441028435e-04    0.000000000e+00    0.000000000e+00    0.000000000e+00    0.000000000e+00
      250375000   -3.185508549e-01    6.199543476e-01    3.477978171e-04    1.541950187e-04    0.000000000e+00    0.000000000e+00    0.000000000e+00    0.000000000e+00
      252000000   -2.987454534e-01    6.267515421e-01    3.488320508e-04    1.630122861e-04    0.000000000e+00    0.000000000e+00    0.000000000e+00    0.000000000e+00
      253625000   -2.787454128e-01    6.328396797e-01    3.566594096e-04    1.514361065e-04    0.000000000e+00    0.000000000e+00    0.000000000e+00    0.000000000e+00
      255250000   -2.588182688e-01    6.383901834e-01    3.268722503e-04    1.651197381e-04    0.000000000e+00    0.000000000e+00    0.000000000e+00    0.000000000e+00
      256875000   -2.388947010e-01    6.433449388e-01    3.505088971e-04    1.682714646e-04    0.000000000e+00    0.000000000e+00    0.000000000e+00    0.000000000e+00
      258500000   -2.186857462e-01    6.473854184e-01    3.724423295e-04    1.417567255e-04    0.000000000e+00    0.000000000e+00    0.000000000e+00    0.000000000e+00
      260125000   -1.987269223e-01    6.511773467e-01    3.504534252e-04    1.540695666e-04    0.000000000e+00    0.000000000e+00    0.000000000e+00    0.000000000e+00
      261750000   -1.787760556e-01    6.543943286e-01    3.723870032e-04    1.486070832e-04    0.000000000e+00    0.000000000e+00    0.000000000e+00    0.000000000e+00
      263375000   -1.585977674e-01    6.565033197e-01    3.574896255e-04    1.621290139e-04    0.000000000e+00    0.000000000e+00    0.000000000e+00    0.000000000e+00
      265000000   -1.385521293e-01    6.581026912e-01    3.602510551e-04    1.476595062e-04    0.000000000e+00    0.000000000e+00    0.000000000e+00    0.000000000e+00
      266625000   -1.187704951e-01    6.592373848e-01    3.614291491e-04    1.642299321e-04    0.000000000e+00    0.000000000e+00    0.000000000e+00    0.000000000e+00
      268250000   -9.872038662e-02    6.597736478e-01    3.591048880e-04    1.466694957e-04    0.000000000e+00    0.000000000e+00    0.000000000e+00    0.000000000e+00
      269875000   -7.895091176e-02    6.598556042e-01    3.494594421e-04    1.529359724e-04    0.000000000e+00    0.000000000e+00    0.000000000e+00    0.000000000e+00
      271500000   -5.930260569e-02    6.590871811e-01    3.678496578e-04    1.427917741e-04    0.000000000e+00    0.000000000e+00    0.000000000e+00    0.000000000e+00
      273125000   -3.976887465e-02    6.579160690e-01    3.617539478e-04    1.382374758e-04    0.000000000e+00    0.000000000e+00    0.000000000e+00    0.000000000e+00
      274750000   -2.010795288e-02    6.561683416e-01    3.467903880e-04    1.606830192e-04    0.000000000e+00    0.000000000e+00    0.000000000e+00    0.000000000e+00
      276375000   -9.862439474e-04    6.538944244e-01    3.292559122e-04    1.516746270e-04    0.000000000e+00    0.000000000e+00    0.000000000e+00    0.000000000e+00
      278000000    1.816224679e-02    6.511142254e-01    3.406410106e-04    1.361877221e-04    0.000000000e+00    0.000000000e+00    0.000000000e+00    0.000000000e+00
      279625000    3.733972088e-02    6.479206085e-01    3.757472150e-04    1.609273750e-04    0.000000000e+00    0.000000000e+00    0.000000000e+00    0.000000000e+00
      281250000    5.604159459e-02    6.439084411e-01    3.498260048e-04    1.621791307e-04    0.000000000e+00    0.000000000e+00    0.000000000e+00    0.000000000e+00
      282875000    7.467787713e-02    6.396386027e-01    3.387748147e-04    1.416280575e-04    0.000000000e+00    0.000000000e+00    0.000000000e+00    0.000000000e+00
      284500000    9.314881265e-02    6.348719597e-01    3.125881776e-04    1.484049280e-04    0.000000000e+00    0.000000000e+00    0.000000000e+00    0.000000000e+00
      286125000    1.112841219e-01    6.294825077e-01    3.390363127e-04    1.368555531e-04    0.000000000e+00    0.000000000e+00    0.000000000e+00    0.000000000e+00
      287750000    1.292590350e-01    6.239139438e-01    3.271911701e-04    1.417334570e-04    0.000000000e+00    0.000000000e+00    0.000000000e+00    0.000000000e+00
      289375000    1.470080167e-01    6.174821258e-01    3.328791936e-04    1.226209279e-04    0.000000000e+00    0.000000000e+00    0.000000000e+00    0.000000000e+00
      291000000    7.371004671e-02    5.789927840e-01    2.796940862e-05   -2.349068745e-05    0.000000000e+00    0.000000000e+00    0.000000000e+00    0.000000000e+00
      292625000    8.981344104e-02    5.741302967e-01   -7.085362449e-05   -1.103779414e-05    0.000000000e+00    0.000000000e+00    0.000000000e+00    0.000000000e+00
      294250000    1.065761149e-01    5.690796971e-01   -5.606423656e-05   -4.657297177e-05    0.000000000e+00    0.000000000e+00    0.000000000e+00    0.000000000e+00
      295875000    1.225198805e-01    5.636827350e-01   -7.634099893e-05    1.227892935e-04    0.000000000e+00    0.000000000e+00    0.000000000e+00    0.000000000e+00
      297500000    1.384763867e-01    5.571153164e-01    1.115027430e-06    4.676216577e-06    0.000000000e+00    0.000000000e+00    0.000000000e+00    0.000000000e+00
      299125000    1.543947011e-01    5.501924753e-01   -1.082858362e-04    1.638230060e-05    0.000000000e+00    0.000000000e+00    0.000000000e+00    0.000000000e+00
      300750000    1.698507965e-01    5.431942940e-01    8.649026131e-05    3.162148278e-05    0.000000000e+00    0.000000000e+00    0.000000000e+00    0.000000000e+00
      302375000    1.847125888e-01    5.356966257e-01    1.102878650e-05   -6.036583000e-05    0.000000000e+00    0.000000000e+00    0.000000000e+00    0.000000000e+00
      304000000    1.997167766e-01    5.281125903e-01   -2.139212447e-04    7.388710947e-05    0.000000000e+00    0.000000000e+00    0.000000000e+00    0.000000000e+00
      305625000    2.142307311e-01    5.197184086e-01    2.849094744e-05   -3.328609455e-05    0.000000000e+00    0.000000000e+00    0.000000000e+00    0.000000000e+00
      307250000    2.293641418e-01    5.135267973e-01   -6.480245065e-05    7.795877173e-05    0.000000000e+00    0.000000000e+00    0.000000000e+00    0.000000000e+00
      308875000    2.426357865e-01    5.030137897e-01    1.097830245e-04    1.031070933e-04    0.000000000e+00    0.000000000e+00    0.000000000e+00    0.000000000e+00
      310500000    2.562648356e-01    4.937567413e-01   -6.557906454e-05    3.538876263e-05    0.000000000e+00    0.000000000e+00    0.000000000e+00    0.000000000e+00
      312125000    2.692478895e-01    4.840338826e-01    9.472850070e-05   -2.497196692e-05    0.000000000e+00    0.000000000e+00    0.000000000e+00    0.000000000e+00
      313750000    2.820841670e-01    4.746539891e-01   -8.666357462e-05    6.691674935e-05    0.000000000e+00    0.000000000e+00    0.000000000e+00    0.000000000e+00
      315375000    2.949437797e-01    4.644278586e-01   -1.095646585e-04   -4.591132529e-05    0.000000000e+00    0.000000000e+00    0.000000000e+00    0.000000000e+00
      317000000    3.072529733e-01    4.543788731e-01   -1.143587579e-04    2.580983710e-05    0.000000000e+00    0.000000000e+00    0.000000000e+00    0.000000000e+00
      318625000    3.191128969e-01    4.436036050e-01   -6.187287363e-05    7.916533650e-05    0.000000000e+00    0.000000000e+00    0.000000000e+00    0.000000000e+00
      320250000    3.312340379e-01    4.332204461e-01   -1.219671030e-04    4.333078323e-05    0.000000000e+00    0.000000000e+00    0.000000000e+00    0.000000000e+00
      321875000    3.423298597e-01    4.221691787e-01   -1.139723754e-04   -1.373687701e-04    0.000000000e+00    0.000000000e+00    0.000000000e+00    0.000000000e+00
      323500000    3.527861834e-01    4.105228782e-01   -1.265754963e-05    6.851848593e-05    0.000000000e+00    0.000000000e+00    0.000000000e+00    0.000000000e+00
      325125000    3.638065755e-01    3.990928829e-01   -3.884222679e-05    9.816620877e-05    0.000000000e+00    0.000000000e+00    0.000000000e+00    0.000000000e+00
      326750000    3.739657998e-01    3.878960907e-01   -7.288285269e-05   -9.250962466e-05    0.000000000e+00    0.000000000e+00    0.000000000e+00    0.000000000e+00
      328375000    3.837185204e-01    3.759763837e-01   -2.987503285e-05    1.431280689e-04    0.000000000e+00    0.000000000e+00    0.000000000e+00    0.000000000e+00
      330000000    3.931616247e-01    3.635615110e-01    1.373015984e-04   -1.051644176e-06    0.000000000e+00    0.000000000e+00    0.000000000e+00    0.000000000e+00
      331625000    4.026730657e-01    3.517954946e-01    1.038536993e-05   -7.203327550e-05    0.000000000e+00    0.000000000e+00    0.000000000e+00    0.000000000e+00
      333250000    4.113272130e-01    3.391693532e-01   -2.654465334e-06    6.591759302e-05    0.000000000e+00    0.000000000e+00    0.000000000e+00    0.000000000e+00
      334875000    4.199954271e-01    3.266657591e-01   -1.231909264e-04    8.394815086e-05    0.000000000e+00    0.000000000e+00    0.000000000e+00    0.000000000e+00
      336500000    4.280369878e-01    3.144085705e-01   -1.678042463e-04    5.724689254e-05    0.000000000e+00    0.000000000e+00    0.000000000e+00    0.000000000e+00
      338125000    4.356461167e-01    3.017954230e-01   -1.064161843e-04    3.935375207e-05    0.000000000e+00    0.000000000e+00    0.000000000e+00    0.000000000e+00
      339750000    4.432205856e-01    2.891048491e-01   -5.724159564e-05   -6.606028910e-05    0.000000000e+00    0.000000000e+00    0.000000000e+00    0.000000000e+00
      341375000    4.503720105e-01    2.757101655e-01    8.239294402e-05    1.128213535e-05    0.000000000e+00    0.000000000e+00    0.000000000e+00    0.000000000e+00
      343000000    4.569169581e-01    2.628200054e-01   -4.472745059e-05    9.764780407e-05    0.000000000e+00    0.000000000e+00    0.000000000e+00    0.000000000e+00
      344625000    4.634427428e-01    2.497550398e-01   -5.617749412e-05   -1.405930379e-04    0.000000000e+00    0.000000000e+00    0.000000000e+00    0.000000000e+00
      346250000    4.695259035e-01    2.364786863e-01    1.617904672e-05   -1.360944298e-04    0.000000000e+00    0.000000000e+00    0.000000000e+00    0.000000000e+00
      347875000    4.755586088e-01    2.231582850e-01   -1.188319875e-04   -8.675373101e-05    0.000000000e+00    0.000000000e+00    0.000000000e+00    0.000000000e+00
      349500000    4.807601273e-01    2.100093961e-01   -1.240687561e-04   -1.114010884e-04    0.000000000e+00    0.000000000e+00    0.000000000e+00    0.000000000e+00
      351125000    4.858664274e-01    1.965727955e-01   -6.544261851e-05   -5.897882147e-05    0.000000000e+00    0.000000000e+00    0.000000000e+00    0.000000000e+00
      352750000    4.906066954e-01    1.830397695e-01    6.296818901e-05   -2.645795803e-06    0.000000000e+00    0.000000000e+00    0.000000000e+00    0.000000000e+00
      354375000    4.952654839e-01    1.693953872e-01   -8.804809113e-06    4.742095916e-05    0.000000000e+00    0.000000000e+00    0.000000000e+00    0.000000000e+00
      356000000    4.990660250e-01    1.559970826e-01   -1.009812113e-04    3.489044684e-05    0.000000000e+00    0.000000000e+00    0.000000000e+00    0.000000000e+00
      357625000    5.028721094e-01    1.422881186e-01    1.477908063e-05    3.274042683e-05    0.000000000e+00    0.000000000e+00    0.000000000e+00    0.000000000e+00
      359250000    5.063583851e-01    1.286773235e-01   -1.175636498e-04   -3.973041748e-05    0.000000000e+00    0.000000000e+00    0.000000000e+00    0.000000000e+00
      360875000    5.093805790e-01    1.149082854e-01   -8.709335816e-05    4.122746759e-05    0.000000000e+00    0.000000000e+00    0.000000000e+00    0.000000000e+00
      362500000    5.124253035e-01    1.013390571e-01   -6.181010394e-05   -1.233309013e-04    0.000000000e+00    0.000000000e+00    0.000000000e+00    0.000000000e+00
      364125000    5.151790380e-01    8.778832108e-02   -5.023880476e-06    1.580157987e-04    0.000000000e+00    0.000000000e+00    0.000000000e+00    0.000000000e+00
      365750000    5.171077847e-01    7.406830043e-02    1.365535809e-05    6.496388232e-05    0.000000000e+00    0.000000000e+00    0.000000000e+00    0.000000000e+00
      367375000    5.191241503e-01    6.048445776e-02   -1.130924138e-04    7.176328654e-05    0.000000000e+00    0.000000000e+00    0.000000000e+00    0.000000000e+00
      369000000    5.207576752e-01    4.691932723e-02   -2.875555037e-05    2.006993600e-05    0.000000000e+00    0.000000000e+00    0.000000000e+00    0.000000000e+00
      370625000    5.221446753e-01    3.332722187e-02   -5.909015817e-05   -1.153730627e-04    0.000000000e+00    0.000000000e+00    0.000000000e+00    0.000000000e+00
      372250000    5.233652592e-01    1.991271228e-02   -7.864293366e-06   -4.091927622e-05    0.000000000e+00    0.000000000e+00    0.000000000e+00    0.000000000e+00
      373875000    5.241366029e-01    6.296882872e-03   -6.838831177e-05   -1.178079692e-04    0.000000000e+00    0.000000000e+00    0.000000000e+00    0.000000000e+00
      375500000    5.244553685e-01   -7.283929735e-03   -1.676347892e-05    1.220279664e-04    0.000000000e+00    0.000000000e+00    0.000000000e+00    0.000000000e+00
      377125000    5.246588588e-01   -2.074676007e-02   -3.164705777e-05    1.645705051e-04    0.000000000e+00    0.000000000e+00    0.000000000e+00    0.000000000e+00
      378750000    5.244101286e-01   -3.436031938e-02   -6.646236579e-05    7.184869446e-06    0.000000000e+00    0.000000000e+00    0.000000000e+00    0.000000000e+00
      380375000    5.239020586e-01   -4.770060256e-02   -1.452686556e-04    1.549623703e-04    0.000000000e+00    0.000000000e+00    0.000000000e+00    0.000000000e+00
      382000000    5.232695937e-01   -6.102038920e-02    2.553275954e-05    1.122721878e-04    0.000000000e+00    0.000000000e+00    0.000000000e+00    0.000000000e+00
      383625000    5.223142505e-01   -7.451890409e-02   -7.609046588e-05   -1.243992738e-04    0.000000000e+00    0.000000000e+00    0.000000000e+00    0.000000000e+00
      385250000    5.207807422e-01   -8.777946979e-02   -2.316656464e-04    1.284599712e-04    0.000000000e+00    0.000000000e+00    0.000000000e+00    0.000000000e+00
      386875000    5.192893744e-01   -1.008842587e-01   -2.296506282e-04    4.082733540e-06    0.000000000e+00    0.000000000e+00    0.000000000e+00    0.000000000e+00
      388500000    5.175645947e-01   -1.138743833e-01   -8.763729420e-05    1.126189600e-04    0.000000000e+00    0.000000000e+00    0.000000000e+00    0.000000000e+00
