! NanoVNA-App
! Date: 2024-06-25 16:53:06
! Start: 200MHz Stop: 1.5GHz Points: 801
! S-Parameter data: F S11 S21 S12 S22
# Hz S RI R 50
!     Frequency           S11_Real           S11_Imag           S21_Real           S21_Imag           S12_Real           S12_Imag           S22_Real           S22_Imag
      200000000   -7.506357431e-01    1.168217957e-01    1.697583211e-04    5.143919043e-05    0.000000000e+00    0.000000000e+00    0.000000000e+00    0.000000000e+00
      201625000   -7.458338141e-01    1.399835497e-01    1.806579239e-04    6.605926319e-05    0.000000000e+00    0.000000000e+00    0.000000000e+00    0.000000000e+00
      203250000   -7.402688265e-01    1.627999991e-01    1.979396766e-04    8.169536886e-05    0.000000000e+00    0.000000000e+00    0.000000000e+00    0.000000000e+00
      204875000   -7.338473201e-01    1.853425503e-01    2.023539564e-04    6.366059097e-05    0.000000000e+00    0.000000000e+00    0.000000000e+00    0.000000000e+00
      206500000   -7.266848087e-01    2.074573487e-01    2.221885225e-04    8.107296162e-05    0.000000000e+00    0.000000000e+00    0.000000000e+00    0.000000000e+00
      208125000   -7.188867927e-01    2.294098884e-01    2.436074283e-04    7.933648158e-05    0.000000000e+00    0.000000000e+00    0.000000000e+00    0.000000000e+00
      209750000   -7.103884816e-01    2.509823143e-01    2.467162558e-04    9.015847900e-05    0.000000000e+00    0.000000000e+00    0.000000000e+00    0.000000000e+00
      211375000   -7.009117603e-01    2.720247507e-01    2.669287787e-04    9.098542068e-05    0.000000000e+00    0.000000000e+00    0.000000000e+00    0.000000000e+00
      213000000   -6.907180548e-01    2.928712368e-01    2.534750092e-04    1.154581114e-04    0.000000000e+00    0.000000000e+00    0.000000000e+00    0.000000000e+00
      214625000   -6.800794601e-01    3.132666945e-01    2.396162599e-04    1.143643967e-04    0.000000000e+00    0.000000000e+00    0.000000000e+00    0.000000000e+00
      216250000   -6.686397195e-01    3.332311511e-01    2.768191916e-04    1.213966825e-04    0.000000000e+00    0.000000000e+00    0.000000000e+00    0.000000000e+00
      217875000   -6.567125320e-01    3.525059223e-01    2.574059472e-04    1.154115598e-04    0.000000000e+00    0.000000000e+00    0.000000000e+00    0.000000000e+00
      219500000   -6.439570189e-01    3.712901473e-01    3.056448186e-04    1.210192058e-04    0.000000000e+00    0.000000000e+00    0.000000000e+00    0.000000000e+00
      221125000   -6.307399869e-01    3.897711337e-01    2.958948025e-04    1.364456402e-04    0.000000000e+00    0.000000000e+00    0.000000000e+00    0.000000000e+00
      222750000   -6.169565916e-01    4.076092839e-01    2.949445334e-04    1.407062664e-04    0.000000000e+00    0.000000000e+00    0.000000000e+00    0.000000000e+00
      224375000   -6.026797891e-01    4.248959124e-01    2.899579122e-04    1.448568073e-04    0.000000000e+00    0.000000000e+00    0.000000000e+00    0.000000000e+00
      226000000   -5.877195597e-01    4.417910874e-01    2.828579454e-04    1.417455205e-04    0.000000000e+00    0.000000000e+00    0.000000000e+00    0.000000000e+00
      227625000   -5.723892450e-01    4.578256011e-01    3.028108331e-04    1.536397322e-04    0.000000000e+00    0.000000000e+00    0.000000000e+00    0.000000000e+00
      229250000   -5.565354824e-01    4.734591842e-01    3.155574086e-04    1.393057755e-04    0.000000000e+00    0.000000000e+00    0.000000000e+00    0.000000000e+00
      230875000   -5.404312611e-01    4.883083105e-01    3.296058858e-04    1.488009584e-04    0.000000000e+00    0.000000000e+00    0.000000000e+00    0.000000000e+00
      232500000   -5.237447619e-01    5.029886961e-01    3.223498352e-04    1.646571181e-04    0.000000000e+00    0.000000000e+00    0.000000000e+00    0.000000000e+00
      234125000   -5.067867637e-01    5.165478587e-01    3.234290634e-04    1.360542665e-04    0.000000000e+00    0.000000000e+00    0.000000000e+00    0.000000000e+00
      235750000   -4.892580211e-01    5.297840238e-01    2.982537844e-04    1.368325902e-04    0.000000000e+00    0.000000000e+00    0.000000000e+00    0.000000000e+00
      237375000   -4.714237750e-01    5.420953035e-01    3.196275793e-04    1.458558254e-04    0.000000000e+00    0.000000000e+00    0.000000000e+00    0.000000000e+00
      239000000   -4.533779323e-01    5.539819598e-01    3.213276505e-04    1.517677592e-04    0.000000000e+00    0.000000000e+00    0.000000000e+00    0.000000000e+00
      240625000   -4.348909557e-01    5.651785731e-01    3.213825112e-04    1.500682411e-04    0.000000000e+00    0.000000000e+00    0.000000000e+00    0.000000000e+00
      242250000   -4.162345529e-01    5.758672953e-01    3.485008492e-04    1.508932182e-04    0.000000000e+00    0.000000000e+00    0.000000000e+00    0.000000000e+00
      243875000   -3.970683813e-01    5.859449506e-01    3.378796682e-04    1.405657968e-04    0.000000000e+00    0.000000000e+00    0.000000000e+00    0.000000000e+00
      245500000   -3.775932193e-01    5.954358578e-01    3.308583400e-04    1.576117793e-04    0.000000000e+00    0.000000000e+00    0.000000000e+00    0.000000000e+00
      247125000   -3.581642807e-01    6.043595076e-01    3.229717258e-04    1.548570290e-04    0.000000000e+00    0.000000000e+00    0.000000000e+00    0.000000000e+00
      248750000   -3.384035230e-01    6.124341488e-01    3.404306481e-04    1.591640321e-04    0.000000000e+00    0.000000000e+00    0.000000000e+00    0.000000000e+00
      250375000   -3.185527623e-01    6.198911071e-01    3.556879237e-04    1.397767192e-04    0.000000000e+00    0.000000000e+00    0.000000000e+00    0.000000000e+00
      252000000   -2.986976206e-01    6.268365383e-01    3.479062871e-04    1.469132112e-04    0.000000000e+00    0.000000000e+00    0.000000000e+00    0.000000000e+00
      253625000   -2.788116336e-01    6.329295039e-01    3.450228542e-04    1.519731304e-04    0.000000000e+00    0.000000000e+00    0.000000000e+00    0.000000000e+00
      255250000   -2.588452101e-01    6.383862495e-01    3.433176316e-04    1.526501874e-04    0.000000000e+00    0.000000000e+00    0.000000000e+00    0.000000000e+00
      256875000   -2.389595658e-01    6.433289647e-01    3.560733749e-04    1.502926025e-04    0.000000000e+00    0.000000000e+00    0.000000000e+00    0.000000000e+00
      258500000   -2.185318470e-01    6.473842263e-01    3.475593985e-04    1.529124274e-04    0.000000000e+00    0.000000000e+00    0.000000000e+00    0.000000000e+00
      260125000   -1.988263577e-01    6.510995030e-01    3.641772491e-04    1.507101260e-04    0.000000000e+00    0.000000000e+00    0.000000000e+00    0.000000000e+00
      261750000   -1.785788834e-01    6.542176604e-01    3.457802814e-04    1.444563823e-04    0.000000000e+00    0.000000000e+00    0.000000000e+00    0.000000000e+00
      263375000   -1.587398797e-01    6.565574408e-01    3.767795279e-04    1.712141529e-04    0.000000000e+00    0.000000000e+00    0.000000000e+00    0.000000000e+00
      265000000   -1.387584507e-01    6.581740975e-01    3.599876654e-04    1.481573854e-04    0.000000000e+00    0.000000000e+00    0.000000000e+00    0.000000000e+00
      266625000   -1.186842397e-01    6.592303514e-01    3.734504862e-04    1.592841436e-04    0.000000000e+00    0.000000000e+00    0.000000000e+00    0.000000000e+00
      268250000   -9.885691106e-02    6.598637700e-01    3.487118229e-04    1.659204281e-04    0.000000000e+00    0.000000000e+00    0.000000000e+00    0.000000000e+00
      269875000   -7.909538597e-02    6.595001817e-01    3.654368920e-04    1.566207065e-04    0.000000000e+00    0.000000000e+00    0.000000000e+00    0.000000000e+00
      271500000   -5.932980776e-02    6.591599584e-01    3.456139530e-04    1.585447171e-04    0.000000000e+00    0.000000000e+00    0.000000000e+00    0.000000000e+00
      273125000   -3.972430900e-02    6.579195857e-01    3.532598785e-04    1.395891595e-04    0.000000000e+00    0.000000000e+00    0.000000000e+00    0.000000000e+00
      274750000   -2.023992874e-02    6.562454700e-01    3.546536900e-04    1.538399374e-04    0.000000000e+00    0.000000000e+00    0.000000000e+00    0.000000000e+00
      276375000   -8.962957654e-04    6.539219618e-01    3.517965670e-04    1.447098475e-04    0.000000000e+00    0.000000000e+00    0.000000000e+00    0.000000000e+00
      278000000    1.831107214e-02    6.510915160e-01    3.642594966e-04    1.652260835e-04    0.000000000e+00    0.000000000e+00    0.000000000e+00    0.000000000e+00
      279625000    3.717944771e-02    6.478514671e-01    3.496718127e-04    1.432770077e-04    0.000000000e+00    0.000000000e+00    0.000000000e+00    0.000000000e+00
      281250000    5.598839372e-02    6.438927650e-01    3.373472136e-04    1.321828313e-04    0.000000000e+00    0.000000000e+00    0.000000000e+00    0.000000000e+00
      282875000    7.467702776e-02    6.396909952e-01    3.675094049e-04    1.382804912e-04    0.000000000e+00    0.000000000e+00    0.000000000e+00    0.000000000e+00
      284500000    9.302397817e-02    6.348300576e-01    3.315395734e-04    1.364159398e-04    0.000000000e+00    0.000000000e+00    0.000000000e+00    0.000000000e+00
      286125000    1.113257930e-01    6.293938756e-01    3.146580711e-04    1.286327461e-04    0.000000000e+00    0.000000000e+00    0.000000000e+00    0.000000000e+00
      287750000    1.292986721e-01    6.238503456e-01    3.438307322e-04    1.339022128e-04    0.000000000e+00    0.000000000e+00    0.000000000e+00    0.000000000e+00
      289375000    1.469739527e-01    6.173279881e-01    3.070363600e-04    1.259539422e-04    0.000000000e+00    0.000000000e+00    0.000000000e+00    0.000000000e+00
      291000000    7.266884297e-02    5.792045593e-01   -1.665476884e-04   -1.110567682e-04    0.000000000e+00    0.000000000e+00    0.000000000e+00    0.000000000e+00
      292625000    9.046413004e-02    5.744585991e-01   -6.683257379e-05   -3.979720714e-05    0.000000000e+00    0.000000000e+00    0.000000000e+00    0.000000000e+00
      294250000    1.064449549e-01    5.692636967e-01   -1.790996612e-05   -1.496946352e-04    0.000000000e+00    0.000000000e+00    0.000000000e+00    0.000000000e+00
      295875000    1.224664673e-01    5.636848211e-01   -1.230806956e-04    1.783865155e-04    0.000000000e+00    0.000000000e+00    0.000000000e+00    0.000000000e+00
      297500000    1.387853026e-01    5.569983721e-01   -5.474240243e-05   -1.281561799e-05    0.000000000e+00    0.000000000e+00    0.000000000e+00    0.000000000e+00
      299125000    1.541575491e-01    5.499501824e-01   -1.083463940e-04   -7.494449528e-05    0.000000000e+00    0.000000000e+00    0.000000000e+00    0.000000000e+00
      300750000    1.697145253e-01    5.430768132e-01   -3.871422814e-05   -1.348387559e-05    0.000000000e+00    0.000000000e+00    0.000000000e+00    0.000000000e+00
      302375000    1.852618158e-01    5.364456773e-01    6.693114847e-05    3.317855226e-05    0.000000000e+00    0.000000000e+00    0.000000000e+00    0.000000000e+00
      304000000    1.997053325e-01    5.281533599e-01   -1.910529390e-04   -3.824223677e-05    0.000000000e+00    0.000000000e+00    0.000000000e+00    0.000000000e+00
      305625000    2.136582732e-01    5.199486613e-01   -4.762991011e-05   -3.254374315e-05    0.000000000e+00    0.000000000e+00    0.000000000e+00    0.000000000e+00
      307250000    2.275478989e-01    5.138315558e-01   -1.802339975e-04    1.199920007e-04    0.000000000e+00    0.000000000e+00    0.000000000e+00    0.000000000e+00
      308875000    2.420556247e-01    5.024696589e-01    5.126172255e-05    1.279119606e-04    0.000000000e+00    0.000000000e+00    0.000000000e+00    0.000000000e+00
      310500000    2.562406361e-01    4.938288629e-01   -1.910959108e-04   -1.500712733e-05    0.000000000e+00    0.000000000e+00    0.000000000e+00    0.000000000e+00
      312125000    2.693268657e-01    4.844019115e-01   -2.506394776e-05    4.522287418e-05    0.000000000e+00    0.000000000e+00    0.000000000e+00    0.000000000e+00
      313750000    2.825430036e-01    4.749774635e-01   -1.044360833e-04   -1.073820385e-05    0.000000000e+00    0.000000000e+00    0.000000000e+00    0.000000000e+00
      315375000    2.951199710e-01    4.647533000e-01    2.160994882e-05    7.024988736e-05    0.000000000e+00    0.000000000e+00    0.000000000e+00    0.000000000e+00
      317000000    3.073033094e-01    4.545336664e-01   -1.554594783e-04    3.961855327e-05    0.000000000e+00    0.000000000e+00    0.000000000e+00    0.000000000e+00
      318625000    3.192130327e-01    4.443313777e-01   -1.417808235e-04    3.130966797e-05    0.000000000e+00    0.000000000e+00    0.000000000e+00    0.000000000e+00
      320250000    3.306870759e-01    4.329565167e-01   -3.247489803e-04    8.873362822e-05    0.000000000e+00    0.000000000e+00    0.000000000e+00    0.000000000e+00
      321875000    3.422546983e-01    4.218381941e-01    8.997313671e-06   -8.548012556e-05    0.000000000e+00    0.000000000e+00    0.000000000e+00    0.000000000e+00
      323500000    3.532199860e-01    4.104692638e-01    7.990470476e-05    1.438317122e-05    0.000000000e+00    0.000000000e+00    0.000000000e+00    0.000000000e+00
      325125000    3.637480438e-01    3.996418417e-01    6.941311585e-05   -2.234382919e-05    0.000000000e+00    0.000000000e+00    0.000000000e+00    0.000000000e+00
      326750000    3.740896881e-01    3.876858354e-01   -9.848360787e-05   -7.032587746e-05    0.000000000e+00    0.000000000e+00    0.000000000e+00    0.000000000e+00
      328375000    3.837921023e-01    3.761320412e-01   -9.556470104e-06    1.720752698e-05    0.000000000e+00    0.000000000e+00    0.000000000e+00    0.000000000e+00
      330000000    3.931849897e-01    3.638224602e-01   -8.346079994e-05    3.974537321e-05    0.000000000e+00    0.000000000e+00    0.000000000e+00    0.000000000e+00
      331625000    4.027854502e-01    3.519947827e-01   -8.541535499e-05   -3.074346751e-05    0.000000000e+00    0.000000000e+00    0.000000000e+00    0.000000000e+00
      333250000    4.113183618e-01    3.393464386e-01    1.459244959e-04    1.360885071e-04    0.000000000e+00    0.000000000e+00    0.000000000e+00    0.000000000e+00
      334875000    4.198555946e-01    3.270039856e-01   -2.078565922e-05    1.029588238e-04    0.000000000e+00    0.000000000e+00    0.000000000e+00    0.000000000e+00
      336500000    4.278829098e-01    3.143021464e-01   -1.421841444e-04    1.263978629e-04    0.000000000e+00    0.000000000e+00    0.000000000e+00    0.000000000e+00
      338125000    4.358153939e-01    3.015242517e-01   -2.198311449e-05    3.419009772e-06    0.000000000e+00    0.000000000e+00    0.000000000e+00    0.000000000e+00
      339750000    4.432092309e-01    2.891280055e-01   -8.155924297e-05   -6.895243860e-05    0.000000000e+00    0.000000000e+00    0.000000000e+00    0.000000000e+00
      341375000    4.502374232e-01    2.758284211e-01    6.688705616e-05   -2.352695083e-05    0.000000000e+00    0.000000000e+00    0.000000000e+00    0.000000000e+00
      343000000    4.571404159e-01    2.627271414e-01   -3.969806858e-05    8.890631580e-05    0.000000000e+00    0.000000000e+00    0.000000000e+00    0.000000000e+00
      344625000    4.633710980e-01    2.495291233e-01    1.040406096e-05    7.922565419e-05    0.000000000e+00    0.000000000e+00    0.000000000e+00    0.000000000e+00
      346250000    4.691917598e-01    2.362989038e-01   -1.448551193e-04    6.539555034e-05    0.000000000e+00    0.000000000e+00    0.000000000e+00    0.000000000e+00
      347875000    4.752167761e-01    2.232397348e-01    4.870395060e-06    1.083805328e-04    0.000000000e+00    0.000000000e+00    0.000000000e+00    0.000000000e+00
      349500000    4.808520079e-01    2.100042552e-01    1.353572443e-04   -1.904528290e-05    0.000000000e+00    0.000000000e+00    0.000000000e+00    0.000000000e+00
      351125000    4.857790172e-01    1.963343620e-01   -1.514395844e-04    1.014143709e-05    0.000000000e+00    0.000000000e+00    0.000000000e+00    0.000000000e+00
      352750000    4.906426668e-01    1.827955395e-01    3.804679363e-05    7.616595394e-05    0.000000000e+00    0.000000000e+00    0.000000000e+00    0.000000000e+00
      354375000    4.948343635e-01    1.694676727e-01   -5.573169983e-05    8.851053281e-06    0.000000000e+00    0.000000000e+00    0.000000000e+00    0.000000000e+00
      356000000    4.991477132e-01    1.557746232e-01   -1.246993779e-04   -1.094560139e-04    0.000000000e+00    0.000000000e+00    0.000000000e+00    0.000000000e+00
      357625000    5.030449629e-01    1.422084868e-01    2.977760232e-06    1.143297868e-05    0.000000000e+00    0.000000000e+00    0.000000000e+00    0.000000000e+00
      359250000    5.064160228e-01    1.284724176e-01   -1.727951458e-04   -3.594417649e-05    0.000000000e+00    0.000000000e+00    0.000000000e+00    0.000000000e+00
      360875000    5.095490813e-01    1.149400547e-01   -9.212560690e-05    3.896705948e-06    0.000000000e+00    0.000000000e+00    0.000000000e+00    0.000000000e+00
      362500000    5.124533176e-01    1.013878360e-01   -1.272960217e-04    1.692889418e-05    0.000000000e+00    0.000000000e+00    0.000000000e+00    0.000000000e+00
      364125000    5.149554014e-01    8.763766289e-02    8.257166337e-05    1.695458923e-05    0.000000000e+00    0.000000000e+00    0.000000000e+00    0.000000000e+00
      365750000    5.172774792e-01    7.410627604e-02   -1.404237555e-04    6.759157986e-05    0.000000000e+00    0.000000000e+00    0.000000000e+00    0.000000000e+00
      367375000    5.190572143e-01    6.053521484e-02   -2.743551158e-04    9.759070963e-05    0.000000000e+00    0.000000000e+00    0.000000000e+00    0.000000000e+00
      369000000    5.210086107e-01    4.682826623e-02   -1.724883623e-04    1.960861482e-05    0.000000000e+00    0.000000000e+00    0.000000000e+00    0.000000000e+00
      370625000    5.224134922e-01    3.332428262e-02   -1.652347273e-04   -5.982203947e-05    0.000000000e+00    0.000000000e+00    0.000000000e+00    0.000000000e+00
      372250000    5.234057903e-01    1.996881329e-02    4.983945473e-05   -1.558332006e-04    0.000000000e+00    0.000000000e+00    0.000000000e+00    0.000000000e+00
      373875000    5.241689682e-01    6.199238356e-03   -1.314840774e-04    7.054358139e-05    0.000000000e+00    0.000000000e+00    0.000000000e+00    0.000000000e+00
      375500000    5.245482922e-01   -7.247606292e-03   -1.111488382e-05    2.270100777e-05    0.000000000e+00    0.000000000e+00    0.000000000e+00    0.000000000e+00
      377125000    5.247467160e-01   -2.073003724e-02   -3.255336924e-05    9.524343477e-05    0.000000000e+00    0.000000000e+00    0.000000000e+00    0.000000000e+00
      378750000    5.244600177e-01   -3.416265547e-02   -3.469618605e-05    1.046918915e-04    0.000000000e+00    0.000000000e+00    0.000000000e+00    0.000000000e+00
      380375000    5.239918232e-01   -4.755381495e-02   -2.059253020e-04    9.883251914e-05    0.000000000e+00    0.000000000e+00    0.000000000e+00    0.000000000e+00
      382000000    5.232732892e-01   -6.111403927e-02   -2.305060771e-04    9.620585479e-05    0.000000000e+00    0.000000000e+00    0.000000000e+00    0.000000000e+00
      383625000    5.221350193e-01   -7.451963425e-02    2.573069651e-05    2.669554087e-04    0.000000000e+00    0.000000000e+00    0.000000000e+00    0.000000000e+00
      385250000    5.208430886e-01   -8.769895136e-02   -3.592065768e-04    4.650846313e-05    0.000000000e+00    0.000000000e+00    0.000000000e+00    0.000000000e+00
      386875000    5.193986297e-01   -1.008746698e-01   -1.734749821e-04    2.691100817e-04    0.000000000e+00    0.000000000e+00    0.000000000e+00    0.000000000e+00
      388500000    5.174694657e-01   -1.140108407e-01   -1.925036122e-05    3.873810056e-05    0.000000000e+00    0.000000000e+00    0.000000000e+00    0.000000000e+00
