! NanoVNA-App
! Date: 2024-06-25 16:53:16
! Start: 200MHz Stop: 1.5GHz Points: 801
! S-Parameter data: F S11 S21 S12 S22
# Hz S RI R 50
!     Frequency           S11_Real           S11_Imag           S21_Real           S21_Imag           S12_Real           S12_Imag           S22_Real           S22_Imag
      200000000   -7.507041693e-01    1.167063937e-01    1.849856199e-04    6.730036694e-05    0.000000000e+00    0.000000000e+00    0.000000000e+00    0.000000000e+00
      201625000   -7.458121181e-01    1.398543566e-01    1.927646081e-04    8.138834528e-05    0.000000000e+00    0.000000000e+00    0.000000000e+00    0.000000000e+00
      203250000   -7.401221991e-01    1.627505124e-01    2.026712609e-04    5.751249046e-05    0.000000000e+00    0.000000000e+00    0.000000000e+00    0.000000000e+00
      204875000   -7.338373661e-01    1.853013337e-01    2.195768029e-04    7.966400153e-05    0.000000000e+00    0.000000000e+00    0.000000000e+00    0.000000000e+00
      206500000   -7.266822457e-01    2.075255811e-01    2.190329687e-04    8.089967014e-05    0.000000000e+00    0.000000000e+00    0.000000000e+00    0.000000000e+00
      208125000   -7.188990712e-01    2.294319421e-01    2.700934710e-04    8.581853035e-05    0.000000000e+00    0.000000000e+00    0.000000000e+00    0.000000000e+00
      209750000   -7.102905512e-01    2.509295046e-01    2.508316829e-04    1.092171660e-04    0.000000000e+00    0.000000000e+00    0.000000000e+00    0.000000000e+00
      211375000   -7.008265853e-01    2.721853554e-01    2.546138130e-04    9.587082604e-05    0.000000000e+00    0.000000000e+00    0.000000000e+00    0.000000000e+00
      213000000   -6.907695532e-01    2.928432226e-01    2.766214020e-04    9.828586917e-05    0.000000000e+00    0.000000000e+00    0.000000000e+00    0.000000000e+00
      214625000   -6.800265312e-01    3.131038547e-01    2.688477689e-04    1.059917340e-04    0.000000000e+00    0.000000000e+00    0.000000000e+00    0.000000000e+00
      216250000   -6.687342525e-01    3.332530260e-01    2.795055625e-04    1.038535920e-04    0.000000000e+00    0.000000000e+00    0.000000000e+00    0.000000000e+00
      217875000   -6.566429734e-01    3.524359763e-01    2.689046087e-04    1.298652496e-04    0.000000000e+00    0.000000000e+00    0.000000000e+00    0.000000000e+00
      219500000   -6.439090967e-01    3.714908361e-01    2.821749076e-04    1.321634045e-04    0.000000000e+00    0.000000000e+00    0.000000000e+00    0.000000000e+00
      221125000   -6.308357120e-01    3.897703588e-01    2.948108886e-04    1.439721382e-04    0.000000000e+00    0.000000000e+00    0.000000000e+00    0.000000000e+00
      222750000   -6.168373227e-01    4.075620472e-01    2.718277974e-04    1.379410533e-04    0.000000000e+00    0.000000000e+00    0.000000000e+00    0.000000000e+00
      224375000   -6.025731564e-01    4.249862134e-01    2.978752600e-04    1.412541314e-04    0.000000000e+00    0.000000000e+00    0.000000000e+00    0.000000000e+00
      226000000   -5.877994299e-01    4.416682422e-01    2.892321791e-04    1.636506786e-04    0.000000000e+00    0.000000000e+00    0.000000000e+00    0.000000000e+00
      227625000   -5.723854899e-01    4.578422010e-01    3.092805855e-04    1.373602281e-04    0.000000000e+00    0.000000000e+00    0.000000000e+00    0.000000000e+00
      229250000   -5.566652417e-01    4.733072221e-01    2.983017766e-04    1.425707014e-04    0.000000000e+00    0.000000000e+00    0.000000000e+00    0.000000000e+00
      230875000   -5.403928757e-01    4.883144498e-01    2.797560010e-04    1.420987537e-04    0.000000000e+00    0.000000000e+00    0.000000000e+00    0.000000000e+00
      232500000   -5.238165855e-01    5.028439760e-01    3.020097211e-04    1.368621452e-04    0.000000000e+00    0.000000000e+00    0.000000000e+00    0.000000000e+00
      234125000   -5.068199635e-01    5.165101290e-01    3.246895794e-04    1.546233107e-04    0.000000000e+00    0.000000000e+00    0.000000000e+00    0.000000000e+00
      235750000   -4.892315567e-01    5.297669768e-01    3.054700792e-04    1.256890537e-04    0.000000000e+00    0.000000000e+00    0.000000000e+00    0.000000000e+00
      237375000   -4.713705480e-01    5.421279669e-01    3.230123257e-04    1.657153480e-04    0.000000000e+00    0.000000000e+00    0.000000000e+00    0.000000000e+00
      239000000   -4.533470571e-01    5.540291071e-01    3.297865042e-04    1.404935465e-04    0.000000000e+00    0.000000000e+00    0.000000000e+00    0.000000000e+00
      240625000   -4.350201786e-01    5.652586222e-01    3.320670221e-04    1.532299066e-04    0.000000000e+00    0.000000000e+00    0.000000000e+00    0.000000000e+00
      242250000   -4.160664976e-01    5.758556128e-01    3.286654828e-04    1.486725814e-04    0.000000000e+00    0.000000000e+00    0.000000000e+00    0.000000000e+00
      243875000   -3.970931768e-01    5.858836174e-01    3.252760798e-04    1.509528374e-04    0.000000000e+00    0.000000000e+00    0.000000000e+00    0.000000000e+00
      245500000   -3.777507246e-01    5.953401923e-01    3.203382948e-04    1.303481113e-04    0.000000000e+00    0.000000000e+00    0.000000000e+00    0.000000000e+00
      247125000   -3.580588698e-01    6.042426825e-01    3.179292544e-04    1.331240346e-04    0.000000000e+00    0.000000000e+00    0.000000000e+00    0.000000000e+00
      248750000   -3.384273350e-01    6.123072505e-01    3.102599876e-04    1.168157469e-04    0.000000000e+00    0.000000000e+00    0.000000000e+00    0.000000000e+00
      250375000   -3.186450601e-01    6.200576425e-01    3.441073350e-04    1.596056100e-04    0.000000000e+00    0.000000000e+00    0.000000000e+00    0.000000000e+00
      252000000   -2.988474071e-01    6.266727448e-01    3.651019360e-04    1.550066372e-04    0.000000000e+00    0.000000000e+00    0.000000000e+00    0.000000000e+00
      253625000   -2.789325118e-01    6.328004003e-01    3.673484025e-04    1.630519546e-04    0.000000000e+00    0.000000000e+00    0.000000000e+00    0.000000000e+00
      255250000   -2.588340640e-01    6.385078430e-01    3.450470685e-04    1.700515859e-04    0.000000000e+00    0.000000000e+00    0.000000000e+00    0.000000000e+00
      256875000   -2.390147746e-01    6.432945132e-01    3.552619019e-04    1.707914780e-04    0.000000000e+00    0.000000000e+00    0.000000000e+00    0.000000000e+00
      258500000   -2.187312543e-01    6.475835443e-01    3.745939757e-04    1.530799345e-04    0.000000000e+00    0.000000000e+00    0.000000000e+00    0.000000000e+00
      260125000   -1.988429576e-01    6.511816382e-01    3.746740404e-04    1.544734696e-04    0.000000000e+00    0.000000000e+00    0.000000000e+00    0.000000000e+00
      261750000   -1.784915030e-01    6.543640494e-01    3.592781723e-04    1.471290307e-04    0.000000000e+00    0.000000000e+00    0.000000000e+00    0.000000000e+00
      263375000   -1.587548852e-01    6.565606594e-01    3.646343248e-04    1.432914723e-04    0.000000000e+00    0.000000000e+00    0.000000000e+00    0.000000000e+00
      265000000   -1.386085898e-01    6.582755446e-01    3.534112184e-04    1.486616238e-04    0.000000000e+00    0.000000000e+00    0.000000000e+00    0.000000000e+00
      266625000   -1.188317612e-01    6.594457030e-01    3.440878936e-04    1.528706634e-04    0.000000000e+00    0.000000000e+00    0.000000000e+00    0.000000000e+00
      268250000   -9.864211082e-02    6.597988009e-01    3.572340647e-04    1.493571181e-04    0.000000000e+00    0.000000000e+00    0.000000000e+00    0.000000000e+00
      269875000   -7.897315174e-02    6.596851349e-01    3.732249897e-04    1.481512300e-04    0.000000000e+00    0.000000000e+00    0.000000000e+00    0.000000000e+00
      271500000   -5.926942453e-02    6.590726972e-01    3.592460416e-04    1.438858744e-04    0.000000000e+00    0.000000000e+00    0.000000000e+00    0.000000000e+00
      273125000   -3.973684460e-02    6.579509974e-01    3.766737354e-04    1.435472950e-04    0.000000000e+00    0.000000000e+00    0.000000000e+00    0.000000000e+00
      274750000   -2.027994581e-02    6.562609673e-01    3.469360527e-04    1.683062146e-04    0.000000000e+00    0.000000000e+00    0.000000000e+00    0.000000000e+00
      276375000   -1.131141908e-03    6.538308859e-01    3.480485466e-04    1.459019404e-04    0.000000000e+00    0.000000000e+00    0.000000000e+00    0.000000000e+00
      278000000    1.827455498e-02    6.511355639e-01    3.439737775e-04    1.516640186e-04    0.000000000e+00    0.000000000e+00    0.000000000e+00    0.000000000e+00
      279625000    3.727255762e-02    6.478856802e-01    3.357035748e-04    1.349951635e-04    0.000000000e+00    0.000000000e+00    0.000000000e+00    0.000000000e+00
      281250000    5.594241247e-02    6.439207792e-01    3.238154459e-04    1.541011588e-04    0.000000000e+00    0.000000000e+00    0.000000000e+00    0.000000000e+00
      282875000    7.464632392e-02    6.396433115e-01    3.397856199e-04    1.575335482e-04    0.000000000e+00    0.000000000e+00    0.000000000e+00    0.000000000e+00
      284500000    9.312996268e-02    6.348828077e-01    3.554495343e-04    1.235329546e-04    0.000000000e+00    0.000000000e+00    0.000000000e+00    0.000000000e+00
      286125000    1.112015024e-01    6.295132041e-01    3.282816906e-04    1.157542065e-04    0.000000000e+00    0.000000000e+00    0.000000000e+00    0.000000000e+00
      287750000    1.293660849e-01    6.239947081e-01    3.285887651e-04    1.296489354e-04    0.000000000e+00    0.000000000e+00    0.000000000e+00    0.000000000e+00
      289375000    1.468181312e-01    6.172976494e-01    3.149950644e-04    1.248350745e-04    0.000000000e+00    0.000000000e+00    0.000000000e+00    0.000000000e+00
      291000000    7.313843071e-02    5.796234608e-01    7.475956954e-05    6.441014557e-05    0.000000000e+00    0.000000000e+00    0.000000000e+00    0.000000000e+00
      292625000    9.000822902e-02    5.743984580e-01    9.183347720e-05   -6.808133912e-05    0.000000000e+00    0.000000000e+00    0.000000000e+00    0.000000000e+00
      294250000    1.066916212e-01    5.687154531e-01    4.905042442e-05    1.108749620e-05    0.000000000e+00    0.000000000e+00    0.000000000e+00    0.000000000e+00
      295875000    1.227812991e-01    5.630757213e-01    7.674869994e-05   -2.248047531e-05    0.000000000e+00    0.000000000e+00    0.000000000e+00    0.000000000e+00
      297500000    1.385416240e-01    5.566607714e-01   -1.260973022e-05    3.276026473e-05    0.000000000e+00    0.000000000e+00    0.000000000e+00    0.000000000e+00
      299125000    1.540158689e-01    5.502989888e-01   -1.692702790e-04    1.408346143e-04    0.000000000e+00    0.000000000e+00    0.000000000e+00    0.000000000e+00
      300750000    1.701845825e-01    5.433362722e-01    1.473757220e-05   -8.492248890e-05    0.000000000e+00    0.000000000e+00    0.000000000e+00    0.000000000e+00
      302375000    1.850043833e-01    5.359280705e-01    9.149147809e-05    5.425736163e-05    0.000000000e+00    0.000000000e+00    0.000000000e+00    0.000000000e+00
      304000000    1.998186260e-01    5.277395248e-01   -1.485312241e-04    3.910700616e-05    0.000000000e+00    0.000000000e+00    0.000000000e+00    0.000000000e+00
      305625000    2.140485495e-01    5.200064182e-01   -7.979031943e-05   -1.117175998e-04    0.000000000e+00    0.000000000e+00    0.000000000e+00    0.000000000e+00
      307250000    2.263781875e-01    5.101280808e-01   -2.501582821e-05    4.710112262e-05    0.000000000e+00    0.000000000e+00    0.000000000e+00    0.000000000e+00
      308875000    2.424951494e-01    5.025488138e-01    9.406865865e-05   -2.101886494e-04    0.000000000e+00    0.000000000e+00    0.000000000e+00    0.000000000e+00
      310500000    2.559339702e-01    4.936370254e-01   -7.483949594e-05    7.714955427e-05    0.000000000e+00    0.000000000e+00    0.000000000e+00    0.000000000e+00
      312125000    2.690373361e-01    4.841117859e-01   -2.425906714e-04    9.419246635e-05    0.000000000e+00    0.000000000e+00    0.000000000e+00    0.000000000e+00
      313750000    2.821161747e-01    4.744112492e-01   -1.030802596e-04    5.783842789e-05    0.000000000e+00    0.000000000e+00    0.000000000e+00    0.000000000e+00
      315375000    2.948917150e-01    4.641324878e-01   -8.426907880e-05    3.046381244e-05    0.000000000e+00    0.000000000e+00    0.000000000e+00    0.000000000e+00
      317000000    3.073681593e-01    4.544513524e-01    2.389895417e-05   -1.562302714e-06    0.000000000e+00    0.000000000e+00    0.000000000e+00    0.000000000e+00
      318625000    3.190149367e-01    4.435851574e-01    5.013236660e-05   -3.354279397e-05    0.000000000e+00    0.000000000e+00    0.000000000e+00    0.000000000e+00
      320250000    3.305060863e-01    4.330254197e-01   -3.311814726e-05   -9.051851521e-06    0.000000000e+00    0.000000000e+00    0.000000000e+00    0.000000000e+00
      321875000    3.422976434e-01    4.221622944e-01   -5.051170956e-05    3.044887853e-05    0.000000000e+00    0.000000000e+00    0.000000000e+00    0.000000000e+00
      323500000    3.528580070e-01    4.109772146e-01   -6.499840674e-05    7.590153109e-05    0.000000000e+00    0.000000000e+00    0.000000000e+00    0.000000000e+00
      325125000    3.637419343e-01    3.996763229e-01   -1.150641583e-05   -1.060524592e-04    0.000000000e+00    0.000000000e+00    0.000000000e+00    0.000000000e+00
      326750000    3.741471171e-01    3.879050910e-01   -5.673221040e-06    1.345165037e-05    0.000000000e+00    0.000000000e+00    0.000000000e+00    0.000000000e+00
      328375000    3.836484253e-01    3.758535683e-01   -1.196980083e-04   -9.016376862e-05    0.000000000e+00    0.000000000e+00    0.000000000e+00    0.000000000e+00
      330000000    3.932096064e-01    3.640048802e-01    1.811579423e-04   -5.057525777e-05    0.000000000e+00    0.000000000e+00    0.000000000e+00    0.000000000e+00
      331625000    4.024234712e-01    3.515853882e-01   -3.738922533e-05   -1.289940428e-05    0.000000000e+00    0.000000000e+00    0.000000000e+00    0.000000000e+00
      333250000    4.113196135e-01    3.393802345e-01    1.168318340e-05   -1.619832474e-04    0.000000000e+00    0.000000000e+00    0.000000000e+00    0.000000000e+00
      334875000    4.199703336e-01    3.268043697e-01    1.361840714e-05    1.256383075e-05    0.000000000e+00    0.000000000e+00    0.000000000e+00    0.000000000e+00
      336500000    4.278743863e-01    3.141114414e-01   -1.321494346e-04   -1.018041075e-05    0.000000000e+00    0.000000000e+00    0.000000000e+00    0.000000000e+00
      338125000    4.356657565e-01    3.016790748e-01   -4.012426143e-05   -6.872731319e-06    0.000000000e+00    0.000000000e+00    0.000000000e+00    0.000000000e+00
      339750000    4.430167377e-01    2.888852060e-01   -4.157522926e-05    1.866948878e-05    0.000000000e+00    0.000000000e+00    0.000000000e+00    0.000000000e+00
      341375000    4.505449533e-01    2.759915292e-01   -1.007956162e-04   -2.330983989e-05    0.000000000e+00    0.000000000e+00    0.000000000e+00    0.000000000e+00
      343000000    4.569489062e-01    2.626709044e-01   -1.921108378e-05   -7.404131611e-05    0.000000000e+00    0.000000000e+00    0.000000000e+00    0.000000000e+00
      344625000    4.635736644e-01    2.496491671e-01   -9.061348101e-05    1.351883384e-05    0.000000000e+00    0.000000000e+00    0.000000000e+00    0.000000000e+00
      346250000    4.696807563e-01    2.364975214e-01   -8.167667693e-05    8.915892977e-05    0.000000000e+00    0.000000000e+00    0.000000000e+00    0.000000000e+00
      347875000    4.753544033e-01    2.232485861e-01   -7.231537893e-05    9.999332542e-05    0.000000000e+00    0.000000000e+00    0.000000000e+00    0.000000000e+00
      349500000    4.806700349e-01    2.097027749e-01   -1.350865205e-04    5.845337364e-05    0.000000000e+00    0.000000000e+00    0.000000000e+00    0.000000000e+00
      351125000    4.857572019e-01    1.964069158e-01    2.364459760e-06    9.198237240e-05    0.000000000e+00    0.000000000e+00    0.000000000e+00    0.000000000e+00
      352750000    4.906130433e-01    1.830282956e-01   -5.807102207e-05    1.884749363e-04    0.000000000e+00    0.000000000e+00    0.000000000e+00    0.000000000e+00
      354375000    4.950196445e-01    1.695558131e-01   -1.291579538e-04   -1.712747762e-04    0.000000000e+00    0.000000000e+00    0.000000000e+00    0.000000000e+00
      356000000    4.992257655e-01    1.558189392e-01   -1.200719053e-04   -5.077536844e-05    0.000000000e+00    0.000000000e+00    0.000000000e+00    0.000000000e+00
      357625000    5.029686689e-01    1.421756446e-01   -9.645678074e-05   -1.145714850e-04    0.000000000e+00    0.000000000e+00    0.000000000e+00    0.000000000e+00
      359250000    5.063849092e-01    1.287028790e-01   -8.797967166e-05   -3.093854320e-05    0.000000000e+00    0.000000000e+00    0.000000000e+00    0.000000000e+00
      360875000    5.095025897e-01    1.150418073e-01   -4.639401595e-05   -1.801183098e-04    0.000000000e+00    0.000000000e+00    0.000000000e+00    0.000000000e+00
      362500000    5.123836994e-01    1.013931036e-01    3.420137000e-05    1.430845987e-05    0.000000000e+00    0.000000000e+00    0.000000000e+00    0.000000000e+00
      364125000    5.150699019e-01    8.770854026e-02   -2.771771979e-04   -5.176136619e-05    0.000000000e+00    0.000000000e+00    0.000000000e+00    0.000000000e+00
      365750000    5.172110796e-01    7.405149192e-02   -8.458782395e-05   -1.669906487e-04    0.000000000e+00    0.000000000e+00    0.000000000e+00    0.000000000e+00
      367375000    5.193272233e-01    6.051416323e-02    8.638429426e-05   -1.192951022e-04    0.000000000e+00    0.000000000e+00    0.000000000e+00    0.000000000e+00
      369000000    5.210698843e-01    4.685605690e-02   -9.586995293e-05   -1.232892282e-05    0.000000000e+00    0.000000000e+00    0.000000000e+00    0.000000000e+00
      370625000    5.222119689e-01    3.344084695e-02   -1.456019381e-04    4.532406092e-05    0.000000000e+00    0.000000000e+00    0.000000000e+00    0.000000000e+00
      372250000    5.231045485e-01    1.993438043e-02   -5.925372898e-05    3.211817602e-05    0.000000000e+00    0.000000000e+00    0.000000000e+00    0.000000000e+00
      373875000    5.239648223e-01    6.251292303e-03   -6.589842815e-05   -1.137957079e-04    0.000000000e+00    0.000000000e+00    0.000000000e+00    0.000000000e+00
      375500000    5.245098472e-01   -7.444003131e-03   -7.324838953e-05   -1.141745815e-05    0.000000000e+00    0.000000000e+00    0.000000000e+00    0.000000000e+00
      377125000    5.246527195e-01   -2.086253650e-02    3.664468022e-05    1.834900468e-04    0.000000000e+00    0.000000000e+00    0.000000000e+00    0.000000000e+00
      378750000    5.244859457e-01   -3.411905468e-02   -1.216458695e-04   -3.852148802e-05    0.000000000e+00    0.000000000e+00    0.000000000e+00    0.000000000e+00
      380375000    5.239744186e-01   -4.752638564e-02   -5.165257608e-05    7.937046030e-05    0.000000000e+00    0.000000000e+00    0.000000000e+00    0.000000000e+00
      382000000    5.234501958e-01   -6.118410453e-02   -7.826889487e-05    1.662488503e-04    0.000000000e+00    0.000000000e+00    0.000000000e+00    0.000000000e+00
      383625000    5.221217871e-01   -7.459167391e-02   -1.794200070e-04   -1.438580421e-05    0.000000000e+00    0.000000000e+00    0.000000000e+00    0.000000000e+00
      385250000    5.208448172e-01   -8.775937557e-02   -1.143943300e-04    1.061436706e-04    0.000000000e+00    0.000000000e+00    0.000000000e+00    0.000000000e+00
      386875000    5.194333792e-01   -1.009701565e-01   -1.774156408e-04    8.967097529e-05    0.000000000e+00    0.000000000e+00    0.000000000e+00    0.000000000e+00
      388500000    5.174458027e-01   -1.140191779e-01   -1.078557762e-04    1.178540406e-04    0.000000000e+00    0.000000000e+00    0.000000000e+00    0.000000000e+00
