! NanoVNA-App
! Date: 2024-06-25 16:53:19
! Start: 200MHz Stop: 1.5GHz Points: 801
! S-Parameter data: F S11 S21 S12 S22
# Hz S RI R 50
!     Frequency           S11_Real           S11_Imag           S21_Real           S21_Imag           S12_Real           S12_Imag           S22_Real           S22_Imag
      200000000   -7.506891489e-01    1.168145686e-01    1.750062365e-04    5.750438868e-05    0.000000000e+00    0.000000000e+00    0.000000000e+00    0.000000000e+00
      201625000   -7.457510233e-01    1.399013400e-01    2.041766274e-04    3.267858847e-05    0.000000000e+00    0.000000000e+00    0.000000000e+00    0.000000000e+00
      203250000   -7.401822805e-01    1.627121866e-01    2.017960942e-04    7.247566828e-05    0.000000000e+00    0.000000000e+00    0.000000000e+00    0.000000000e+00
      204875000   -7.338302732e-01    1.851831973e-01    2.219866874e-04    6.732277689e-05    0.000000000e+00    0.000000000e+00    0.000000000e+00    0.000000000e+00
      206500000   -7.267293930e-01    2.074918151e-01    2.081081329e-04    8.425274427e-05    0.000000000e+00    0.000000000e+00    0.000000000e+00    0.000000000e+00
      208125000   -7.188140154e-01    2.293551713e-01    2.405257837e-04    6.270682934e-05    0.000000000e+00    0.000000000e+00    0.000000000e+00    0.000000000e+00
      209750000   -7.102254629e-01    2.510300279e-01    2.453977359e-04    9.311535541e-05    0.000000000e+00    0.000000000e+00    0.000000000e+00    0.000000000e+00
      211375000   -7.007885575e-01    2.721488476e-01    2.558189444e-04    1.121622117e-04    0.000000000e+00    0.000000000e+00    0.000000000e+00    0.000000000e+00
      213000000   -6.908211708e-01    2.928803563e-01    2.605574555e-04    9.718650836e-05    0.000000000e+00    0.000000000e+00    0.000000000e+00    0.000000000e+00
      214625000   -6.800315976e-01    3.132163584e-01    2.442147525e-04    1.173014389e-04    0.000000000e+00    0.000000000e+00    0.000000000e+00    0.000000000e+00
      216250000   -6.686918139e-01    3.330911994e-01    2.785427496e-04    1.249352790e-04    0.000000000e+00    0.000000000e+00    0.000000000e+00    0.000000000e+00
      217875000   -6.567000151e-01    3.525435328e-01    2.598551509e-04    1.445409725e-04    0.000000000e+00    0.000000000e+00    0.000000000e+00    0.000000000e+00
      219500000   -6.439682245e-01    3.714642823e-01    2.747884137e-04    1.104283438e-04    0.000000000e+00    0.000000000e+00    0.000000000e+00    0.000000000e+00
      221125000   -6.308397055e-01    3.897860646e-01    2.529334160e-04    1.396538137e-04    0.000000000e+00    0.000000000e+00    0.000000000e+00    0.000000000e+00
      222750000   -6.168912053e-01    4.075868428e-01    2.962656727e-04    1.412848069e-04    0.000000000e+00    0.000000000e+00    0.000000000e+00    0.000000000e+00
      224375000   -6.025093198e-01    4.249288440e-01    3.055978159e-04    1.290473883e-04    0.000000000e+00    0.000000000e+00    0.000000000e+00    0.000000000e+00
      226000000   -5.877891183e-01    4.416241050e-01    2.807122946e-04    1.329480147e-04    0.000000000e+00    0.000000000e+00    0.000000000e+00    0.000000000e+00
      227625000   -5.724218488e-01    4.577609599e-01    3.303911653e-04    1.535628398e-04    0.000000000e+00    0.000000000e+00    0.000000000e+00    0.000000000e+00
      229250000   -5.566539764e-01    4.734762609e-01    2.950446215e-04    1.573330519e-04    0.000000000e+00    0.000000000e+00    0.000000000e+00    0.000000000e+00
      230875000   -5.403355360e-01    4.882475734e-01    3.150300763e-04    1.498574857e-04    0.000000000e+00    0.000000000e+00    0.000000000e+00    0.000000000e+00
      232500000   -5.237258077e-01    5.028338432e-01    3.044405603e-04    1.538188662e-04    0.000000000e+00    0.000000000e+00    0.000000000e+00    0.000000000e+00
      234125000   -5.068223476e-01    5.166406631e-01    3.375422966e-04    1.535838237e-04    0.000000000e+00    0.000000000e+00    0.000000000e+00    0.000000000e+00
      235750000   -4.893286526e-01    5.298023224e-01    3.110662801e-04    1.366861979e-04    0.000000000e+00    0.000000000e+00    0.000000000e+00    0.000000000e+00
      237375000   -4.713047743e-01    5.420577526e-01    3.188451810e-04    1.428663236e-04    0.000000000e+00    0.000000000e+00    0.000000000e+00    0.000000000e+00
      239000000   -4.534003735e-01    5.539746881e-01    3.224973916e-04    1.469363051e-04    0.000000000e+00    0.000000000e+00    0.000000000e+00    0.000000000e+00
      240625000   -4.348634481e-01    5.651829839e-01    3.291220055e-04    1.536170021e-04    0.000000000e+00    0.000000000e+00    0.000000000e+00    0.000000000e+00
      242250000   -4.161835015e-01    5.758712292e-01    3.388053156e-04    1.515511831e-04    0.000000000e+00    0.000000000e+00    0.000000000e+00    0.000000000e+00
      243875000   -3.970611989e-01    5.860226154e-01    3.422854061e-04    1.345806377e-04    0.000000000e+00    0.000000000e+00    0.000000000e+00    0.000000000e+00
      245500000   -3.776357174e-01    5.953902006e-01    3.444203176e-04    1.469340932e-04    0.000000000e+00    0.000000000e+00    0.000000000e+00    0.000000000e+00
      247125000   -3.581306934e-01    6.042810678e-01    3.279120720e-04    1.441327186e-04    0.000000000e+00    0.000000000e+00    0.000000000e+00    0.000000000e+00
      248750000   -3.384803534e-01    6.123673916e-01    3.412197693e-04    1.400871988e-04    0.000000000e+00    0.000000000e+00    0.000000000e+00    0.000000000e+00
      250375000   -3.186455369e-01    6.199184060e-01    3.411430807e-04    1.420242188e-04    0.000000000e+00    0.000000000e+00    0.000000000e+00    0.000000000e+00
      252000000   -2.987338305e-01    6.264998317e-01    3.550665569e-04    1.561098907e-04    0.000000000e+00    0.000000000e+00    0.000000000e+00    0.000000000e+00
      253625000   -2.787891030e-01    6.328939199e-01    3.415896499e-04    1.584014099e-04    0.000000000e+00    0.000000000e+00    0.000000000e+00    0.000000000e+00
      255250000   -2.588452399e-01    6.384675503e-01    3.460423613e-04    1.499271602e-04    0.000000000e+00    0.000000000e+00    0.000000000e+00    0.000000000e+00
      256875000   -2.389620394e-01    6.434167027e-01    3.419241693e-04    1.441455242e-04    0.000000000e+00    0.000000000e+00    0.000000000e+00    0.000000000e+00
      258500000   -2.187533081e-01    6.473498940e-01    3.580052580e-04    1.499381033e-04    0.000000000e+00    0.000000000e+00    0.000000000e+00    0.000000000e+00
      260125000   -1.987047493e-01    6.512914896e-01    3.704441187e-04    1.748606301e-04    0.000000000e+00    0.000000000e+00    0.000000000e+00    0.000000000e+00
      261750000   -1.787575930e-01    6.542282701e-01    3.558747121e-04    1.463254739e-04    0.000000000e+00    0.000000000e+00    0.000000000e+00    0.000000000e+00
      263375000   -1.586984396e-01    6.565595269e-01    3.650757717e-04    1.408256503e-04    0.000000000e+00    0.000000000e+00    0.000000000e+00    0.000000000e+00
      265000000   -1.387080252e-01    6.580763459e-01    3.382844443e-04    1.391401020e-04    0.000000000e+00    0.000000000e+00    0.000000000e+00    0.000000000e+00
      266625000   -1.186273992e-01    6.593107581e-01    3.634183959e-04    1.634460641e-04    0.000000000e+00    0.000000000e+00    0.000000000e+00    0.000000000e+00
      268250000   -9.883563221e-02    6.597744823e-01    3.494061821e-04    1.565208659e-04    0.000000000e+00    0.000000000e+00    0.000000000e+00    0.000000000e+00
      269875000   -7.911012322e-02    6.596806645e-01    3.607854596e-04    1.286815241e-04    0.000000000e+00    0.000000000e+00    0.000000000e+00    0.000000000e+00
      271500000   -5.922772363e-02    6.592054367e-01    3.585417580e-04    1.794803102e-04    0.000000000e+00    0.000000000e+00    0.000000000e+00    0.000000000e+00
      273125000   -3.971464187e-02    6.580712199e-01    3.414637467e-04    1.408259850e-04    0.000000000e+00    0.000000000e+00    0.000000000e+00    0.000000000e+00
      274750000   -2.018351108e-02    6.563456655e-01    3.412098449e-04    1.329215593e-04    0.000000000e+00    0.000000000e+00    0.000000000e+00    0.000000000e+00
      276375000   -9.777061641e-04    6.538303494e-01    3.385370655e-04    1.658332330e-04    0.000000000e+00    0.000000000e+00    0.000000000e+00    0.000000000e+00
      278000000    1.834313199e-02    6.511358023e-01    3.438406566e-04    1.316268172e-04    0.000000000e+00    0.000000000e+00    0.000000000e+00    0.000000000e+00
      279625000    3.705789149e-02    6.476740241e-01    3.261260281e-04    1.518723002e-04    0.000000000e+00    0.000000000e+00    0.000000000e+00    0.000000000e+00
      281250000    5.609438196e-02    6.440286040e-01    3.366541059e-04    1.413607097e-04    0.000000000e+00    0.000000000e+00    0.000000000e+00    0.000000000e+00
      282875000    7.465040684e-02    6.396382451e-01    3.304791753e-04    1.396207081e-04    0.000000000e+00    0.000000000e+00    0.000000000e+00    0.000000000e+00
      284500000    9.297706932e-02    6.348556280e-01    3.494654666e-04    1.366709330e-04    0.000000000e+00    0.000000000e+00    0.000000000e+00    0.000000000e+00
      286125000    1.113626063e-01    6.294524074e-01    3.311279579e-04    1.231320784e-04    0.000000000e+00    0.000000000e+00    0.000000000e+00    0.000000000e+00
      287750000    1.292851269e-01    6.241034865e-01    3.278457443e-04    1.301810844e-04    0.000000000e+00    0.000000000e+00    0.000000000e+00    0.000000000e+00
      289375000    1.470127106e-01    6.175293326e-01    3.183360095e-04    1.278999844e-04    0.000000000e+00    0.000000000e+00    0.000000000e+00    0.000000000e+00
      291000000    7.370943576e-02    5.792520642e-01   -8.435106429e-05   -2.813868014e-05    0.000000000e+00    0.000000000e+00    0.000000000e+00    0.000000000e+00
      292625000    9.013431519e-02    5.746740103e-01   -3.647455742e-05    1.187687594e-04    0.000000000e+00    0.000000000e+00    0.000000000e+00    0.000000000e+00
      294250000    1.066206396e-01    5.692349076e-01   -1.778311125e-04    9.663624223e-05    0.000000000e+00    0.000000000e+00    0.000000000e+00    0.000000000e+00
      295875000    1.221865714e-01    5.626983643e-01   -2.815685293e-04    2.114203016e-05    0.000000000e+00    0.000000000e+00    0.000000000e+00    0.000000000e+00
      297500000    1.389149278e-01    5.567485094e-01   -7.034045120e-05   -6.983058120e-05    0.000000000e+00    0.000000000e+00    0.000000000e+00    0.000000000e+00
      299125000    1.545452476e-01    5.503075123e-01   -3.115201980e-05    6.140860933e-05    0.000000000e+00    0.000000000e+00    0.000000000e+00    0.000000000e+00
      300750000    1.700048298e-01    5.433810353e-01   -1.691867365e-04   -1.181847401e-04    0.000000000e+00    0.000000000e+00    0.000000000e+00    0.000000000e+00
      302375000    1.848853827e-01    5.358287692e-01   -8.675023855e-05    1.699488348e-04    0.000000000e+00    0.000000000e+00    0.000000000e+00    0.000000000e+00
      304000000    1.995027810e-01    5.282707810e-01   -1.327543850e-05    1.911533764e-05    0.000000000e+00    0.000000000e+00    0.000000000e+00    0.000000000e+00
      305625000    2.145833075e-01    5.206577182e-01   -2.856673927e-05   -8.771943976e-05    0.000000000e+00    0.000000000e+00    0.000000000e+00    0.000000000e+00
      307250000    2.305624634e-01    5.132151246e-01   -8.713638817e-05    4.434989023e-05    0.000000000e+00    0.000000000e+00    0.000000000e+00    0.000000000e+00
      308875000    2.424320877e-01    5.030277371e-01    6.815685629e-05   -2.268916251e-05    0.000000000e+00    0.000000000e+00    0.000000000e+00    0.000000000e+00
      310500000    2.558012605e-01    4.937235713e-01   -5.220503226e-06   -8.900775720e-05    0.000000000e+00    0.000000000e+00    0.000000000e+00    0.000000000e+00
      312125000    2.694928944e-01    4.844551086e-01   -2.616577258e-04    1.865919330e-05    0.000000000e+00    0.000000000e+00    0.000000000e+00    0.000000000e+00
      313750000    2.822447419e-01    4.746594429e-01   -1.366779907e-04   -1.792639341e-05    0.000000000e+00    0.000000000e+00    0.000000000e+00    0.000000000e+00
      315375000    2.951266468e-01    4.645646811e-01   -4.408442692e-05    1.297954896e-05    0.000000000e+00    0.000000000e+00    0.000000000e+00    0.000000000e+00
      317000000    3.071718514e-01    4.539955854e-01    6.051500918e-07    1.419557084e-04    0.000000000e+00    0.000000000e+00    0.000000000e+00    0.000000000e+00
      318625000    3.191907704e-01    4.439269006e-01   -4.581354733e-05    5.362415322e-05    0.000000000e+00    0.000000000e+00    0.000000000e+00    0.000000000e+00
      320250000    3.308258355e-01    4.331120253e-01   -1.659950067e-05   -3.730896788e-05    0.000000000e+00    0.000000000e+00    0.000000000e+00    0.000000000e+00
      321875000    3.422070444e-01    4.220826030e-01   -3.449207725e-05    5.639272786e-05    0.000000000e+00    0.000000000e+00    0.000000000e+00    0.000000000e+00
      323500000    3.529365361e-01    4.107130766e-01   -1.759844599e-05   -1.542451064e-04    0.000000000e+00    0.000000000e+00    0.000000000e+00    0.000000000e+00
      325125000    3.637765348e-01    3.993826509e-01   -6.626534014e-05    6.327527444e-06    0.000000000e+00    0.000000000e+00    0.000000000e+00    0.000000000e+00
      326750000    3.740819693e-01    3.875544965e-01   -9.778546882e-06    4.147871368e-05    0.000000000e+00    0.000000000e+00    0.000000000e+00    0.000000000e+00
      328375000    3.839015067e-01    3.759064376e-01   -1.288843050e-04    1.273646776e-04    0.000000000e+00    0.000000000e+00    0.000000000e+00    0.000000000e+00
      330000000    3.936311305e-01    3.637289703e-01   -1.188700553e-04   -5.061702268e-06    0.000000000e+00    0.000000000e+00    0.000000000e+00    0.000000000e+00
      331625000    4.024109542e-01    3.516011536e-01   -1.086784396e-04   -3.410993668e-05    0.000000000e+00    0.000000000e+00    0.000000000e+00    0.000000000e+00
      333250000    4.112093747e-01    3.394360840e-01   -4.800904571e-05    2.924178443e-05    0.000000000e+00    0.000000000e+00    0.000000000e+00    0.000000000e+00
      334875000    4.198919535e-01    3.270510733e-01   -6.211079744e-05    3.893699977e-05    0.000000000e+00    0.000000000e+00    0.000000000e+00    0.000000000e+00
      336500000    4.281759262e-01    3.143056929e-01    4.202826676e-05    6.881199079e-05    0.000000000e+00    0.000000000e+00    0.000000000e+00    0.000000000e+00
      338125000    4.358335733e-01    3.015719354e-01   -8.242369222e-05   -1.006432722e-04    0.000000000e+00    0.000000000e+00    0.000000000e+00    0.000000000e+00
      339750000    4.430846870e-01    2.887753248e-01   -4.910975622e-05   -5.763016088e-05    0.000000000e+00    0.000000000e+00    0.000000000e+00    0.000000000e+00
      341375000    4.503655732e-01    2.758617699e-01   -1.099435394e-05    1.045324316e-04    0.000000000e+00    0.000000000e+00    0.000000000e+00    0.000000000e+00
      343000000    4.568302333e-01    2.626761198e-01    1.746643647e-05   -6.515182031e-05    0.000000000e+00    0.000000000e+00    0.000000000e+00    0.000000000e+00
      344625000    4.633019269e-01    2.499551475e-01   -1.463640183e-05    7.917475159e-06    0.000000000e+00    0.000000000e+00    0.000000000e+00    0.000000000e+00
      346250000    4.694813192e-01    2.364050597e-01   -1.086030534e-05   -8.999119746e-05    0.000000000e+00    0.000000000e+00    0.000000000e+00    0.000000000e+00
      347875000    4.752637744e-01    2.231208533e-01   -6.226564437e-05    9.467118070e-05    0.000000000e+00    0.000000000e+00    0.000000000e+00    0.000000000e+00
      349500000    4.807285666e-01    2.097579986e-01   -7.134809493e-06   -9.211018914e-05    0.000000000e+00    0.000000000e+00    0.000000000e+00    0.000000000e+00
      351125000    4.858350456e-01    1.961104125e-01   -1.658183464e-04    4.874007209e-05    0.000000000e+00    0.000000000e+00    0.000000000e+00    0.000000000e+00
      352750000    4.906206429e-01    1.829051375e-01   -4.513638851e-05   -8.079219697e-05    0.000000000e+00    0.000000000e+00    0.000000000e+00    0.000000000e+00
      354375000    4.951284230e-01    1.695010364e-01   -1.021768112e-04   -2.470471736e-05    0.000000000e+00    0.000000000e+00    0.000000000e+00    0.000000000e+00
      356000000    4.991718233e-01    1.559092999e-01   -3.515927892e-05   -3.420447683e-06    0.000000000e+00    0.000000000e+00    0.000000000e+00    0.000000000e+00
      357625000    5.028871894e-01    1.421892196e-01   -2.913535536e-05   -1.068971687e-04    0.000000000e+00    0.000000000e+00    0.000000000e+00    0.000000000e+00
      359250000    5.063777566e-01    1.285782307e-01   -5.981557842e-05    1.067551566e-04    0.000000000e+00    0.000000000e+00    0.000000000e+00    0.000000000e+00
      360875000    5.095673203e-01    1.148701385e-01   -5.278040408e-05    4.989673471e-05    0.000000000e+00    0.000000000e+00    0.000000000e+00    0.000000000e+00
      362500000    5.124716163e-01    1.013601422e-01    9.956473514e-05    8.776337927e-05    0.000000000e+00    0.000000000e+00    0.000000000e+00    0.000000000e+00
      364125000    5.152109861e-01    8.767443150e-02   -8.106780297e-05   -3.053176988e-05    0.000000000e+00    0.000000000e+00    0.000000000e+00    0.000000000e+00
      365750000    5.172924399e-01    7.410564274e-02   -1.681456342e-04   -7.497378101e-05    0.000000000e+00    0.000000000e+00    0.000000000e+00    0.000000000e+00
      367375000    5.191501379e-01    6.030022725e-02   -1.211737545e-04   -1.921860530e-05    0.000000000e+00    0.000000000e+00    0.000000000e+00    0.000000000e+00
      369000000    5.209302306e-01    4.683471099e-02   -1.028209590e-04   -2.194390981e-05    0.000000000e+00    0.000000000e+00    0.000000000e+00    0.000000000e+00
      370625000    5.222215652e-01    3.324551508e-02   -1.055898974e-04    2.576388761e-05    0.000000000e+00    0.000000000e+00    0.000000000e+00    0.000000000e+00
      372250000    5.235023499e-01    1.966666058e-02   -4.427320528e-05    6.917899009e-05    0.000000000e+00    0.000000000e+00    0.000000000e+00    0.000000000e+00
      373875000    5.240467191e-01    6.250601728e-03   -2.213265834e-04    1.769568480e-04    0.000000000e+00    0.000000000e+00    0.000000000e+00    0.000000000e+00
      375500000    5.246207118e-01   -7.321663667e-03   -1.484637614e-04    1.212980133e-04    0.000000000e+00    0.000000000e+00    0.000000000e+00    0.000000000e+00
      377125000    5.247246623e-01   -2.060435712e-02   -2.164455800e-04    8.693731070e-05    0.000000000e+00    0.000000000e+00    0.000000000e+00    0.000000000e+00
      378750000    5.243543983e-01   -3.418107331e-02   -9.364442667e-05   -6.306721480e-05    0.000000000e+00    0.000000000e+00    0.000000000e+00    0.000000000e+00
      380375000    5.239210725e-01   -4.748201370e-02   -1.169952811e-04    9.072618559e-05    0.000000000e+00    0.000000000e+00    0.000000000e+00    0.000000000e+00
      382000000    5.231506228e-01   -6.102906913e-02   -1.630704937e-04    1.148930005e-05    0.000000000e+00    0.000000000e+00    0.000000000e+00    0.000000000e+00
      383625000    5.222565532e-01   -7.438791543e-02   -5.643853365e-05    9.418216359e-05    0.000000000e+00    0.000000000e+00    0.000000000e+00    0.000000000e+00
      385250000    5.208861828e-01   -8.784946799e-02   -5.370618965e-05    1.215939701e-04    0.000000000e+00    0.000000000e+00    0.000000000e+00    0.000000000e+00
      386875000    5.193814039e-01   -1.009456590e-01   -1.396291045e-04    1.471442520e-04    0.000000000e+00    0.000000000e+00    0.000000000e+00    0.000000000e+00
      388500000    5.174116492e-01   -1.140653715e-01   -4.342454849e-05    5.739014159e-05    0.000000000e+00    0.000000000e+00    0.000000000e+00    0.000000000e+00
