! NanoVNA-App
! Date: 2024-06-25 16:53:28
! Start: 200MHz Stop: 1.5GHz Points: 801
! S-Parameter data: F S11 S21 S12 S22
# Hz S RI R 50
!     Frequency           S11_Real           S11_Imag           S21_Real           S21_Imag           S12_Real           S12_Imag           S22_Real           S22_Imag
      200000000   -7.506377697e-01    1.167476773e-01    1.714280952e-04    5.548453555e-05    0.000000000e+00    0.000000000e+00    0.000000000e+00    0.000000000e+00
      201625000   -7.457608581e-01    1.398596764e-01    1.742782042e-04    5.666836660e-05    0.000000000e+00    0.000000000e+00    0.000000000e+00    0.000000000e+00
      203250000   -7.403057814e-01    1.628640890e-01    1.986049756e-04    7.315660332e-05    0.000000000e+00    0.000000000e+00    0.000000000e+00    0.000000000e+00
      204875000   -7.337116599e-01    1.852892935e-01    2.169709333e-04    8.289689140e-05    0.000000000e+00    0.000000000e+00    0.000000000e+00    0.000000000e+00
      206500000   -7.267121077e-01    2.074747831e-01    2.104388695e-04    7.059297059e-05    0.000000000e+00    0.000000000e+00    0.000000000e+00    0.000000000e+00
      208125000   -7.188012004e-01    2.293861508e-01    2.286900708e-04    7.486760296e-05    0.000000000e+00    0.000000000e+00    0.000000000e+00    0.000000000e+00
      209750000   -7.102259398e-01    2.509945929e-01    2.341046784e-04    8.604235336e-05    0.000000000e+00    0.000000000e+00    0.000000000e+00    0.000000000e+00
      211375000   -7.007961273e-01    2.721052766e-01    2.497807727e-04    9.006583423e-05    0.000000000e+00    0.000000000e+00    0.000000000e+00    0.000000000e+00
      213000000   -6.907602549e-01    2.929674089e-01    2.494633081e-04    1.309628715e-04    0.000000000e+00    0.000000000e+00    0.000000000e+00    0.000000000e+00
      214625000   -6.800829172e-01    3.132153749e-01    2.729657281e-04    1.135748607e-04    0.000000000e+00    0.000000000e+00    0.000000000e+00    0.000000000e+00
      216250000   -6.686465144e-01    3.330025375e-01    2.731636632e-04    1.102059323e-04    0.000000000e+00    0.000000000e+00    0.000000000e+00    0.000000000e+00
      217875000   -6.566240788e-01    3.524661362e-01    2.906121954e-04    1.196374287e-04    0.000000000e+00    0.000000000e+00    0.000000000e+00    0.000000000e+00
      219500000   -6.439295411e-01    3.713118136e-01    2.793610620e-04    1.344613120e-04    0.000000000e+00    0.000000000e+00    0.000000000e+00    0.000000000e+00
      221125000   -6.307893991e-01    3.897641301e-01    3.012148954e-04    1.357511792e-04    0.000000000e+00    0.000000000e+00    0.000000000e+00    0.000000000e+00
      222750000   -6.167879701e-01    4.075627029e-01    2.863779082e-04    1.287817286e-04    0.000000000e+00    0.000000000e+00    0.000000000e+00    0.000000000e+00
      224375000   -6.026636958e-01    4.249652028e-01    2.752402797e-04    1.570393215e-04    0.000000000e+00    0.000000000e+00    0.000000000e+00    0.000000000e+00
      226000000   -5.877135396e-01    4.417248964e-01    3.026735503e-04    1.194057550e-04    0.000000000e+00    0.000000000e+00    0.000000000e+00    0.000000000e+00
      227625000   -5.724276304e-01    4.577935338e-01    2.894700156e-04    1.663221046e-04    0.000000000e+00    0.000000000e+00    0.000000000e+00    0.000000000e+00
      229250000   -5.565823913e-01    4.733802378e-01    3.021586745e-04    1.400734327e-04    0.000000000e+00    0.000000000e+00    0.000000000e+00    0.000000000e+00
      230875000   -5.403552055e-01    4.883244038e-01    2.911263146e-04    1.579322270e-04    0.000000000e+00    0.000000000e+00    0.000000000e+00    0.000000000e+00
      232500000   -5.237146616e-01    5.030171275e-01    2.961791179e-04    1.433036668e-04    0.000000000e+00    0.000000000e+00    0.000000000e+00    0.000000000e+00
      234125000   -5.066999793e-01    5.164981484e-01    3.161747009e-04    1.361002214e-04    0.000000000e+00    0.000000000e+00    0.000000000e+00    0.000000000e+00
      235750000   -4.890883267e-01    5.296885967e-01    3.081314499e-04    1.321001619e-04    0.000000000e+00    0.000000000e+00    0.000000000e+00    0.000000000e+00
      237375000   -4.713841081e-01    5.421344638e-01    3.187098773e-04    1.454357989e-04    0.000000000e+00    0.000000000e+00    0.000000000e+00    0.000000000e+00
      239000000   -4.532745183e-01    5.539086461e-01    3.115648287e-04    1.355137210e-04    0.000000000e+00    0.000000000e+00    0.000000000e+00    0.000000000e+00
      240625000   -4.349158704e-01    5.650963783e-01    3.140291665e-04    1.532701572e-04    0.000000000e+00    0.000000000e+00    0.000000000e+00    0.000000000e+00
      242250000   -4.162274301e-01    5.758203864e-01    3.049754887e-04    1.451121352e-04    0.000000000e+00    0.000000000e+00    0.000000000e+00    0.000000000e+00
      243875000   -3.970322013e-01    5.859392881e-01    3.488620277e-04    1.593348570e-04    0.000000000e+00    0.000000000e+00    0.000000000e+00    0.000000000e+00
      245500000   -3.776420951e-01    5.953233242e-01    3.405139723e-04    1.639714174e-04    0.000000000e+00    0.000000000e+00    0.000000000e+00    0.000000000e+00
      247125000   -3.581443429e-01    6.042463183e-01    3.628493578e-04    1.433937286e-04    0.000000000e+00    0.000000000e+00    0.000000000e+00    0.000000000e+00
      248750000   -3.384309113e-01    6.122838855e-01    3.357636160e-04    1.422880305e-04    0.000000000e+00    0.000000000e+00    0.000000000e+00    0.000000000e+00
      250375000   -3.185881972e-01    6.198911071e-01    3.740705433e-04    1.465512905e-04    0.000000000e+00    0.000000000e+00    0.000000000e+00    0.000000000e+00
      252000000   -2.987959385e-01    6.267362237e-01    3.453253303e-04    1.561917015e-04    0.000000000e+00    0.000000000e+00    0.000000000e+00    0.000000000e+00
      253625000   -2.788505256e-01    6.329038739e-01    3.710750316e-04    1.645649318e-04    0.000000000e+00    0.000000000e+00    0.000000000e+00    0.000000000e+00
      255250000   -2.588321567e-01    6.385325789e-01    3.320354444e-04    1.439329062e-04    0.000000000e+00    0.000000000e+00    0.000000000e+00    0.000000000e+00
      256875000   -2.389211953e-01    6.432284117e-01    3.640186042e-04    1.489870338e-04    0.000000000e+00    0.000000000e+00    0.000000000e+00    0.000000000e+00
      258500000   -2.187828869e-01    6.475276947e-01    3.677724162e-04    1.534202456e-04    0.000000000e+00    0.000000000e+00    0.000000000e+00    0.000000000e+00
      260125000   -1.986770481e-01    6.512187123e-01    3.489341470e-04    1.545723208e-04    0.000000000e+00    0.000000000e+00    0.000000000e+00    0.000000000e+00
      261750000   -1.785942316e-01    6.542681456e-01    3.686486743e-04    1.364842901e-04    0.000000000e+00    0.000000000e+00    0.000000000e+00    0.000000000e+00
      263375000   -1.587023437e-01    6.566056609e-01    3.713739279e-04    1.487764821e-04    0.000000000e+00    0.000000000e+00    0.000000000e+00    0.000000000e+00
      265000000   -1.387822777e-01    6.582409143e-01    3.269926237e-04    1.590300235e-04    0.000000000e+00    0.000000000e+00    0.000000000e+00    0.000000000e+00
      266625000   -1.186754629e-01    6.594296694e-01    3.660651855e-04    1.291230728e-04    0.000000000e+00    0.000000000e+00    0.000000000e+00    0.000000000e+00
      268250000   -9.880724549e-02    6.597096324e-01    3.425606992e-04    1.341327006e-04    0.000000000e+00    0.000000000e+00    0.000000000e+00    0.000000000e+00
      269875000   -7.894200832e-02    6.597098112e-01    3.567036183e-04    1.699234999e-04    0.000000000e+00    0.000000000e+00    0.000000000e+00    0.000000000e+00
      271500000   -5.931495503e-02    6.591970921e-01    3.500170715e-04    1.529521105e-04    0.000000000e+00    0.000000000e+00    0.000000000e+00    0.000000000e+00
      273125000   -3.976845369e-02    6.579227448e-01    3.272400063e-04    1.655530796e-04    0.000000000e+00    0.000000000e+00    0.000000000e+00    0.000000000e+00
      274750000   -2.032733895e-02    6.560485363e-01    3.509451053e-04    1.587573643e-04    0.000000000e+00    0.000000000e+00    0.000000000e+00    0.000000000e+00
      276375000   -1.051026280e-03    6.539363265e-01    3.540810721e-04    1.462204382e-04    0.000000000e+00    0.000000000e+00    0.000000000e+00    0.000000000e+00
      278000000    1.829131320e-02    6.514362097e-01    3.557133896e-04    1.382580376e-04    0.000000000e+00    0.000000000e+00    0.000000000e+00    0.000000000e+00
      279625000    3.715214506e-02    6.477609277e-01    3.530003596e-04    1.581431716e-04    0.000000000e+00    0.000000000e+00    0.000000000e+00    0.000000000e+00
      281250000    5.592569336e-02    6.439414024e-01    3.345032164e-04    1.516608027e-04    0.000000000e+00    0.000000000e+00    0.000000000e+00    0.000000000e+00
      282875000    7.444222271e-02    6.395609975e-01    3.440705768e-04    1.417496096e-04    0.000000000e+00    0.000000000e+00    0.000000000e+00    0.000000000e+00
      284500000    9.294623882e-02    6.349319816e-01    3.248107096e-04    1.418566681e-04    0.000000000e+00    0.000000000e+00    0.000000000e+00    0.000000000e+00
      286125000    1.112585962e-01    6.294689775e-01    3.386131430e-04    1.429157710e-04    0.000000000e+00    0.000000000e+00    0.000000000e+00    0.000000000e+00
      287750000    1.292444915e-01    6.238426566e-01    3.250922600e-04    1.467230031e-04    0.000000000e+00    0.000000000e+00    0.000000000e+00    0.000000000e+00
      289375000    1.469097286e-01    6.174483895e-01    3.283315164e-04    1.159027379e-04    0.000000000e+00    0.000000000e+00    0.000000000e+00    0.000000000e+00
      291000000    7.269600034e-02    5.793451071e-01   -9.345013677e-05   -1.108557553e-04    0.000000000e+00    0.000000000e+00    0.000000000e+00    0.000000000e+00
      292625000    8.999481052e-02    5.743629336e-01   -1.547275133e-05   -1.180098407e-04    0.000000000e+00    0.000000000e+00    0.000000000e+00    0.000000000e+00
      294250000    1.068448424e-01    5.693221092e-01   -8.547055586e-06    2.695364310e-05    0.000000000e+00    0.000000000e+00    0.000000000e+00    0.000000000e+00
      295875000    1.228410155e-01    5.627761483e-01   -1.097855493e-04   -4.258201079e-05    0.000000000e+00    0.000000000e+00    0.000000000e+00    0.000000000e+00
      297500000    1.386096925e-01    5.568975806e-01   -1.692774240e-04    3.588465006e-06    0.000000000e+00    0.000000000e+00    0.000000000e+00    0.000000000e+00
      299125000    1.541254073e-01    5.497964621e-01   -2.299776825e-04   -1.103425257e-05    0.000000000e+00    0.000000000e+00    0.000000000e+00    0.000000000e+00
      300750000    1.696265340e-01    5.431525111e-01   -1.722301749e-05    6.127982488e-06    0.000000000e+00    0.000000000e+00    0.000000000e+00    0.000000000e+00
      302375000    1.847478449e-01    5.357751846e-01   -1.339633163e-04    8.558254922e-05    0.000000000e+00    0.000000000e+00    0.000000000e+00    0.000000000e+00
      304000000    1.993854046e-01    5.280221701e-01    1.138769367e-04   -2.252708873e-05    0.000000000e+00    0.000000000e+00    0.000000000e+00    0.000000000e+00
      305625000    2.139693946e-01    5.201950073e-01    1.398391032e-05    2.841935748e-05    0.000000000e+00    0.000000000e+00    0.000000000e+00    0.000000000e+00
      307250000    2.307564467e-01    5.105494261e-01   -4.281250949e-05   -2.419881412e-06    0.000000000e+00    0.000000000e+00    0.000000000e+00    0.000000000e+00
      308875000    2.424609214e-01    5.031607747e-01    4.147209620e-05   -5.897109804e-05    0.000000000e+00    0.000000000e+00    0.000000000e+00    0.000000000e+00
      310500000    2.557624578e-01    4.934020936e-01   -1.293855603e-04    4.087920752e-05    0.000000000e+00    0.000000000e+00    0.000000000e+00    0.000000000e+00
      312125000    2.692192793e-01    4.843516648e-01   -2.278790816e-05    7.283594186e-06    0.000000000e+00    0.000000000e+00    0.000000000e+00    0.000000000e+00
      313750000    2.821158469e-01    4.745679498e-01    1.292529942e-05    2.939111146e-04    0.000000000e+00    0.000000000e+00    0.000000000e+00    0.000000000e+00
      315375000    2.949682176e-01    4.648733139e-01   -8.897450607e-05    9.006342589e-05    0.000000000e+00    0.000000000e+00    0.000000000e+00    0.000000000e+00
      317000000    3.073548973e-01    4.541651607e-01   -1.668812183e-04    1.065900578e-04    0.000000000e+00    0.000000000e+00    0.000000000e+00    0.000000000e+00
      318625000    3.194150329e-01    4.438298345e-01    3.662106974e-05    2.717351708e-05    0.000000000e+00    0.000000000e+00    0.000000000e+00    0.000000000e+00
      320250000    3.307148814e-01    4.330206513e-01    9.342894919e-05    1.154193160e-04    0.000000000e+00    0.000000000e+00    0.000000000e+00    0.000000000e+00
      321875000    3.422116935e-01    4.220259786e-01   -5.451067773e-05    8.195289411e-05    0.000000000e+00    0.000000000e+00    0.000000000e+00    0.000000000e+00
      323500000    3.526993692e-01    4.107056856e-01   -1.513666066e-04    7.781807653e-05    0.000000000e+00    0.000000000e+00    0.000000000e+00    0.000000000e+00
      325125000    3.634997606e-01    3.996777236e-01   -2.246164149e-05   -4.305458424e-05    0.000000000e+00    0.000000000e+00    0.000000000e+00    0.000000000e+00
      326750000    3.738868237e-01    3.877911866e-01   -4.067116606e-05   -3.540530452e-05    0.000000000e+00    0.000000000e+00    0.000000000e+00    0.000000000e+00
      328375000    3.839849532e-01    3.760382533e-01   -1.179770625e-04   -4.912023360e-05    0.000000000e+00    0.000000000e+00    0.000000000e+00    0.000000000e+00
      330000000    3.933688998e-01    3.641856611e-01   -1.012390203e-04    1.903683915e-05    0.000000000e+00    0.000000000e+00    0.000000000e+00    0.000000000e+00
      331625000    4.024701715e-01    3.515100181e-01   -1.402092494e-05   -1.212398056e-04    0.000000000e+00    0.000000000e+00    0.000000000e+00    0.000000000e+00
      333250000    4.113579094e-01    3.392744660e-01   -4.137262295e-05   -2.600964035e-05    0.000000000e+00    0.000000000e+00    0.000000000e+00    0.000000000e+00
      334875000    4.196631908e-01    3.264764845e-01   -6.417387340e-05    6.776328519e-05    0.000000000e+00    0.000000000e+00    0.000000000e+00    0.000000000e+00
      336500000    4.276051223e-01    3.143541813e-01    1.972828068e-05   -1.621072624e-05    0.000000000e+00    0.000000000e+00    0.000000000e+00    0.000000000e+00
      338125000    4.356666803e-01    3.016655445e-01   -8.711741248e-05    1.848654756e-05    0.000000000e+00    0.000000000e+00    0.000000000e+00    0.000000000e+00
      339750000    4.429916739e-01    2.887522578e-01   -1.715723920e-04   -3.550411202e-05    0.000000000e+00    0.000000000e+00    0.000000000e+00    0.000000000e+00
      341375000    4.504714906e-01    2.757830918e-01   -9.411911014e-05   -1.500218787e-06    0.000000000e+00    0.000000000e+00    0.000000000e+00    0.000000000e+00
      343000000    4.570308030e-01    2.627557218e-01   -1.598755625e-05   -6.024660024e-07    0.000000000e+00    0.000000000e+00    0.000000000e+00    0.000000000e+00
      344625000    4.633594751e-01    2.497126460e-01    5.445218449e-06    5.301896454e-05    0.000000000e+00    0.000000000e+00    0.000000000e+00    0.000000000e+00
      346250000    4.695062339e-01    2.364841849e-01   -6.139864126e-05   -1.262646401e-04    0.000000000e+00    0.000000000e+00    0.000000000e+00    0.000000000e+00
      347875000    4.750429392e-01    2.232418060e-01   -4.892336801e-05   -7.312695379e-05    0.000000000e+00    0.000000000e+00    0.000000000e+00    0.000000000e+00
      349500000    4.805898666e-01    2.099013627e-01   -1.979240551e-05   -8.476216317e-05    0.000000000e+00    0.000000000e+00    0.000000000e+00    0.000000000e+00
      351125000    4.857811034e-01    1.963899434e-01   -1.693807571e-04    4.936351252e-05    0.000000000e+00    0.000000000e+00    0.000000000e+00    0.000000000e+00
      352750000    4.905109107e-01    1.827518493e-01   -1.400150941e-04    1.159902022e-04    0.000000000e+00    0.000000000e+00    0.000000000e+00    0.000000000e+00
      354375000    4.950289130e-01    1.693229377e-01   -8.177752170e-05   -2.864324051e-05    0.000000000e+00    0.000000000e+00    0.000000000e+00    0.000000000e+00
      356000000    4.993079901e-01    1.557617038e-01   -1.143227928e-04   -7.603664562e-05    0.000000000e+00    0.000000000e+00    0.000000000e+00    0.000000000e+00
      357625000    5.027172565e-01    1.422310472e-01   -8.821361553e-05    1.215386801e-04    0.000000000e+00    0.000000000e+00    0.000000000e+00    0.000000000e+00
      359250000    5.063211322e-01    1.285670996e-01   -6.277999637e-05   -4.178456220e-05    0.000000000e+00    0.000000000e+00    0.000000000e+00    0.000000000e+00
      360875000    5.096048713e-01    1.150106490e-01   -1.065021861e-04   -1.461551437e-04    0.000000000e+00    0.000000000e+00    0.000000000e+00    0.000000000e+00
      362500000    5.124288797e-01    1.011575237e-01    1.106591640e-06   -5.307921310e-05    0.000000000e+00    0.000000000e+00    0.000000000e+00    0.000000000e+00
      364125000    5.150248408e-01    8.780821413e-02   -5.985933967e-05   -8.567183977e-05    0.000000000e+00    0.000000000e+00    0.000000000e+00    0.000000000e+00
      365750000    5.171550512e-01    7.423201948e-02   -3.789782568e-05   -9.961961041e-06    0.000000000e+00    0.000000000e+00    0.000000000e+00    0.000000000e+00
      367375000    5.193968415e-01    6.058699265e-02   -6.067083086e-05   -8.181916201e-05    0.000000000e+00    0.000000000e+00    0.000000000e+00    0.000000000e+00
      369000000    5.208558440e-01    4.686532915e-02   -1.027735780e-04    2.432282599e-05    0.000000000e+00    0.000000000e+00    0.000000000e+00    0.000000000e+00
      370625000    5.222186446e-01    3.329729661e-02    2.250336001e-05   -4.700395584e-05    0.000000000e+00    0.000000000e+00    0.000000000e+00    0.000000000e+00
      372250000    5.232517719e-01    1.947145909e-02   -2.112920774e-04   -3.051183012e-05    0.000000000e+00    0.000000000e+00    0.000000000e+00    0.000000000e+00
      373875000    5.240343809e-01    6.311358884e-03   -9.969880193e-05   -1.175130456e-04    0.000000000e+00    0.000000000e+00    0.000000000e+00    0.000000000e+00
      375500000    5.244233608e-01   -7.267033216e-03    9.242978558e-05   -4.157863077e-05    0.000000000e+00    0.000000000e+00    0.000000000e+00    0.000000000e+00
      377125000    5.245845318e-01   -2.062544599e-02   -2.416102798e-04    1.525797561e-04    0.000000000e+00    0.000000000e+00    0.000000000e+00    0.000000000e+00
      378750000    5.244892836e-01   -3.430052474e-02   -1.525045536e-05    1.644815056e-04    0.000000000e+00    0.000000000e+00    0.000000000e+00    0.000000000e+00
      380375000    5.240054131e-01   -4.745281115e-02   -1.225236483e-04   -5.378296919e-05    0.000000000e+00    0.000000000e+00    0.000000000e+00    0.000000000e+00
      382000000    5.233634710e-01   -6.096331775e-02   -1.740810985e-04    9.501797467e-05    0.000000000e+00    0.000000000e+00    0.000000000e+00    0.000000000e+00
      383625000    5.222490430e-01   -7.467022538e-02   -1.496965415e-04   -6.708697038e-05    0.000000000e+00    0.000000000e+00    0.000000000e+00    0.000000000e+00
      385250000    5.210390091e-01   -8.761856705e-02   -6.094063792e-05   -4.877168249e-05    0.000000000e+00    0.000000000e+00    0.000000000e+00    0.000000000e+00
      386875000    5.193744898e-01   -1.008510813e-01   -1.041490905e-04    1.864393744e-05    0.000000000e+00    0.000000000e+00    0.000000000e+00    0.000000000e+00
      388500000    5.173794031e-01   -1.141070127e-01   -1.369037927e-04    1.341261814e-04    0.000000000e+00    0.000000000e+00    0.000000000e+00    0.000000000e+00
