! NanoVNA-App
! Date: 2024-06-25 16:52:38
! Start: 200MHz Stop: 1.5GHz Points: 801
! S-Parameter data: F S11 S21 S12 S22
# Hz S RI R 50
!     Frequency           S11_Real           S11_Imag           S21_Real           S21_Imag           S12_Real           S12_Imag           S22_Real           S22_Imag
      200000000   -7.507930398e-01    1.168647259e-01    1.704014430e-04    4.600929242e-05    0.000000000e+00    0.000000000e+00    0.000000000e+00    0.000000000e+00
      201625000   -7.458676100e-01    1.399239004e-01    1.840505574e-04    5.590591900e-05    0.000000000e+00    0.000000000e+00    0.000000000e+00    0.000000000e+00
      203250000   -7.403610349e-01    1.627872437e-01    1.982518443e-04    7.505121903e-05    0.000000000e+00    0.000000000e+00    0.000000000e+00    0.000000000e+00
      204875000   -7.339860201e-01    1.854141057e-01    2.160578297e-04    7.237518730e-05    0.000000000e+00    0.000000000e+00    0.000000000e+00    0.000000000e+00
      206500000   -7.267875671e-01    2.075213045e-01    2.214463602e-04    6.999276957e-05    0.000000000e+00    0.000000000e+00    0.000000000e+00    0.000000000e+00
      208125000   -7.189995646e-01    2.295486927e-01    2.285017108e-04    9.297905490e-05    0.000000000e+00    0.000000000e+00    0.000000000e+00    0.000000000e+00
      209750000   -7.104318142e-01    2.510385513e-01    2.507696627e-04    6.633516750e-05    0.000000000e+00    0.000000000e+00    0.000000000e+00    0.000000000e+00
      211375000   -7.009819746e-01    2.722636759e-01    2.586390765e-04    8.754849114e-05    0.000000000e+00    0.000000000e+00    0.000000000e+00    0.000000000e+00
      213000000   -6.908890605e-01    2.929829359e-01    2.698401513e-04    9.315332136e-05    0.000000000e+00    0.000000000e+00    0.000000000e+00    0.000000000e+00
      214625000   -6.801046729e-01    3.133223653e-01    2.659336315e-04    9.378522373e-05    0.000000000e+00    0.000000000e+00    0.000000000e+00    0.000000000e+00
      216250000   -6.688200235e-01    3.333311081e-01    2.863660047e-04    1.202730782e-04    0.000000000e+00    0.000000000e+00    0.000000000e+00    0.000000000e+00
      217875000   -6.565814614e-01    3.525531292e-01    2.827652206e-04    1.171281983e-04    0.000000000e+00    0.000000000e+00    0.000000000e+00    0.000000000e+00
      219500000   -6.440237164e-01    3.714921772e-01    2.713179565e-04    1.280975121e-04    0.000000000e+00    0.000000000e+00    0.000000000e+00    0.000000000e+00
      221125000   -6.307579875e-01    3.898056746e-01    2.888623858e-04    1.378864690e-04    0.000000000e+00    0.000000000e+00    0.000000000e+00    0.000000000e+00
      222750000   -6.169350743e-01    4.077388048e-01    2.898358798e-04    1.374018902e-04    0.000000000e+00    0.000000000e+00    0.000000000e+00    0.000000000e+00
      224375000   -6.026353836e-01    4.249959290e-01    2.981535508e-04    1.539190416e-04    0.000000000e+00    0.000000000e+00    0.000000000e+00    0.000000000e+00
      226000000   -5.877180099e-01    4.417819977e-01    2.822444367e-04    1.449393021e-04    0.000000000e+00    0.000000000e+00    0.000000000e+00    0.000000000e+00
      227625000   -5.725483894e-01    4.579103291e-01    3.139230539e-04    1.250371715e-04    0.000000000e+00    0.000000000e+00    0.000000000e+00    0.000000000e+00
      229250000   -5.566760302e-01    4.736034274e-01    3.247257264e-04    1.439565240e-04    0.000000000e+00    0.000000000e+00    0.000000000e+00    0.000000000e+00
      230875000   -5.404598713e-01    4.886874259e-01    3.271979513e-04    1.536725467e-04    0.000000000e+00    0.000000000e+00    0.000000000e+00    0.000000000e+00
      232500000   -5.237414837e-01    5.029721856e-01    3.293351620e-04    1.502432569e-04    0.000000000e+00    0.000000000e+00    0.000000000e+00    0.000000000e+00
      234125000   -5.067349076e-01    5.164897442e-01    3.127568052e-04    1.458617189e-04    0.000000000e+00    0.000000000e+00    0.000000000e+00    0.000000000e+00
      235750000   -4.891916811e-01    5.300500989e-01    3.261283564e-04    1.598370873e-04    0.000000000e+00    0.000000000e+00    0.000000000e+00    0.000000000e+00
      237375000   -4.713926315e-01    5.423126221e-01    3.270293237e-04    1.584745914e-04    0.000000000e+00    0.000000000e+00    0.000000000e+00    0.000000000e+00
      239000000   -4.533763528e-01    5.541500449e-01    3.170654818e-04    1.346678619e-04    0.000000000e+00    0.000000000e+00    0.000000000e+00    0.000000000e+00
      240625000   -4.348727465e-01    5.652534366e-01    3.333779168e-04    1.509776775e-04    0.000000000e+00    0.000000000e+00    0.000000000e+00    0.000000000e+00
      242250000   -4.160240591e-01    5.759158731e-01    3.168143739e-04    1.197349120e-04    0.000000000e+00    0.000000000e+00    0.000000000e+00    0.000000000e+00
      243875000   -3.970773518e-01    5.859816670e-01    3.164102091e-04    1.441107015e-04    0.000000000e+00    0.000000000e+00    0.000000000e+00    0.000000000e+00
      245500000   -3.778104484e-01    5.954980254e-01    3.347349411e-04    1.442379289e-04    0.000000000e+00    0.000000000e+00    0.000000000e+00    0.000000000e+00
      247125000   -3.581167758e-01    6.042418480e-01    3.238919016e-04    1.348179067e-04    0.000000000e+00    0.000000000e+00    0.000000000e+00    0.000000000e+00
      248750000   -3.383814394e-01    6.125583053e-01    3.261168604e-04    1.313889225e-04    0.000000000e+00    0.000000000e+00    0.000000000e+00    0.000000000e+00
      250375000   -3.185702562e-01    6.200655699e-01    3.261805105e-04    1.514481701e-04    0.000000000e+00    0.000000000e+00    0.000000000e+00    0.000000000e+00
      252000000   -2.988383174e-01    6.268235445e-01    3.274546762e-04    1.566773717e-04    0.000000000e+00    0.000000000e+00    0.000000000e+00    0.000000000e+00
      253625000   -2.787806690e-01    6.330536008e-01    3.559562028e-04    1.598449453e-04    0.000000000e+00    0.000000000e+00    0.000000000e+00    0.000000000e+00
      255250000   -2.588912547e-01    6.387732625e-01    3.499257728e-04    1.439476036e-04    0.000000000e+00    0.000000000e+00    0.000000000e+00    0.000000000e+00
      256875000   -2.388671637e-01    6.434473395e-01    3.514446144e-04    1.465312525e-04    0.000000000e+00    0.000000000e+00    0.000000000e+00    0.000000000e+00
      258500000   -2.185588628e-01    6.476726532e-01    3.492464602e-04    1.442179200e-04    0.000000000e+00    0.000000000e+00    0.000000000e+00    0.000000000e+00
      260125000   -1.986143291e-01    6.512237787e-01    3.652542073e-04    1.445715607e-04    0.000000000e+00    0.000000000e+00    0.000000000e+00    0.000000000e+00
      261750000   -1.785500944e-01    6.543642282e-01    3.675052430e-04    1.460801432e-04    0.000000000e+00    0.000000000e+00    0.000000000e+00    0.000000000e+00
      263375000   -1.584537178e-01    6.565770507e-01    3.548634704e-04    1.596204092e-04    0.000000000e+00    0.000000000e+00    0.000000000e+00    0.000000000e+00
      265000000   -1.385824978e-01    6.582068801e-01    3.613529552e-04    1.569034357e-04    0.000000000e+00    0.000000000e+00    0.000000000e+00    0.000000000e+00
      266625000   -1.187500730e-01    6.593121290e-01    3.636256151e-04    1.545953273e-04    0.000000000e+00    0.000000000e+00    0.000000000e+00    0.000000000e+00
      268250000   -9.868144989e-02    6.598729491e-01    3.426381736e-04    1.344519987e-04    0.000000000e+00    0.000000000e+00    0.000000000e+00    0.000000000e+00
      269875000   -7.885152847e-02    6.599271894e-01    3.415482934e-04    1.551752503e-04    0.000000000e+00    0.000000000e+00    0.000000000e+00    0.000000000e+00
      271500000   -5.930649489e-02    6.592494249e-01    3.688458237e-04    1.298688439e-04    0.000000000e+00    0.000000000e+00    0.000000000e+00    0.000000000e+00
      273125000   -3.962279111e-02    6.581122279e-01    3.511891991e-04    1.501231018e-04    0.000000000e+00    0.000000000e+00    0.000000000e+00    0.000000000e+00
      274750000   -2.037739195e-02    6.564651728e-01    3.517494188e-04    1.318613940e-04    0.000000000e+00    0.000000000e+00    0.000000000e+00    0.000000000e+00
      276375000   -8.125667810e-04    6.539924741e-01    3.381632559e-04    1.531883463e-04    0.000000000e+00    0.000000000e+00    0.000000000e+00    0.000000000e+00
      278000000    1.819014922e-02    6.513040662e-01    3.626632097e-04    1.539607620e-04    0.000000000e+00    0.000000000e+00    0.000000000e+00    0.000000000e+00
      279625000    3.729597479e-02    6.479426026e-01    3.316969087e-04    1.615540241e-04    0.000000000e+00    0.000000000e+00    0.000000000e+00    0.000000000e+00
      281250000    5.610642582e-02    6.439787149e-01    3.343830176e-04    1.509480062e-04    0.000000000e+00    0.000000000e+00    0.000000000e+00    0.000000000e+00
      282875000    7.477305830e-02    6.397058368e-01    3.428844211e-04    1.480244973e-04    0.000000000e+00    0.000000000e+00    0.000000000e+00    0.000000000e+00
      284500000    9.310253710e-02    6.349443793e-01    3.234038304e-04    1.313383691e-04    0.000000000e+00    0.000000000e+00    0.000000000e+00    0.000000000e+00
      286125000    1.113462001e-01    6.296578050e-01    3.136348096e-04    1.190567782e-04    0.000000000e+00    0.000000000e+00    0.000000000e+00    0.000000000e+00
      287750000    1.293669939e-01    6.240673065e-01    3.186060931e-04    1.328155049e-04    0.000000000e+00    0.000000000e+00    0.000000000e+00    0.000000000e+00
      289375000    1.470689923e-01    6.175255775e-01    3.111285914e-04    1.199441176e-04    0.000000000e+00    0.000000000e+00    0.000000000e+00    0.000000000e+00
      291000000    7.315115631e-02    5.797843337e-01    1.764828630e-04   -1.289692882e-04    0.000000000e+00    0.000000000e+00    0.000000000e+00    0.000000000e+00
      292625000    9.062048793e-02    5.741862655e-01   -1.187685921e-04   -9.154072177e-05    0.000000000e+00    0.000000000e+00    0.000000000e+00    0.000000000e+00
      294250000    1.064743996e-01    5.687716603e-01   -1.082383533e-04   -2.447533916e-05    0.000000000e+00    0.000000000e+00    0.000000000e+00    0.000000000e+00
      295875000    1.231092438e-01    5.631600618e-01   -1.528776047e-04   -6.524276978e-05    0.000000000e+00    0.000000000e+00    0.000000000e+00    0.000000000e+00
      297500000    1.386805475e-01    5.566789508e-01   -1.728682109e-04    1.289786160e-04    0.000000000e+00    0.000000000e+00    0.000000000e+00    0.000000000e+00
      299125000    1.546420753e-01    5.504621267e-01   -1.716403494e-04    1.315607806e-04    0.000000000e+00    0.000000000e+00    0.000000000e+00    0.000000000e+00
      300750000    1.700602770e-01    5.433772206e-01   -1.970402263e-05   -1.934011016e-05    0.000000000e+00    0.000000000e+00    0.000000000e+00    0.000000000e+00
      302375000    1.844427884e-01    5.358223319e-01   -7.536898920e-05    9.343640704e-05    0.000000000e+00    0.000000000e+00    0.000000000e+00    0.000000000e+00
      304000000    1.995300055e-01    5.282238722e-01   -6.652020966e-05    8.458076627e-05    0.000000000e+00    0.000000000e+00    0.000000000e+00    0.000000000e+00
      305625000    2.138384134e-01    5.198389888e-01   -6.810440391e-05    4.982978498e-05    0.000000000e+00    0.000000000e+00    0.000000000e+00    0.000000000e+00
      307250000    2.270382494e-01    5.098105669e-01    4.446526145e-05   -6.392862269e-05    0.000000000e+00    0.000000000e+00    0.000000000e+00    0.000000000e+00
      308875000    2.424635142e-01    5.026867986e-01    4.485398313e-05    4.571639511e-05    0.000000000e+00    0.000000000e+00    0.000000000e+00    0.000000000e+00
      310500000    2.563681304e-01    4.940037429e-01   -4.383701526e-05   -1.041892538e-04    0.000000000e+00    0.000000000e+00    0.000000000e+00    0.000000000e+00
      312125000    2.695019245e-01    4.843763411e-01   -6.951507385e-05   -4.954061660e-05    0.000000000e+00    0.000000000e+00    0.000000000e+00    0.000000000e+00
      313750000    2.822035253e-01    4.748465419e-01   -5.569537097e-05    1.758108738e-05    0.000000000e+00    0.000000000e+00    0.000000000e+00    0.000000000e+00
      315375000    2.950219810e-01    4.650090635e-01   -1.314146357e-04    8.451586473e-05    0.000000000e+00    0.000000000e+00    0.000000000e+00    0.000000000e+00
      317000000    3.072712123e-01    4.541918039e-01    4.758049181e-05   -3.875144466e-05    0.000000000e+00    0.000000000e+00    0.000000000e+00    0.000000000e+00
      318625000    3.195189536e-01    4.439637065e-01   -9.443175804e-05    4.225584416e-05    0.000000000e+00    0.000000000e+00    0.000000000e+00    0.000000000e+00
      320250000    3.306666613e-01    4.329710603e-01   -4.434106449e-05   -7.824204658e-05    0.000000000e+00    0.000000000e+00    0.000000000e+00    0.000000000e+00
      321875000    3.423002660e-01    4.222320914e-01    3.543883940e-05    7.406617806e-05    0.000000000e+00    0.000000000e+00    0.000000000e+00    0.000000000e+00
      323500000    3.530856669e-01    4.108540714e-01   -4.246187018e-05    3.724875933e-05    0.000000000e+00    0.000000000e+00    0.000000000e+00    0.000000000e+00
      325125000    3.640283644e-01    3.995631635e-01   -4.725539111e-05   -1.711075165e-04    0.000000000e+00    0.000000000e+00    0.000000000e+00    0.000000000e+00
      326750000    3.741444647e-01    3.877167702e-01    4.586520663e-05   -1.169011921e-05    0.000000000e+00    0.000000000e+00    0.000000000e+00    0.000000000e+00
      328375000    3.840537369e-01    3.761871457e-01   -6.152332207e-05   -5.850198067e-05    0.000000000e+00    0.000000000e+00    0.000000000e+00    0.000000000e+00
      330000000    3.935515285e-01    3.638680875e-01   -2.101732889e-06   -1.435863760e-05    0.000000000e+00    0.000000000e+00    0.000000000e+00    0.000000000e+00
      331625000    4.025031924e-01    3.520158827e-01   -4.824210919e-05    7.160285895e-05    0.000000000e+00    0.000000000e+00    0.000000000e+00    0.000000000e+00
      333250000    4.112976193e-01    3.394802213e-01   -7.306533371e-05   -1.254432427e-04    0.000000000e+00    0.000000000e+00    0.000000000e+00    0.000000000e+00
      334875000    4.198781252e-01    3.269351721e-01   -2.281073394e-04    4.378181256e-05    0.000000000e+00    0.000000000e+00    0.000000000e+00    0.000000000e+00
      336500000    4.278246462e-01    3.141896129e-01   -7.044030644e-05    3.993744758e-05    0.000000000e+00    0.000000000e+00    0.000000000e+00    0.000000000e+00
      338125000    4.356452525e-01    3.013446331e-01   -9.524389316e-05   -1.240791753e-04    0.000000000e+00    0.000000000e+00    0.000000000e+00    0.000000000e+00
      339750000    4.430480897e-01    2.889529765e-01    1.293860842e-04   -8.513744251e-05    0.000000000e+00    0.000000000e+00    0.000000000e+00    0.000000000e+00
      341375000    4.503251910e-01    2.759584785e-01   -3.908165309e-05    1.822168088e-05    0.000000000e+00    0.000000000e+00    0.000000000e+00    0.000000000e+00
      343000000    4.574453235e-01    2.628514767e-01   -1.241644168e-05    7.667184400e-05    0.000000000e+00    0.000000000e+00    0.000000000e+00    0.000000000e+00
      344625000    4.635151625e-01    2.496295869e-01    1.893519652e-06   -5.812114068e-06    0.000000000e+00    0.000000000e+00    0.000000000e+00    0.000000000e+00
      346250000    4.692295790e-01    2.365058362e-01   -1.067666162e-04   -8.519575204e-05    0.000000000e+00    0.000000000e+00    0.000000000e+00    0.000000000e+00
      347875000    4.754854143e-01    2.231937796e-01   -1.541346428e-04    1.550076267e-04    0.000000000e+00    0.000000000e+00    0.000000000e+00    0.000000000e+00
      349500000    4.809037447e-01    2.097791135e-01    6.755594950e-05    9.059841977e-05    0.000000000e+00    0.000000000e+00    0.000000000e+00    0.000000000e+00
      351125000    4.859654307e-01    1.965228766e-01   -1.410141267e-04   -2.749385603e-04    0.000000000e+00    0.000000000e+00    0.000000000e+00    0.000000000e+00
      352750000    4.907742143e-01    1.827810705e-01   -9.913595568e-05   -1.308317296e-04    0.000000000e+00    0.000000000e+00    0.000000000e+00    0.000000000e+00
      354375000    4.951528311e-01    1.693316102e-01   -5.817445071e-06    1.239966514e-04    0.000000000e+00    0.000000000e+00    0.000000000e+00    0.000000000e+00
      356000000    4.992640018e-01    1.560955793e-01   -1.630432962e-04    1.376193104e-04    0.000000000e+00    0.000000000e+00    0.000000000e+00    0.000000000e+00
      357625000    5.029116273e-01    1.421328336e-01   -2.027626615e-04   -9.710309314e-06    0.000000000e+00    0.000000000e+00    0.000000000e+00    0.000000000e+00
      359250000    5.062564611e-01    1.285126656e-01    1.472753866e-05    1.509869471e-04    0.000000000e+00    0.000000000e+00    0.000000000e+00    0.000000000e+00
      360875000    5.094775558e-01    1.150584891e-01   -3.996654050e-05   -5.831678573e-05    0.000000000e+00    0.000000000e+00    0.000000000e+00    0.000000000e+00
      362500000    5.124639869e-01    1.014763936e-01   -1.016265014e-05    1.100463032e-05    0.000000000e+00    0.000000000e+00    0.000000000e+00    0.000000000e+00
      364125000    5.150598288e-01    8.788125962e-02   -2.931020572e-05    8.132127550e-05    0.000000000e+00    0.000000000e+00    0.000000000e+00    0.000000000e+00
      365750000    5.171180367e-01    7.414717972e-02   -6.938453589e-05   -6.432473310e-05    0.000000000e+00    0.000000000e+00    0.000000000e+00    0.000000000e+00
      367375000    5.194159746e-01    6.057289243e-02   -1.323072356e-04    5.189883723e-06    0.000000000e+00    0.000000000e+00    0.000000000e+00    0.000000000e+00
      369000000    5.209885836e-01    4.688200355e-02    3.449237056e-06   -6.273300096e-05    0.000000000e+00    0.000000000e+00    0.000000000e+00    0.000000000e+00
      370625000    5.222497582e-01    3.350810707e-02   -8.921207336e-05    2.864823909e-05    0.000000000e+00    0.000000000e+00    0.000000000e+00    0.000000000e+00
      372250000    5.232625604e-01    1.946727559e-02   -4.845291915e-05   -7.017967437e-05    0.000000000e+00    0.000000000e+00    0.000000000e+00    0.000000000e+00
      373875000    5.239931345e-01    6.148025859e-03   -9.629001579e-05    9.374822548e-05    0.000000000e+00    0.000000000e+00    0.000000000e+00    0.000000000e+00
      375500000    5.244555473e-01   -7.362720557e-03   -8.558965783e-05    3.879213909e-05    0.000000000e+00    0.000000000e+00    0.000000000e+00    0.000000000e+00
      377125000    5.247954130e-01   -2.071821317e-02    1.157998049e-04   -2.020186730e-05    0.000000000e+00    0.000000000e+00    0.000000000e+00    0.000000000e+00
      378750000    5.245850086e-01   -3.429049626e-02   -1.154740676e-04    6.228910934e-05    0.000000000e+00    0.000000000e+00    0.000000000e+00    0.000000000e+00
      380375000    5.239437819e-01   -4.751899466e-02   -2.305512753e-04   -1.155267964e-04    0.000000000e+00    0.000000000e+00    0.000000000e+00    0.000000000e+00
      382000000    5.233696103e-01   -6.114615127e-02   -9.550659161e-05    2.183698052e-05    0.000000000e+00    0.000000000e+00    0.000000000e+00    0.000000000e+00
      383625000    5.222689509e-01   -7.449276745e-02   -5.464110291e-05    1.347413490e-04    0.000000000e+00    0.000000000e+00    0.000000000e+00    0.000000000e+00
      385250000    5.208781958e-01   -8.766030520e-02   -4.611633267e-05    7.780626765e-05    0.000000000e+00    0.000000000e+00    0.000000000e+00    0.000000000e+00
      386875000    5.195984840e-01   -1.010080501e-01   -6.576802843e-05    9.300501551e-05    0.000000000e+00    0.000000000e+00    0.000000000e+00    0.000000000e+00
      388500000    5.174944997e-01   -1.139403209e-01   -7.127188292e-05    1.701526635e-04    0.000000000e+00    0.000000000e+00    0.000000000e+00    0.000000000e+00
