! NanoVNA-App
! Date: 2024-06-25 16:53:41
! Start: 200MHz Stop: 1.5GHz Points: 801
! S-Parameter data: F S11 S21 S12 S22
# Hz S RI R 50
!     Frequency           S11_Real           S11_Imag           S21_Real           S21_Imag           S12_Real           S12_Imag           S22_Real           S22_Imag
      200000000   -7.505971193e-01    1.167418063e-01    1.633201173e-04    6.106391083e-05    0.000000000e+00    0.000000000e+00    0.000000000e+00    0.000000000e+00
      201625000   -7.457808852e-01    1.398270577e-01    1.716885454e-04    9.015540127e-05    0.000000000e+00    0.000000000e+00    0.000000000e+00    0.000000000e+00
      203250000   -7.401612401e-01    1.628480405e-01    2.003267437e-04    6.401578867e-05    0.000000000e+00    0.000000000e+00    0.000000000e+00    0.000000000e+00
      204875000   -7.337811589e-01    1.851722598e-01    2.125820320e-04    9.113282431e-05    0.000000000e+00    0.000000000e+00    0.000000000e+00    0.000000000e+00
      206500000   -7.267200351e-01    2.074635029e-01    2.156768023e-04    7.490034477e-05    0.000000000e+00    0.000000000e+00    0.000000000e+00    0.000000000e+00
      208125000   -7.187493443e-01    2.293134481e-01    2.412017930e-04    7.026186358e-05    0.000000000e+00    0.000000000e+00    0.000000000e+00    0.000000000e+00
      209750000   -7.102648616e-01    2.509612441e-01    2.349421266e-04    8.915697254e-05    0.000000000e+00    0.000000000e+00    0.000000000e+00    0.000000000e+00
      211375000   -7.007499933e-01    2.722087801e-01    2.654297277e-04    1.057279005e-04    0.000000000e+00    0.000000000e+00    0.000000000e+00    0.000000000e+00
      213000000   -6.907267570e-01    2.928664386e-01    2.699730976e-04    1.110724188e-04    0.000000000e+00    0.000000000e+00    0.000000000e+00    0.000000000e+00
      214625000   -6.800632477e-01    3.131628931e-01    2.804935211e-04    9.715681517e-05    0.000000000e+00    0.000000000e+00    0.000000000e+00    0.000000000e+00
      216250000   -6.686931849e-01    3.332227170e-01    2.638489241e-04    1.170399482e-04    0.000000000e+00    0.000000000e+00    0.000000000e+00    0.000000000e+00
      217875000   -6.565517187e-01    3.524207175e-01    2.774788300e-04    1.260000863e-04    0.000000000e+00    0.000000000e+00    0.000000000e+00    0.000000000e+00
      219500000   -6.439010501e-01    3.713433743e-01    2.706574160e-04    1.232414943e-04    0.000000000e+00    0.000000000e+00    0.000000000e+00    0.000000000e+00
      221125000   -6.307160854e-01    3.896816969e-01    2.933048527e-04    1.378357701e-04    0.000000000e+00    0.000000000e+00    0.000000000e+00    0.000000000e+00
      222750000   -6.169873476e-01    4.074794948e-01    2.956681710e-04    1.324274635e-04    0.000000000e+00    0.000000000e+00    0.000000000e+00    0.000000000e+00
      224375000   -6.026383042e-01    4.249464571e-01    3.033892717e-04    1.464714587e-04    0.000000000e+00    0.000000000e+00    0.000000000e+00    0.000000000e+00
      226000000   -5.877152085e-01    4.416511059e-01    3.016172268e-04    1.421172783e-04    0.000000000e+00    0.000000000e+00    0.000000000e+00    0.000000000e+00
      227625000   -5.723927617e-01    4.577114284e-01    3.068800434e-04    1.560208038e-04    0.000000000e+00    0.000000000e+00    0.000000000e+00    0.000000000e+00
      229250000   -5.564498901e-01    4.734595716e-01    2.936595702e-04    1.156984363e-04    0.000000000e+00    0.000000000e+00    0.000000000e+00    0.000000000e+00
      230875000   -5.403738618e-01    4.883165359e-01    3.053187684e-04    1.473466691e-04    0.000000000e+00    0.000000000e+00    0.000000000e+00    0.000000000e+00
      232500000   -5.237696171e-01    5.028450489e-01    3.077626752e-04    1.460416388e-04    0.000000000e+00    0.000000000e+00    0.000000000e+00    0.000000000e+00
      234125000   -5.066983104e-01    5.163927674e-01    3.037557763e-04    1.543549006e-04    0.000000000e+00    0.000000000e+00    0.000000000e+00    0.000000000e+00
      235750000   -4.893549085e-01    5.298241973e-01    3.103395284e-04    1.678113185e-04    0.000000000e+00    0.000000000e+00    0.000000000e+00    0.000000000e+00
      237375000   -4.714326262e-01    5.420182943e-01    3.226141853e-04    1.572456531e-04    0.000000000e+00    0.000000000e+00    0.000000000e+00    0.000000000e+00
      239000000   -4.533495605e-01    5.538594723e-01    3.073605767e-04    1.754877740e-04    0.000000000e+00    0.000000000e+00    0.000000000e+00    0.000000000e+00
      240625000   -4.349491000e-01    5.650282502e-01    3.227113048e-04    1.370202663e-04    0.000000000e+00    0.000000000e+00    0.000000000e+00    0.000000000e+00
      242250000   -4.160793722e-01    5.758095384e-01    3.292545152e-04    1.647005847e-04    0.000000000e+00    0.000000000e+00    0.000000000e+00    0.000000000e+00
      243875000   -3.971060216e-01    5.857428312e-01    3.212222655e-04    1.465108362e-04    0.000000000e+00    0.000000000e+00    0.000000000e+00    0.000000000e+00
      245500000   -3.777519763e-01    5.953047872e-01    3.395770327e-04    1.492870506e-04    0.000000000e+00    0.000000000e+00    0.000000000e+00    0.000000000e+00
      247125000   -3.580728769e-01    6.042415500e-01    3.357939131e-04    1.535384799e-04    0.000000000e+00    0.000000000e+00    0.000000000e+00    0.000000000e+00
      248750000   -3.384148479e-01    6.123871803e-01    3.419232671e-04    1.432445570e-04    0.000000000e+00    0.000000000e+00    0.000000000e+00    0.000000000e+00
      250375000   -3.186250031e-01    6.197301149e-01    3.527610097e-04    1.386038348e-04    0.000000000e+00    0.000000000e+00    0.000000000e+00    0.000000000e+00
      252000000   -2.988012135e-01    6.267554760e-01    3.380544949e-04    1.317871647e-04    0.000000000e+00    0.000000000e+00    0.000000000e+00    0.000000000e+00
      253625000   -2.788805068e-01    6.328440309e-01    3.636276815e-04    1.368143276e-04    0.000000000e+00    0.000000000e+00    0.000000000e+00    0.000000000e+00
      255250000   -2.587830126e-01    6.383391619e-01    3.510730749e-04    1.437612809e-04    0.000000000e+00    0.000000000e+00    0.000000000e+00    0.000000000e+00
      256875000   -2.388864607e-01    6.432132125e-01    3.477399005e-04    1.523836690e-04    0.000000000e+00    0.000000000e+00    0.000000000e+00    0.000000000e+00
      258500000   -2.187444717e-01    6.474152803e-01    3.417984699e-04    1.505106047e-04    0.000000000e+00    0.000000000e+00    0.000000000e+00    0.000000000e+00
      260125000   -1.987728328e-01    6.511912346e-01    3.618052579e-04    1.388344535e-04    0.000000000e+00    0.000000000e+00    0.000000000e+00    0.000000000e+00
      261750000   -1.787958592e-01    6.543104053e-01    3.616103204e-04    1.340491290e-04    0.000000000e+00    0.000000000e+00    0.000000000e+00    0.000000000e+00
      263375000   -1.586268991e-01    6.563900113e-01    3.610897402e-04    1.541621459e-04    0.000000000e+00    0.000000000e+00    0.000000000e+00    0.000000000e+00
      265000000   -1.387096196e-01    6.581752300e-01    3.516145516e-04    1.721768349e-04    0.000000000e+00    0.000000000e+00    0.000000000e+00    0.000000000e+00
      266625000   -1.188134626e-01    6.591898799e-01    3.523388295e-04    1.189311515e-04    0.000000000e+00    0.000000000e+00    0.000000000e+00    0.000000000e+00
      268250000   -9.882038832e-02    6.598817706e-01    3.672994790e-04    1.436935854e-04    0.000000000e+00    0.000000000e+00    0.000000000e+00    0.000000000e+00
      269875000   -7.896787673e-02    6.596120596e-01    3.552564012e-04    1.394722058e-04    0.000000000e+00    0.000000000e+00    0.000000000e+00    0.000000000e+00
      271500000   -5.925840884e-02    6.590300202e-01    3.804515873e-04    1.410157711e-04    0.000000000e+00    0.000000000e+00    0.000000000e+00    0.000000000e+00
      273125000   -3.968079388e-02    6.579079628e-01    3.621298820e-04    1.669952180e-04    0.000000000e+00    0.000000000e+00    0.000000000e+00    0.000000000e+00
      274750000   -2.033136785e-02    6.560807824e-01    3.352759231e-04    1.503831882e-04    0.000000000e+00    0.000000000e+00    0.000000000e+00    0.000000000e+00
      276375000   -1.031144755e-03    6.538277268e-01    3.601272765e-04    1.287666819e-04    0.000000000e+00    0.000000000e+00    0.000000000e+00    0.000000000e+00
      278000000    1.823591068e-02    6.510855556e-01    3.421514120e-04    1.449923293e-04    0.000000000e+00    0.000000000e+00    0.000000000e+00    0.000000000e+00
      279625000    3.708459064e-02    6.478385925e-01    3.330521868e-04    1.551759342e-04    0.000000000e+00    0.000000000e+00    0.000000000e+00    0.000000000e+00
      281250000    5.605453625e-02    6.438069344e-01    3.399408888e-04    1.082661984e-04    0.000000000e+00    0.000000000e+00    0.000000000e+00    0.000000000e+00
      282875000    7.452085614e-02    6.395320892e-01    3.528566449e-04    1.381348266e-04    0.000000000e+00    0.000000000e+00    0.000000000e+00    0.000000000e+00
      284500000    9.315119684e-02    6.348682046e-01    3.550652182e-04    1.240986312e-04    0.000000000e+00    0.000000000e+00    0.000000000e+00    0.000000000e+00
      286125000    1.111617088e-01    6.294478774e-01    3.397000837e-04    1.427100651e-04    0.000000000e+00    0.000000000e+00    0.000000000e+00    0.000000000e+00
      287750000    1.291660666e-01    6.238271594e-01    3.260117956e-04    1.220622144e-04    0.000000000e+00    0.000000000e+00    0.000000000e+00    0.000000000e+00
      289375000    1.469418257e-01    6.174197793e-01    3.362774441e-04    1.292603847e-04    0.000000000e+00    0.000000000e+00    0.000000000e+00    0.000000000e+00
      291000000    7.345843315e-02    5.790745020e-01    1.307664061e-04   -2.089880581e-04    0.000000000e+00    0.000000000e+00    0.000000000e+00    0.000000000e+00
      292625000    9.011115879e-02    5.744590163e-01   -1.774976263e-04    1.404862851e-04    0.000000000e+00    0.000000000e+00    0.000000000e+00    0.000000000e+00
      294250000    1.069195792e-01    5.692205429e-01   -2.045954898e-05    1.121270034e-04    0.000000000e+00    0.000000000e+00    0.000000000e+00    0.000000000e+00
      295875000    1.227279902e-01    5.632512569e-01   -2.122750011e-04   -6.731833128e-05    0.000000000e+00    0.000000000e+00    0.000000000e+00    0.000000000e+00
      297500000    1.386199296e-01    5.564413667e-01   -1.806783403e-04    1.193577773e-04    0.000000000e+00    0.000000000e+00    0.000000000e+00    0.000000000e+00
      299125000    1.546096355e-01    5.506100059e-01    2.529826452e-05   -9.729188605e-05    0.000000000e+00    0.000000000e+00    0.000000000e+00    0.000000000e+00
      300750000    1.698295772e-01    5.435149670e-01   -1.340495073e-04    9.830383351e-05    0.000000000e+00    0.000000000e+00    0.000000000e+00    0.000000000e+00
      302375000    1.849293709e-01    5.358825326e-01    9.171965212e-05    3.569921682e-05    0.000000000e+00    0.000000000e+00    0.000000000e+00    0.000000000e+00
      304000000    1.997027099e-01    5.277637839e-01   -1.588948508e-04    7.411519618e-05    0.000000000e+00    0.000000000e+00    0.000000000e+00    0.000000000e+00
      305625000    2.135663033e-01    5.195744038e-01   -5.559831607e-06    2.199638584e-05    0.000000000e+00    0.000000000e+00    0.000000000e+00    0.000000000e+00
      307250000    2.291205078e-01    5.140223503e-01   -4.736281335e-05    3.454938997e-05    0.000000000e+00    0.000000000e+00    0.000000000e+00    0.000000000e+00
      308875000    2.424924523e-01    5.027111769e-01   -2.424672857e-06    1.829364483e-04    0.000000000e+00    0.000000000e+00    0.000000000e+00    0.000000000e+00
      310500000    2.566159666e-01    4.939479530e-01   -2.313585173e-05    7.083584205e-05    0.000000000e+00    0.000000000e+00    0.000000000e+00    0.000000000e+00
      312125000    2.693519890e-01    4.840545952e-01   -2.859436063e-05    6.467458297e-05    0.000000000e+00    0.000000000e+00    0.000000000e+00    0.000000000e+00
      313750000    2.823365629e-01    4.747398198e-01   -2.458522977e-05   -8.714685828e-05    0.000000000e+00    0.000000000e+00    0.000000000e+00    0.000000000e+00
      315375000    2.948640287e-01    4.646959901e-01   -1.195937443e-06    2.736382885e-05    0.000000000e+00    0.000000000e+00    0.000000000e+00    0.000000000e+00
      317000000    3.070467412e-01    4.544519782e-01   -1.583493431e-04    8.502935816e-05    0.000000000e+00    0.000000000e+00    0.000000000e+00    0.000000000e+00
      318625000    3.193017840e-01    4.437437654e-01   -8.952348435e-05   -5.127177064e-05    0.000000000e+00    0.000000000e+00    0.000000000e+00    0.000000000e+00
      320250000    3.305803239e-01    4.331838489e-01   -5.356282782e-05   -1.445568196e-04    0.000000000e+00    0.000000000e+00    0.000000000e+00    0.000000000e+00
      321875000    3.421367407e-01    4.218418002e-01   -7.974940672e-05   -1.243221777e-04    0.000000000e+00    0.000000000e+00    0.000000000e+00    0.000000000e+00
      323500000    3.531116545e-01    4.106501043e-01   -1.272281079e-04    7.859573088e-05    0.000000000e+00    0.000000000e+00    0.000000000e+00    0.000000000e+00
      325125000    3.635487258e-01    3.995030820e-01   -9.562970808e-05    4.355291094e-05    0.000000000e+00    0.000000000e+00    0.000000000e+00    0.000000000e+00
      326750000    3.736451864e-01    3.876038492e-01    7.618195468e-06    5.008071753e-07    0.000000000e+00    0.000000000e+00    0.000000000e+00    0.000000000e+00
      328375000    3.836098015e-01    3.759066463e-01   -1.480930405e-05   -1.420197896e-05    0.000000000e+00    0.000000000e+00    0.000000000e+00    0.000000000e+00
      330000000    3.933831155e-01    3.640253842e-01    9.037614655e-05   -1.480115461e-04    0.000000000e+00    0.000000000e+00    0.000000000e+00    0.000000000e+00
      331625000    4.022490680e-01    3.516750336e-01   -6.509386003e-05    4.241059287e-06    0.000000000e+00    0.000000000e+00    0.000000000e+00    0.000000000e+00
      333250000    4.112462699e-01    3.394533694e-01   -1.383664130e-05    1.322573080e-04    0.000000000e+00    0.000000000e+00    0.000000000e+00    0.000000000e+00
      334875000    4.195828140e-01    3.268982172e-01   -9.105604840e-05   -1.290668297e-04    0.000000000e+00    0.000000000e+00    0.000000000e+00    0.000000000e+00
      336500000    4.279306233e-01    3.142209351e-01   -7.833865675e-05   -1.104959229e-04    0.000000000e+00    0.000000000e+00    0.000000000e+00    0.000000000e+00
      338125000    4.356710911e-01    3.014967144e-01   -5.675206557e-05   -6.965637294e-05    0.000000000e+00    0.000000000e+00    0.000000000e+00    0.000000000e+00
      339750000    4.431650937e-01    2.889662683e-01   -8.611131489e-05    1.439323678e-04    0.000000000e+00    0.000000000e+00    0.000000000e+00    0.000000000e+00
      341375000    4.503346682e-01    2.759502530e-01   -4.945183173e-05   -6.024089089e-06    0.000000000e+00    0.000000000e+00    0.000000000e+00    0.000000000e+00
      343000000    4.569210708e-01    2.628603876e-01   -2.352534502e-04   -4.185756552e-05    0.000000000e+00    0.000000000e+00    0.000000000e+00    0.000000000e+00
      344625000    4.634208977e-01    2.497686893e-01   -1.000338234e-04   -4.045674359e-05    0.000000000e+00    0.000000000e+00    0.000000000e+00    0.000000000e+00
      346250000    4.695847929e-01    2.366348058e-01   -7.021841157e-05   -1.767242065e-04    0.000000000e+00    0.000000000e+00    0.000000000e+00    0.000000000e+00
      347875000    4.753987789e-01    2.233130783e-01   -2.778236740e-05    1.449362462e-04    0.000000000e+00    0.000000000e+00    0.000000000e+00    0.000000000e+00
      349500000    4.804897010e-01    2.098264545e-01   -9.852225048e-05    1.213927899e-04    0.000000000e+00    0.000000000e+00    0.000000000e+00    0.000000000e+00
      351125000    4.857401848e-01    1.965463459e-01   -1.927136736e-06   -6.370004849e-05    0.000000000e+00    0.000000000e+00    0.000000000e+00    0.000000000e+00
      352750000    4.905909002e-01    1.829665303e-01   -3.274919072e-05   -2.522357499e-05    0.000000000e+00    0.000000000e+00    0.000000000e+00    0.000000000e+00
      354375000    4.947929978e-01    1.694115847e-01   -4.242835348e-05    3.870073124e-05    0.000000000e+00    0.000000000e+00    0.000000000e+00    0.000000000e+00
      356000000    4.991178513e-01    1.560450345e-01   -7.405966608e-05    1.142385918e-05    0.000000000e+00    0.000000000e+00    0.000000000e+00    0.000000000e+00
      357625000    5.030376911e-01    1.420688629e-01   -1.629862527e-04   -6.985333312e-05    0.000000000e+00    0.000000000e+00    0.000000000e+00    0.000000000e+00
      359250000    5.063955784e-01    1.287170202e-01   -5.011995381e-05    1.127051473e-05    0.000000000e+00    0.000000000e+00    0.000000000e+00    0.000000000e+00
      360875000    5.093930364e-01    1.150346100e-01   -4.530606384e-05   -8.989991329e-05    0.000000000e+00    0.000000000e+00    0.000000000e+00    0.000000000e+00
      362500000    5.122548342e-01    1.013354287e-01   -1.016790193e-04   -6.397418474e-05    0.000000000e+00    0.000000000e+00    0.000000000e+00    0.000000000e+00
      364125000    5.150080919e-01    8.768554032e-02   -2.295044033e-05   -8.458591765e-05    0.000000000e+00    0.000000000e+00    0.000000000e+00    0.000000000e+00
      365750000    5.171657205e-01    7.422891259e-02   -1.440626947e-04   -7.960765629e-07    0.000000000e+00    0.000000000e+00    0.000000000e+00    0.000000000e+00
      367375000    5.192406178e-01    6.053869054e-02    1.250528385e-06    1.453411824e-04    0.000000000e+00    0.000000000e+00    0.000000000e+00    0.000000000e+00
      369000000    5.210221410e-01    4.691213742e-02   -7.026133062e-06    1.045536264e-04    0.000000000e+00    0.000000000e+00    0.000000000e+00    0.000000000e+00
      370625000    5.221239328e-01    3.342558444e-02    1.670838355e-05   -7.870037371e-05    0.000000000e+00    0.000000000e+00    0.000000000e+00    0.000000000e+00
      372250000    5.233347416e-01    1.938707568e-02   -4.699616329e-05    4.022268331e-05    0.000000000e+00    0.000000000e+00    0.000000000e+00    0.000000000e+00
      373875000    5.240654349e-01    6.109569687e-03   -1.229926129e-04    1.088649515e-04    0.000000000e+00    0.000000000e+00    0.000000000e+00    0.000000000e+00
      375500000    5.243939161e-01   -7.319281343e-03   -1.373568830e-05   -9.353477071e-05    0.000000000e+00    0.000000000e+00    0.000000000e+00    0.000000000e+00
      377125000    5.246289968e-01   -2.058220282e-02   -2.480670228e-04   -1.762708962e-05    0.000000000e+00    0.000000000e+00    0.000000000e+00    0.000000000e+00
      378750000    5.245497227e-01   -3.435664251e-02   -1.921010262e-04   -9.521974425e-05    0.000000000e+00    0.000000000e+00    0.000000000e+00    0.000000000e+00
      380375000    5.240770578e-01   -4.760814086e-02   -1.389123645e-04    2.393146019e-07    0.000000000e+00    0.000000000e+00    0.000000000e+00    0.000000000e+00
      382000000    5.232655406e-01   -6.109810248e-02   -1.857585885e-04    3.824511907e-07    0.000000000e+00    0.000000000e+00    0.000000000e+00    0.000000000e+00
      383625000    5.222249031e-01   -7.446837425e-02   -1.002466088e-04    5.349799903e-05    0.000000000e+00    0.000000000e+00    0.000000000e+00    0.000000000e+00
      385250000    5.209219456e-01   -8.757321537e-02    2.180030424e-05    8.186257037e-05    0.000000000e+00    0.000000000e+00    0.000000000e+00    0.000000000e+00
      386875000    5.194488168e-01   -1.009628996e-01   -5.911034168e-05    6.650897558e-05    0.000000000e+00    0.000000000e+00    0.000000000e+00    0.000000000e+00
      388500000    5.173399448e-01   -1.140191630e-01   -4.041281863e-05    1.020913041e-04    0.000000000e+00    0.000000000e+00    0.000000000e+00    0.000000000e+00
