! NanoVNA-App
! Date: 2024-06-25 16:52:41
! Start: 200MHz Stop: 1.5GHz Points: 801
! S-Parameter data: F S11 S21 S12 S22
# Hz S RI R 50
!     Frequency           S11_Real           S11_Imag           S21_Real           S21_Imag           S12_Real           S12_Imag           S22_Real           S22_Imag
      200000000   -7.506927252e-01    1.168108955e-01    1.627353486e-04    6.560203474e-05    0.000000000e+00    0.000000000e+00    0.000000000e+00    0.000000000e+00
      201625000   -7.459183931e-01    1.398457587e-01    1.842953934e-04    7.176907820e-05    0.000000000e+00    0.000000000e+00    0.000000000e+00    0.000000000e+00
      203250000   -7.403391600e-01    1.628585458e-01    2.068219619e-04    5.748300828e-05    0.000000000e+00    0.000000000e+00    0.000000000e+00    0.000000000e+00
      204875000   -7.337591052e-01    1.853682846e-01    2.102737781e-04    5.270298789e-05    0.000000000e+00    0.000000000e+00    0.000000000e+00    0.000000000e+00
      206500000   -7.267809510e-01    2.075621039e-01    2.173632529e-04    6.950776879e-05    0.000000000e+00    0.000000000e+00    0.000000000e+00    0.000000000e+00
      208125000   -7.188667059e-01    2.294179350e-01    2.415342751e-04    7.894687587e-05    0.000000000e+00    0.000000000e+00    0.000000000e+00    0.000000000e+00
      209750000   -7.104511857e-01    2.510378659e-01    2.369607246e-04    9.458576824e-05    0.000000000e+00    0.000000000e+00    0.000000000e+00    0.000000000e+00
      211375000   -7.008059621e-01    2.722654343e-01    2.641208994e-04    1.104857292e-04    0.000000000e+00    0.000000000e+00    0.000000000e+00    0.000000000e+00
      213000000   -6.908251643e-01    2.930037379e-01    2.464939025e-04    1.035550522e-04    0.000000000e+00    0.000000000e+00    0.000000000e+00    0.000000000e+00
      214625000   -6.801452041e-01    3.132553697e-01    2.753421431e-04    1.098664434e-04    0.000000000e+00    0.000000000e+00    0.000000000e+00    0.000000000e+00
      216250000   -6.686949134e-01    3.331725001e-01    2.744578524e-04    1.141231842e-04    0.000000000e+00    0.000000000e+00    0.000000000e+00    0.000000000e+00
      217875000   -6.566569209e-01    3.525722921e-01    2.635735145e-04    1.200424740e-04    0.000000000e+00    0.000000000e+00    0.000000000e+00    0.000000000e+00
      219500000   -6.440846324e-01    3.714762032e-01    2.971478389e-04    1.179943283e-04    0.000000000e+00    0.000000000e+00    0.000000000e+00    0.000000000e+00
      221125000   -6.308375001e-01    3.898433149e-01    3.128064272e-04    1.223524305e-04    0.000000000e+00    0.000000000e+00    0.000000000e+00    0.000000000e+00
      222750000   -6.170122027e-01    4.077657163e-01    2.863671398e-04    1.328337094e-04    0.000000000e+00    0.000000000e+00    0.000000000e+00    0.000000000e+00
      224375000   -6.026896834e-01    4.250122011e-01    3.118387249e-04    1.490258437e-04    0.000000000e+00    0.000000000e+00    0.000000000e+00    0.000000000e+00
      226000000   -5.878301263e-01    4.417988360e-01    3.172997385e-04    1.517707715e-04    0.000000000e+00    0.000000000e+00    0.000000000e+00    0.000000000e+00
      227625000   -5.724204183e-01    4.578407705e-01    3.035795526e-04    1.696071704e-04    0.000000000e+00    0.000000000e+00    0.000000000e+00    0.000000000e+00
      229250000   -5.566917658e-01    4.735852778e-01    3.263204417e-04    1.384027710e-04    0.000000000e+00    0.000000000e+00    0.000000000e+00    0.000000000e+00
      230875000   -5.403396487e-01    4.884655774e-01    3.242224047e-04    1.689206110e-04    0.000000000e+00    0.000000000e+00    0.000000000e+00    0.000000000e+00
      232500000   -5.236330032e-01    5.028625727e-01    3.150822013e-04    1.412171259e-04    0.000000000e+00    0.000000000e+00    0.000000000e+00    0.000000000e+00
      234125000   -5.066464543e-01    5.165925622e-01    3.235352924e-04    1.495974866e-04    0.000000000e+00    0.000000000e+00    0.000000000e+00    0.000000000e+00
      235750000   -4.892759621e-01    5.299595594e-01    3.363970318e-04    1.193499993e-04    0.000000000e+00    0.000000000e+00    0.000000000e+00    0.000000000e+00
      237375000   -4.714280367e-01    5.423535109e-01    3.284318955e-04    1.420834014e-04    0.000000000e+00    0.000000000e+00    0.000000000e+00    0.000000000e+00
      239000000   -4.534363747e-01    5.540545583e-01    3.314964415e-04    1.741921878e-04    0.000000000e+00    0.000000000e+00    0.000000000e+00    0.000000000e+00
      240625000   -4.349778593e-01    5.652183294e-01    3.229728027e-04    1.415416482e-04    0.000000000e+00    0.000000000e+00    0.000000000e+00    0.000000000e+00
      242250000   -4.161593020e-01    5.759189725e-01    3.200711508e-04    1.561288518e-04    0.000000000e+00    0.000000000e+00    0.000000000e+00    0.000000000e+00
      243875000   -3.970988095e-01    5.859748721e-01    3.259961377e-04    1.416708837e-04    0.000000000e+00    0.000000000e+00    0.000000000e+00    0.000000000e+00
      245500000   -3.777248263e-01    5.955906510e-01    3.307229781e-04    1.420394838e-04    0.000000000e+00    0.000000000e+00    0.000000000e+00    0.000000000e+00
      247125000   -3.582135439e-01    6.042885780e-01    3.309675667e-04    1.531162270e-04    0.000000000e+00    0.000000000e+00    0.000000000e+00    0.000000000e+00
      248750000   -3.383889496e-01    6.126222610e-01    3.285533166e-04    1.332776737e-04    0.000000000e+00    0.000000000e+00    0.000000000e+00    0.000000000e+00
      250375000   -3.186089396e-01    6.200888753e-01    3.506177163e-04    1.468105474e-04    0.000000000e+00    0.000000000e+00    0.000000000e+00    0.000000000e+00
      252000000   -2.987312675e-01    6.267839670e-01    3.581642231e-04    1.564981794e-04    0.000000000e+00    0.000000000e+00    0.000000000e+00    0.000000000e+00
      253625000   -2.788450718e-01    6.329862475e-01    3.444587055e-04    1.566989376e-04    0.000000000e+00    0.000000000e+00    0.000000000e+00    0.000000000e+00
      255250000   -2.587337196e-01    6.385349631e-01    3.532276023e-04    1.468733826e-04    0.000000000e+00    0.000000000e+00    0.000000000e+00    0.000000000e+00
      256875000   -2.388767004e-01    6.433364153e-01    3.483764012e-04    1.473884331e-04    0.000000000e+00    0.000000000e+00    0.000000000e+00    0.000000000e+00
      258500000   -2.186932862e-01    6.473124623e-01    3.482064058e-04    1.653454528e-04    0.000000000e+00    0.000000000e+00    0.000000000e+00    0.000000000e+00
      260125000   -1.986325830e-01    6.512114406e-01    3.505615750e-04    1.571235625e-04    0.000000000e+00    0.000000000e+00    0.000000000e+00    0.000000000e+00
      261750000   -1.786087900e-01    6.543095708e-01    3.649858991e-04    1.565698913e-04    0.000000000e+00    0.000000000e+00    0.000000000e+00    0.000000000e+00
      263375000   -1.586271524e-01    6.565047503e-01    3.603757068e-04    1.515141630e-04    0.000000000e+00    0.000000000e+00    0.000000000e+00    0.000000000e+00
      265000000   -1.387725174e-01    6.582296491e-01    3.629367275e-04    1.406713709e-04    0.000000000e+00    0.000000000e+00    0.000000000e+00    0.000000000e+00
      266625000   -1.186904162e-01    6.592022777e-01    3.833037335e-04    1.472684526e-04    0.000000000e+00    0.000000000e+00    0.000000000e+00    0.000000000e+00
      268250000   -9.880851954e-02    6.598694324e-01    3.624125093e-04    1.429571857e-04    0.000000000e+00    0.000000000e+00    0.000000000e+00    0.000000000e+00
      269875000   -7.898223400e-02    6.598768234e-01    3.728133743e-04    1.342310279e-04    0.000000000e+00    0.000000000e+00    0.000000000e+00    0.000000000e+00
      271500000   -5.928534642e-02    6.591350436e-01    3.522615880e-04    1.602471602e-04    0.000000000e+00    0.000000000e+00    0.000000000e+00    0.000000000e+00
      273125000   -3.973883018e-02    6.579299569e-01    3.572035348e-04    1.437401806e-04    0.000000000e+00    0.000000000e+00    0.000000000e+00    0.000000000e+00
      274750000   -2.020017989e-02    6.562489271e-01    3.332896740e-04    1.330085215e-04    0.000000000e+00    0.000000000e+00    0.000000000e+00    0.000000000e+00
      276375000   -8.690056275e-04    6.540273428e-01    3.490756499e-04    1.490955328e-04    0.000000000e+00    0.000000000e+00    0.000000000e+00    0.000000000e+00
      278000000    1.815496013e-02    6.511335969e-01    3.615477181e-04    1.414182043e-04    0.000000000e+00    0.000000000e+00    0.000000000e+00    0.000000000e+00
      279625000    3.720621020e-02    6.478391290e-01    3.646848199e-04    1.223416766e-04    0.000000000e+00    0.000000000e+00    0.000000000e+00    0.000000000e+00
      281250000    5.613156036e-02    6.440507770e-01    3.545432119e-04    1.543784892e-04    0.000000000e+00    0.000000000e+00    0.000000000e+00    0.000000000e+00
      282875000    7.479379326e-02    6.396418810e-01    3.559884499e-04    1.585459249e-04    0.000000000e+00    0.000000000e+00    0.000000000e+00    0.000000000e+00
      284500000    9.318342060e-02    6.348115206e-01    3.399122797e-04    1.553127222e-04    0.000000000e+00    0.000000000e+00    0.000000000e+00    0.000000000e+00
      286125000    1.113880351e-01    6.294261217e-01    3.288784937e-04    1.429020194e-04    0.000000000e+00    0.000000000e+00    0.000000000e+00    0.000000000e+00
      287750000    1.293551028e-01    6.238716245e-01    3.254661278e-04    1.490645373e-04    0.000000000e+00    0.000000000e+00    0.000000000e+00    0.000000000e+00
      289375000    1.470682025e-01    6.172709465e-01    3.319875977e-04    1.445962407e-04    0.000000000e+00    0.000000000e+00    0.000000000e+00    0.000000000e+00
      291000000    7.343471050e-02    5.787752867e-01    1.390872058e-05   -9.284661246e-06    0.000000000e+00    0.000000000e+00    0.000000000e+00    0.000000000e+00
      292625000    8.989083022e-02    5.746473074e-01   -3.289967572e-05   -4.637245729e-05    0.000000000e+00    0.000000000e+00    0.000000000e+00    0.000000000e+00
      294250000    1.066668704e-01    5.693076849e-01    1.309137133e-05    1.999620872e-05    0.000000000e+00    0.000000000e+00    0.000000000e+00    0.000000000e+00
      295875000    1.229817867e-01    5.630699396e-01   -2.116140677e-04    1.064798998e-04    0.000000000e+00    0.000000000e+00    0.000000000e+00    0.000000000e+00
      297500000    1.384100616e-01    5.569350123e-01   -1.031507345e-04    5.128341581e-05    0.000000000e+00    0.000000000e+00    0.000000000e+00    0.000000000e+00
      299125000    1.546468586e-01    5.506484509e-01   -9.054053226e-05    7.870148693e-05    0.000000000e+00    0.000000000e+00    0.000000000e+00    0.000000000e+00
      300750000    1.697107553e-01    5.437634587e-01   -1.723863388e-04   -2.162761848e-05    0.000000000e+00    0.000000000e+00    0.000000000e+00    0.000000000e+00
      302375000    1.847699285e-01    5.357562900e-01   -9.552473784e-05    6.537709396e-06    0.000000000e+00    0.000000000e+00    0.000000000e+00    0.000000000e+00
      304000000    2.003809214e-01    5.288428068e-01   -1.665525488e-04   -7.745988114e-05    0.000000000e+00    0.000000000e+00    0.000000000e+00    0.000000000e+00
      305625000    2.143646479e-01    5.197991133e-01   -1.824936044e-04    1.870232154e-05    0.000000000e+00    0.000000000e+00    0.000000000e+00    0.000000000e+00
      307250000    2.301917225e-01    5.102912784e-01   -5.452762707e-05   -2.561076872e-05    0.000000000e+00    0.000000000e+00    0.000000000e+00    0.000000000e+00
      308875000    2.423580438e-01    5.027763844e-01   -2.816354390e-05   -2.449344320e-04    0.000000000e+00    0.000000000e+00    0.000000000e+00    0.000000000e+00
      310500000    2.561037838e-01    4.940882623e-01   -1.170212126e-04    1.950979458e-05    0.000000000e+00    0.000000000e+00    0.000000000e+00    0.000000000e+00
      312125000    2.693990171e-01    4.841061532e-01   -3.267926149e-05    1.350612729e-04    0.000000000e+00    0.000000000e+00    0.000000000e+00    0.000000000e+00
      313750000    2.822861969e-01    4.748499095e-01   -2.430113091e-04   -6.131383998e-05    0.000000000e+00    0.000000000e+00    0.000000000e+00    0.000000000e+00
      315375000    2.950971425e-01    4.643876851e-01   -1.117210850e-04    1.329802471e-04    0.000000000e+00    0.000000000e+00    0.000000000e+00    0.000000000e+00
      317000000    3.074499369e-01    4.544174671e-01    2.424894046e-05   -4.257640467e-05    0.000000000e+00    0.000000000e+00    0.000000000e+00    0.000000000e+00
      318625000    3.193660975e-01    4.436986446e-01   -3.720663153e-05    5.031926412e-05    0.000000000e+00    0.000000000e+00    0.000000000e+00    0.000000000e+00
      320250000    3.305697441e-01    4.331063628e-01   -4.604372862e-06   -6.059689258e-05    0.000000000e+00    0.000000000e+00    0.000000000e+00    0.000000000e+00
      321875000    3.419365287e-01    4.221576750e-01   -6.869689059e-06    8.063623682e-05    0.000000000e+00    0.000000000e+00    0.000000000e+00    0.000000000e+00
      323500000    3.532772660e-01    4.108910859e-01   -5.725396932e-06    8.679566963e-05    0.000000000e+00    0.000000000e+00    0.000000000e+00    0.000000000e+00
      325125000    3.635484874e-01    3.994015455e-01    4.144201739e-05    1.379526657e-04    0.000000000e+00    0.000000000e+00    0.000000000e+00    0.000000000e+00
      326750000    3.737984598e-01    3.874253631e-01   -1.223536674e-04    1.502872619e-04    0.000000000e+00    0.000000000e+00    0.000000000e+00    0.000000000e+00
      328375000    3.836682141e-01    3.760660291e-01   -9.265494737e-05   -9.444981697e-05    0.000000000e+00    0.000000000e+00    0.000000000e+00    0.000000000e+00
      330000000    3.936285079e-01    3.640528619e-01   -1.043960001e-04   -7.125843240e-06    0.000000000e+00    0.000000000e+00    0.000000000e+00    0.000000000e+00
      331625000    4.024929106e-01    3.517400026e-01   -1.454313606e-04    9.636349569e-05    0.000000000e+00    0.000000000e+00    0.000000000e+00    0.000000000e+00
      333250000    4.113914073e-01    3.395677209e-01    8.818021888e-05   -5.726672680e-05    0.000000000e+00    0.000000000e+00    0.000000000e+00    0.000000000e+00
      334875000    4.198893905e-01    3.268459737e-01   -2.957999095e-05   -3.862060476e-05    0.000000000e+00    0.000000000e+00    0.000000000e+00    0.000000000e+00
      336500000    4.276476800e-01    3.141575754e-01   -1.065832039e-04   -2.367546767e-05    0.000000000e+00    0.000000000e+00    0.000000000e+00    0.000000000e+00
      338125000    4.356869161e-01    3.014638126e-01   -8.611213707e-05   -1.638198883e-04    0.000000000e+00    0.000000000e+00    0.000000000e+00    0.000000000e+00
      339750000    4.431914091e-01    2.888813019e-01   -9.839532140e-05   -2.499167022e-05    0.000000000e+00    0.000000000e+00    0.000000000e+00    0.000000000e+00
      341375000    4.504412115e-01    2.760052085e-01   -5.342640179e-06   -2.106294914e-06    0.000000000e+00    0.000000000e+00    0.000000000e+00    0.000000000e+00
      343000000    4.570605755e-01    2.628419995e-01   -1.224013686e-04    9.156257875e-06    0.000000000e+00    0.000000000e+00    0.000000000e+00    0.000000000e+00
      344625000    4.636300504e-01    2.496074140e-01   -8.059877291e-05   -7.109581202e-05    0.000000000e+00    0.000000000e+00    0.000000000e+00    0.000000000e+00
      346250000    4.696314335e-01    2.365204543e-01   -9.289503942e-05   -4.375629578e-05    0.000000000e+00    0.000000000e+00    0.000000000e+00    0.000000000e+00
      347875000    4.752103388e-01    2.231869102e-01   -5.910294567e-05   -5.125290500e-06    0.000000000e+00    0.000000000e+00    0.000000000e+00    0.000000000e+00
      349500000    4.808797240e-01    2.098430842e-01   -4.092047675e-05    3.170318450e-05    0.000000000e+00    0.000000000e+00    0.000000000e+00    0.000000000e+00
      351125000    4.859167337e-01    1.966070533e-01    1.570978020e-05   -5.422966569e-05    0.000000000e+00    0.000000000e+00    0.000000000e+00    0.000000000e+00
      352750000    4.905719161e-01    1.829442531e-01   -4.758757859e-05    1.096186097e-04    0.000000000e+00    0.000000000e+00    0.000000000e+00    0.000000000e+00
      354375000    4.953099191e-01    1.691799015e-01   -1.245641324e-04   -1.460709318e-04    0.000000000e+00    0.000000000e+00    0.000000000e+00    0.000000000e+00
      356000000    4.991975725e-01    1.559031755e-01   -9.766027506e-05    1.052052085e-05    0.000000000e+00    0.000000000e+00    0.000000000e+00    0.000000000e+00
      357625000    5.030262470e-01    1.421247721e-01   -2.461691292e-05   -7.779044245e-05    0.000000000e+00    0.000000000e+00    0.000000000e+00    0.000000000e+00
      359250000    5.064815879e-01    1.289081722e-01   -1.133040423e-04   -8.601792069e-05    0.000000000e+00    0.000000000e+00    0.000000000e+00    0.000000000e+00
      360875000    5.095345974e-01    1.150396392e-01    2.897701052e-05    5.823814354e-05    0.000000000e+00    0.000000000e+00    0.000000000e+00    0.000000000e+00
      362500000    5.125281215e-01    1.014255509e-01   -6.331300392e-05    7.793254190e-05    0.000000000e+00    0.000000000e+00    0.000000000e+00    0.000000000e+00
      364125000    5.150159597e-01    8.770747483e-02   -1.481717773e-04    3.882835517e-05    0.000000000e+00    0.000000000e+00    0.000000000e+00    0.000000000e+00
      365750000    5.172988176e-01    7.418420911e-02   -4.905309197e-06    1.699345594e-04    0.000000000e+00    0.000000000e+00    0.000000000e+00    0.000000000e+00
      367375000    5.191587806e-01    6.044459715e-02   -5.901580880e-05   -3.761001790e-05    0.000000000e+00    0.000000000e+00    0.000000000e+00    0.000000000e+00
      369000000    5.211268663e-01    4.696722701e-02   -2.435700117e-05   -2.296603634e-05    0.000000000e+00    0.000000000e+00    0.000000000e+00    0.000000000e+00
      370625000    5.223360658e-01    3.333837166e-02   -1.934120082e-04    8.454426279e-05    0.000000000e+00    0.000000000e+00    0.000000000e+00    0.000000000e+00
      372250000    5.232476592e-01    1.959210262e-02   -9.846015746e-05    8.448035805e-05    0.000000000e+00    0.000000000e+00    0.000000000e+00    0.000000000e+00
      373875000    5.241197348e-01    6.048636977e-03   -1.242152939e-04   -2.119050805e-06    0.000000000e+00    0.000000000e+00    0.000000000e+00    0.000000000e+00
      375500000    5.244882107e-01   -7.149219047e-03   -6.765600119e-05   -6.213037705e-05    0.000000000e+00    0.000000000e+00    0.000000000e+00    0.000000000e+00
      377125000    5.246962905e-01   -2.070772648e-02   -5.965668970e-05    7.388287486e-05    0.000000000e+00    0.000000000e+00    0.000000000e+00    0.000000000e+00
      378750000    5.243512988e-01   -3.413552791e-02   -4.088766582e-05    1.203170686e-04    0.000000000e+00    0.000000000e+00    0.000000000e+00    0.000000000e+00
      380375000    5.240924954e-01   -4.766408727e-02   -4.974134572e-05   -1.655351298e-05    0.000000000e+00    0.000000000e+00    0.000000000e+00    0.000000000e+00
      382000000    5.233459473e-01   -6.123610958e-02    2.649344788e-05    1.568678417e-04    0.000000000e+00    0.000000000e+00    0.000000000e+00    0.000000000e+00
      383625000    5.222201347e-01   -7.437705994e-02   -7.766945055e-05    9.739043162e-05    0.000000000e+00    0.000000000e+00    0.000000000e+00    0.000000000e+00
      385250000    5.210681558e-01   -8.772710711e-02   -6.109291280e-05    7.813070260e-05    0.000000000e+00    0.000000000e+00    0.000000000e+00    0.000000000e+00
      386875000    5.195102692e-01   -1.009570807e-01   -3.260443464e-06   -6.448375643e-05    0.000000000e+00    0.000000000e+00    0.000000000e+00    0.000000000e+00
      388500000    5.177557468e-01   -1.140443757e-01   -6.882187154e-05    1.502857594e-05    0.000000000e+00    0.000000000e+00    0.000000000e+00    0.000000000e+00
