! NanoVNA-App
! Date: 2024-06-25 16:52:44
! Start: 200MHz Stop: 1.5GHz Points: 801
! S-Parameter data: F S11 S21 S12 S22
# Hz S RI R 50
!     Frequency           S11_Real           S11_Imag           S21_Real           S21_Imag           S12_Real           S12_Imag           S22_Real           S22_Imag
      200000000   -7.507401109e-01    1.167857572e-01    1.574139169e-04    5.773815064e-05    0.000000000e+00    0.000000000e+00    0.000000000e+00    0.000000000e+00
      201625000   -7.459156513e-01    1.399345398e-01    1.722085290e-04    6.802444113e-05    0.000000000e+00    0.000000000e+00    0.000000000e+00    0.000000000e+00
      203250000   -7.402887344e-01    1.628369242e-01    1.838821772e-04    7.117566565e-05    0.000000000e+00    0.000000000e+00    0.000000000e+00    0.000000000e+00
      204875000   -7.339576483e-01    1.853620112e-01    1.901281939e-04    6.714347546e-05    0.000000000e+00    0.000000000e+00    0.000000000e+00    0.000000000e+00
      206500000   -7.266824841e-01    2.074273378e-01    2.458146773e-04    6.417142140e-05    0.000000000e+00    0.000000000e+00    0.000000000e+00    0.000000000e+00
      208125000   -7.188382745e-01    2.294116020e-01    2.244455682e-04    9.466804477e-05    0.000000000e+00    0.000000000e+00    0.000000000e+00    0.000000000e+00
      209750000   -7.102166414e-01    2.509853244e-01    2.570842917e-04    8.444110426e-05    0.000000000e+00    0.000000000e+00    0.000000000e+00    0.000000000e+00
      211375000   -7.009450197e-01    2.722516358e-01    2.510599443e-04    8.550575876e-05    0.000000000e+00    0.000000000e+00    0.000000000e+00    0.000000000e+00
      213000000   -6.907051206e-01    2.929331958e-01    2.476745576e-04    1.003202924e-04    0.000000000e+00    0.000000000e+00    0.000000000e+00    0.000000000e+00
      214625000   -6.801151037e-01    3.132390082e-01    2.533403749e-04    1.288474887e-04    0.000000000e+00    0.000000000e+00    0.000000000e+00    0.000000000e+00
      216250000   -6.687591076e-01    3.330787718e-01    2.723031503e-04    1.173132914e-04    0.000000000e+00    0.000000000e+00    0.000000000e+00    0.000000000e+00
      217875000   -6.567479372e-01    3.526317179e-01    2.725417144e-04    1.223661238e-04    0.000000000e+00    0.000000000e+00    0.000000000e+00    0.000000000e+00
      219500000   -6.441022754e-01    3.713235855e-01    2.736767929e-04    1.228010078e-04    0.000000000e+00    0.000000000e+00    0.000000000e+00    0.000000000e+00
      221125000   -6.308403611e-01    3.896983862e-01    2.919028921e-04    1.369287638e-04    0.000000000e+00    0.000000000e+00    0.000000000e+00    0.000000000e+00
      222750000   -6.168946028e-01    4.076246023e-01    2.847609576e-04    1.387796947e-04    0.000000000e+00    0.000000000e+00    0.000000000e+00    0.000000000e+00
      224375000   -6.026624441e-01    4.249635935e-01    2.938026737e-04    1.496920886e-04    0.000000000e+00    0.000000000e+00    0.000000000e+00    0.000000000e+00
      226000000   -5.878197551e-01    4.416889250e-01    3.087184741e-04    1.240443380e-04    0.000000000e+00    0.000000000e+00    0.000000000e+00    0.000000000e+00
      227625000   -5.724090338e-01    4.578484297e-01    3.279509838e-04    1.507487905e-04    0.000000000e+00    0.000000000e+00    0.000000000e+00    0.000000000e+00
      229250000   -5.566183925e-01    4.735786915e-01    3.043088072e-04    1.306800841e-04    0.000000000e+00    0.000000000e+00    0.000000000e+00    0.000000000e+00
      230875000   -5.405128002e-01    4.884837270e-01    3.197774058e-04    1.578156516e-04    0.000000000e+00    0.000000000e+00    0.000000000e+00    0.000000000e+00
      232500000   -5.236088634e-01    5.028778911e-01    2.960092097e-04    1.461720676e-04    0.000000000e+00    0.000000000e+00    0.000000000e+00    0.000000000e+00
      234125000   -5.067104697e-01    5.166595578e-01    3.127452510e-04    1.454936864e-04    0.000000000e+00    0.000000000e+00    0.000000000e+00    0.000000000e+00
      235750000   -4.891688824e-01    5.298451185e-01    3.198694321e-04    1.803261403e-04    0.000000000e+00    0.000000000e+00    0.000000000e+00    0.000000000e+00
      237375000   -4.713923037e-01    5.421573520e-01    3.198720806e-04    1.452784054e-04    0.000000000e+00    0.000000000e+00    0.000000000e+00    0.000000000e+00
      239000000   -4.533979297e-01    5.539566278e-01    3.189145937e-04    1.289880747e-04    0.000000000e+00    0.000000000e+00    0.000000000e+00    0.000000000e+00
      240625000   -4.349267483e-01    5.652281046e-01    3.322760749e-04    1.450536220e-04    0.000000000e+00    0.000000000e+00    0.000000000e+00    0.000000000e+00
      242250000   -4.160932302e-01    5.760395527e-01    3.439987195e-04    1.491829025e-04    0.000000000e+00    0.000000000e+00    0.000000000e+00    0.000000000e+00
      243875000   -3.970573246e-01    5.860262513e-01    3.304232669e-04    1.688267803e-04    0.000000000e+00    0.000000000e+00    0.000000000e+00    0.000000000e+00
      245500000   -3.777006269e-01    5.954491496e-01    3.385067976e-04    1.337017311e-04    0.000000000e+00    0.000000000e+00    0.000000000e+00    0.000000000e+00
      247125000   -3.582484424e-01    6.043522954e-01    3.410503268e-04    1.231461792e-04    0.000000000e+00    0.000000000e+00    0.000000000e+00    0.000000000e+00
      248750000   -3.383180797e-01    6.124043465e-01    3.536443983e-04    1.494716125e-04    0.000000000e+00    0.000000000e+00    0.000000000e+00    0.000000000e+00
      250375000   -3.186160624e-01    6.201165915e-01    3.333929635e-04    1.431484998e-04    0.000000000e+00    0.000000000e+00    0.000000000e+00    0.000000000e+00
      252000000   -2.987285256e-01    6.267472506e-01    3.508739464e-04    1.529576402e-04    0.000000000e+00    0.000000000e+00    0.000000000e+00    0.000000000e+00
      253625000   -2.787288427e-01    6.330088973e-01    3.721158719e-04    1.404104551e-04    0.000000000e+00    0.000000000e+00    0.000000000e+00    0.000000000e+00
      255250000   -2.589803934e-01    6.385591030e-01    3.372003848e-04    1.507917477e-04    0.000000000e+00    0.000000000e+00    0.000000000e+00    0.000000000e+00
      256875000   -2.388611138e-01    6.433842778e-01    3.635215398e-04    1.523795654e-04    0.000000000e+00    0.000000000e+00    0.000000000e+00    0.000000000e+00
      258500000   -2.187487632e-01    6.475172043e-01    3.534372372e-04    1.569797314e-04    0.000000000e+00    0.000000000e+00    0.000000000e+00    0.000000000e+00
      260125000   -1.988342255e-01    6.512154937e-01    3.484370536e-04    1.361708710e-04    0.000000000e+00    0.000000000e+00    0.000000000e+00    0.000000000e+00
      261750000   -1.785709858e-01    6.543897390e-01    3.516945580e-04    1.533932664e-04    0.000000000e+00    0.000000000e+00    0.000000000e+00    0.000000000e+00
      263375000   -1.586460471e-01    6.566578746e-01    3.439705761e-04    1.588302403e-04    0.000000000e+00    0.000000000e+00    0.000000000e+00    0.000000000e+00
      265000000   -1.386011839e-01    6.581846476e-01    3.554905416e-04    1.646833407e-04    0.000000000e+00    0.000000000e+00    0.000000000e+00    0.000000000e+00
      266625000   -1.187844500e-01    6.591871977e-01    3.668032878e-04    1.580140524e-04    0.000000000e+00    0.000000000e+00    0.000000000e+00    0.000000000e+00
      268250000   -9.877002984e-02    6.599278450e-01    3.509646340e-04    1.470654825e-04    0.000000000e+00    0.000000000e+00    0.000000000e+00    0.000000000e+00
      269875000   -7.897748053e-02    6.597362161e-01    3.290585300e-04    1.615768269e-04    0.000000000e+00    0.000000000e+00    0.000000000e+00    0.000000000e+00
      271500000   -5.928113684e-02    6.591462493e-01    3.768427123e-04    1.292778179e-04    0.000000000e+00    0.000000000e+00    0.000000000e+00    0.000000000e+00
      273125000   -3.981639072e-02    6.579393148e-01    3.596378665e-04    1.556741772e-04    0.000000000e+00    0.000000000e+00    0.000000000e+00    0.000000000e+00
      274750000   -2.015648969e-02    6.562778950e-01    3.600354830e-04    1.522102830e-04    0.000000000e+00    0.000000000e+00    0.000000000e+00    0.000000000e+00
      276375000   -9.956347058e-04    6.540475488e-01    3.519731690e-04    1.700235298e-04    0.000000000e+00    0.000000000e+00    0.000000000e+00    0.000000000e+00
      278000000    1.828103699e-02    6.511773467e-01    3.629859712e-04    1.490080467e-04    0.000000000e+00    0.000000000e+00    0.000000000e+00    0.000000000e+00
      279625000    3.718317673e-02    6.478528976e-01    3.649652353e-04    1.482120861e-04    0.000000000e+00    0.000000000e+00    0.000000000e+00    0.000000000e+00
      281250000    5.600578338e-02    6.440476179e-01    3.536170116e-04    1.476595207e-04    0.000000000e+00    0.000000000e+00    0.000000000e+00    0.000000000e+00
      282875000    7.474975288e-02    6.397901177e-01    3.443734022e-04    1.361161267e-04    0.000000000e+00    0.000000000e+00    0.000000000e+00    0.000000000e+00
      284500000    9.306407720e-02    6.347408891e-01    3.466091293e-04    1.498441270e-04    0.000000000e+00    0.000000000e+00    0.000000000e+00    0.000000000e+00
      286125000    1.113703474e-01    6.296513081e-01    3.289638262e-04    1.470587886e-04    0.000000000e+00    0.000000000e+00    0.000000000e+00    0.000000000e+00
      287750000    1.292937100e-01    6.239565611e-01    3.224744578e-04    1.159414751e-04    0.000000000e+00    0.000000000e+00    0.000000000e+00    0.000000000e+00
      289375000    1.470437348e-01    6.172880530e-01    3.289338201e-04    1.147498333e-04    0.000000000e+00    0.000000000e+00    0.000000000e+00    0.000000000e+00
      291000000    7.333982736e-02    5.792686939e-01    1.504019165e-04   -3.873015885e-05    0.000000000e+00    0.000000000e+00    0.000000000e+00    0.000000000e+00
      292625000    8.916888386e-02    5.741019845e-01   -1.489896677e-04    9.165381198e-05    0.000000000e+00    0.000000000e+00    0.000000000e+00    0.000000000e+00
      294250000    1.066468805e-01    5.690308213e-01   -6.046038266e-07    9.550472168e-05    0.000000000e+00    0.000000000e+00    0.000000000e+00    0.000000000e+00
      295875000    1.227190942e-01    5.629132390e-01    6.462682359e-05    7.438319153e-05    0.000000000e+00    0.000000000e+00    0.000000000e+00    0.000000000e+00
      297500000    1.388418376e-01    5.569652915e-01   -7.873017603e-05    8.288552635e-05    0.000000000e+00    0.000000000e+00    0.000000000e+00    0.000000000e+00
      299125000    1.542957574e-01    5.501193404e-01   -9.891497757e-05    1.073832391e-04    0.000000000e+00    0.000000000e+00    0.000000000e+00    0.000000000e+00
      300750000    1.696004272e-01    5.434506536e-01   -1.391637197e-04    9.595220763e-05    0.000000000e+00    0.000000000e+00    0.000000000e+00    0.000000000e+00
      302375000    1.848200560e-01    5.356513262e-01   -1.403188799e-04    1.352123509e-04    0.000000000e+00    0.000000000e+00    0.000000000e+00    0.000000000e+00
      304000000    1.994308531e-01    5.279196501e-01    3.547411325e-05   -4.943869499e-05    0.000000000e+00    0.000000000e+00    0.000000000e+00    0.000000000e+00
      305625000    2.143344432e-01    5.194395781e-01    2.724937440e-05   -1.673474799e-05    0.000000000e+00    0.000000000e+00    0.000000000e+00    0.000000000e+00
      307250000    2.298410684e-01    5.140568018e-01    1.046964317e-04    5.229973249e-05    0.000000000e+00    0.000000000e+00    0.000000000e+00    0.000000000e+00
      308875000    2.429388911e-01    5.034055114e-01   -6.057485371e-05    9.137035522e-05    0.000000000e+00    0.000000000e+00    0.000000000e+00    0.000000000e+00
      310500000    2.565003037e-01    4.939123690e-01   -1.081302107e-04   -4.580303721e-05    0.000000000e+00    0.000000000e+00    0.000000000e+00    0.000000000e+00
      312125000    2.692574263e-01    4.843432307e-01   -4.352958058e-05   -7.075814210e-05    0.000000000e+00    0.000000000e+00    0.000000000e+00    0.000000000e+00
      313750000    2.823213041e-01    4.748533964e-01    6.303768168e-05   -9.869752830e-05    0.000000000e+00    0.000000000e+00    0.000000000e+00    0.000000000e+00
      315375000    2.951032519e-01    4.648389220e-01   -1.597055962e-04    5.528199836e-05    0.000000000e+00    0.000000000e+00    0.000000000e+00    0.000000000e+00
      317000000    3.073157668e-01    4.540296495e-01   -2.806938210e-05   -3.752576595e-05    0.000000000e+00    0.000000000e+00    0.000000000e+00    0.000000000e+00
      318625000    3.192439675e-01    4.437587261e-01   -8.224038174e-05    4.402868581e-05    0.000000000e+00    0.000000000e+00    0.000000000e+00    0.000000000e+00
      320250000    3.310505748e-01    4.331163168e-01   -1.380147150e-04    6.807966565e-05    0.000000000e+00    0.000000000e+00    0.000000000e+00    0.000000000e+00
      321875000    3.422781825e-01    4.224011004e-01    4.081005318e-05    1.352209074e-04    0.000000000e+00    0.000000000e+00    0.000000000e+00    0.000000000e+00
      323500000    3.532088995e-01    4.110960662e-01   -4.916227044e-05    7.107108104e-05    0.000000000e+00    0.000000000e+00    0.000000000e+00    0.000000000e+00
      325125000    3.636315167e-01    3.993841112e-01   -1.119447988e-04   -6.566593947e-05    0.000000000e+00    0.000000000e+00    0.000000000e+00    0.000000000e+00
      326750000    3.738909662e-01    3.879562318e-01   -1.640199916e-04    2.233811756e-05    0.000000000e+00    0.000000000e+00    0.000000000e+00    0.000000000e+00
      328375000    3.840474486e-01    3.761464357e-01   -1.845544757e-04    6.824320735e-05    0.000000000e+00    0.000000000e+00    0.000000000e+00    0.000000000e+00
      330000000    3.935414851e-01    3.640945256e-01   -1.349867234e-04   -6.210901483e-05    0.000000000e+00    0.000000000e+00    0.000000000e+00    0.000000000e+00
      331625000    4.023945630e-01    3.520679772e-01   -4.388298748e-06   -4.524933047e-06    0.000000000e+00    0.000000000e+00    0.000000000e+00    0.000000000e+00
      333250000    4.113733470e-01    3.394452333e-01   -9.436580876e-05    1.039684139e-05    0.000000000e+00    0.000000000e+00    0.000000000e+00    0.000000000e+00
      334875000    4.197055101e-01    3.270061016e-01    2.800625407e-05   -7.219351392e-05    0.000000000e+00    0.000000000e+00    0.000000000e+00    0.000000000e+00
      336500000    4.276852310e-01    3.140980601e-01    4.252089639e-06   -5.002588296e-05    0.000000000e+00    0.000000000e+00    0.000000000e+00    0.000000000e+00
      338125000    4.358220994e-01    3.015319109e-01   -1.618930401e-04   -7.170307072e-05    0.000000000e+00    0.000000000e+00    0.000000000e+00    0.000000000e+00
      339750000    4.431747794e-01    2.889473736e-01    1.046878970e-04   -2.160916301e-05    0.000000000e+00    0.000000000e+00    0.000000000e+00    0.000000000e+00
      341375000    4.505511224e-01    2.758601606e-01    4.681726205e-05    1.436961174e-04    0.000000000e+00    0.000000000e+00    0.000000000e+00    0.000000000e+00
      343000000    4.572372735e-01    2.628076375e-01   -2.474426292e-04   -9.776833394e-06    0.000000000e+00    0.000000000e+00    0.000000000e+00    0.000000000e+00
      344625000    4.634397626e-01    2.497951388e-01    2.130141365e-05   -4.369628368e-05    0.000000000e+00    0.000000000e+00    0.000000000e+00    0.000000000e+00
      346250000    4.696464539e-01    2.364470810e-01   -6.625735114e-05   -1.272255176e-04    0.000000000e+00    0.000000000e+00    0.000000000e+00    0.000000000e+00
      347875000    4.753650129e-01    2.233064324e-01   -1.694109524e-04   -1.793521951e-04    0.000000000e+00    0.000000000e+00    0.000000000e+00    0.000000000e+00
      349500000    4.807676673e-01    2.099484801e-01   -4.260253991e-05    2.331590991e-07    0.000000000e+00    0.000000000e+00    0.000000000e+00    0.000000000e+00
      351125000    4.857983589e-01    1.964229643e-01    2.853717888e-05   -1.924545904e-05    0.000000000e+00    0.000000000e+00    0.000000000e+00    0.000000000e+00
      352750000    4.905114770e-01    1.829468757e-01   -4.835236177e-05   -2.908396527e-05    0.000000000e+00    0.000000000e+00    0.000000000e+00    0.000000000e+00
      354375000    4.949553907e-01    1.693660170e-01    9.944227486e-07   -8.674192941e-05    0.000000000e+00    0.000000000e+00    0.000000000e+00    0.000000000e+00
      356000000    4.993061125e-01    1.559898406e-01   -6.346435839e-05   -4.486581383e-05    0.000000000e+00    0.000000000e+00    0.000000000e+00    0.000000000e+00
      357625000    5.030145645e-01    1.423107833e-01   -7.598719822e-05   -8.915729268e-05    0.000000000e+00    0.000000000e+00    0.000000000e+00    0.000000000e+00
      359250000    5.064306855e-01    1.286780238e-01   -8.941687702e-05   -1.266897452e-04    0.000000000e+00    0.000000000e+00    0.000000000e+00    0.000000000e+00
      360875000    5.095892549e-01    1.149566397e-01    7.341279706e-05   -1.021482676e-04    0.000000000e+00    0.000000000e+00    0.000000000e+00    0.000000000e+00
      362500000    5.124010444e-01    1.014219522e-01   -6.520053284e-05   -1.028507468e-04    0.000000000e+00    0.000000000e+00    0.000000000e+00    0.000000000e+00
      364125000    5.150463581e-01    8.762995899e-02   -2.138084092e-04   -2.402128121e-05    0.000000000e+00    0.000000000e+00    0.000000000e+00    0.000000000e+00
      365750000    5.171553493e-01    7.418022305e-02    5.958043403e-05    8.607581549e-05    0.000000000e+00    0.000000000e+00    0.000000000e+00    0.000000000e+00
      367375000    5.193098783e-01    6.041504070e-02   -4.280116264e-05    1.542353712e-04    0.000000000e+00    0.000000000e+00    0.000000000e+00    0.000000000e+00
      369000000    5.209151506e-01    4.698249698e-02   -1.081977098e-04   -3.526408545e-05    0.000000000e+00    0.000000000e+00    0.000000000e+00    0.000000000e+00
      370625000    5.223702192e-01    3.337786347e-02   -1.588963642e-04   -1.236484150e-05    0.000000000e+00    0.000000000e+00    0.000000000e+00    0.000000000e+00
      372250000    5.234731436e-01    1.964289509e-02   -1.631447813e-04   -5.770635471e-05    0.000000000e+00    0.000000000e+00    0.000000000e+00    0.000000000e+00
      373875000    5.241068602e-01    6.235400680e-03   -1.496380573e-04    5.204575064e-05    0.000000000e+00    0.000000000e+00    0.000000000e+00    0.000000000e+00
      375500000    5.245690942e-01   -7.272656076e-03   -1.534954645e-04   -6.431075121e-07    0.000000000e+00    0.000000000e+00    0.000000000e+00    0.000000000e+00
      377125000    5.246307254e-01   -2.080862038e-02   -8.506024460e-05   -2.621380190e-05    0.000000000e+00    0.000000000e+00    0.000000000e+00    0.000000000e+00
      378750000    5.241698027e-01   -3.420999646e-02    3.169556294e-05   -1.348711521e-04    0.000000000e+00    0.000000000e+00    0.000000000e+00    0.000000000e+00
      380375000    5.240111351e-01   -4.770629480e-02   -2.994145916e-06   -2.987010521e-05    0.000000000e+00    0.000000000e+00    0.000000000e+00    0.000000000e+00
      382000000    5.231994390e-01   -6.094368547e-02   -8.415746561e-05    1.233086950e-04    0.000000000e+00    0.000000000e+00    0.000000000e+00    0.000000000e+00
      383625000    5.222760439e-01   -7.432547957e-02   -7.773005200e-05    1.315138798e-05    0.000000000e+00    0.000000000e+00    0.000000000e+00    0.000000000e+00
      385250000    5.210699439e-01   -8.746545017e-02   -8.665397036e-05   -1.949794205e-05    0.000000000e+00    0.000000000e+00    0.000000000e+00    0.000000000e+00
      386875000    5.195195675e-01   -1.009147614e-01   -5.522804349e-05    9.996253357e-05    0.000000000e+00    0.000000000e+00    0.000000000e+00    0.000000000e+00
      388500000    5.173801780e-01   -1.138914153e-01   -1.229790068e-04    1.675390085e-04    0.000000000e+00    0.000000000e+00    0.000000000e+00    0.000000000e+00
