! NanoVNA-App
! Date: 2024-06-25 16:52:48
! Start: 200MHz Stop: 1.5GHz Points: 801
! S-Parameter data: F S11 S21 S12 S22
# Hz S RI R 50
!     Frequency           S11_Real           S11_Imag           S21_Real           S21_Imag           S12_Real           S12_Imag           S22_Real           S22_Imag
      200000000   -7.507225871e-01    1.167936772e-01    1.686296455e-04    8.137557597e-05    0.000000000e+00    0.000000000e+00    0.000000000e+00    0.000000000e+00
      201625000   -7.458334565e-01    1.398695111e-01    1.847993408e-04    4.071451622e-05    0.000000000e+00    0.000000000e+00    0.000000000e+00    0.000000000e+00
      203250000   -7.402761579e-01    1.627222002e-01    2.085280867e-04    5.783416418e-05    0.000000000e+00    0.000000000e+00    0.000000000e+00    0.000000000e+00
      204875000   -7.338524461e-01    1.853859723e-01    2.268755197e-04    9.064782353e-05    0.000000000e+00    0.000000000e+00    0.000000000e+00    0.000000000e+00
      206500000   -7.265788317e-01    2.074866146e-01    2.106529137e-04    7.565705164e-05    0.000000000e+00    0.000000000e+00    0.000000000e+00    0.000000000e+00
      208125000   -7.188266516e-01    2.294264287e-01    2.379181387e-04    8.263379277e-05    0.000000000e+00    0.000000000e+00    0.000000000e+00    0.000000000e+00
      209750000   -7.102251053e-01    2.510476410e-01    2.386525885e-04    7.740707952e-05    0.000000000e+00    0.000000000e+00    0.000000000e+00    0.000000000e+00
      211375000   -7.008193731e-01    2.720553875e-01    2.622306347e-04    9.910223162e-05    0.000000000e+00    0.000000000e+00    0.000000000e+00    0.000000000e+00
      213000000   -6.907848716e-01    2.929417789e-01    2.608958166e-04    1.176407386e-04    0.000000000e+00    0.000000000e+00    0.000000000e+00    0.000000000e+00
      214625000   -6.801478863e-01    3.131884933e-01    2.692299313e-04    1.111033707e-04    0.000000000e+00    0.000000000e+00    0.000000000e+00    0.000000000e+00
      216250000   -6.687676907e-01    3.331611454e-01    2.553795057e-04    1.124743940e-04    0.000000000e+00    0.000000000e+00    0.000000000e+00    0.000000000e+00
      217875000   -6.567058563e-01    3.525668681e-01    2.751197899e-04    1.390221878e-04    0.000000000e+00    0.000000000e+00    0.000000000e+00    0.000000000e+00
      219500000   -6.439610124e-01    3.713071942e-01    2.785127144e-04    1.303918689e-04    0.000000000e+00    0.000000000e+00    0.000000000e+00    0.000000000e+00
      221125000   -6.307989359e-01    3.898046315e-01    2.692249545e-04    1.226711174e-04    0.000000000e+00    0.000000000e+00    0.000000000e+00    0.000000000e+00
      222750000   -6.170154810e-01    4.077431262e-01    2.888951858e-04    1.461472566e-04    0.000000000e+00    0.000000000e+00    0.000000000e+00    0.000000000e+00
      224375000   -6.026216745e-01    4.251021147e-01    3.079748712e-04    1.350546227e-04    0.000000000e+00    0.000000000e+00    0.000000000e+00    0.000000000e+00
      226000000   -5.876195431e-01    4.417279363e-01    3.150691628e-04    1.548209111e-04    0.000000000e+00    0.000000000e+00    0.000000000e+00    0.000000000e+00
      227625000   -5.723329186e-01    4.578067660e-01    2.880571119e-04    1.465630921e-04    0.000000000e+00    0.000000000e+00    0.000000000e+00    0.000000000e+00
      229250000   -5.565385222e-01    4.734868705e-01    3.138091124e-04    1.307086059e-04    0.000000000e+00    0.000000000e+00    0.000000000e+00    0.000000000e+00
      230875000   -5.402325988e-01    4.882873595e-01    3.245881235e-04    1.458423358e-04    0.000000000e+00    0.000000000e+00    0.000000000e+00    0.000000000e+00
      232500000   -5.237274766e-01    5.029072165e-01    3.103892086e-04    1.225348387e-04    0.000000000e+00    0.000000000e+00    0.000000000e+00    0.000000000e+00
      234125000   -5.068230033e-01    5.166082382e-01    3.024487523e-04    1.501493534e-04    0.000000000e+00    0.000000000e+00    0.000000000e+00    0.000000000e+00
      235750000   -4.890672863e-01    5.297003984e-01    3.314773494e-04    1.358945738e-04    0.000000000e+00    0.000000000e+00    0.000000000e+00    0.000000000e+00
      237375000   -4.713201523e-01    5.420634747e-01    3.290629829e-04    1.457167091e-04    0.000000000e+00    0.000000000e+00    0.000000000e+00    0.000000000e+00
      239000000   -4.532766938e-01    5.539667606e-01    3.527277731e-04    1.531582093e-04    0.000000000e+00    0.000000000e+00    0.000000000e+00    0.000000000e+00
      240625000   -4.350501597e-01    5.651929379e-01    3.295643837e-04    1.694378152e-04    0.000000000e+00    0.000000000e+00    0.000000000e+00    0.000000000e+00
      242250000   -4.162292182e-01    5.759944320e-01    3.272900358e-04    1.631687046e-04    0.000000000e+00    0.000000000e+00    0.000000000e+00    0.000000000e+00
      243875000   -3.971617222e-01    5.860584378e-01    3.406250034e-04    1.347712241e-04    0.000000000e+00    0.000000000e+00    0.000000000e+00    0.000000000e+00
      245500000   -3.776825368e-01    5.952944160e-01    3.312689660e-04    1.553331240e-04    0.000000000e+00    0.000000000e+00    0.000000000e+00    0.000000000e+00
      247125000   -3.581784368e-01    6.043406725e-01    3.494131670e-04    1.553298353e-04    0.000000000e+00    0.000000000e+00    0.000000000e+00    0.000000000e+00
      248750000   -3.384668231e-01    6.123612523e-01    3.367422614e-04    1.290406653e-04    0.000000000e+00    0.000000000e+00    0.000000000e+00    0.000000000e+00
      250375000   -3.185923994e-01    6.199116707e-01    3.488337970e-04    1.549171575e-04    0.000000000e+00    0.000000000e+00    0.000000000e+00    0.000000000e+00
      252000000   -2.988065481e-01    6.268219948e-01    3.717245418e-04    1.621112606e-04    0.000000000e+00    0.000000000e+00    0.000000000e+00    0.000000000e+00
      253625000   -2.787906229e-01    6.328818202e-01    3.475203703e-04    1.652019710e-04    0.000000000e+00    0.000000000e+00    0.000000000e+00    0.000000000e+00
      255250000   -2.587550581e-01    6.385293007e-01    3.624185047e-04    1.718645653e-04    0.000000000e+00    0.000000000e+00    0.000000000e+00    0.000000000e+00
      256875000   -2.389165610e-01    6.433547735e-01    3.653688764e-04    1.525963598e-04    0.000000000e+00    0.000000000e+00    0.000000000e+00    0.000000000e+00
      258500000   -2.187156975e-01    6.475061178e-01    3.534430289e-04    1.514616451e-04    0.000000000e+00    0.000000000e+00    0.000000000e+00    0.000000000e+00
      260125000   -1.987322569e-01    6.511406302e-01    3.709346056e-04    1.498471684e-04    0.000000000e+00    0.000000000e+00    0.000000000e+00    0.000000000e+00
      261750000   -1.787106842e-01    6.543552279e-01    3.508648369e-04    1.538257929e-04    0.000000000e+00    0.000000000e+00    0.000000000e+00    0.000000000e+00
      263375000   -1.586962938e-01    6.565480232e-01    3.557151067e-04    1.326597558e-04    0.000000000e+00    0.000000000e+00    0.000000000e+00    0.000000000e+00
      265000000   -1.386414915e-01    6.582397223e-01    3.410758800e-04    1.402085036e-04    0.000000000e+00    0.000000000e+00    0.000000000e+00    0.000000000e+00
      266625000   -1.186903939e-01    6.594103575e-01    3.515892895e-04    1.209637849e-04    0.000000000e+00    0.000000000e+00    0.000000000e+00    0.000000000e+00
      268250000   -9.863590449e-02    6.598614454e-01    3.670320730e-04    1.496504992e-04    0.000000000e+00    0.000000000e+00    0.000000000e+00    0.000000000e+00
      269875000   -7.896522433e-02    6.598062515e-01    3.565627558e-04    1.414123399e-04    0.000000000e+00    0.000000000e+00    0.000000000e+00    0.000000000e+00
      271500000   -5.928095058e-02    6.591106057e-01    3.484699409e-04    1.410828263e-04    0.000000000e+00    0.000000000e+00    0.000000000e+00    0.000000000e+00
      273125000   -3.973677009e-02    6.579995751e-01    3.810296475e-04    1.359434827e-04    0.000000000e+00    0.000000000e+00    0.000000000e+00    0.000000000e+00
      274750000   -2.021163888e-02    6.562961340e-01    3.695956839e-04    1.529840665e-04    0.000000000e+00    0.000000000e+00    0.000000000e+00    0.000000000e+00
      276375000   -1.006050035e-03    6.541005373e-01    3.500682360e-04    1.534513140e-04    0.000000000e+00    0.000000000e+00    0.000000000e+00    0.000000000e+00
      278000000    1.818311773e-02    6.510477662e-01    3.466731869e-04    1.416711748e-04    0.000000000e+00    0.000000000e+00    0.000000000e+00    0.000000000e+00
      279625000    3.731336072e-02    6.479544044e-01    3.736140789e-04    1.474634482e-04    0.000000000e+00    0.000000000e+00    0.000000000e+00    0.000000000e+00
      281250000    5.608570203e-02    6.440332532e-01    3.391496430e-04    1.354422420e-04    0.000000000e+00    0.000000000e+00    0.000000000e+00    0.000000000e+00
      282875000    7.469684631e-02    6.395735741e-01    3.422487935e-04    1.417971071e-04    0.000000000e+00    0.000000000e+00    0.000000000e+00    0.000000000e+00
      284500000    9.309696406e-02    6.347555518e-01    3.373163927e-04    1.441163913e-04    0.000000000e+00    0.000000000e+00    0.000000000e+00    0.000000000e+00
      286125000    1.114032269e-01    6.295951009e-01    3.138250322e-04    1.377563167e-04    0.000000000e+00    0.000000000e+00    0.000000000e+00    0.000000000e+00
      287750000    1.292535216e-01    6.239545941e-01    3.007212654e-04    1.223801955e-04    0.000000000e+00    0.000000000e+00    0.000000000e+00    0.000000000e+00
      289375000    1.468901485e-01    6.173973680e-01    3.345431178e-04    1.313041284e-04    0.000000000e+00    0.000000000e+00    0.000000000e+00    0.000000000e+00
      291000000    7.372848690e-02    5.792787671e-01   -4.305821494e-05   -1.260064455e-04    0.000000000e+00    0.000000000e+00    0.000000000e+00    0.000000000e+00
      292625000    8.930242062e-02    5.738242269e-01   -1.038435803e-04   -3.602381867e-06    0.000000000e+00    0.000000000e+00    0.000000000e+00    0.000000000e+00
      294250000    1.063939855e-01    5.688552260e-01   -8.077150824e-07    1.048338017e-04    0.000000000e+00    0.000000000e+00    0.000000000e+00    0.000000000e+00
      295875000    1.224556938e-01    5.627263188e-01    3.448278221e-05    2.529100857e-05    0.000000000e+00    0.000000000e+00    0.000000000e+00    0.000000000e+00
      297500000    1.387225240e-01    5.571362972e-01   -7.118682697e-05   -3.308875239e-05    0.000000000e+00    0.000000000e+00    0.000000000e+00    0.000000000e+00
      299125000    1.544615775e-01    5.503088236e-01   -1.287857303e-04    7.268298214e-05    0.000000000e+00    0.000000000e+00    0.000000000e+00    0.000000000e+00
      300750000    1.694676280e-01    5.434562564e-01   -1.156131184e-04   -4.573373371e-05    0.000000000e+00    0.000000000e+00    0.000000000e+00    0.000000000e+00
      302375000    1.850258261e-01    5.357556343e-01   -1.368885569e-04   -4.594392885e-05    0.000000000e+00    0.000000000e+00    0.000000000e+00    0.000000000e+00
      304000000    1.998040825e-01    5.280115008e-01   -6.756071525e-05   -8.138227713e-05    0.000000000e+00    0.000000000e+00    0.000000000e+00    0.000000000e+00
      305625000    2.138047218e-01    5.199115276e-01   -2.290140837e-04    7.111458399e-05    0.000000000e+00    0.000000000e+00    0.000000000e+00    0.000000000e+00
      307250000    2.264267802e-01    5.099137425e-01   -2.583516107e-05    9.890714136e-05    0.000000000e+00    0.000000000e+00    0.000000000e+00    0.000000000e+00
      308875000    2.424182594e-01    5.026255250e-01   -1.494590979e-04   -2.322184082e-05    0.000000000e+00    0.000000000e+00    0.000000000e+00    0.000000000e+00
      310500000    2.564754784e-01    4.935793281e-01   -1.392090780e-04   -1.156833023e-04    0.000000000e+00    0.000000000e+00    0.000000000e+00    0.000000000e+00
      312125000    2.691472471e-01    4.840956628e-01    3.827043838e-05    7.686397294e-05    0.000000000e+00    0.000000000e+00    0.000000000e+00    0.000000000e+00
      313750000    2.823236585e-01    4.748975039e-01    1.657073699e-05    1.237089455e-04    0.000000000e+00    0.000000000e+00    0.000000000e+00    0.000000000e+00
      315375000    2.946438193e-01    4.642747641e-01   -1.069139034e-04    4.601115143e-05    0.000000000e+00    0.000000000e+00    0.000000000e+00    0.000000000e+00
      317000000    3.071929812e-01    4.546760321e-01   -1.026725731e-04   -5.541508926e-06    0.000000000e+00    0.000000000e+00    0.000000000e+00    0.000000000e+00
      318625000    3.192878366e-01    4.437704980e-01   -8.130427159e-05    1.018720868e-04    0.000000000e+00    0.000000000e+00    0.000000000e+00    0.000000000e+00
      320250000    3.309867382e-01    4.331465662e-01   -6.058558574e-05   -3.613653826e-05    0.000000000e+00    0.000000000e+00    0.000000000e+00    0.000000000e+00
      321875000    3.419098258e-01    4.218828380e-01   -6.632222357e-05    2.715920164e-05    0.000000000e+00    0.000000000e+00    0.000000000e+00    0.000000000e+00
      323500000    3.529117107e-01    4.107005298e-01   -5.783289816e-05    1.069572409e-05    0.000000000e+00    0.000000000e+00    0.000000000e+00    0.000000000e+00
      325125000    3.633973002e-01    3.992911875e-01   -2.686623484e-04    6.637861225e-05    0.000000000e+00    0.000000000e+00    0.000000000e+00    0.000000000e+00
      326750000    3.738394678e-01    3.875516057e-01   -1.576246432e-04    5.657891961e-05    0.000000000e+00    0.000000000e+00    0.000000000e+00    0.000000000e+00
      328375000    3.838234842e-01    3.763631284e-01   -5.862021499e-05    2.268177195e-05    0.000000000e+00    0.000000000e+00    0.000000000e+00    0.000000000e+00
      330000000    3.931763470e-01    3.639161289e-01    5.708559456e-06   -1.335836132e-04    0.000000000e+00    0.000000000e+00    0.000000000e+00    0.000000000e+00
      331625000    4.022201896e-01    3.519133031e-01   -2.184996083e-05   -5.845032138e-05    0.000000000e+00    0.000000000e+00    0.000000000e+00    0.000000000e+00
      333250000    4.114285111e-01    3.396666646e-01   -1.500340545e-06    3.523404530e-06    0.000000000e+00    0.000000000e+00    0.000000000e+00    0.000000000e+00
      334875000    4.196970761e-01    3.269301653e-01   -7.469231787e-05    4.445598279e-06    0.000000000e+00    0.000000000e+00    0.000000000e+00    0.000000000e+00
      336500000    4.281831682e-01    3.142392039e-01   -1.114952101e-04   -5.033456546e-05    0.000000000e+00    0.000000000e+00    0.000000000e+00    0.000000000e+00
      338125000    4.357533455e-01    3.013228774e-01   -1.327799982e-04    1.519016660e-04    0.000000000e+00    0.000000000e+00    0.000000000e+00    0.000000000e+00
      339750000    4.433478415e-01    2.889450490e-01    2.932276948e-05   -4.658045509e-05    0.000000000e+00    0.000000000e+00    0.000000000e+00    0.000000000e+00
      341375000    4.502159357e-01    2.759045064e-01   -1.709258067e-04   -6.846510223e-05    0.000000000e+00    0.000000000e+00    0.000000000e+00    0.000000000e+00
      343000000    4.569163620e-01    2.630295753e-01    3.909653969e-06   -2.066632987e-05    0.000000000e+00    0.000000000e+00    0.000000000e+00    0.000000000e+00
      344625000    4.636833966e-01    2.499177158e-01   -1.879160263e-04    3.430456491e-05    0.000000000e+00    0.000000000e+00    0.000000000e+00    0.000000000e+00
      346250000    4.695193172e-01    2.364420593e-01   -7.750777149e-05   -3.012665911e-05    0.000000000e+00    0.000000000e+00    0.000000000e+00    0.000000000e+00
      347875000    4.753258526e-01    2.233139277e-01   -3.691944949e-05   -8.968921611e-05    0.000000000e+00    0.000000000e+00    0.000000000e+00    0.000000000e+00
      349500000    4.807007015e-01    2.097122222e-01   -5.678577145e-05    2.763968405e-05    0.000000000e+00    0.000000000e+00    0.000000000e+00    0.000000000e+00
      351125000    4.857877791e-01    1.964098066e-01   -6.540209142e-05   -1.517935402e-06    0.000000000e+00    0.000000000e+00    0.000000000e+00    0.000000000e+00
      352750000    4.904362559e-01    1.828584671e-01   -8.275725850e-05   -1.176027654e-04    0.000000000e+00    0.000000000e+00    0.000000000e+00    0.000000000e+00
      354375000    4.949347079e-01    1.694503427e-01   -8.857723151e-05    4.527636702e-05    0.000000000e+00    0.000000000e+00    0.000000000e+00    0.000000000e+00
      356000000    4.991085529e-01    1.558008641e-01   -1.594145579e-05    1.163408815e-04    0.000000000e+00    0.000000000e+00    0.000000000e+00    0.000000000e+00
      357625000    5.030914545e-01    1.422781199e-01    2.831074926e-05   -7.485064270e-05    0.000000000e+00    0.000000000e+00    0.000000000e+00    0.000000000e+00
      359250000    5.064312816e-01    1.284835041e-01   -8.066517330e-05    1.522481325e-04    0.000000000e+00    0.000000000e+00    0.000000000e+00    0.000000000e+00
      360875000    5.094823837e-01    1.149935201e-01   -2.237039007e-04    1.957831955e-05    0.000000000e+00    0.000000000e+00    0.000000000e+00    0.000000000e+00
      362500000    5.124234557e-01    1.013999805e-01    3.637769260e-05    1.632257590e-05    0.000000000e+00    0.000000000e+00    0.000000000e+00    0.000000000e+00
      364125000    5.149215460e-01    8.783504367e-02   -4.964930122e-05   -3.666544944e-05    0.000000000e+00    0.000000000e+00    0.000000000e+00    0.000000000e+00
      365750000    5.171039701e-01    7.409625500e-02   -1.947927958e-04   -7.686235767e-05    0.000000000e+00    0.000000000e+00    0.000000000e+00    0.000000000e+00
      367375000    5.191668868e-01    6.048642471e-02    7.712806837e-05   -1.680652895e-05    0.000000000e+00    0.000000000e+00    0.000000000e+00    0.000000000e+00
      369000000    5.209323764e-01    4.700910300e-02    1.795167736e-05    7.291314887e-06    0.000000000e+00    0.000000000e+00    0.000000000e+00    0.000000000e+00
      370625000    5.222130418e-01    3.336567432e-02    1.191013325e-05   -1.160988177e-04    0.000000000e+00    0.000000000e+00    0.000000000e+00    0.000000000e+00
      372250000    5.235551000e-01    1.987380721e-02   -8.796369912e-06    8.043339767e-05    0.000000000e+00    0.000000000e+00    0.000000000e+00    0.000000000e+00
      373875000    5.240949988e-01    6.125500891e-03   -4.443471335e-05   -5.670031169e-05    0.000000000e+00    0.000000000e+00    0.000000000e+00    0.000000000e+00
      375500000    5.245093107e-01   -7.288758177e-03    7.777224528e-05    3.355977242e-05    0.000000000e+00    0.000000000e+00    0.000000000e+00    0.000000000e+00
      377125000    5.247333050e-01   -2.068836987e-02   -1.223726722e-04   -1.081714727e-04    0.000000000e+00    0.000000000e+00    0.000000000e+00    0.000000000e+00
      378750000    5.244154334e-01   -3.435112163e-02   -7.608897431e-05   -1.735576734e-05    0.000000000e+00    0.000000000e+00    0.000000000e+00    0.000000000e+00
      380375000    5.241168141e-01   -4.753413424e-02   -5.853810217e-05   -3.431215191e-06    0.000000000e+00    0.000000000e+00    0.000000000e+00    0.000000000e+00
      382000000    5.234162807e-01   -6.110452116e-02    8.074229299e-06   -2.304690861e-05    0.000000000e+00    0.000000000e+00    0.000000000e+00    0.000000000e+00
      383625000    5.222777724e-01   -7.455426455e-02   -1.445846719e-04   -1.771122152e-05    0.000000000e+00    0.000000000e+00    0.000000000e+00    0.000000000e+00
      385250000    5.209599733e-01   -8.775360882e-02   -1.502230152e-04    3.031925007e-05    0.000000000e+00    0.000000000e+00    0.000000000e+00    0.000000000e+00
      386875000    5.194180608e-01   -1.009631306e-01   -7.753806858e-05    1.651638304e-04    0.000000000e+00    0.000000000e+00    0.000000000e+00    0.000000000e+00
      388500000    5.174716711e-01   -1.138966903e-01   -4.745172191e-05   -1.244388727e-06    0.000000000e+00    0.000000000e+00    0.000000000e+00    0.000000000e+00
