! NanoVNA-App
! Date: 2024-06-25 16:52:51
! Start: 200MHz Stop: 1.5GHz Points: 801
! S-Parameter data: F S11 S21 S12 S22
# Hz S RI R 50
!     Frequency           S11_Real           S11_Imag           S21_Real           S21_Imag           S12_Real           S12_Imag           S22_Real           S22_Imag
      200000000   -7.507279515e-01    1.168373227e-01    1.585239952e-04    5.201952081e-05    0.000000000e+00    0.000000000e+00    0.000000000e+00    0.000000000e+00
      201625000   -7.458565831e-01    1.398205310e-01    1.922699448e-04    6.728500739e-05    0.000000000e+00    0.000000000e+00    0.000000000e+00    0.000000000e+00
      203250000   -7.402720451e-01    1.628118604e-01    2.023819543e-04    5.680276081e-05    0.000000000e+00    0.000000000e+00    0.000000000e+00    0.000000000e+00
      204875000   -7.338774204e-01    1.852197349e-01    2.156568371e-04    7.487766561e-05    0.000000000e+00    0.000000000e+00    0.000000000e+00    0.000000000e+00
      206500000   -7.267147303e-01    2.074269801e-01    2.283772483e-04    4.557790453e-05    0.000000000e+00    0.000000000e+00    0.000000000e+00    0.000000000e+00
      208125000   -7.187993526e-01    2.293737829e-01    2.359435603e-04    9.471093654e-05    0.000000000e+00    0.000000000e+00    0.000000000e+00    0.000000000e+00
      209750000   -7.103322744e-01    2.511449754e-01    2.580117434e-04    7.694018132e-05    0.000000000e+00    0.000000000e+00    0.000000000e+00    0.000000000e+00
      211375000   -7.007439733e-01    2.723053396e-01    2.785594261e-04    9.829527698e-05    0.000000000e+00    0.000000000e+00    0.000000000e+00    0.000000000e+00
      213000000   -6.907234192e-01    2.928570807e-01    2.496171801e-04    1.263965241e-04    0.000000000e+00    0.000000000e+00    0.000000000e+00    0.000000000e+00
      214625000   -6.800810695e-01    3.132529557e-01    2.662072657e-04    1.113698600e-04    0.000000000e+00    0.000000000e+00    0.000000000e+00    0.000000000e+00
      216250000   -6.688529253e-01    3.332498670e-01    2.900748805e-04    1.234219962e-04    0.000000000e+00    0.000000000e+00    0.000000000e+00    0.000000000e+00
      217875000   -6.566057801e-01    3.526737690e-01    2.922036801e-04    1.368162193e-04    0.000000000e+00    0.000000000e+00    0.000000000e+00    0.000000000e+00
      219500000   -6.440353990e-01    3.714210093e-01    2.994201495e-04    1.260955032e-04    0.000000000e+00    0.000000000e+00    0.000000000e+00    0.000000000e+00
      221125000   -6.308692098e-01    3.899732232e-01    2.964279847e-04    1.358383597e-04    0.000000000e+00    0.000000000e+00    0.000000000e+00    0.000000000e+00
      222750000   -6.170763373e-01    4.077828526e-01    2.664960048e-04    1.588708692e-04    0.000000000e+00    0.000000000e+00    0.000000000e+00    0.000000000e+00
      224375000   -6.025689840e-01    4.250284135e-01    2.848234435e-04    1.266344043e-04    0.000000000e+00    0.000000000e+00    0.000000000e+00    0.000000000e+00
      226000000   -5.876368880e-01    4.418064654e-01    2.737800824e-04    1.357741712e-04    0.000000000e+00    0.000000000e+00    0.000000000e+00    0.000000000e+00
      227625000   -5.724512339e-01    4.578106701e-01    3.006567422e-04    1.516665507e-04    0.000000000e+00    0.000000000e+00    0.000000000e+00    0.000000000e+00
      229250000   -5.565031171e-01    4.735870063e-01    2.992525697e-04    1.572637557e-04    0.000000000e+00    0.000000000e+00    0.000000000e+00    0.000000000e+00
      230875000   -5.404526591e-01    4.884050190e-01    3.042350872e-04    1.436356106e-04    0.000000000e+00    0.000000000e+00    0.000000000e+00    0.000000000e+00
      232500000   -5.237463713e-01    5.028962493e-01    3.086259821e-04    1.642091229e-04    0.000000000e+00    0.000000000e+00    0.000000000e+00    0.000000000e+00
      234125000   -5.066204667e-01    5.167001486e-01    3.256202035e-04    1.339555165e-04    0.000000000e+00    0.000000000e+00    0.000000000e+00    0.000000000e+00
      235750000   -4.893652797e-01    5.298075080e-01    3.307237057e-04    1.312854292e-04    0.000000000e+00    0.000000000e+00    0.000000000e+00    0.000000000e+00
      237375000   -4.715028107e-01    5.422697067e-01    3.263945691e-04    1.620523399e-04    0.000000000e+00    0.000000000e+00    0.000000000e+00    0.000000000e+00
      239000000   -4.533412158e-01    5.540182590e-01    3.166529641e-04    1.590971369e-04    0.000000000e+00    0.000000000e+00    0.000000000e+00    0.000000000e+00
      240625000   -4.349718988e-01    5.651012063e-01    3.356939415e-04    1.627146412e-04    0.000000000e+00    0.000000000e+00    0.000000000e+00    0.000000000e+00
      242250000   -4.161410630e-01    5.759148598e-01    3.172858851e-04    1.228032779e-04    0.000000000e+00    0.000000000e+00    0.000000000e+00    0.000000000e+00
      243875000   -3.971478045e-01    5.859078169e-01    3.439385328e-04    1.513515599e-04    0.000000000e+00    0.000000000e+00    0.000000000e+00    0.000000000e+00
      245500000   -3.777621984e-01    5.953578949e-01    3.500173334e-04    1.311500819e-04    0.000000000e+00    0.000000000e+00    0.000000000e+00    0.000000000e+00
      247125000   -3.582133949e-01    6.043085456e-01    3.518163285e-04    1.416567393e-04    0.000000000e+00    0.000000000e+00    0.000000000e+00    0.000000000e+00
      248750000   -3.383789361e-01    6.125240922e-01    3.219391510e-04    1.380773465e-04    0.000000000e+00    0.000000000e+00    0.000000000e+00    0.000000000e+00
      250375000   -3.184807897e-01    6.199954152e-01    3.416668624e-04    1.500152139e-04    0.000000000e+00    0.000000000e+00    0.000000000e+00    0.000000000e+00
      252000000   -2.988379896e-01    6.268821955e-01    3.564199433e-04    1.450518030e-04    0.000000000e+00    0.000000000e+00    0.000000000e+00    0.000000000e+00
      253625000   -2.788529098e-01    6.329945326e-01    3.250742157e-04    1.551003661e-04    0.000000000e+00    0.000000000e+00    0.000000000e+00    0.000000000e+00
      255250000   -2.588538527e-01    6.383152008e-01    3.645718389e-04    1.539780060e-04    0.000000000e+00    0.000000000e+00    0.000000000e+00    0.000000000e+00
      256875000   -2.388974726e-01    6.434251666e-01    3.551763366e-04    1.663033618e-04    0.000000000e+00    0.000000000e+00    0.000000000e+00    0.000000000e+00
      258500000   -2.186160386e-01    6.474727392e-01    3.647694830e-04    1.425707742e-04    0.000000000e+00    0.000000000e+00    0.000000000e+00    0.000000000e+00
      260125000   -1.986755878e-01    6.511341333e-01    3.693367762e-04    1.600915130e-04    0.000000000e+00    0.000000000e+00    0.000000000e+00    0.000000000e+00
      261750000   -1.786471903e-01    6.544836164e-01    3.663140815e-04    1.171905606e-04    0.000000000e+00    0.000000000e+00    0.000000000e+00    0.000000000e+00
      263375000   -1.586113572e-01    6.564532518e-01    3.541846818e-04    1.392890554e-04    0.000000000e+00    0.000000000e+00    0.000000000e+00    0.000000000e+00
      265000000   -1.385881603e-01    6.582877040e-01    3.493478871e-04    1.497261255e-04    0.000000000e+00    0.000000000e+00    0.000000000e+00    0.000000000e+00
      266625000   -1.187522784e-01    6.593234539e-01    3.669085854e-04    1.446966489e-04    0.000000000e+00    0.000000000e+00    0.000000000e+00    0.000000000e+00
      268250000   -9.875387698e-02    6.598507166e-01    3.631919681e-04    1.510377042e-04    0.000000000e+00    0.000000000e+00    0.000000000e+00    0.000000000e+00
      269875000   -7.906080782e-02    6.597415805e-01    3.520346363e-04    1.323195611e-04    0.000000000e+00    0.000000000e+00    0.000000000e+00    0.000000000e+00
      271500000   -5.937325582e-02    6.592424512e-01    3.652542946e-04    1.462829096e-04    0.000000000e+00    0.000000000e+00    0.000000000e+00    0.000000000e+00
      273125000   -3.981666639e-02    6.580700874e-01    3.532065020e-04    1.620138064e-04    0.000000000e+00    0.000000000e+00    0.000000000e+00    0.000000000e+00
      274750000   -2.018914185e-02    6.564841866e-01    3.734965867e-04    1.577376534e-04    0.000000000e+00    0.000000000e+00    0.000000000e+00    0.000000000e+00
      276375000   -9.523559711e-04    6.540119648e-01    3.547017695e-04    1.513615425e-04    0.000000000e+00    0.000000000e+00    0.000000000e+00    0.000000000e+00
      278000000    1.809333265e-02    6.512604356e-01    3.559704637e-04    1.598592062e-04    0.000000000e+00    0.000000000e+00    0.000000000e+00    0.000000000e+00
      279625000    3.721677512e-02    6.477943659e-01    3.631584696e-04    1.311729429e-04    0.000000000e+00    0.000000000e+00    0.000000000e+00    0.000000000e+00
      281250000    5.606814101e-02    6.440539360e-01    3.561941849e-04    1.244691230e-04    0.000000000e+00    0.000000000e+00    0.000000000e+00    0.000000000e+00
      282875000    7.464139909e-02    6.396542788e-01    3.114673600e-04    1.310737716e-04    0.000000000e+00    0.000000000e+00    0.000000000e+00    0.000000000e+00
      284500000    9.308875352e-02    6.349491477e-01    3.325844882e-04    1.609660103e-04    0.000000000e+00    0.000000000e+00    0.000000000e+00    0.000000000e+00
      286125000    1.112904400e-01    6.294449568e-01    3.337869421e-04    1.282037847e-04    0.000000000e+00    0.000000000e+00    0.000000000e+00    0.000000000e+00
      287750000    1.292455643e-01    6.239541769e-01    3.296524519e-04    1.245360618e-04    0.000000000e+00    0.000000000e+00    0.000000000e+00    0.000000000e+00
      289375000    1.470547467e-01    6.175057888e-01    3.328109742e-04    1.412299025e-04    0.000000000e+00    0.000000000e+00    0.000000000e+00    0.000000000e+00
      291000000    7.349001616e-02    5.796896219e-01    9.936592687e-05    1.287841005e-04    0.000000000e+00    0.000000000e+00    0.000000000e+00    0.000000000e+00
      292625000    9.024463594e-02    5.745842457e-01   -1.745954651e-04    9.045026673e-05    0.000000000e+00    0.000000000e+00    0.000000000e+00    0.000000000e+00
      294250000    1.065455377e-01    5.692213178e-01   -1.117144893e-05   -1.396599400e-04    0.000000000e+00    0.000000000e+00    0.000000000e+00    0.000000000e+00
      295875000    1.226958260e-01    5.633649826e-01    6.802236749e-05    2.080373270e-05    0.000000000e+00    0.000000000e+00    0.000000000e+00    0.000000000e+00
      297500000    1.386637986e-01    5.566327572e-01    5.753385631e-05   -8.833841275e-05    0.000000000e+00    0.000000000e+00    0.000000000e+00    0.000000000e+00
      299125000    1.541629434e-01    5.498559475e-01   -1.507246925e-04   -1.382183546e-04    0.000000000e+00    0.000000000e+00    0.000000000e+00    0.000000000e+00
      300750000    1.696951985e-01    5.437397361e-01   -8.032422920e-05    2.409189437e-05    0.000000000e+00    0.000000000e+00    0.000000000e+00    0.000000000e+00
      302375000    1.846428514e-01    5.358791947e-01   -1.905342069e-04   -3.232746531e-05    0.000000000e+00    0.000000000e+00    0.000000000e+00    0.000000000e+00
      304000000    1.996339262e-01    5.284081101e-01   -8.787975094e-05   -7.520681720e-06    0.000000000e+00    0.000000000e+00    0.000000000e+00    0.000000000e+00
      305625000    2.145747691e-01    5.199175477e-01   -8.369226998e-05    3.375428787e-05    0.000000000e+00    0.000000000e+00    0.000000000e+00    0.000000000e+00
      307250000    2.285242826e-01    5.137509704e-01   -6.398708501e-05   -1.568464213e-04    0.000000000e+00    0.000000000e+00    0.000000000e+00    0.000000000e+00
      308875000    2.426104397e-01    5.029121637e-01   -1.571163157e-04    1.184655921e-04    0.000000000e+00    0.000000000e+00    0.000000000e+00    0.000000000e+00
      310500000    2.562079430e-01    4.937481284e-01   -7.231447671e-05    6.872196536e-05    0.000000000e+00    0.000000000e+00    0.000000000e+00    0.000000000e+00
      312125000    2.692388296e-01    4.844643474e-01   -2.417581272e-04    1.728646021e-05    0.000000000e+00    0.000000000e+00    0.000000000e+00    0.000000000e+00
      313750000    2.820180357e-01    4.744226336e-01    2.082620085e-05    5.115949898e-05    0.000000000e+00    0.000000000e+00    0.000000000e+00    0.000000000e+00
      315375000    2.950818539e-01    4.647890031e-01   -9.028532077e-06    1.759690349e-04    0.000000000e+00    0.000000000e+00    0.000000000e+00    0.000000000e+00
      317000000    3.074631393e-01    4.546047151e-01   -3.643181481e-05   -1.054992172e-04    0.000000000e+00    0.000000000e+00    0.000000000e+00    0.000000000e+00
      318625000    3.193752170e-01    4.436613321e-01   -8.907860320e-05   -4.285917385e-06    0.000000000e+00    0.000000000e+00    0.000000000e+00    0.000000000e+00
      320250000    3.310828209e-01    4.328798056e-01   -3.634447421e-05   -1.067052217e-04    0.000000000e+00    0.000000000e+00    0.000000000e+00    0.000000000e+00
      321875000    3.421212435e-01    4.220455885e-01    8.872068975e-06    1.051364816e-04    0.000000000e+00    0.000000000e+00    0.000000000e+00    0.000000000e+00
      323500000    3.531752229e-01    4.108552933e-01   -5.957577014e-05   -5.881818197e-07    0.000000000e+00    0.000000000e+00    0.000000000e+00    0.000000000e+00
      325125000    3.638747036e-01    3.995370567e-01   -5.652607797e-05    4.895016446e-06    0.000000000e+00    0.000000000e+00    0.000000000e+00    0.000000000e+00
      326750000    3.741374612e-01    3.878588378e-01   -1.215788652e-04   -1.000106131e-04    0.000000000e+00    0.000000000e+00    0.000000000e+00    0.000000000e+00
      328375000    3.836351335e-01    3.758239448e-01   -1.055429020e-04   -3.220079816e-05    0.000000000e+00    0.000000000e+00    0.000000000e+00    0.000000000e+00
      330000000    3.930658400e-01    3.641828895e-01   -5.567092740e-05    2.770782521e-05    0.000000000e+00    0.000000000e+00    0.000000000e+00    0.000000000e+00
      331625000    4.027000964e-01    3.517164886e-01   -4.391006587e-05   -9.051543020e-05    0.000000000e+00    0.000000000e+00    0.000000000e+00    0.000000000e+00
      333250000    4.113493860e-01    3.396008909e-01   -1.612722263e-04   -3.201411528e-05    0.000000000e+00    0.000000000e+00    0.000000000e+00    0.000000000e+00
      334875000    4.197809100e-01    3.268188536e-01   -4.643843567e-05   -2.867170588e-05    0.000000000e+00    0.000000000e+00    0.000000000e+00    0.000000000e+00
      336500000    4.281423390e-01    3.142614067e-01   -6.823043077e-05   -2.228135781e-05    0.000000000e+00    0.000000000e+00    0.000000000e+00    0.000000000e+00
      338125000    4.356222749e-01    3.016446531e-01   -2.877188126e-05    1.253234223e-04    0.000000000e+00    0.000000000e+00    0.000000000e+00    0.000000000e+00
      339750000    4.430429041e-01    2.889889777e-01    6.957106234e-05   -5.012006295e-05    0.000000000e+00    0.000000000e+00    0.000000000e+00    0.000000000e+00
      341375000    4.504194856e-01    2.759381831e-01    9.164145740e-05    1.184509165e-04    0.000000000e+00    0.000000000e+00    0.000000000e+00    0.000000000e+00
      343000000    4.570789337e-01    2.627811730e-01   -1.133606420e-04   -7.889508561e-05    0.000000000e+00    0.000000000e+00    0.000000000e+00    0.000000000e+00
      344625000    4.635491073e-01    2.496980280e-01   -1.854263828e-04   -4.721042933e-05    0.000000000e+00    0.000000000e+00    0.000000000e+00    0.000000000e+00
      346250000    4.698099494e-01    2.365535498e-01    5.398759458e-05    6.699332880e-05    0.000000000e+00    0.000000000e+00    0.000000000e+00    0.000000000e+00
      347875000    4.751777947e-01    2.231771648e-01   -1.215118318e-04    4.084251850e-05    0.000000000e+00    0.000000000e+00    0.000000000e+00    0.000000000e+00
      349500000    4.806616008e-01    2.100271285e-01   -1.073985259e-04   -2.542428774e-06    0.000000000e+00    0.000000000e+00    0.000000000e+00    0.000000000e+00
      351125000    4.858218133e-01    1.964812130e-01   -1.400119363e-04   -1.768756774e-04    0.000000000e+00    0.000000000e+00    0.000000000e+00    0.000000000e+00
      352750000    4.906234145e-01    1.829389632e-01   -7.756801642e-05    2.098641971e-06    0.000000000e+00    0.000000000e+00    0.000000000e+00    0.000000000e+00
      354375000    4.950646758e-01    1.694102883e-01    1.015785820e-04   -2.906591544e-05    0.000000000e+00    0.000000000e+00    0.000000000e+00    0.000000000e+00
      356000000    4.991090894e-01    1.559067369e-01   -1.294819376e-04   -2.482614582e-05    0.000000000e+00    0.000000000e+00    0.000000000e+00    0.000000000e+00
      357625000    5.029817224e-01    1.421990842e-01   -1.071478400e-04   -3.059997471e-05    0.000000000e+00    0.000000000e+00    0.000000000e+00    0.000000000e+00
      359250000    5.064834952e-01    1.286774278e-01   -2.300649248e-05   -1.617848902e-04    0.000000000e+00    0.000000000e+00    0.000000000e+00    0.000000000e+00
      360875000    5.095075965e-01    1.149486452e-01   -6.839568232e-05   -4.604175410e-05    0.000000000e+00    0.000000000e+00    0.000000000e+00    0.000000000e+00
      362500000    5.124217272e-01    1.013424248e-01   -7.591355097e-05   -9.139643953e-05    0.000000000e+00    0.000000000e+00    0.000000000e+00    0.000000000e+00
      364125000    5.149378777e-01    8.761143684e-02   -1.474517649e-05    6.471701636e-05    0.000000000e+00    0.000000000e+00    0.000000000e+00    0.000000000e+00
      365750000    5.173158050e-01    7.426057756e-02   -9.224251698e-05    1.432534045e-04    0.000000000e+00    0.000000000e+00    0.000000000e+00    0.000000000e+00
      367375000    5.192584395e-01    6.052608043e-02   -3.743710840e-05    5.206651986e-05    0.000000000e+00    0.000000000e+00    0.000000000e+00    0.000000000e+00
      369000000    5.210044980e-01    4.674460366e-02    2.249974932e-05   -9.891115042e-05    0.000000000e+00    0.000000000e+00    0.000000000e+00    0.000000000e+00
      370625000    5.222617388e-01    3.334954754e-02    1.067562844e-04   -1.107892022e-04    0.000000000e+00    0.000000000e+00    0.000000000e+00    0.000000000e+00
      372250000    5.232397914e-01    1.991488226e-02    1.271751989e-05    1.012225766e-04    0.000000000e+00    0.000000000e+00    0.000000000e+00    0.000000000e+00
      373875000    5.241054296e-01    6.324306130e-03   -1.590152970e-04   -3.893601388e-05    0.000000000e+00    0.000000000e+00    0.000000000e+00    0.000000000e+00
      375500000    5.245239139e-01   -7.217814215e-03   -3.642324737e-05   -4.587652438e-05    0.000000000e+00    0.000000000e+00    0.000000000e+00    0.000000000e+00
      377125000    5.244277120e-01   -2.066296153e-02   -5.232341209e-06    4.732182060e-05    0.000000000e+00    0.000000000e+00    0.000000000e+00    0.000000000e+00
      378750000    5.244930983e-01   -3.415628523e-02   -5.898364179e-05    2.434262569e-05    0.000000000e+00    0.000000000e+00    0.000000000e+00    0.000000000e+00
      380375000    5.240888000e-01   -4.773930088e-02   -1.563193800e-04   -5.089039769e-05    0.000000000e+00    0.000000000e+00    0.000000000e+00    0.000000000e+00
      382000000    5.231977701e-01   -6.117737666e-02   -2.381545492e-04    1.400415786e-04    0.000000000e+00    0.000000000e+00    0.000000000e+00    0.000000000e+00
      383625000    5.222507119e-01   -7.452630252e-02   -6.220769865e-05   -6.852368097e-05    0.000000000e+00    0.000000000e+00    0.000000000e+00    0.000000000e+00
      385250000    5.209401846e-01   -8.773878217e-02   -5.961357601e-05    7.017149073e-06    0.000000000e+00    0.000000000e+00    0.000000000e+00    0.000000000e+00
      386875000    5.194771886e-01   -1.007776186e-01   -1.177792365e-04    1.935627806e-04    0.000000000e+00    0.000000000e+00    0.000000000e+00    0.000000000e+00
      388500000    5.175291896e-01   -1.140969470e-01   -2.615152043e-04    1.335305278e-04    0.000000000e+00    0.000000000e+00    0.000000000e+00    0.000000000e+00
