! NanoVNA-App
! Date: 2024-06-25 16:53:00
! Start: 200MHz Stop: 1.5GHz Points: 801
! S-Parameter data: F S11 S21 S12 S22
# Hz S RI R 50
!     Frequency           S11_Real           S11_Imag           S21_Real           S21_Imag           S12_Real           S12_Imag           S22_Real           S22_Imag
      200000000   -7.507206798e-01    1.167572737e-01    1.628179743e-04    6.322282570e-05    0.000000000e+00    0.000000000e+00    0.000000000e+00    0.000000000e+00
      201625000   -7.457784414e-01    1.398938000e-01    1.822794875e-04    4.882343637e-05    0.000000000e+00    0.000000000e+00    0.000000000e+00    0.000000000e+00
      203250000   -7.402131557e-01    1.628593504e-01    2.012200566e-04    5.283781866e-05    0.000000000e+00    0.000000000e+00    0.000000000e+00    0.000000000e+00
      204875000   -7.337904572e-01    1.853602827e-01    2.094952943e-04    5.746265742e-05    0.000000000e+00    0.000000000e+00    0.000000000e+00    0.000000000e+00
      206500000   -7.267813087e-01    2.074875236e-01    2.445462451e-04    7.220295811e-05    0.000000000e+00    0.000000000e+00    0.000000000e+00    0.000000000e+00
      208125000   -7.189177871e-01    2.293758839e-01    2.334392047e-04    7.257714606e-05    0.000000000e+00    0.000000000e+00    0.000000000e+00    0.000000000e+00
      209750000   -7.104339600e-01    2.511310279e-01    2.419762750e-04    9.696748020e-05    0.000000000e+00    0.000000000e+00    0.000000000e+00    0.000000000e+00
      211375000   -7.007579803e-01    2.722003460e-01    2.519536647e-04    9.827868053e-05    0.000000000e+00    0.000000000e+00    0.000000000e+00    0.000000000e+00
      213000000   -6.908991337e-01    2.929074466e-01    2.649328671e-04    1.049846032e-04    0.000000000e+00    0.000000000e+00    0.000000000e+00    0.000000000e+00
      214625000   -6.800640821e-01    3.131376505e-01    2.520014823e-04    1.302969758e-04    0.000000000e+00    0.000000000e+00    0.000000000e+00    0.000000000e+00
      216250000   -6.687005162e-01    3.331473768e-01    2.919792023e-04    1.104070470e-04    0.000000000e+00    0.000000000e+00    0.000000000e+00    0.000000000e+00
      217875000   -6.567326784e-01    3.525379002e-01    2.911072515e-04    1.098202411e-04    0.000000000e+00    0.000000000e+00    0.000000000e+00    0.000000000e+00
      219500000   -6.439195275e-01    3.713345826e-01    2.830013691e-04    1.073904059e-04    0.000000000e+00    0.000000000e+00    0.000000000e+00    0.000000000e+00
      221125000   -6.307731271e-01    3.897560835e-01    2.906529699e-04    1.122578178e-04    0.000000000e+00    0.000000000e+00    0.000000000e+00    0.000000000e+00
      222750000   -6.169245243e-01    4.076874554e-01    3.085418721e-04    1.290748478e-04    0.000000000e+00    0.000000000e+00    0.000000000e+00    0.000000000e+00
      224375000   -6.026300192e-01    4.248919785e-01    2.659144229e-04    1.129075390e-04    0.000000000e+00    0.000000000e+00    0.000000000e+00    0.000000000e+00
      226000000   -5.877596736e-01    4.417352974e-01    3.022799501e-04    1.424552756e-04    0.000000000e+00    0.000000000e+00    0.000000000e+00    0.000000000e+00
      227625000   -5.724225640e-01    4.578126967e-01    3.002472513e-04    1.638875110e-04    0.000000000e+00    0.000000000e+00    0.000000000e+00    0.000000000e+00
      229250000   -5.565826893e-01    4.734116793e-01    3.228736168e-04    1.440702035e-04    0.000000000e+00    0.000000000e+00    0.000000000e+00    0.000000000e+00
      230875000   -5.404338241e-01    4.884629846e-01    3.155849699e-04    1.380214235e-04    0.000000000e+00    0.000000000e+00    0.000000000e+00    0.000000000e+00
      232500000   -5.238106847e-01    5.029448867e-01    3.212980228e-04    1.368939411e-04    0.000000000e+00    0.000000000e+00    0.000000000e+00    0.000000000e+00
      234125000   -5.067452192e-01    5.164662004e-01    3.407822805e-04    1.467290713e-04    0.000000000e+00    0.000000000e+00    0.000000000e+00    0.000000000e+00
      235750000   -4.891447425e-01    5.297501683e-01    3.147057432e-04    1.367802906e-04    0.000000000e+00    0.000000000e+00    0.000000000e+00    0.000000000e+00
      237375000   -4.713903069e-01    5.422050357e-01    3.268748114e-04    1.527417917e-04    0.000000000e+00    0.000000000e+00    0.000000000e+00    0.000000000e+00
      239000000   -4.535127878e-01    5.540230870e-01    3.365408338e-04    1.473255688e-04    0.000000000e+00    0.000000000e+00    0.000000000e+00    0.000000000e+00
      240625000   -4.349751174e-01    5.650836825e-01    3.336594382e-04    1.478294871e-04    0.000000000e+00    0.000000000e+00    0.000000000e+00    0.000000000e+00
      242250000   -4.162296951e-01    5.757802725e-01    3.129596007e-04    1.328943472e-04    0.000000000e+00    0.000000000e+00    0.000000000e+00    0.000000000e+00
      243875000   -3.971914053e-01    5.858969092e-01    3.268860455e-04    1.449189585e-04    0.000000000e+00    0.000000000e+00    0.000000000e+00    0.000000000e+00
      245500000   -3.776049018e-01    5.952583551e-01    3.332061460e-04    1.256956893e-04    0.000000000e+00    0.000000000e+00    0.000000000e+00    0.000000000e+00
      247125000   -3.580903709e-01    6.042276025e-01    3.441286972e-04    1.502275845e-04    0.000000000e+00    0.000000000e+00    0.000000000e+00    0.000000000e+00
      248750000   -3.384612501e-01    6.125056744e-01    3.442252055e-04    1.646187739e-04    0.000000000e+00    0.000000000e+00    0.000000000e+00    0.000000000e+00
      250375000   -3.185081780e-01    6.200912595e-01    3.370709601e-04    1.446712995e-04    0.000000000e+00    0.000000000e+00    0.000000000e+00    0.000000000e+00
      252000000   -2.986952066e-01    6.268785000e-01    3.443102760e-04    1.443052315e-04    0.000000000e+00    0.000000000e+00    0.000000000e+00    0.000000000e+00
      253625000   -2.788887322e-01    6.328926682e-01    3.547556698e-04    1.622872660e-04    0.000000000e+00    0.000000000e+00    0.000000000e+00    0.000000000e+00
      255250000   -2.589134872e-01    6.384011507e-01    3.524479689e-04    1.840722252e-04    0.000000000e+00    0.000000000e+00    0.000000000e+00    0.000000000e+00
      256875000   -2.388835847e-01    6.433289647e-01    3.521871986e-04    1.381329057e-04    0.000000000e+00    0.000000000e+00    0.000000000e+00    0.000000000e+00
      258500000   -2.186423689e-01    6.477155089e-01    3.607342078e-04    1.503970561e-04    0.000000000e+00    0.000000000e+00    0.000000000e+00    0.000000000e+00
      260125000   -1.988513023e-01    6.511360407e-01    3.619404451e-04    1.714449318e-04    0.000000000e+00    0.000000000e+00    0.000000000e+00    0.000000000e+00
      261750000   -1.786595136e-01    6.543216109e-01    3.760065010e-04    1.519520738e-04    0.000000000e+00    0.000000000e+00    0.000000000e+00    0.000000000e+00
      263375000   -1.585434973e-01    6.563630104e-01    3.495795245e-04    1.428090181e-04    0.000000000e+00    0.000000000e+00    0.000000000e+00    0.000000000e+00
      265000000   -1.386384666e-01    6.581678987e-01    3.693415783e-04    1.562432153e-04    0.000000000e+00    0.000000000e+00    0.000000000e+00    0.000000000e+00
      266625000   -1.187332049e-01    6.592319012e-01    3.649165155e-04    1.506303670e-04    0.000000000e+00    0.000000000e+00    0.000000000e+00    0.000000000e+00
      268250000   -9.888460487e-02    6.597930789e-01    3.654697794e-04    1.867791143e-04    0.000000000e+00    0.000000000e+00    0.000000000e+00    0.000000000e+00
      269875000   -7.885947078e-02    6.598010659e-01    3.764852299e-04    1.374982239e-04    0.000000000e+00    0.000000000e+00    0.000000000e+00    0.000000000e+00
      271500000   -5.934427306e-02    6.590306163e-01    3.520848113e-04    1.380474714e-04    0.000000000e+00    0.000000000e+00    0.000000000e+00    0.000000000e+00
      273125000   -3.971453384e-02    6.579064131e-01    3.765453002e-04    1.624649885e-04    0.000000000e+00    0.000000000e+00    0.000000000e+00    0.000000000e+00
      274750000   -2.036550455e-02    6.562864184e-01    3.722681431e-04    1.470233256e-04    0.000000000e+00    0.000000000e+00    0.000000000e+00    0.000000000e+00
      276375000   -9.810926858e-04    6.539556980e-01    3.420364810e-04    1.553028997e-04    0.000000000e+00    0.000000000e+00    0.000000000e+00    0.000000000e+00
      278000000    1.810633764e-02    6.511199474e-01    3.599368210e-04    1.284333412e-04    0.000000000e+00    0.000000000e+00    0.000000000e+00    0.000000000e+00
      279625000    3.720051050e-02    6.479056478e-01    3.587427782e-04    1.367012010e-04    0.000000000e+00    0.000000000e+00    0.000000000e+00    0.000000000e+00
      281250000    5.608597770e-02    6.439797878e-01    3.542392515e-04    1.314466062e-04    0.000000000e+00    0.000000000e+00    0.000000000e+00    0.000000000e+00
      282875000    7.461231947e-02    6.395059824e-01    3.242713283e-04    1.627876627e-04    0.000000000e+00    0.000000000e+00    0.000000000e+00    0.000000000e+00
      284500000    9.310880303e-02    6.348452568e-01    3.183480294e-04    1.567499421e-04    0.000000000e+00    0.000000000e+00    0.000000000e+00    0.000000000e+00
      286125000    1.113715470e-01    6.294877529e-01    3.022793971e-04    1.390118559e-04    0.000000000e+00    0.000000000e+00    0.000000000e+00    0.000000000e+00
      287750000    1.293196976e-01    6.239683628e-01    3.469916701e-04    1.335364650e-04    0.000000000e+00    0.000000000e+00    0.000000000e+00    0.000000000e+00
      289375000    1.468479335e-01    6.173968315e-01    2.998906712e-04    1.196078374e-04    0.000000000e+00    0.000000000e+00    0.000000000e+00    0.000000000e+00
      291000000    7.369993627e-02    5.796314478e-01    8.841968520e-05    7.770383672e-05    0.000000000e+00    0.000000000e+00    0.000000000e+00    0.000000000e+00
      292625000    9.015300870e-02    5.743759274e-01   -9.224905807e-05   -1.618335809e-04    0.000000000e+00    0.000000000e+00    0.000000000e+00    0.000000000e+00
      294250000    1.065969244e-01    5.688121915e-01   -1.898528353e-05    4.283518865e-05    0.000000000e+00    0.000000000e+00    0.000000000e+00    0.000000000e+00
      295875000    1.227622703e-01    5.631345510e-01    2.295812192e-05    5.893894922e-05    0.000000000e+00    0.000000000e+00    0.000000000e+00    0.000000000e+00
      297500000    1.386731416e-01    5.572130680e-01   -8.662136679e-05    5.944037184e-05    0.000000000e+00    0.000000000e+00    0.000000000e+00    0.000000000e+00
      299125000    1.544431448e-01    5.505673885e-01   -6.676212797e-05    1.149198069e-04    0.000000000e+00    0.000000000e+00    0.000000000e+00    0.000000000e+00
      300750000    1.696313918e-01    5.431694388e-01   -5.385767872e-05   -7.274062227e-06    0.000000000e+00    0.000000000e+00    0.000000000e+00    0.000000000e+00
      302375000    1.845596880e-01    5.358698368e-01   -7.224138244e-05    7.780254236e-05    0.000000000e+00    0.000000000e+00    0.000000000e+00    0.000000000e+00
      304000000    1.993554831e-01    5.282348394e-01   -7.696686953e-05   -1.590466563e-04    0.000000000e+00    0.000000000e+00    0.000000000e+00    0.000000000e+00
      305625000    2.141442895e-01    5.197730660e-01   -2.016150393e-04    1.600755809e-06    0.000000000e+00    0.000000000e+00    0.000000000e+00    0.000000000e+00
      307250000    2.283001244e-01    5.138463378e-01   -8.231789252e-05   -2.685069740e-05    0.000000000e+00    0.000000000e+00    0.000000000e+00    0.000000000e+00
      308875000    2.421782017e-01    5.028553009e-01   -1.198278187e-04    5.998207052e-05    0.000000000e+00    0.000000000e+00    0.000000000e+00    0.000000000e+00
      310500000    2.561791241e-01    4.938560426e-01   -9.779067477e-05    8.507146413e-05    0.000000000e+00    0.000000000e+00    0.000000000e+00    0.000000000e+00
      312125000    2.692799866e-01    4.839545488e-01    7.643525169e-05   -1.074917964e-04    0.000000000e+00    0.000000000e+00    0.000000000e+00    0.000000000e+00
      313750000    2.822218835e-01    4.749382436e-01   -9.217113984e-05    7.302818995e-05    0.000000000e+00    0.000000000e+00    0.000000000e+00    0.000000000e+00
      315375000    2.947677374e-01    4.645225406e-01   -7.336120325e-05   -7.221240230e-05    0.000000000e+00    0.000000000e+00    0.000000000e+00    0.000000000e+00
      317000000    3.072578311e-01    4.542466402e-01   -1.573156478e-04    7.185474533e-05    0.000000000e+00    0.000000000e+00    0.000000000e+00    0.000000000e+00
      318625000    3.192389905e-01    4.436350167e-01    9.121581388e-05    9.378015238e-05    0.000000000e+00    0.000000000e+00    0.000000000e+00    0.000000000e+00
      320250000    3.311567307e-01    4.331015646e-01   -1.519966172e-04    5.715829684e-05    0.000000000e+00    0.000000000e+00    0.000000000e+00    0.000000000e+00
      321875000    3.420672417e-01    4.216931760e-01   -7.286894834e-05   -8.429920126e-05    0.000000000e+00    0.000000000e+00    0.000000000e+00    0.000000000e+00
      323500000    3.531016111e-01    4.106291533e-01    6.246834346e-06   -8.216670722e-06    0.000000000e+00    0.000000000e+00    0.000000000e+00    0.000000000e+00
      325125000    3.635555208e-01    3.993779421e-01   -1.421373163e-04   -8.658676234e-05    0.000000000e+00    0.000000000e+00    0.000000000e+00    0.000000000e+00
      326750000    3.739616275e-01    3.876934350e-01   -6.678427599e-05    1.074706233e-04    0.000000000e+00    0.000000000e+00    0.000000000e+00    0.000000000e+00
      328375000    3.837270141e-01    3.756629527e-01   -1.510437141e-04    8.338890439e-06    0.000000000e+00    0.000000000e+00    0.000000000e+00    0.000000000e+00
      330000000    3.930083513e-01    3.633953631e-01   -8.099655679e-05   -6.019876673e-05    0.000000000e+00    0.000000000e+00    0.000000000e+00    0.000000000e+00
      331625000    4.023488462e-01    3.514122069e-01    1.152655113e-05    3.767710950e-05    0.000000000e+00    0.000000000e+00    0.000000000e+00    0.000000000e+00
      333250000    4.113948643e-01    3.396039009e-01   -1.052346779e-04   -1.114937113e-04    0.000000000e+00    0.000000000e+00    0.000000000e+00    0.000000000e+00
      334875000    4.196607769e-01    3.270644248e-01    9.039062570e-05    6.381229468e-05    0.000000000e+00    0.000000000e+00    0.000000000e+00    0.000000000e+00
      336500000    4.280790091e-01    3.142540753e-01    4.543582691e-05    2.373332609e-05    0.000000000e+00    0.000000000e+00    0.000000000e+00    0.000000000e+00
      338125000    4.355549812e-01    3.016477823e-01   -1.870023989e-04   -8.254246495e-06    0.000000000e+00    0.000000000e+00    0.000000000e+00    0.000000000e+00
      339750000    4.431700706e-01    2.888980210e-01   -6.255206245e-05   -6.513028347e-05    0.000000000e+00    0.000000000e+00    0.000000000e+00    0.000000000e+00
      341375000    4.502156079e-01    2.760518193e-01    5.934419460e-05   -1.528669236e-04    0.000000000e+00    0.000000000e+00    0.000000000e+00    0.000000000e+00
      343000000    4.570423663e-01    2.629180253e-01   -1.196620287e-04   -1.029882478e-04    0.000000000e+00    0.000000000e+00    0.000000000e+00    0.000000000e+00
      344625000    4.635973275e-01    2.494377345e-01   -3.149989061e-05    1.615083676e-07    0.000000000e+00    0.000000000e+00    0.000000000e+00    0.000000000e+00
      346250000    4.693501592e-01    2.365069836e-01   -6.757801020e-05   -2.466722799e-05    0.000000000e+00    0.000000000e+00    0.000000000e+00    0.000000000e+00
      347875000    4.752216637e-01    2.230453640e-01   -9.177136963e-05   -1.216123928e-04    0.000000000e+00    0.000000000e+00    0.000000000e+00    0.000000000e+00
      349500000    4.806811810e-01    2.099243850e-01   -8.902485570e-05    4.452796202e-05    0.000000000e+00    0.000000000e+00    0.000000000e+00    0.000000000e+00
      351125000    4.857573211e-01    1.963945776e-01   -1.205188964e-04   -4.943254680e-05    0.000000000e+00    0.000000000e+00    0.000000000e+00    0.000000000e+00
      352750000    4.906379282e-01    1.829559952e-01   -7.641354750e-05    1.909329694e-05    0.000000000e+00    0.000000000e+00    0.000000000e+00    0.000000000e+00
      354375000    4.951919317e-01    1.694750190e-01   -1.031602587e-04   -2.647597466e-05    0.000000000e+00    0.000000000e+00    0.000000000e+00    0.000000000e+00
      356000000    4.989283383e-01    1.558758616e-01   -1.431184501e-04   -3.772608181e-07    0.000000000e+00    0.000000000e+00    0.000000000e+00    0.000000000e+00
      357625000    5.030844212e-01    1.423694640e-01   -2.503721043e-05   -4.051659562e-05    0.000000000e+00    0.000000000e+00    0.000000000e+00    0.000000000e+00
      359250000    5.064936876e-01    1.286751926e-01   -1.083503303e-04    3.673060201e-05    0.000000000e+00    0.000000000e+00    0.000000000e+00    0.000000000e+00
      360875000    5.093828440e-01    1.149568334e-01   -1.107512944e-04    9.848450645e-06    0.000000000e+00    0.000000000e+00    0.000000000e+00    0.000000000e+00
      362500000    5.123153925e-01    1.015178859e-01    5.760999193e-05   -1.422217756e-04    0.000000000e+00    0.000000000e+00    0.000000000e+00    0.000000000e+00
      364125000    5.150122643e-01    8.766751736e-02   -1.062509618e-04   -3.249660222e-05    0.000000000e+00    0.000000000e+00    0.000000000e+00    0.000000000e+00
      365750000    5.173702240e-01    7.424002886e-02    1.091111517e-05    9.710517770e-05    0.000000000e+00    0.000000000e+00    0.000000000e+00    0.000000000e+00
      367375000    5.192633271e-01    6.051293761e-02   -1.173795827e-04   -5.315092130e-05    0.000000000e+00    0.000000000e+00    0.000000000e+00    0.000000000e+00
      369000000    5.208196044e-01    4.686322063e-02   -2.157185554e-05    1.823885577e-05    0.000000000e+00    0.000000000e+00    0.000000000e+00    0.000000000e+00
      370625000    5.221385360e-01    3.320159391e-02   -8.424636326e-05    1.812769187e-04    0.000000000e+00    0.000000000e+00    0.000000000e+00    0.000000000e+00
      372250000    5.236170292e-01    1.962575689e-02   -6.159976328e-05    9.494485130e-05    0.000000000e+00    0.000000000e+00    0.000000000e+00    0.000000000e+00
      373875000    5.240052342e-01    6.176376250e-03   -1.769069204e-04    9.258967111e-06    0.000000000e+00    0.000000000e+00    0.000000000e+00    0.000000000e+00
      375500000    5.243045688e-01   -7.294364274e-03    5.019629316e-05   -7.847024790e-06    0.000000000e+00    0.000000000e+00    0.000000000e+00    0.000000000e+00
      377125000    5.247895122e-01   -2.067726851e-02   -6.722640683e-05    1.012170542e-04    0.000000000e+00    0.000000000e+00    0.000000000e+00    0.000000000e+00
      378750000    5.244729519e-01   -3.415792435e-02   -2.402288083e-04   -1.149056698e-05    0.000000000e+00    0.000000000e+00    0.000000000e+00    0.000000000e+00
      380375000    5.240555406e-01   -4.768029600e-02   -1.999771193e-04    8.418859215e-05    0.000000000e+00    0.000000000e+00    0.000000000e+00    0.000000000e+00
      382000000    5.231779814e-01   -6.082739308e-02   -1.657666144e-04   -4.327413626e-05    0.000000000e+00    0.000000000e+00    0.000000000e+00    0.000000000e+00
      383625000    5.222709775e-01   -7.435786724e-02   -1.140480745e-04    3.096989894e-05    0.000000000e+00    0.000000000e+00    0.000000000e+00    0.000000000e+00
      385250000    5.208732486e-01   -8.772236109e-02   -1.911820582e-04    4.903370154e-06    0.000000000e+00    0.000000000e+00    0.000000000e+00    0.000000000e+00
      386875000    5.193795562e-01   -1.007034555e-01   -6.069331721e-05    1.389975369e-04    0.000000000e+00    0.000000000e+00    0.000000000e+00    0.000000000e+00
      388500000    5.175376534e-01   -1.139410734e-01   -1.812747942e-04    1.332663669e-04    0.000000000e+00    0.000000000e+00    0.000000000e+00    0.000000000e+00
