! NanoVNA-App
! Date: 2024-06-25 16:06:06
! Start: 200MHz Stop: 6GHz Points: 801
! S-Parameter data: F S11 S21 S12 S22
# Hz S RI R 50
!     Frequency           S11_Real           S11_Imag           S21_Real           S21_Imag           S12_Real           S12_Imag           S22_Real           S22_Imag
      200000000   -9.068752527e-01   -1.087722853e-01   -1.103710383e-05    7.439404726e-06    0.000000000e+00    0.000000000e+00    0.000000000e+00    0.000000000e+00
      207250000   -9.171781540e-01   -1.938924007e-02    5.134381354e-06   -2.907309681e-05    0.000000000e+00    0.000000000e+00    0.000000000e+00    0.000000000e+00
      214500000   -9.185413718e-01    7.230381668e-02   -9.765848517e-06   -8.466653526e-06    0.000000000e+00    0.000000000e+00    0.000000000e+00    0.000000000e+00
      221750000   -9.088109136e-01    1.644919813e-01   -1.249834895e-06    2.309586853e-05    0.000000000e+00    0.000000000e+00    0.000000000e+00    0.000000000e+00
      229000000   -8.912832141e-01    2.572399676e-01   -1.522433013e-05    1.366995275e-05    0.000000000e+00    0.000000000e+00    0.000000000e+00    0.000000000e+00
      236250000   -8.613724709e-01    3.492103815e-01   -3.876164556e-06   -3.236345947e-06    0.000000000e+00    0.000000000e+00    0.000000000e+00    0.000000000e+00
      243500000   -8.223087192e-01    4.386393130e-01   -1.311674714e-05   -1.566484571e-05    0.000000000e+00    0.000000000e+00    0.000000000e+00    0.000000000e+00
      250750000   -7.714862823e-01    5.249196887e-01   -2.383068204e-05   -1.393817365e-05    0.000000000e+00    0.000000000e+00    0.000000000e+00    0.000000000e+00
      258000000   -7.103256583e-01    6.063879728e-01    1.889187843e-05   -3.394857049e-05    0.000000000e+00    0.000000000e+00    0.000000000e+00    0.000000000e+00
      265250000   -6.385428905e-01    6.805897951e-01    1.125875860e-05    4.827044904e-06    0.000000000e+00    0.000000000e+00    0.000000000e+00    0.000000000e+00
      272500000   -5.578044057e-01    7.475233078e-01   -5.870126188e-06    2.873316407e-05    0.000000000e+00    0.000000000e+00    0.000000000e+00    0.000000000e+00
      279750000   -4.681438506e-01    8.049840927e-01    2.693012357e-05    4.069879651e-06    0.000000000e+00    0.000000000e+00    0.000000000e+00    0.000000000e+00
      287000000   -3.691777587e-01    8.513243198e-01    3.758352250e-05   -7.295981050e-06    0.000000000e+00    0.000000000e+00    0.000000000e+00    0.000000000e+00
      294250000   -2.660343051e-01    8.849416971e-01    2.004206181e-06    8.689239621e-07    0.000000000e+00    0.000000000e+00    0.000000000e+00    0.000000000e+00
      301500000   -1.576921046e-01    9.062227607e-01    6.851740181e-06    1.995731145e-05    0.000000000e+00    0.000000000e+00    0.000000000e+00    0.000000000e+00
      308750000   -4.538246617e-02    9.129481316e-01   -1.544505358e-05   -8.046627045e-07    0.000000000e+00    0.000000000e+00    0.000000000e+00    0.000000000e+00
      316000000    6.634581089e-02    9.067103863e-01   -1.463107765e-05   -6.279908121e-06    0.000000000e+00    0.000000000e+00    0.000000000e+00    0.000000000e+00
      323250000    1.768603623e-01    8.851891160e-01    1.933705062e-05   -2.219993621e-05    0.000000000e+00    0.000000000e+00    0.000000000e+00    0.000000000e+00
      330500000    2.839362621e-01    8.502610326e-01   -1.295935363e-05    1.033768058e-05    0.000000000e+00    0.000000000e+00    0.000000000e+00    0.000000000e+00
      337750000    3.858937919e-01    8.017159700e-01    1.826602966e-05    3.534182906e-05    0.000000000e+00    0.000000000e+00    0.000000000e+00    0.000000000e+00
      345000000    4.805884063e-01    7.408526540e-01    2.137478441e-05    6.897374988e-06    0.000000000e+00    0.000000000e+00    0.000000000e+00    0.000000000e+00
      352250000    5.667390823e-01    6.699498296e-01   -4.066061229e-05   -9.992159903e-06    0.000000000e+00    0.000000000e+00    0.000000000e+00    0.000000000e+00
      359500000    6.424681544e-01    5.882475376e-01    1.960620284e-05   -6.274320185e-06    0.000000000e+00    0.000000000e+00    0.000000000e+00    0.000000000e+00
      366750000    7.080470920e-01    4.985966682e-01   -1.686159521e-05    1.261942089e-06    0.000000000e+00    0.000000000e+00    0.000000000e+00    0.000000000e+00
      374000000    7.609411478e-01    4.037708044e-01   -1.836009324e-05   -1.045782119e-05    0.000000000e+00    0.000000000e+00    0.000000000e+00    0.000000000e+00
      381250000    8.025268912e-01    3.023772836e-01    1.115351915e-05    5.194917321e-06    0.000000000e+00    0.000000000e+00    0.000000000e+00    0.000000000e+00
      388500000    8.319720030e-01    1.994385272e-01    1.014489681e-05   -4.705041647e-06    0.000000000e+00    0.000000000e+00    0.000000000e+00    0.000000000e+00
      395750000    8.483144045e-01    9.441379458e-02    5.888752639e-06    4.437752068e-06    0.000000000e+00    0.000000000e+00    0.000000000e+00    0.000000000e+00
      403000000    8.533610702e-01   -1.047305949e-02   -7.732771337e-06    1.789350063e-05    0.000000000e+00    0.000000000e+00    0.000000000e+00    0.000000000e+00
      410250000    8.465377092e-01   -1.153364182e-01   -1.422874629e-05   -2.542417496e-05    0.000000000e+00    0.000000000e+00    0.000000000e+00    0.000000000e+00
      417500000    8.283256292e-01   -2.164894044e-01   -6.158836186e-06   -4.327856004e-06    0.000000000e+00    0.000000000e+00    0.000000000e+00    0.000000000e+00
      424750000    8.003016710e-01   -3.153972626e-01   -2.133566886e-05    8.687376976e-06    0.000000000e+00    0.000000000e+00    0.000000000e+00    0.000000000e+00
      432000000    7.609849572e-01   -4.095783234e-01   -1.934636384e-05    3.558024764e-05    0.000000000e+00    0.000000000e+00    0.000000000e+00    0.000000000e+00
      439250000    7.129309773e-01   -4.980993867e-01   -3.790482879e-07   -2.617947757e-06    0.000000000e+00    0.000000000e+00    0.000000000e+00    0.000000000e+00
      446500000    6.559162736e-01   -5.802875161e-01   -1.704134047e-05   -4.666857421e-06    0.000000000e+00    0.000000000e+00    0.000000000e+00    0.000000000e+00
      453750000    5.907043815e-01   -6.568024158e-01   -3.038533032e-05    2.843327820e-05    0.000000000e+00    0.000000000e+00    0.000000000e+00    0.000000000e+00
      461000000    5.182534456e-01   -7.245262265e-01   -3.714580089e-05   -1.226551831e-06    0.000000000e+00    0.000000000e+00    0.000000000e+00    0.000000000e+00
      468250000    4.406230152e-01   -7.850249410e-01    3.356672823e-05    1.274980605e-05    0.000000000e+00    0.000000000e+00    0.000000000e+00    0.000000000e+00
      475500000    3.552353382e-01   -8.364714980e-01   -1.927558333e-05    3.504008055e-05    0.000000000e+00    0.000000000e+00    0.000000000e+00    0.000000000e+00
      482750000    2.653852999e-01   -8.793985844e-01    9.213574231e-06    1.324992627e-05    0.000000000e+00    0.000000000e+00    0.000000000e+00    0.000000000e+00
      490000000    1.715159714e-01   -9.128217697e-01   -1.188926399e-05   -3.579352051e-05    0.000000000e+00    0.000000000e+00    0.000000000e+00    0.000000000e+00
      497250000    7.414448261e-02   -9.361034036e-01   -3.392435610e-05    1.007784158e-05    0.000000000e+00    0.000000000e+00    0.000000000e+00    0.000000000e+00
      504500000   -2.586836740e-02   -9.485508800e-01    1.170020550e-05    2.193823457e-05    0.000000000e+00    0.000000000e+00    0.000000000e+00    0.000000000e+00
      511750000   -1.263961792e-01   -9.505056739e-01    5.904585123e-06    2.356339246e-05    0.000000000e+00    0.000000000e+00    0.000000000e+00    0.000000000e+00
      519000000   -2.277939618e-01   -9.417757392e-01   -4.283431917e-05   -8.604489267e-06    0.000000000e+00    0.000000000e+00    0.000000000e+00    0.000000000e+00
      526250000   -3.275651634e-01   -9.220881462e-01    1.911912113e-05   -1.519359648e-05    0.000000000e+00    0.000000000e+00    0.000000000e+00    0.000000000e+00
      533500000   -4.264617264e-01   -8.903618455e-01   -2.625677735e-05    2.770498395e-05    0.000000000e+00    0.000000000e+00    0.000000000e+00    0.000000000e+00
      540750000   -5.209478736e-01   -8.474871516e-01    1.739710569e-06    2.937857062e-05    0.000000000e+00    0.000000000e+00    0.000000000e+00    0.000000000e+00
      548000000   -6.111998558e-01   -7.944434881e-01    6.433576345e-06    2.606399357e-05    0.000000000e+00    0.000000000e+00    0.000000000e+00    0.000000000e+00
      555250000   -6.951811910e-01   -7.303901911e-01    2.657435834e-05    1.096818596e-05    0.000000000e+00    0.000000000e+00    0.000000000e+00    0.000000000e+00
      562500000   -7.713394761e-01   -6.571568847e-01   -1.511536539e-06    2.616737038e-05    0.000000000e+00    0.000000000e+00    0.000000000e+00    0.000000000e+00
      569750000   -8.383028507e-01   -5.750191808e-01   -1.004338264e-05    1.607928425e-05    0.000000000e+00    0.000000000e+00    0.000000000e+00    0.000000000e+00
      577000000   -8.960226178e-01   -4.848334193e-01   -3.975257277e-05   -2.241972834e-05    0.000000000e+00    0.000000000e+00    0.000000000e+00    0.000000000e+00
      584250000   -9.431550503e-01   -3.863690495e-01   -8.555129170e-06   -1.213327050e-05    0.000000000e+00    0.000000000e+00    0.000000000e+00    0.000000000e+00
      591500000   -9.773053527e-01   -2.847565114e-01    1.118984073e-05    1.689046621e-05    0.000000000e+00    0.000000000e+00    0.000000000e+00    0.000000000e+00
      598750000   -9.998035431e-01   -1.770259142e-01   -3.082770854e-05   -2.766121179e-05    0.000000000e+00    0.000000000e+00    0.000000000e+00    0.000000000e+00
      606000000   -1.008543372e+00   -6.969336420e-02    2.384185791e-05   -4.654191434e-05    0.000000000e+00    0.000000000e+00    0.000000000e+00    0.000000000e+00
      613250000   -1.005015731e+00    3.808167204e-02    2.410262823e-05   -2.948753536e-05    0.000000000e+00    0.000000000e+00    0.000000000e+00    0.000000000e+00
      620500000   -9.879675508e-01    1.457228959e-01   -1.466087997e-05   -3.368407488e-05    0.000000000e+00    0.000000000e+00    0.000000000e+00    0.000000000e+00
      627750000   -9.572558403e-01    2.507756352e-01    2.868939191e-05    4.205666482e-05    0.000000000e+00    0.000000000e+00    0.000000000e+00    0.000000000e+00
      635000000   -9.164186716e-01    3.481996655e-01   -1.176819205e-05   -2.151168883e-05    0.000000000e+00    0.000000000e+00    0.000000000e+00    0.000000000e+00
      642250000   -8.629576564e-01    4.402593076e-01   -5.590077490e-05    8.911825716e-06    0.000000000e+00    0.000000000e+00    0.000000000e+00    0.000000000e+00
      649500000   -7.998661995e-01    5.257119536e-01   -1.652259380e-05    1.352932304e-05    0.000000000e+00    0.000000000e+00    0.000000000e+00    0.000000000e+00
      656750000   -7.273483872e-01    6.022224426e-01   -8.310191333e-06    2.341531217e-05    0.000000000e+00    0.000000000e+00    0.000000000e+00    0.000000000e+00
      664000000   -6.480667591e-01    6.682154536e-01   -2.057664096e-05   -1.705251634e-05    0.000000000e+00    0.000000000e+00    0.000000000e+00    0.000000000e+00
      671250000   -5.622929931e-01    7.254102826e-01   -3.896933049e-05    1.044198871e-05    0.000000000e+00    0.000000000e+00    0.000000000e+00    0.000000000e+00
      678500000   -4.702452421e-01    7.709693313e-01   -4.017725587e-06    1.289602369e-05    0.000000000e+00    0.000000000e+00    0.000000000e+00    0.000000000e+00
      685750000   -3.756095171e-01    8.053359389e-01    2.714619040e-05   -4.476867616e-06    0.000000000e+00    0.000000000e+00    0.000000000e+00    0.000000000e+00
      693000000   -2.790730000e-01    8.295231462e-01    1.599546522e-05   -2.282205969e-05    0.000000000e+00    0.000000000e+00    0.000000000e+00    0.000000000e+00
      700250000   -1.814712584e-01    8.422323465e-01   -4.418194294e-06   -1.458451152e-06    0.000000000e+00    0.000000000e+00    0.000000000e+00    0.000000000e+00
      707500000   -8.479793370e-02    8.447412252e-01    1.734495163e-05   -2.554245293e-05    0.000000000e+00    0.000000000e+00    0.000000000e+00    0.000000000e+00
      714750000    1.233605016e-02    8.362072110e-01    2.598389983e-05   -3.194436431e-07    0.000000000e+00    0.000000000e+00    0.000000000e+00    0.000000000e+00
      722000000    1.068864614e-01    8.182533979e-01    3.829412162e-05   -1.864414662e-05    0.000000000e+00    0.000000000e+00    0.000000000e+00    0.000000000e+00
      729250000    1.989722252e-01    7.910120487e-01    1.590512693e-05   -1.896172762e-05    0.000000000e+00    0.000000000e+00    0.000000000e+00    0.000000000e+00
      736500000    2.852194309e-01    7.551429272e-01   -1.928023994e-05    6.220303476e-06    0.000000000e+00    0.000000000e+00    0.000000000e+00    0.000000000e+00
      743750000    3.674219847e-01    7.104840875e-01    1.663248986e-05    9.478069842e-06    0.000000000e+00    0.000000000e+00    0.000000000e+00    0.000000000e+00
      751000000    4.448605180e-01    6.583015919e-01   -1.877453178e-05    7.230695337e-05    0.000000000e+00    0.000000000e+00    0.000000000e+00    0.000000000e+00
      758250000    5.152329206e-01    5.988209248e-01   -1.242104918e-05    1.415330917e-05    0.000000000e+00    0.000000000e+00    0.000000000e+00    0.000000000e+00
      765500000    5.796733499e-01    5.333013535e-01   -2.989545465e-06    1.872424036e-05    0.000000000e+00    0.000000000e+00    0.000000000e+00    0.000000000e+00
      772750000    6.380227208e-01    4.597592056e-01   -1.827161759e-05   -2.487562597e-06    0.000000000e+00    0.000000000e+00    0.000000000e+00    0.000000000e+00
      780000000    6.869821548e-01    3.837919533e-01    3.236997873e-05    3.276485950e-05    0.000000000e+00    0.000000000e+00    0.000000000e+00    0.000000000e+00
      787250000    7.309752107e-01    2.999619544e-01    1.402385533e-05   -1.627951860e-05    0.000000000e+00    0.000000000e+00    0.000000000e+00    0.000000000e+00
      794500000    7.649601698e-01    2.142905295e-01   -6.407499313e-07   -2.998579293e-05    0.000000000e+00    0.000000000e+00    0.000000000e+00    0.000000000e+00
      801750000    7.902996540e-01    1.237782091e-01    5.383975804e-06   -8.671544492e-06    0.000000000e+00    0.000000000e+00    0.000000000e+00    0.000000000e+00
      809000000    8.064306378e-01    3.093486838e-02   -3.023538738e-05   -1.306738704e-05    0.000000000e+00    0.000000000e+00    0.000000000e+00    0.000000000e+00
      816250000    8.131480813e-01   -6.468769163e-02   -5.794502795e-05    2.346374094e-05    0.000000000e+00    0.000000000e+00    0.000000000e+00    0.000000000e+00
      823500000    8.093441725e-01   -1.607116759e-01   -1.832284033e-05   -1.884810627e-05    0.000000000e+00    0.000000000e+00    0.000000000e+00    0.000000000e+00
      830750000    7.959923148e-01   -2.574246228e-01    3.358628601e-05    7.635913789e-06    0.000000000e+00    0.000000000e+00    0.000000000e+00    0.000000000e+00
      838000000    7.714345455e-01   -3.526045680e-01    2.334080637e-05    1.222640276e-05    0.000000000e+00    0.000000000e+00    0.000000000e+00    0.000000000e+00
      845250000    7.359468341e-01   -4.460694194e-01    8.938834071e-06    3.723427653e-05    0.000000000e+00    0.000000000e+00    0.000000000e+00    0.000000000e+00
      852500000    6.902614832e-01   -5.367554426e-01   -5.978904665e-05    2.627819777e-05    0.000000000e+00    0.000000000e+00    0.000000000e+00    0.000000000e+00
      859750000    6.338980198e-01   -6.217359304e-01   -2.860371023e-05   -1.210719347e-05    0.000000000e+00    0.000000000e+00    0.000000000e+00    0.000000000e+00
      867000000    5.651872754e-01   -7.023046613e-01   -3.742054105e-05   -6.256625056e-06    0.000000000e+00    0.000000000e+00    0.000000000e+00    0.000000000e+00
      874250000    4.882241786e-01   -7.733328342e-01   -1.035258174e-05   -3.595836461e-06    0.000000000e+00    0.000000000e+00    0.000000000e+00    0.000000000e+00
      881500000    3.995759785e-01   -8.367491961e-01    3.717932850e-05   -1.341197640e-05    0.000000000e+00    0.000000000e+00    0.000000000e+00    0.000000000e+00
      888750000    3.039594293e-01   -8.879181147e-01   -1.971982419e-05    1.495797187e-05    0.000000000e+00    0.000000000e+00    0.000000000e+00    0.000000000e+00
      896000000    2.016558200e-01   -9.281175137e-01    3.019440919e-05   -4.850421101e-05    0.000000000e+00    0.000000000e+00    0.000000000e+00    0.000000000e+00
      903250000    9.303596616e-02   -9.543834925e-01   -1.225620508e-06   -7.681548595e-06    0.000000000e+00    0.000000000e+00    0.000000000e+00    0.000000000e+00
      910500000   -1.998862252e-02   -9.663344622e-01    4.338659346e-05   -2.583209425e-05    0.000000000e+00    0.000000000e+00    0.000000000e+00    0.000000000e+00
      917750000   -1.327959895e-01   -9.624955654e-01    5.359947681e-05   -2.296548337e-05    0.000000000e+00    0.000000000e+00    0.000000000e+00    0.000000000e+00
      925000000   -2.421989888e-01   -9.445519447e-01   -1.398008317e-05   -5.360692739e-06    0.000000000e+00    0.000000000e+00    0.000000000e+00    0.000000000e+00
      932250000   -3.531095088e-01   -9.105489850e-01    2.625770867e-05    8.633360267e-06    0.000000000e+00    0.000000000e+00    0.000000000e+00    0.000000000e+00
      939500000   -4.543868005e-01   -8.633106947e-01    4.695728421e-06   -2.244114876e-05    0.000000000e+00    0.000000000e+00    0.000000000e+00    0.000000000e+00
      946750000   -5.480321646e-01   -8.027667403e-01    3.724638373e-05    7.217749953e-06    0.000000000e+00    0.000000000e+00    0.000000000e+00    0.000000000e+00
      954000000   -6.324953437e-01   -7.314229608e-01   -2.644956112e-07    1.682713628e-05    0.000000000e+00    0.000000000e+00    0.000000000e+00    0.000000000e+00
      961250000   -7.050172091e-01   -6.497095823e-01   -4.998780787e-05    3.341306001e-05    0.000000000e+00    0.000000000e+00    0.000000000e+00    0.000000000e+00
      968500000   -7.674720883e-01   -5.592903495e-01   -3.518722951e-05   -2.653896809e-05    0.000000000e+00    0.000000000e+00    0.000000000e+00    0.000000000e+00
      975750000   -8.148074150e-01   -4.652996063e-01   -2.593360841e-05   -1.060962677e-05    0.000000000e+00    0.000000000e+00    0.000000000e+00    0.000000000e+00
      983000000   -8.494948149e-01   -3.673217297e-01    3.329478204e-06    5.450192839e-05    0.000000000e+00    0.000000000e+00    0.000000000e+00    0.000000000e+00
      990250000   -8.708850145e-01   -2.681722939e-01   -5.151797086e-05   -6.700865924e-06    0.000000000e+00    0.000000000e+00    0.000000000e+00    0.000000000e+00
      997500000   -8.804243803e-01   -1.690237969e-01    3.922078758e-05   -1.014955342e-05    0.000000000e+00    0.000000000e+00    0.000000000e+00    0.000000000e+00
     1004750000   -8.779687285e-01   -7.038465887e-02   -8.208677173e-06    2.736877650e-05    0.000000000e+00    0.000000000e+00    0.000000000e+00    0.000000000e+00
     1012000000   -8.646099567e-01    2.261401713e-02   -1.026783139e-05   -1.447834074e-05    0.000000000e+00    0.000000000e+00    0.000000000e+00    0.000000000e+00
     1019250000   -8.409194946e-01    1.126426384e-01    1.084618270e-05    2.136453986e-05    0.000000000e+00    0.000000000e+00    0.000000000e+00    0.000000000e+00
     1026500000   -8.083456159e-01    1.983557940e-01   -1.636426896e-05   -1.368764788e-05    0.000000000e+00    0.000000000e+00    0.000000000e+00    0.000000000e+00
     1033750000   -7.679275274e-01    2.769826949e-01   -3.682076931e-05    2.105627209e-05    0.000000000e+00    0.000000000e+00    0.000000000e+00    0.000000000e+00
     1041000000   -7.205854058e-01    3.487262428e-01   -4.060380161e-05   -3.484357148e-05    0.000000000e+00    0.000000000e+00    0.000000000e+00    0.000000000e+00
