! NanoVNA-App
! Date: 2024-06-25 16:06:12
! Start: 200MHz Stop: 6GHz Points: 801
! S-Parameter data: F S11 S21 S12 S22
# Hz S RI R 50
!     Frequency           S11_Real           S11_Imag           S21_Real           S21_Imag           S12_Real           S12_Imag           S22_Real           S22_Imag
      200000000   -9.069836736e-01   -1.088322774e-01   -1.684948802e-05    8.562579751e-06    0.000000000e+00    0.000000000e+00    0.000000000e+00    0.000000000e+00
      207250000   -9.171324372e-01   -1.896650903e-02   -1.486949623e-05   -1.343805343e-05    0.000000000e+00    0.000000000e+00    0.000000000e+00    0.000000000e+00
      214500000   -9.183481336e-01    7.231527567e-02   -5.424953997e-06    1.799594611e-05    0.000000000e+00    0.000000000e+00    0.000000000e+00    0.000000000e+00
      221750000   -9.098278284e-01    1.645610780e-01   -1.107435673e-05    1.788325608e-05    0.000000000e+00    0.000000000e+00    0.000000000e+00    0.000000000e+00
      229000000   -8.912416697e-01    2.575476170e-01    4.372186959e-05    3.632158041e-07    0.000000000e+00    0.000000000e+00    0.000000000e+00    0.000000000e+00
      236250000   -8.624524474e-01    3.493939042e-01   -1.358892769e-05    1.040566713e-05    0.000000000e+00    0.000000000e+00    0.000000000e+00    0.000000000e+00
      243500000   -8.223283291e-01    4.385994971e-01    1.705531031e-05   -2.926588058e-05    0.000000000e+00    0.000000000e+00    0.000000000e+00    0.000000000e+00
      250750000   -7.720626593e-01    5.249305367e-01    1.203641295e-05    5.355104804e-07    0.000000000e+00    0.000000000e+00    0.000000000e+00    0.000000000e+00
      258000000   -7.106676102e-01    6.064769030e-01   -1.678802073e-05    1.216772944e-05    0.000000000e+00    0.000000000e+00    0.000000000e+00    0.000000000e+00
      265250000   -6.390708685e-01    6.805683970e-01   -1.284200698e-05   -1.231394708e-05    0.000000000e+00    0.000000000e+00    0.000000000e+00    0.000000000e+00
      272500000   -5.579235554e-01    7.476282120e-01    3.366731107e-06   -4.482455552e-06    0.000000000e+00    0.000000000e+00    0.000000000e+00    0.000000000e+00
      279750000   -4.680825174e-01    8.052462935e-01    1.218728721e-05    1.590698957e-06    0.000000000e+00    0.000000000e+00    0.000000000e+00    0.000000000e+00
      287000000   -3.696529865e-01    8.514903784e-01    9.156763554e-06    1.288950443e-06    0.000000000e+00    0.000000000e+00    0.000000000e+00    0.000000000e+00
      294250000   -2.661051750e-01    8.854746222e-01    1.403037459e-05    2.333428711e-05    0.000000000e+00    0.000000000e+00    0.000000000e+00    0.000000000e+00
      301500000   -1.576439142e-01    9.066630602e-01    1.559313387e-05    2.470333129e-05    0.000000000e+00    0.000000000e+00    0.000000000e+00    0.000000000e+00
      308750000   -4.535849020e-02    9.132198691e-01   -1.211743802e-05    1.963227987e-05    0.000000000e+00    0.000000000e+00    0.000000000e+00    0.000000000e+00
      316000000    6.651760638e-02    9.071145654e-01    2.291984856e-06   -2.775900066e-05    0.000000000e+00    0.000000000e+00    0.000000000e+00    0.000000000e+00
      323250000    1.770639569e-01    8.859241605e-01   -1.386832446e-05   -3.110151738e-05    0.000000000e+00    0.000000000e+00    0.000000000e+00    0.000000000e+00
      330500000    2.844318748e-01    8.501529694e-01    1.932401210e-05    7.088296115e-06    0.000000000e+00    0.000000000e+00    0.000000000e+00    0.000000000e+00
      337750000    3.860517740e-01    8.017793894e-01   -1.142732799e-05    1.622457057e-05    0.000000000e+00    0.000000000e+00    0.000000000e+00    0.000000000e+00
      345000000    4.805671871e-01    7.418805361e-01   -4.179775715e-06   -2.101343125e-05    0.000000000e+00    0.000000000e+00    0.000000000e+00    0.000000000e+00
      352250000    5.662906170e-01    6.697312593e-01   -5.188398063e-06   -4.282314330e-05    0.000000000e+00    0.000000000e+00    0.000000000e+00    0.000000000e+00
      359500000    6.424343586e-01    5.882917643e-01   -1.436471939e-05    2.271588892e-05    0.000000000e+00    0.000000000e+00    0.000000000e+00    0.000000000e+00
      366750000    7.080033422e-01    4.988731444e-01    1.275911927e-05   -7.450580597e-06    0.000000000e+00    0.000000000e+00    0.000000000e+00    0.000000000e+00
      374000000    7.611963749e-01    4.042892754e-01    1.179985702e-06    7.097609341e-06    0.000000000e+00    0.000000000e+00    0.000000000e+00    0.000000000e+00
      381250000    8.030460477e-01    3.026615381e-01   -1.962017268e-05   -1.820176840e-05    0.000000000e+00    0.000000000e+00    0.000000000e+00    0.000000000e+00
      388500000    8.319851160e-01    1.996418685e-01    1.142453402e-05    1.978129148e-06    0.000000000e+00    0.000000000e+00    0.000000000e+00    0.000000000e+00
      395750000    8.482429385e-01    9.441966563e-02   -2.790521830e-05    2.352520823e-05    0.000000000e+00    0.000000000e+00    0.000000000e+00    0.000000000e+00
      403000000    8.535630703e-01   -1.110209245e-02    1.512654126e-05   -8.931383491e-07    0.000000000e+00    0.000000000e+00    0.000000000e+00    0.000000000e+00
      410250000    8.469338417e-01   -1.146920994e-01    2.905726433e-07   -2.511031926e-05    0.000000000e+00    0.000000000e+00    0.000000000e+00    0.000000000e+00
      417500000    8.290902376e-01   -2.167573273e-01   -1.116935164e-05   -2.156756818e-05    0.000000000e+00    0.000000000e+00    0.000000000e+00    0.000000000e+00
      424750000    8.000789881e-01   -3.158245683e-01   -1.670047641e-05    2.939999104e-05    0.000000000e+00    0.000000000e+00    0.000000000e+00    0.000000000e+00
      432000000    7.612833381e-01   -4.095451832e-01   -3.094784915e-06   -4.152767360e-06    0.000000000e+00    0.000000000e+00    0.000000000e+00    0.000000000e+00
      439250000    7.128441930e-01   -4.977953136e-01   -2.432893962e-05    1.865439117e-06    0.000000000e+00    0.000000000e+00    0.000000000e+00    0.000000000e+00
      446500000    6.557325125e-01   -5.803713799e-01   -1.470744610e-05    3.599096090e-05    0.000000000e+00    0.000000000e+00    0.000000000e+00    0.000000000e+00
      453750000    5.908925533e-01   -6.566014290e-01   -2.389028668e-05    4.054233432e-05    0.000000000e+00    0.000000000e+00    0.000000000e+00    0.000000000e+00
      461000000    5.184128284e-01   -7.249214053e-01   -2.597086132e-05    5.587004125e-06    0.000000000e+00    0.000000000e+00    0.000000000e+00    0.000000000e+00
      468250000    4.402250350e-01   -7.854162455e-01   -3.553554416e-05    3.050547093e-05    0.000000000e+00    0.000000000e+00    0.000000000e+00    0.000000000e+00
      475500000    3.538762033e-01   -8.370580673e-01   -1.963134855e-05   -8.703209460e-06    0.000000000e+00    0.000000000e+00    0.000000000e+00    0.000000000e+00
      482750000    2.646645308e-01   -8.799301982e-01   -8.661299944e-08   -1.137889922e-05    0.000000000e+00    0.000000000e+00    0.000000000e+00    0.000000000e+00
      490000000    1.706577390e-01   -9.126929641e-01    2.305023372e-05    3.289151937e-05    0.000000000e+00    0.000000000e+00    0.000000000e+00    0.000000000e+00
      497250000    7.363521308e-02   -9.362483025e-01    3.612786531e-05    4.861783236e-05    0.000000000e+00    0.000000000e+00    0.000000000e+00    0.000000000e+00
      504500000   -2.539511770e-02   -9.484950900e-01   -5.071051419e-06   -1.976918429e-05    0.000000000e+00    0.000000000e+00    0.000000000e+00    0.000000000e+00
      511750000   -1.263158023e-01   -9.509227872e-01    4.520639777e-05    1.425668597e-05    0.000000000e+00    0.000000000e+00    0.000000000e+00    0.000000000e+00
      519000000   -2.285384983e-01   -9.421535730e-01    1.217797399e-05   -1.861713827e-06    0.000000000e+00    0.000000000e+00    0.000000000e+00    0.000000000e+00
      526250000   -3.285180628e-01   -9.218580127e-01    1.940876245e-06   -2.352707088e-05    0.000000000e+00    0.000000000e+00    0.000000000e+00    0.000000000e+00
      533500000   -4.263253510e-01   -8.904881477e-01   -1.807324588e-05   -2.211332321e-05    0.000000000e+00    0.000000000e+00    0.000000000e+00    0.000000000e+00
      540750000   -5.210701227e-01   -8.473974466e-01   -4.479102790e-05   -2.509355545e-05    0.000000000e+00    0.000000000e+00    0.000000000e+00    0.000000000e+00
      548000000   -6.117119193e-01   -7.943189740e-01    1.927185804e-05   -7.683411241e-06    0.000000000e+00    0.000000000e+00    0.000000000e+00    0.000000000e+00
      555250000   -6.950835586e-01   -7.308921218e-01    6.211921573e-06    2.403184772e-05    0.000000000e+00    0.000000000e+00    0.000000000e+00    0.000000000e+00
      562500000   -7.712794542e-01   -6.572322845e-01    8.353963494e-07   -1.509673893e-06    0.000000000e+00    0.000000000e+00    0.000000000e+00    0.000000000e+00
      569750000   -8.384853005e-01   -5.750761032e-01   -2.973899245e-05   -1.620687544e-05    0.000000000e+00    0.000000000e+00    0.000000000e+00    0.000000000e+00
      577000000   -8.964576721e-01   -4.844501019e-01   -1.993030310e-07    1.704413444e-05    0.000000000e+00    0.000000000e+00    0.000000000e+00    0.000000000e+00
      584250000   -9.430186749e-01   -3.862429261e-01    1.791678369e-05   -7.136724889e-06    0.000000000e+00    0.000000000e+00    0.000000000e+00    0.000000000e+00
      591500000   -9.779307246e-01   -2.839221358e-01    3.501866013e-05   -1.742411405e-05    0.000000000e+00    0.000000000e+00    0.000000000e+00    0.000000000e+00
      598750000   -9.999424815e-01   -1.775570661e-01    4.907976836e-05    1.621432602e-05    0.000000000e+00    0.000000000e+00    0.000000000e+00    0.000000000e+00
      606000000   -1.009286165e+00   -6.964326650e-02    7.827766240e-06   -2.338178456e-05    0.000000000e+00    0.000000000e+00    0.000000000e+00    0.000000000e+00
      613250000   -1.004777312e+00    3.901480511e-02   -6.296671927e-06   -1.808442175e-05    0.000000000e+00    0.000000000e+00    0.000000000e+00    0.000000000e+00
      620500000   -9.877488613e-01    1.459593475e-01    1.672841609e-05    3.443099558e-06    0.000000000e+00    0.000000000e+00    0.000000000e+00    0.000000000e+00
      627750000   -9.578742981e-01    2.508065104e-01    9.348616004e-06   -3.038253635e-05    0.000000000e+00    0.000000000e+00    0.000000000e+00    0.000000000e+00
      635000000   -9.158329368e-01    3.482163846e-01   -2.369564027e-05   -3.486592323e-05    0.000000000e+00    0.000000000e+00    0.000000000e+00    0.000000000e+00
      642250000   -8.631235957e-01    4.417335987e-01    1.605600119e-06   -7.791444659e-06    0.000000000e+00    0.000000000e+00    0.000000000e+00    0.000000000e+00
      649500000   -7.997972965e-01    5.257987380e-01    3.665685654e-06    3.795791417e-05    0.000000000e+00    0.000000000e+00    0.000000000e+00    0.000000000e+00
      656750000   -7.275090218e-01    6.017022729e-01    1.605972648e-05   -2.142973244e-06    0.000000000e+00    0.000000000e+00    0.000000000e+00    0.000000000e+00
      664000000   -6.479797959e-01    6.687245965e-01    2.618413419e-05    3.783032298e-06    0.000000000e+00    0.000000000e+00    0.000000000e+00    0.000000000e+00
      671250000   -5.624628663e-01    7.253013849e-01   -2.770591527e-05   -1.056585461e-05    0.000000000e+00    0.000000000e+00    0.000000000e+00    0.000000000e+00
      678500000   -4.700080454e-01    7.705024481e-01    1.799967140e-05    3.326777369e-05    0.000000000e+00    0.000000000e+00    0.000000000e+00    0.000000000e+00
      685750000   -3.756476343e-01    8.055623770e-01   -2.270005643e-05    2.655759454e-05    0.000000000e+00    0.000000000e+00    0.000000000e+00    0.000000000e+00
      693000000   -2.793173194e-01    8.295001388e-01   -3.050547093e-05   -1.131556928e-06    0.000000000e+00    0.000000000e+00    0.000000000e+00    0.000000000e+00
      700250000   -1.810922027e-01    8.425298929e-01    6.266869605e-06    4.308763891e-05    0.000000000e+00    0.000000000e+00    0.000000000e+00    0.000000000e+00
      707500000   -8.373424411e-02    8.448378444e-01   -1.827627420e-05   -5.602836609e-06    0.000000000e+00    0.000000000e+00    0.000000000e+00    0.000000000e+00
      714750000    1.360706054e-02    8.367088437e-01    2.714525908e-05    1.130718738e-05    0.000000000e+00    0.000000000e+00    0.000000000e+00    0.000000000e+00
      722000000    1.071337014e-01    8.188630342e-01    1.120381057e-06    3.066845238e-06    0.000000000e+00    0.000000000e+00    0.000000000e+00    0.000000000e+00
      729250000    1.985891759e-01    7.911096811e-01    1.012347639e-05    1.125317067e-05    0.000000000e+00    0.000000000e+00    0.000000000e+00    0.000000000e+00
      736500000    2.851497233e-01    7.553189993e-01    1.035723835e-05   -8.024275303e-06    0.000000000e+00    0.000000000e+00    0.000000000e+00    0.000000000e+00
      743750000    3.670324683e-01    7.110134959e-01    4.472956061e-05   -6.374903023e-06    0.000000000e+00    0.000000000e+00    0.000000000e+00    0.000000000e+00
      751000000    4.439413846e-01    6.585010290e-01   -8.234754205e-06    6.588362157e-05    0.000000000e+00    0.000000000e+00    0.000000000e+00    0.000000000e+00
      758250000    5.151221156e-01    5.987077951e-01   -2.291332930e-05   -1.147948205e-05    0.000000000e+00    0.000000000e+00    0.000000000e+00    0.000000000e+00
      765500000    5.797266364e-01    5.334743261e-01    2.185907215e-05   -2.861395478e-05    0.000000000e+00    0.000000000e+00    0.000000000e+00    0.000000000e+00
      772750000    6.380939484e-01    4.602437615e-01   -2.219900489e-05   -6.699934602e-06    0.000000000e+00    0.000000000e+00    0.000000000e+00    0.000000000e+00
      780000000    6.867359281e-01    3.845920265e-01   -5.269050598e-05    3.498978913e-06    0.000000000e+00    0.000000000e+00    0.000000000e+00    0.000000000e+00
      787250000    7.309120297e-01    3.005262911e-01    1.420266926e-05   -4.213396460e-05    0.000000000e+00    0.000000000e+00    0.000000000e+00    0.000000000e+00
      794500000    7.647820711e-01    2.138783783e-01   -1.764111221e-05    7.470045239e-05    0.000000000e+00    0.000000000e+00    0.000000000e+00    0.000000000e+00
      801750000    7.902896404e-01    1.235158816e-01    2.350378782e-05    2.786144614e-05    0.000000000e+00    0.000000000e+00    0.000000000e+00    0.000000000e+00
      809000000    8.065771461e-01    3.066297248e-02   -2.025254071e-05   -1.656077802e-05    0.000000000e+00    0.000000000e+00    0.000000000e+00    0.000000000e+00
      816250000    8.133398890e-01   -6.466395408e-02    4.288554192e-05   -5.289074033e-05    0.000000000e+00    0.000000000e+00    0.000000000e+00    0.000000000e+00
      823500000    8.097571731e-01   -1.606965959e-01    3.253109753e-05   -1.679640263e-05    0.000000000e+00    0.000000000e+00    0.000000000e+00    0.000000000e+00
      830750000    7.964215875e-01   -2.576065660e-01    1.261383295e-05    4.481803626e-05    0.000000000e+00    0.000000000e+00    0.000000000e+00    0.000000000e+00
      838000000    7.713978291e-01   -3.531996012e-01   -2.265907824e-06    3.948807716e-07    0.000000000e+00    0.000000000e+00    0.000000000e+00    0.000000000e+00
      845250000    7.364139557e-01   -4.455114603e-01    3.524217755e-05    2.228096128e-05    0.000000000e+00    0.000000000e+00    0.000000000e+00    0.000000000e+00
      852500000    6.901193857e-01   -5.369739532e-01   -1.960434020e-05   -4.193838686e-05    0.000000000e+00    0.000000000e+00    0.000000000e+00    0.000000000e+00
      859750000    6.336669326e-01   -6.221836805e-01    5.669146776e-05    1.213792711e-05    0.000000000e+00    0.000000000e+00    0.000000000e+00    0.000000000e+00
      867000000    5.651814938e-01   -7.024605870e-01   -4.693679512e-05   -3.369618207e-05    0.000000000e+00    0.000000000e+00    0.000000000e+00    0.000000000e+00
      874250000    4.890924394e-01   -7.735633254e-01   -2.728216350e-05   -4.665926099e-05    0.000000000e+00    0.000000000e+00    0.000000000e+00    0.000000000e+00
      881500000    3.988843560e-01   -8.370366096e-01    9.681098163e-06   -2.955738455e-05    0.000000000e+00    0.000000000e+00    0.000000000e+00    0.000000000e+00
      888750000    3.042187989e-01   -8.883944750e-01   -8.109956980e-06    2.649798989e-05    0.000000000e+00    0.000000000e+00    0.000000000e+00    0.000000000e+00
      896000000    2.019198686e-01   -9.285769463e-01    1.154560596e-05   -1.877918839e-05    0.000000000e+00    0.000000000e+00    0.000000000e+00    0.000000000e+00
      903250000    9.200344235e-02   -9.540821910e-01   -1.338589936e-05   -2.690590918e-06    0.000000000e+00    0.000000000e+00    0.000000000e+00    0.000000000e+00
      910500000   -1.807118580e-02   -9.664092660e-01   -4.870817065e-07    1.305527985e-05    0.000000000e+00    0.000000000e+00    0.000000000e+00    0.000000000e+00
      917750000   -1.308748275e-01   -9.630802870e-01    2.630706877e-05   -8.075498044e-06    0.000000000e+00    0.000000000e+00    0.000000000e+00    0.000000000e+00
      925000000   -2.445992678e-01   -9.443046451e-01    2.572685480e-05    6.224028766e-06    0.000000000e+00    0.000000000e+00    0.000000000e+00    0.000000000e+00
      932250000   -3.529154360e-01   -9.112621546e-01    7.722713053e-05    1.322291791e-05    0.000000000e+00    0.000000000e+00    0.000000000e+00    0.000000000e+00
      939500000   -4.538089633e-01   -8.637937903e-01   -3.678724170e-07   -4.433095455e-05    0.000000000e+00    0.000000000e+00    0.000000000e+00    0.000000000e+00
      946750000   -5.477557778e-01   -8.031231761e-01    4.229694605e-05   -1.609977335e-05    0.000000000e+00    0.000000000e+00    0.000000000e+00    0.000000000e+00
      954000000   -6.335693598e-01   -7.306448221e-01   -9.963288903e-06   -1.697428524e-05    0.000000000e+00    0.000000000e+00    0.000000000e+00    0.000000000e+00
      961250000   -7.049228549e-01   -6.500211358e-01    2.553779632e-05    9.843148291e-06    0.000000000e+00    0.000000000e+00    0.000000000e+00    0.000000000e+00
      968500000   -7.675170898e-01   -5.594040751e-01    3.407895565e-05    2.239178866e-05    0.000000000e+00    0.000000000e+00    0.000000000e+00    0.000000000e+00
      975750000   -8.145835996e-01   -4.664827883e-01   -2.292916179e-05   -7.055699825e-06    0.000000000e+00    0.000000000e+00    0.000000000e+00    0.000000000e+00
      983000000   -8.498452306e-01   -3.674381971e-01   -5.740858614e-05    2.206768841e-05    0.000000000e+00    0.000000000e+00    0.000000000e+00    0.000000000e+00
      990250000   -8.711067438e-01   -2.684279680e-01   -4.285108298e-05    1.525692642e-05    0.000000000e+00    0.000000000e+00    0.000000000e+00    0.000000000e+00
      997500000   -8.801197410e-01   -1.680078357e-01   -5.324371159e-06    2.755783498e-05    0.000000000e+00    0.000000000e+00    0.000000000e+00    0.000000000e+00
     1004750000   -8.779094815e-01   -7.164453715e-02   -9.211711586e-06   -2.797972411e-05    0.000000000e+00    0.000000000e+00    0.000000000e+00    0.000000000e+00
     1012000000   -8.646126390e-01    2.347395942e-02    3.858376294e-05   -2.858322114e-05    0.000000000e+00    0.000000000e+00    0.000000000e+00    0.000000000e+00
     1019250000   -8.406652808e-01    1.128885448e-01   -4.864297807e-05   -5.050562322e-06    0.000000000e+00    0.000000000e+00    0.000000000e+00    0.000000000e+00
     1026500000   -8.085163236e-01    1.972364038e-01    2.038385719e-05    3.119930625e-05    0.000000000e+00    0.000000000e+00    0.000000000e+00    0.000000000e+00
     1033750000   -7.676755786e-01    2.762320936e-01   -1.499429345e-05    6.916001439e-06    0.000000000e+00    0.000000000e+00    0.000000000e+00    0.000000000e+00
     1041000000   -7.208181620e-01    3.486734033e-01   -2.540089190e-05   -3.361981362e-05    0.000000000e+00    0.000000000e+00    0.000000000e+00    0.000000000e+00
