! NanoVNA-App
! Date: 2024-06-25 16:06:17
! Start: 200MHz Stop: 6GHz Points: 801
! S-Parameter data: F S11 S21 S12 S22
# Hz S RI R 50
!     Frequency           S11_Real           S11_Imag           S21_Real           S21_Imag           S12_Real           S12_Imag           S22_Real           S22_Imag
      200000000   -9.072211385e-01   -1.091278642e-01   -4.220753908e-06    5.154870450e-06    0.000000000e+00    0.000000000e+00    0.000000000e+00    0.000000000e+00
      207250000   -9.173688889e-01   -1.931213029e-02   -3.539118916e-05    8.129514754e-06    0.000000000e+00    0.000000000e+00    0.000000000e+00    0.000000000e+00
      214500000   -9.185146689e-01    7.201743871e-02   -1.311022788e-05    5.099922419e-05    0.000000000e+00    0.000000000e+00    0.000000000e+00    0.000000000e+00
      221750000   -9.092271924e-01    1.647234857e-01    4.194024950e-05    1.821387559e-05    0.000000000e+00    0.000000000e+00    0.000000000e+00    0.000000000e+00
      229000000   -8.910082579e-01    2.572868168e-01   -1.373700798e-05    3.926455975e-06    0.000000000e+00    0.000000000e+00    0.000000000e+00    0.000000000e+00
      236250000   -8.626546264e-01    3.493192196e-01   -1.255422831e-05   -1.882854849e-05    0.000000000e+00    0.000000000e+00    0.000000000e+00    0.000000000e+00
      243500000   -8.220451474e-01    4.388777316e-01    6.224960089e-06   -1.375842839e-05    0.000000000e+00    0.000000000e+00    0.000000000e+00    0.000000000e+00
      250750000   -7.717120051e-01    5.251914859e-01   -3.224331886e-05    1.345574856e-05    0.000000000e+00    0.000000000e+00    0.000000000e+00    0.000000000e+00
      258000000   -7.103592753e-01    6.065900326e-01   -5.493871868e-06   -2.241320908e-05    0.000000000e+00    0.000000000e+00    0.000000000e+00    0.000000000e+00
      265250000   -6.389504075e-01    6.808150411e-01   -3.120675683e-05    1.471024007e-05    0.000000000e+00    0.000000000e+00    0.000000000e+00    0.000000000e+00
      272500000   -5.573797226e-01    7.478633523e-01    8.098781109e-06   -9.505078197e-06    0.000000000e+00    0.000000000e+00    0.000000000e+00    0.000000000e+00
      279750000   -4.683637619e-01    8.050730228e-01    1.563876867e-05   -3.249384463e-06    0.000000000e+00    0.000000000e+00    0.000000000e+00    0.000000000e+00
      287000000   -3.695914447e-01    8.513975143e-01   -2.000480890e-05    1.090019941e-05    0.000000000e+00    0.000000000e+00    0.000000000e+00    0.000000000e+00
      294250000   -2.661285996e-01    8.853397965e-01   -2.926215529e-05    1.117587090e-07    0.000000000e+00    0.000000000e+00    0.000000000e+00    0.000000000e+00
      301500000   -1.575706005e-01    9.067869782e-01    1.868233085e-06    2.952292562e-07    0.000000000e+00    0.000000000e+00    0.000000000e+00    0.000000000e+00
      308750000   -4.586122185e-02    9.136489630e-01    1.104269177e-05    2.793967724e-09    0.000000000e+00    0.000000000e+00    0.000000000e+00    0.000000000e+00
      316000000    6.608264148e-02    9.072545767e-01    3.517139703e-05   -1.261942089e-05    0.000000000e+00    0.000000000e+00    0.000000000e+00    0.000000000e+00
      323250000    1.774182916e-01    8.860560656e-01   -1.567788422e-05    9.658746421e-06    0.000000000e+00    0.000000000e+00    0.000000000e+00    0.000000000e+00
      330500000    2.841109931e-01    8.505275846e-01   -2.088956535e-05   -1.392047852e-05    0.000000000e+00    0.000000000e+00    0.000000000e+00    0.000000000e+00
      337750000    3.859880269e-01    8.025876284e-01   -3.275461495e-06   -2.558901906e-05    0.000000000e+00    0.000000000e+00    0.000000000e+00    0.000000000e+00
      345000000    4.813013971e-01    7.415379882e-01    3.226101398e-06    1.744460315e-05    0.000000000e+00    0.000000000e+00    0.000000000e+00    0.000000000e+00
      352250000    5.667213202e-01    6.701658964e-01   -3.802962601e-05   -8.087605238e-06    0.000000000e+00    0.000000000e+00    0.000000000e+00    0.000000000e+00
      359500000    6.429084539e-01    5.884105563e-01    1.061428338e-05   -1.525692642e-05    0.000000000e+00    0.000000000e+00    0.000000000e+00    0.000000000e+00
      366750000    7.079883814e-01    4.988130331e-01   -2.662558109e-05   -1.965742558e-05    0.000000000e+00    0.000000000e+00    0.000000000e+00    0.000000000e+00
      374000000    7.609558105e-01    4.036313593e-01    3.115925938e-05    1.328345388e-05    0.000000000e+00    0.000000000e+00    0.000000000e+00    0.000000000e+00
      381250000    8.031331301e-01    3.022889793e-01   -1.249648631e-05    3.450550139e-05    0.000000000e+00    0.000000000e+00    0.000000000e+00    0.000000000e+00
      388500000    8.321619630e-01    2.001171857e-01   -8.619390428e-06    4.103407264e-06    0.000000000e+00    0.000000000e+00    0.000000000e+00    0.000000000e+00
      395750000    8.489415050e-01    9.465184808e-02   -2.411659807e-05    5.934387445e-06    0.000000000e+00    0.000000000e+00    0.000000000e+00    0.000000000e+00
      403000000    8.535902500e-01   -1.119809132e-02    1.317821443e-06   -1.492816955e-05    0.000000000e+00    0.000000000e+00    0.000000000e+00    0.000000000e+00
      410250000    8.468965292e-01   -1.151414961e-01   -2.771150321e-05   -2.066139132e-05    0.000000000e+00    0.000000000e+00    0.000000000e+00    0.000000000e+00
      417500000    8.290377259e-01   -2.164004296e-01   -1.013372093e-05   -1.521874219e-05    0.000000000e+00    0.000000000e+00    0.000000000e+00    0.000000000e+00
      424750000    8.002108932e-01   -3.160975873e-01    2.861022949e-06   -2.357270569e-05    0.000000000e+00    0.000000000e+00    0.000000000e+00    0.000000000e+00
      432000000    7.605577111e-01   -4.097493887e-01    2.748891711e-05   -1.777708530e-05    0.000000000e+00    0.000000000e+00    0.000000000e+00    0.000000000e+00
      439250000    7.125126719e-01   -4.982917309e-01   -5.857087672e-06   -1.694820821e-05    0.000000000e+00    0.000000000e+00    0.000000000e+00    0.000000000e+00
      446500000    6.565757990e-01   -5.800815821e-01   -1.528579742e-05    1.131650060e-05    0.000000000e+00    0.000000000e+00    0.000000000e+00    0.000000000e+00
      453750000    5.900994539e-01   -6.565434933e-01    8.474104106e-06    4.205852747e-06    0.000000000e+00    0.000000000e+00    0.000000000e+00    0.000000000e+00
      461000000    5.181235075e-01   -7.246477008e-01    9.281560779e-06   -1.157633960e-06    0.000000000e+00    0.000000000e+00    0.000000000e+00    0.000000000e+00
      468250000    4.398882389e-01   -7.848780155e-01    9.149312973e-06    1.810491085e-05    0.000000000e+00    0.000000000e+00    0.000000000e+00    0.000000000e+00
      475500000    3.545030057e-01   -8.372500539e-01    2.316199243e-06    1.357588917e-05    0.000000000e+00    0.000000000e+00    0.000000000e+00    0.000000000e+00
      482750000    2.647644579e-01   -8.800498247e-01    1.942925155e-05   -1.990236342e-06    0.000000000e+00    0.000000000e+00    0.000000000e+00    0.000000000e+00
      490000000    1.711784005e-01   -9.132484794e-01   -9.859912097e-06   -1.276284456e-05    0.000000000e+00    0.000000000e+00    0.000000000e+00    0.000000000e+00
      497250000    7.410974801e-02   -9.363399744e-01    2.226978540e-05    5.222856998e-06    0.000000000e+00    0.000000000e+00    0.000000000e+00    0.000000000e+00
      504500000   -2.541812137e-02   -9.483921528e-01    2.607703209e-07    3.735627979e-05    0.000000000e+00    0.000000000e+00    0.000000000e+00    0.000000000e+00
      511750000   -1.268336028e-01   -9.512992501e-01    6.670132279e-06    3.702193499e-05    0.000000000e+00    0.000000000e+00    0.000000000e+00    0.000000000e+00
      519000000   -2.281336486e-01   -9.428098202e-01    2.291426063e-05   -1.816917211e-05    0.000000000e+00    0.000000000e+00    0.000000000e+00    0.000000000e+00
      526250000   -3.279705644e-01   -9.218031764e-01    1.563876867e-05    3.282167017e-05    0.000000000e+00    0.000000000e+00    0.000000000e+00    0.000000000e+00
      533500000   -4.268992841e-01   -8.907268643e-01   -2.469308674e-05   -2.521462739e-05    0.000000000e+00    0.000000000e+00    0.000000000e+00    0.000000000e+00
      540750000   -5.218623877e-01   -8.471650481e-01   -1.028552651e-05   -4.350859672e-05    0.000000000e+00    0.000000000e+00    0.000000000e+00    0.000000000e+00
      548000000   -6.113895178e-01   -7.947303653e-01    2.053938806e-05   -5.894340575e-06    0.000000000e+00    0.000000000e+00    0.000000000e+00    0.000000000e+00
      555250000   -6.952105165e-01   -7.311090827e-01   -2.167094499e-05   -2.049468458e-05    0.000000000e+00    0.000000000e+00    0.000000000e+00    0.000000000e+00
      562500000   -7.718782425e-01   -6.570572257e-01   -3.928504884e-05    2.629123628e-06    0.000000000e+00    0.000000000e+00    0.000000000e+00    0.000000000e+00
      569750000   -8.391113877e-01   -5.740555525e-01   -2.184882760e-06    1.740921289e-05    0.000000000e+00    0.000000000e+00    0.000000000e+00    0.000000000e+00
      577000000   -8.959868550e-01   -4.843015075e-01    1.651979983e-05    1.942645758e-05    0.000000000e+00    0.000000000e+00    0.000000000e+00    0.000000000e+00
      584250000   -9.433303475e-01   -3.860167861e-01   -2.723094076e-05    1.263711601e-05    0.000000000e+00    0.000000000e+00    0.000000000e+00    0.000000000e+00
      591500000   -9.775417447e-01   -2.847660482e-01   -1.168064773e-05    1.536309719e-05    0.000000000e+00    0.000000000e+00    0.000000000e+00    0.000000000e+00
      598750000   -1.000504017e+00   -1.770569980e-01    5.774199963e-07    1.307670027e-05    0.000000000e+00    0.000000000e+00    0.000000000e+00    0.000000000e+00
      606000000   -1.009261966e+00   -6.923776120e-02    1.075398177e-05   -9.127892554e-06    0.000000000e+00    0.000000000e+00    0.000000000e+00    0.000000000e+00
      613250000   -1.005222797e+00    3.830740228e-02   -7.087364793e-06   -1.987628639e-05    0.000000000e+00    0.000000000e+00    0.000000000e+00    0.000000000e+00
      620500000   -9.877663851e-01    1.464799196e-01   -4.932284355e-06    6.239861250e-07    0.000000000e+00    0.000000000e+00    0.000000000e+00    0.000000000e+00
      627750000   -9.577361941e-01    2.501649559e-01   -6.629154086e-06   -1.396890730e-05    0.000000000e+00    0.000000000e+00    0.000000000e+00    0.000000000e+00
      635000000   -9.163298011e-01    3.476066887e-01    2.081505954e-05    4.195608199e-06    0.000000000e+00    0.000000000e+00    0.000000000e+00    0.000000000e+00
      642250000   -8.634897470e-01    4.405705631e-01    6.901938468e-05    5.388446152e-05    0.000000000e+00    0.000000000e+00    0.000000000e+00    0.000000000e+00
      649500000   -7.993933558e-01    5.261841416e-01    2.937670797e-05    1.720804721e-05    0.000000000e+00    0.000000000e+00    0.000000000e+00    0.000000000e+00
      656750000   -7.280952334e-01    6.021361351e-01    1.279916614e-05    3.058277071e-05    0.000000000e+00    0.000000000e+00    0.000000000e+00    0.000000000e+00
      664000000   -6.476248503e-01    6.691280007e-01   -2.385582775e-05   -1.135375351e-05    0.000000000e+00    0.000000000e+00    0.000000000e+00    0.000000000e+00
      671250000   -5.615330338e-01    7.249962687e-01   -1.282431185e-06   -1.456867903e-05    0.000000000e+00    0.000000000e+00    0.000000000e+00    0.000000000e+00
      678500000   -4.707690179e-01    7.707235217e-01    3.887806088e-05   -9.192153811e-06    0.000000000e+00    0.000000000e+00    0.000000000e+00    0.000000000e+00
      685750000   -3.760897815e-01    8.055418730e-01   -7.795169950e-06    1.061335206e-05    0.000000000e+00    0.000000000e+00    0.000000000e+00    0.000000000e+00
      693000000   -2.789841592e-01    8.292475939e-01   -3.502611071e-05   -3.231968731e-05    0.000000000e+00    0.000000000e+00    0.000000000e+00    0.000000000e+00
      700250000   -1.812759042e-01    8.423945904e-01   -3.926362842e-05    1.967884600e-05    0.000000000e+00    0.000000000e+00    0.000000000e+00    0.000000000e+00
      707500000   -8.397697657e-02    8.445409536e-01   -9.143725038e-06   -1.936964691e-05    0.000000000e+00    0.000000000e+00    0.000000000e+00    0.000000000e+00
      714750000    1.275232900e-02    8.371075988e-01    9.698793292e-06   -6.617046893e-06    0.000000000e+00    0.000000000e+00    0.000000000e+00    0.000000000e+00
      722000000    1.075799391e-01    8.184214234e-01   -1.428648829e-06   -1.441687346e-06    0.000000000e+00    0.000000000e+00    0.000000000e+00    0.000000000e+00
      729250000    1.981749982e-01    7.917971611e-01   -2.282764763e-05    4.103407264e-05    0.000000000e+00    0.000000000e+00    0.000000000e+00    0.000000000e+00
      736500000    2.852537632e-01    7.552746534e-01   -9.774230421e-06    6.011687219e-06    0.000000000e+00    0.000000000e+00    0.000000000e+00    0.000000000e+00
      743750000    3.674898744e-01    7.110332251e-01    4.756264389e-06    2.592988312e-05    0.000000000e+00    0.000000000e+00    0.000000000e+00    0.000000000e+00
      751000000    4.443809390e-01    6.582168937e-01    2.921093255e-05    9.015202522e-06    0.000000000e+00    0.000000000e+00    0.000000000e+00    0.000000000e+00
      758250000    5.158589482e-01    5.985061526e-01    2.130214125e-05    2.412404865e-05    0.000000000e+00    0.000000000e+00    0.000000000e+00    0.000000000e+00
      765500000    5.801738501e-01    5.323975086e-01   -1.782737672e-05    3.169290721e-06    0.000000000e+00    0.000000000e+00    0.000000000e+00    0.000000000e+00
      772750000    6.380470395e-01    4.604631960e-01    2.320297062e-05   -1.459196210e-05    0.000000000e+00    0.000000000e+00    0.000000000e+00    0.000000000e+00
      780000000    6.871405840e-01    3.841531277e-01    1.814961433e-05    8.244067430e-06    0.000000000e+00    0.000000000e+00    0.000000000e+00    0.000000000e+00
      787250000    7.307952642e-01    2.998571694e-01   -8.462928236e-06   -1.812819391e-05    0.000000000e+00    0.000000000e+00    0.000000000e+00    0.000000000e+00
      794500000    7.648792267e-01    2.144909799e-01   -2.402812243e-07    1.932028681e-05    0.000000000e+00    0.000000000e+00    0.000000000e+00    0.000000000e+00
      801750000    7.901310921e-01    1.235634983e-01    1.600570977e-05    2.710521221e-05    0.000000000e+00    0.000000000e+00    0.000000000e+00    0.000000000e+00
      809000000    8.067929745e-01    3.129115328e-02   -2.382230014e-05    2.164393663e-05    0.000000000e+00    0.000000000e+00    0.000000000e+00    0.000000000e+00
      816250000    8.135517836e-01   -6.346023083e-02    1.093465835e-05   -2.725049853e-06    0.000000000e+00    0.000000000e+00    0.000000000e+00    0.000000000e+00
      823500000    8.096640110e-01   -1.611211151e-01    4.320126027e-05    9.960494936e-06    0.000000000e+00    0.000000000e+00    0.000000000e+00    0.000000000e+00
      830750000    7.960099578e-01   -2.568899989e-01   -6.391480565e-05    1.497846097e-05    0.000000000e+00    0.000000000e+00    0.000000000e+00    0.000000000e+00
      838000000    7.715067863e-01   -3.529300392e-01    3.872811794e-05    3.459956497e-05    0.000000000e+00    0.000000000e+00    0.000000000e+00    0.000000000e+00
      845250000    7.367917299e-01   -4.456597567e-01    1.696962863e-05    2.769473940e-05    0.000000000e+00    0.000000000e+00    0.000000000e+00    0.000000000e+00
      852500000    6.904672980e-01   -5.368670821e-01    2.235174179e-07    2.151262015e-05    0.000000000e+00    0.000000000e+00    0.000000000e+00    0.000000000e+00
      859750000    6.336709857e-01   -6.220154166e-01   -8.892267942e-06   -1.455657184e-05    0.000000000e+00    0.000000000e+00    0.000000000e+00    0.000000000e+00
      867000000    5.648119450e-01   -7.029623985e-01   -2.037175000e-05    7.553957403e-06    0.000000000e+00    0.000000000e+00    0.000000000e+00    0.000000000e+00
      874250000    4.887349606e-01   -7.737305164e-01   -3.401283175e-05    1.110043377e-05    0.000000000e+00    0.000000000e+00    0.000000000e+00    0.000000000e+00
      881500000    3.994044363e-01   -8.366699815e-01    2.780649811e-05    2.342276275e-06    0.000000000e+00    0.000000000e+00    0.000000000e+00    0.000000000e+00
      888750000    3.043980896e-01   -8.884264231e-01    4.060100764e-05    6.258487701e-07    0.000000000e+00    0.000000000e+00    0.000000000e+00    0.000000000e+00
      896000000    2.009633631e-01   -9.276307225e-01   -2.747680992e-05   -2.501718700e-05    0.000000000e+00    0.000000000e+00    0.000000000e+00    0.000000000e+00
      903250000    9.376294911e-02   -9.542721510e-01    2.612732351e-05    2.283696085e-05    0.000000000e+00    0.000000000e+00    0.000000000e+00    0.000000000e+00
      910500000   -2.052406594e-02   -9.663608670e-01   -2.569425851e-05    1.607928425e-05    0.000000000e+00    0.000000000e+00    0.000000000e+00    0.000000000e+00
      917750000   -1.324149519e-01   -9.627768397e-01   -2.301577479e-05   -4.897173494e-05    0.000000000e+00    0.000000000e+00    0.000000000e+00    0.000000000e+00
      925000000   -2.428788990e-01   -9.449515939e-01    4.108157009e-05    3.838352859e-05    0.000000000e+00    0.000000000e+00    0.000000000e+00    0.000000000e+00
      932250000   -3.529275954e-01   -9.107770324e-01    7.403083146e-06   -1.529231668e-05    0.000000000e+00    0.000000000e+00    0.000000000e+00    0.000000000e+00
      939500000   -4.539187849e-01   -8.640544415e-01   -1.455005258e-05    4.583969712e-06    0.000000000e+00    0.000000000e+00    0.000000000e+00    0.000000000e+00
      946750000   -5.484202504e-01   -8.037595749e-01    1.018028706e-05    6.742402911e-05    0.000000000e+00    0.000000000e+00    0.000000000e+00    0.000000000e+00
      954000000   -6.333234310e-01   -7.305608392e-01    1.918990165e-05    1.187156886e-05    0.000000000e+00    0.000000000e+00    0.000000000e+00    0.000000000e+00
      961250000   -7.054577470e-01   -6.498738527e-01   -3.468059003e-05   -6.449408829e-06    0.000000000e+00    0.000000000e+00    0.000000000e+00    0.000000000e+00
      968500000   -7.674909234e-01   -5.597468615e-01    5.762092769e-06    1.629814506e-06    0.000000000e+00    0.000000000e+00    0.000000000e+00    0.000000000e+00
      975750000   -8.145502210e-01   -4.667456746e-01    3.020931035e-05   -3.124121577e-05    0.000000000e+00    0.000000000e+00    0.000000000e+00    0.000000000e+00
      983000000   -8.499895930e-01   -3.674520552e-01    2.507958561e-05   -3.393739462e-06    0.000000000e+00    0.000000000e+00    0.000000000e+00    0.000000000e+00
      990250000   -8.716879487e-01   -2.673971355e-01   -2.323370427e-05   -1.699291170e-05    0.000000000e+00    0.000000000e+00    0.000000000e+00    0.000000000e+00
      997500000   -8.803018928e-01   -1.686846018e-01    2.692453563e-06   -2.169981599e-07    0.000000000e+00    0.000000000e+00    0.000000000e+00    0.000000000e+00
     1004750000   -8.784176111e-01   -7.150859386e-02    1.242477447e-05   -1.519080251e-05    0.000000000e+00    0.000000000e+00    0.000000000e+00    0.000000000e+00
     1012000000   -8.643344641e-01    2.343277261e-02    9.393319488e-06   -7.957220078e-06    0.000000000e+00    0.000000000e+00    0.000000000e+00    0.000000000e+00
     1019250000   -8.403827548e-01    1.139650568e-01   -8.004717529e-06   -1.054629683e-05    0.000000000e+00    0.000000000e+00    0.000000000e+00    0.000000000e+00
     1026500000   -8.084911704e-01    1.970473528e-01   -3.871880472e-05    1.089554280e-05    0.000000000e+00    0.000000000e+00    0.000000000e+00    0.000000000e+00
     1033750000   -7.673246264e-01    2.767851651e-01    9.484589100e-06   -5.484092981e-05    0.000000000e+00    0.000000000e+00    0.000000000e+00    0.000000000e+00
     1041000000   -7.211870551e-01    3.478846252e-01   -1.478567719e-05    3.074202687e-05    0.000000000e+00    0.000000000e+00    0.000000000e+00    0.000000000e+00
