! NanoVNA-App
! Date: 2024-06-25 16:06:22
! Start: 200MHz Stop: 6GHz Points: 801
! S-Parameter data: F S11 S21 S12 S22
# Hz S RI R 50
!     Frequency           S11_Real           S11_Imag           S21_Real           S21_Imag           S12_Real           S12_Imag           S22_Real           S22_Imag
      200000000   -9.069586396e-01   -1.086907610e-01    6.778165698e-06    2.656225115e-05    0.000000000e+00    0.000000000e+00    0.000000000e+00    0.000000000e+00
      207250000   -9.176692367e-01   -1.906394213e-02   -1.070275903e-05    6.640329957e-06    0.000000000e+00    0.000000000e+00    0.000000000e+00    0.000000000e+00
      214500000   -9.189736247e-01    7.188373804e-02    2.923235297e-05   -1.617427915e-05    0.000000000e+00    0.000000000e+00    0.000000000e+00    0.000000000e+00
      221750000   -9.101270437e-01    1.647307873e-01   -1.264270395e-05    4.088506103e-06    0.000000000e+00    0.000000000e+00    0.000000000e+00    0.000000000e+00
      229000000   -8.910889626e-01    2.578648031e-01   -5.776993930e-06    5.337409675e-06    0.000000000e+00    0.000000000e+00    0.000000000e+00    0.000000000e+00
      236250000   -8.625255227e-01    3.493681848e-01   -2.169422805e-05   -2.129562199e-05    0.000000000e+00    0.000000000e+00    0.000000000e+00    0.000000000e+00
      243500000   -8.228482008e-01    4.387518764e-01   -2.831220627e-05    3.251992166e-05    0.000000000e+00    0.000000000e+00    0.000000000e+00    0.000000000e+00
      250750000   -7.716063857e-01    5.255824924e-01    3.632158041e-08   -7.807277143e-06    0.000000000e+00    0.000000000e+00    0.000000000e+00    0.000000000e+00
      258000000   -7.106798291e-01    6.063793898e-01   -1.581292599e-05   -4.317611456e-06    0.000000000e+00    0.000000000e+00    0.000000000e+00    0.000000000e+00
      265250000   -6.389541626e-01    6.810219884e-01    3.355182707e-05   -4.771165550e-06    0.000000000e+00    0.000000000e+00    0.000000000e+00    0.000000000e+00
      272500000   -5.576180816e-01    7.480643988e-01    2.487283200e-05   -2.351775765e-05    0.000000000e+00    0.000000000e+00    0.000000000e+00    0.000000000e+00
      279750000   -4.678662717e-01    8.048239946e-01   -1.260451972e-05   -1.596473157e-05    0.000000000e+00    0.000000000e+00    0.000000000e+00    0.000000000e+00
      287000000   -3.699753582e-01    8.511508107e-01    8.674338460e-06    1.337565482e-05    0.000000000e+00    0.000000000e+00    0.000000000e+00    0.000000000e+00
      294250000   -2.661978304e-01    8.858090639e-01    2.144929022e-05   -1.848675311e-05    0.000000000e+00    0.000000000e+00    0.000000000e+00    0.000000000e+00
      301500000   -1.579643488e-01    9.067976475e-01    4.904344678e-06   -2.607703209e-08    0.000000000e+00    0.000000000e+00    0.000000000e+00    0.000000000e+00
      308750000   -4.558310285e-02    9.143689871e-01   -1.604948193e-05   -6.347894669e-06    0.000000000e+00    0.000000000e+00    0.000000000e+00    0.000000000e+00
      316000000    6.654497236e-02    9.064757228e-01   -9.786337614e-06   -2.813152969e-05    0.000000000e+00    0.000000000e+00    0.000000000e+00    0.000000000e+00
      323250000    1.773962677e-01    8.859230876e-01    1.377146691e-05    4.820525646e-05    0.000000000e+00    0.000000000e+00    0.000000000e+00    0.000000000e+00
      330500000    2.844619453e-01    8.503084183e-01    2.799183130e-05   -1.591350883e-05    0.000000000e+00    0.000000000e+00    0.000000000e+00    0.000000000e+00
      337750000    3.864196539e-01    8.028068542e-01   -2.114102244e-07    1.297984272e-05    0.000000000e+00    0.000000000e+00    0.000000000e+00    0.000000000e+00
      345000000    4.808565974e-01    7.409363389e-01    1.866556704e-05   -1.400522888e-05    0.000000000e+00    0.000000000e+00    0.000000000e+00    0.000000000e+00
      352250000    5.667746663e-01    6.691485643e-01    2.046488225e-05   -2.447981387e-05    0.000000000e+00    0.000000000e+00    0.000000000e+00    0.000000000e+00
      359500000    6.428739429e-01    5.885674357e-01    1.431349665e-05    3.667641431e-05    0.000000000e+00    0.000000000e+00    0.000000000e+00    0.000000000e+00
      366750000    7.080012560e-01    4.990710616e-01    1.954473555e-05    2.564862370e-06    0.000000000e+00    0.000000000e+00    0.000000000e+00    0.000000000e+00
      374000000    7.610365152e-01    4.038109183e-01    9.307637811e-06    2.104789019e-06    0.000000000e+00    0.000000000e+00    0.000000000e+00    0.000000000e+00
      381250000    8.031429648e-01    3.028884828e-01    2.186186612e-05    1.144222915e-05    0.000000000e+00    0.000000000e+00    0.000000000e+00    0.000000000e+00
      388500000    8.321974874e-01    1.995052099e-01   -9.784474969e-06   -3.840774298e-06    0.000000000e+00    0.000000000e+00    0.000000000e+00    0.000000000e+00
      395750000    8.490020037e-01    9.435390681e-02    6.593763828e-07   -3.834441304e-05    0.000000000e+00    0.000000000e+00    0.000000000e+00    0.000000000e+00
      403000000    8.536750078e-01   -1.050323341e-02   -7.493421435e-06   -2.919975668e-05    0.000000000e+00    0.000000000e+00    0.000000000e+00    0.000000000e+00
      410250000    8.469761610e-01   -1.151472256e-01   -1.408625394e-05    5.024485290e-06    0.000000000e+00    0.000000000e+00    0.000000000e+00    0.000000000e+00
      417500000    8.286288977e-01   -2.168875933e-01    2.039503306e-05    8.855946362e-06    0.000000000e+00    0.000000000e+00    0.000000000e+00    0.000000000e+00
      424750000    7.994785905e-01   -3.158835769e-01   -5.320645869e-06    1.135282218e-06    0.000000000e+00    0.000000000e+00    0.000000000e+00    0.000000000e+00
      432000000    7.606192231e-01   -4.090808332e-01   -4.043802619e-06   -1.422408968e-05    0.000000000e+00    0.000000000e+00    0.000000000e+00    0.000000000e+00
      439250000    7.131294608e-01   -4.983296096e-01    2.186745405e-06   -2.234056592e-05    0.000000000e+00    0.000000000e+00    0.000000000e+00    0.000000000e+00
      446500000    6.551641822e-01   -5.812768936e-01    3.699213266e-06    9.096227586e-06    0.000000000e+00    0.000000000e+00    0.000000000e+00    0.000000000e+00
      453750000    5.913884640e-01   -6.563894749e-01   -8.992850780e-06    1.465715468e-05    0.000000000e+00    0.000000000e+00    0.000000000e+00    0.000000000e+00
      461000000    5.191968083e-01   -7.250425816e-01   -5.694106221e-06    3.487151116e-05    0.000000000e+00    0.000000000e+00    0.000000000e+00    0.000000000e+00
      468250000    4.399430454e-01   -7.854807973e-01    2.103112638e-05    2.540182322e-05    0.000000000e+00    0.000000000e+00    0.000000000e+00    0.000000000e+00
      475500000    3.546612561e-01   -8.374411464e-01   -2.836808562e-05    3.324821591e-07    0.000000000e+00    0.000000000e+00    0.000000000e+00    0.000000000e+00
      482750000    2.650811672e-01   -8.799168468e-01    7.305294275e-06   -2.958811820e-06    0.000000000e+00    0.000000000e+00    0.000000000e+00    0.000000000e+00
      490000000    1.710640490e-01   -9.134426117e-01   -7.293187082e-06    1.086015254e-05    0.000000000e+00    0.000000000e+00    0.000000000e+00    0.000000000e+00
      497250000    7.386607677e-02   -9.364942908e-01   -8.902512491e-06    5.037523806e-06    0.000000000e+00    0.000000000e+00    0.000000000e+00    0.000000000e+00
      504500000   -2.555551566e-02   -9.495800734e-01    1.838523895e-05    2.924352884e-07    0.000000000e+00    0.000000000e+00    0.000000000e+00    0.000000000e+00
      511750000   -1.267530471e-01   -9.507307410e-01   -2.624373883e-05    5.803070962e-06    0.000000000e+00    0.000000000e+00    0.000000000e+00    0.000000000e+00
      519000000   -2.276495248e-01   -9.419975281e-01   -3.864988685e-07   -1.887697726e-05    0.000000000e+00    0.000000000e+00    0.000000000e+00    0.000000000e+00
      526250000   -3.283495605e-01   -9.218281507e-01   -7.653608918e-06    2.170819789e-05    0.000000000e+00    0.000000000e+00    0.000000000e+00    0.000000000e+00
      533500000   -4.264506102e-01   -8.908393979e-01    1.417286694e-05    3.080815077e-06    0.000000000e+00    0.000000000e+00    0.000000000e+00    0.000000000e+00
      540750000   -5.218238831e-01   -8.483190536e-01   -8.327886462e-06   -1.781154424e-05    0.000000000e+00    0.000000000e+00    0.000000000e+00    0.000000000e+00
      548000000   -6.113541126e-01   -7.940006256e-01    4.928559065e-06   -1.633539796e-06    0.000000000e+00    0.000000000e+00    0.000000000e+00    0.000000000e+00
      555250000   -6.950599551e-01   -7.312937975e-01   -1.140404493e-05   -1.874379814e-05    0.000000000e+00    0.000000000e+00    0.000000000e+00    0.000000000e+00
      562500000   -7.714953423e-01   -6.566294432e-01    2.563651651e-05    2.826284617e-05    0.000000000e+00    0.000000000e+00    0.000000000e+00    0.000000000e+00
      569750000   -8.388863802e-01   -5.753892660e-01    1.009088010e-05   -4.883855581e-06    0.000000000e+00    0.000000000e+00    0.000000000e+00    0.000000000e+00
      577000000   -8.966071606e-01   -4.845329225e-01   -2.221576869e-05    1.494958997e-05    0.000000000e+00    0.000000000e+00    0.000000000e+00    0.000000000e+00
      584250000   -9.432417750e-01   -3.870597780e-01   -5.267560482e-06    1.334585249e-05    0.000000000e+00    0.000000000e+00    0.000000000e+00    0.000000000e+00
      591500000   -9.772880673e-01   -2.846811116e-01   -1.666322351e-05    7.282942533e-07    0.000000000e+00    0.000000000e+00    0.000000000e+00    0.000000000e+00
      598750000   -1.000414252e+00   -1.769244522e-01    1.998618245e-05    2.993270755e-05    0.000000000e+00    0.000000000e+00    0.000000000e+00    0.000000000e+00
      606000000   -1.009148836e+00   -6.961025298e-02    2.513360232e-05   -5.718413740e-05    0.000000000e+00    0.000000000e+00    0.000000000e+00    0.000000000e+00
      613250000   -1.005367279e+00    3.835644946e-02    2.607051283e-05    2.839509398e-05    0.000000000e+00    0.000000000e+00    0.000000000e+00    0.000000000e+00
      620500000   -9.875592589e-01    1.457023174e-01   -8.908100426e-06   -1.721549779e-05    0.000000000e+00    0.000000000e+00    0.000000000e+00    0.000000000e+00
      627750000   -9.575736523e-01    2.509105802e-01    4.509463906e-06   -5.724281073e-05    0.000000000e+00    0.000000000e+00    0.000000000e+00    0.000000000e+00
      635000000   -9.163513780e-01    3.482343554e-01    1.887883991e-05   -3.674533218e-05    0.000000000e+00    0.000000000e+00    0.000000000e+00    0.000000000e+00
      642250000   -8.632500172e-01    4.419439733e-01    2.318620682e-05    2.919137478e-05    0.000000000e+00    0.000000000e+00    0.000000000e+00    0.000000000e+00
      649500000   -7.997067571e-01    5.262032151e-01   -4.690140486e-06   -2.555549145e-06    0.000000000e+00    0.000000000e+00    0.000000000e+00    0.000000000e+00
      656750000   -7.279381752e-01    6.016324162e-01   -1.684948802e-05    2.470239997e-05    0.000000000e+00    0.000000000e+00    0.000000000e+00    0.000000000e+00
      664000000   -6.477443576e-01    6.687902808e-01   -2.339854836e-05    1.156050712e-05    0.000000000e+00    0.000000000e+00    0.000000000e+00    0.000000000e+00
      671250000   -5.611717105e-01    7.249529362e-01    2.863444388e-05    6.184913218e-06    0.000000000e+00    0.000000000e+00    0.000000000e+00    0.000000000e+00
      678500000   -4.713549018e-01    7.706612945e-01    8.623115718e-06   -9.844079614e-06    0.000000000e+00    0.000000000e+00    0.000000000e+00    0.000000000e+00
      685750000   -3.762426674e-01    8.055569530e-01    3.115274012e-05    3.849156201e-05    0.000000000e+00    0.000000000e+00    0.000000000e+00    0.000000000e+00
      693000000   -2.797740996e-01    8.294913769e-01   -2.065207809e-05    4.203058779e-06    0.000000000e+00    0.000000000e+00    0.000000000e+00    0.000000000e+00
      700250000   -1.820663810e-01    8.424571157e-01    1.639407128e-05    1.447368413e-05    0.000000000e+00    0.000000000e+00    0.000000000e+00    0.000000000e+00
      707500000   -8.381372690e-02    8.447152376e-01    8.936971426e-06    2.710893750e-05    0.000000000e+00    0.000000000e+00    0.000000000e+00    0.000000000e+00
      714750000    1.309087593e-02    8.366282582e-01    3.681238741e-05   -6.293877959e-06    0.000000000e+00    0.000000000e+00    0.000000000e+00    0.000000000e+00
      722000000    1.069588065e-01    8.189703226e-01    2.348795533e-06    2.393778414e-05    0.000000000e+00    0.000000000e+00    0.000000000e+00    0.000000000e+00
      729250000    1.992221177e-01    7.912070155e-01    2.169143409e-05   -2.317596227e-05    0.000000000e+00    0.000000000e+00    0.000000000e+00    0.000000000e+00
      736500000    2.852785587e-01    7.550125122e-01    1.185759902e-05    1.926627010e-05    0.000000000e+00    0.000000000e+00    0.000000000e+00    0.000000000e+00
      743750000    3.674760759e-01    7.109128237e-01   -2.484396100e-05   -5.319621414e-05    0.000000000e+00    0.000000000e+00    0.000000000e+00    0.000000000e+00
      751000000    4.448567629e-01    6.587389112e-01    1.315306872e-05    9.020790458e-06    0.000000000e+00    0.000000000e+00    0.000000000e+00    0.000000000e+00
      758250000    5.152596235e-01    5.992864370e-01   -3.131106496e-06    1.496355981e-05    0.000000000e+00    0.000000000e+00    0.000000000e+00    0.000000000e+00
      765500000    5.800348520e-01    5.331018567e-01   -2.946332097e-05    2.430099994e-05    0.000000000e+00    0.000000000e+00    0.000000000e+00    0.000000000e+00
      772750000    6.381151676e-01    4.605455697e-01    4.534516484e-05    8.373521268e-06    0.000000000e+00    0.000000000e+00    0.000000000e+00    0.000000000e+00
      780000000    6.872289777e-01    3.839667141e-01   -1.664180309e-05    2.147257328e-05    0.000000000e+00    0.000000000e+00    0.000000000e+00    0.000000000e+00
      787250000    7.301170230e-01    3.009063601e-01   -5.098991096e-06   -1.045130193e-05    0.000000000e+00    0.000000000e+00    0.000000000e+00    0.000000000e+00
      794500000    7.654220462e-01    2.139256001e-01    3.220327199e-05   -3.559514880e-06    0.000000000e+00    0.000000000e+00    0.000000000e+00    0.000000000e+00
      801750000    7.906623483e-01    1.239224374e-01    2.018082887e-05   -5.076639354e-06    0.000000000e+00    0.000000000e+00    0.000000000e+00    0.000000000e+00
      809000000    8.069168925e-01    3.102558851e-02    1.010391861e-05    4.396867007e-05    0.000000000e+00    0.000000000e+00    0.000000000e+00    0.000000000e+00
      816250000    8.134227395e-01   -6.507328898e-02   -3.372877836e-05    1.609046012e-05    0.000000000e+00    0.000000000e+00    0.000000000e+00    0.000000000e+00
      823500000    8.100030422e-01   -1.604917049e-01    4.016887397e-05    2.578180283e-05    0.000000000e+00    0.000000000e+00    0.000000000e+00    0.000000000e+00
      830750000    7.962667346e-01   -2.568824589e-01    3.493018448e-05   -4.401244223e-05    0.000000000e+00    0.000000000e+00    0.000000000e+00    0.000000000e+00
      838000000    7.722276449e-01   -3.528126180e-01    8.014030755e-06   -1.935940236e-05    0.000000000e+00    0.000000000e+00    0.000000000e+00    0.000000000e+00
      845250000    7.364985347e-01   -4.460934997e-01   -2.584420145e-05   -1.402478665e-05    0.000000000e+00    0.000000000e+00    0.000000000e+00    0.000000000e+00
      852500000    6.901741028e-01   -5.375772119e-01    1.482293010e-05   -4.021450877e-06    0.000000000e+00    0.000000000e+00    0.000000000e+00    0.000000000e+00
      859750000    6.347666979e-01   -6.214530468e-01   -2.438761294e-05    3.561377525e-05    0.000000000e+00    0.000000000e+00    0.000000000e+00    0.000000000e+00
      867000000    5.653357506e-01   -7.028297782e-01    1.107342541e-05   -1.696217805e-05    0.000000000e+00    0.000000000e+00    0.000000000e+00    0.000000000e+00
      874250000    4.873019755e-01   -7.741028666e-01    4.836916924e-05    2.848729491e-05    0.000000000e+00    0.000000000e+00    0.000000000e+00    0.000000000e+00
      881500000    3.999701142e-01   -8.371152282e-01   -8.116476238e-06    1.549348235e-05    0.000000000e+00    0.000000000e+00    0.000000000e+00    0.000000000e+00
      888750000    3.050674796e-01   -8.882369995e-01    7.336959243e-06   -6.354413927e-06    0.000000000e+00    0.000000000e+00    0.000000000e+00    0.000000000e+00
      896000000    2.014655471e-01   -9.285001159e-01   -7.817521691e-06    1.433398575e-05    0.000000000e+00    0.000000000e+00    0.000000000e+00    0.000000000e+00
      903250000    9.308499098e-02   -9.545851350e-01    7.237307727e-06    5.688518286e-06    0.000000000e+00    0.000000000e+00    0.000000000e+00    0.000000000e+00
      910500000   -1.999036409e-02   -9.670234919e-01    7.016584277e-06   -1.135747880e-05    0.000000000e+00    0.000000000e+00    0.000000000e+00    0.000000000e+00
      917750000   -1.317065507e-01   -9.635006189e-01   -2.775806934e-05    1.158006489e-05    0.000000000e+00    0.000000000e+00    0.000000000e+00    0.000000000e+00
      925000000   -2.428441793e-01   -9.450361133e-01   -1.961365342e-05   -5.310401320e-06    0.000000000e+00    0.000000000e+00    0.000000000e+00    0.000000000e+00
      932250000   -3.524904549e-01   -9.116582274e-01   -1.058913767e-06    9.422190487e-06    0.000000000e+00    0.000000000e+00    0.000000000e+00    0.000000000e+00
      939500000   -4.541344643e-01   -8.642967343e-01    8.900649846e-06    1.864042133e-05    0.000000000e+00    0.000000000e+00    0.000000000e+00    0.000000000e+00
      946750000   -5.480012298e-01   -8.027337790e-01   -2.796947956e-05   -3.336835653e-05    0.000000000e+00    0.000000000e+00    0.000000000e+00    0.000000000e+00
      954000000   -6.326384544e-01   -7.319689989e-01   -9.108334780e-07   -3.665685654e-06    0.000000000e+00    0.000000000e+00    0.000000000e+00    0.000000000e+00
      961250000   -7.062715292e-01   -6.493474245e-01   -1.084618270e-05   -2.927612513e-05    0.000000000e+00    0.000000000e+00    0.000000000e+00    0.000000000e+00
      968500000   -7.678841352e-01   -5.594105124e-01    2.555456012e-05   -2.629123628e-05    0.000000000e+00    0.000000000e+00    0.000000000e+00    0.000000000e+00
      975750000   -8.150599003e-01   -4.662628174e-01   -4.526134580e-05   -1.790001988e-06    0.000000000e+00    0.000000000e+00    0.000000000e+00    0.000000000e+00
      983000000   -8.502234817e-01   -3.664484024e-01   -1.839082688e-05   -1.654122025e-05    0.000000000e+00    0.000000000e+00    0.000000000e+00    0.000000000e+00
      990250000   -8.716092110e-01   -2.676142156e-01    1.307576895e-06    5.175452679e-05    0.000000000e+00    0.000000000e+00    0.000000000e+00    0.000000000e+00
      997500000   -8.809643984e-01   -1.684370935e-01   -3.450550139e-05    2.199411392e-05    0.000000000e+00    0.000000000e+00    0.000000000e+00    0.000000000e+00
     1004750000   -8.779532909e-01   -6.997670233e-02   -1.440849155e-05   -1.709349453e-05    0.000000000e+00    0.000000000e+00    0.000000000e+00    0.000000000e+00
     1012000000   -8.642162085e-01    2.376731113e-02    1.011695713e-05    1.174118370e-05    0.000000000e+00    0.000000000e+00    0.000000000e+00    0.000000000e+00
     1019250000   -8.408591151e-01    1.128441170e-01   -9.153969586e-06   -7.756054401e-06    0.000000000e+00    0.000000000e+00    0.000000000e+00    0.000000000e+00
     1026500000   -8.085885048e-01    1.969821602e-01    3.568828106e-06   -4.498474300e-05    0.000000000e+00    0.000000000e+00    0.000000000e+00    0.000000000e+00
     1033750000   -7.681277990e-01    2.770081162e-01   -2.343207598e-06   -1.419335604e-05    0.000000000e+00    0.000000000e+00    0.000000000e+00    0.000000000e+00
     1041000000   -7.204883099e-01    3.487724662e-01    7.892958820e-06   -3.719702363e-06    0.000000000e+00    0.000000000e+00    0.000000000e+00    0.000000000e+00
