! NanoVNA-App
! Date: 2024-06-25 16:06:25
! Start: 200MHz Stop: 6GHz Points: 801
! S-Parameter data: F S11 S21 S12 S22
# Hz S RI R 50
!     Frequency           S11_Real           S11_Imag           S21_Real           S21_Imag           S12_Real           S12_Imag           S22_Real           S22_Imag
      200000000   -9.073686004e-01   -1.089762375e-01    3.203749657e-06    3.283564001e-05    0.000000000e+00    0.000000000e+00    0.000000000e+00    0.000000000e+00
      207250000   -9.174710512e-01   -1.935749315e-02   -1.528207213e-05   -2.531707287e-05    0.000000000e+00    0.000000000e+00    0.000000000e+00    0.000000000e+00
      214500000   -9.184166193e-01    7.225086540e-02    6.719492376e-06   -5.833804607e-06    0.000000000e+00    0.000000000e+00    0.000000000e+00    0.000000000e+00
      221750000   -9.102137685e-01    1.643945426e-01    2.938322723e-05   -1.297704875e-05    0.000000000e+00    0.000000000e+00    0.000000000e+00    0.000000000e+00
      229000000   -8.907749057e-01    2.576276064e-01   -1.954659820e-05    2.699904144e-05    0.000000000e+00    0.000000000e+00    0.000000000e+00    0.000000000e+00
      236250000   -8.615050912e-01    3.497714102e-01   -6.555579603e-06   -2.157315612e-05    0.000000000e+00    0.000000000e+00    0.000000000e+00    0.000000000e+00
      243500000   -8.220790029e-01    4.388511479e-01    2.076663077e-05    1.405365765e-05    0.000000000e+00    0.000000000e+00    0.000000000e+00    0.000000000e+00
      250750000   -7.718853354e-01    5.251998901e-01    1.603923738e-05   -7.691793144e-06    0.000000000e+00    0.000000000e+00    0.000000000e+00    0.000000000e+00
      258000000   -7.101478577e-01    6.066896319e-01    6.246380508e-06   -1.466739923e-05    0.000000000e+00    0.000000000e+00    0.000000000e+00    0.000000000e+00
      265250000   -6.389820576e-01    6.808314919e-01    3.574695438e-05    9.924173355e-06    0.000000000e+00    0.000000000e+00    0.000000000e+00    0.000000000e+00
      272500000   -5.575889945e-01    7.478431463e-01    3.313925117e-05    1.023523510e-05    0.000000000e+00    0.000000000e+00    0.000000000e+00    0.000000000e+00
      279750000   -4.680969119e-01    8.047664762e-01   -3.666896373e-05   -1.075677574e-06    0.000000000e+00    0.000000000e+00    0.000000000e+00    0.000000000e+00
      287000000   -3.699187636e-01    8.517094254e-01    3.904011101e-05    4.088971764e-05    0.000000000e+00    0.000000000e+00    0.000000000e+00    0.000000000e+00
      294250000   -2.655572891e-01    8.855996132e-01   -5.176290870e-06    6.815418601e-06    0.000000000e+00    0.000000000e+00    0.000000000e+00    0.000000000e+00
      301500000   -1.574815959e-01    9.072555304e-01   -5.719531327e-05    1.020729542e-06    0.000000000e+00    0.000000000e+00    0.000000000e+00    0.000000000e+00
      308750000   -4.577374458e-02    9.137882590e-01    3.936886787e-05    5.088746548e-06    0.000000000e+00    0.000000000e+00    0.000000000e+00    0.000000000e+00
      316000000    6.659809500e-02    9.069828987e-01   -1.329369843e-05   -1.068413258e-05    0.000000000e+00    0.000000000e+00    0.000000000e+00    0.000000000e+00
      323250000    1.767157465e-01    8.857285976e-01    3.840308636e-05   -4.701036960e-05    0.000000000e+00    0.000000000e+00    0.000000000e+00    0.000000000e+00
      330500000    2.840340137e-01    8.506143093e-01   -1.078192145e-05    2.274475992e-05    0.000000000e+00    0.000000000e+00    0.000000000e+00    0.000000000e+00
      337750000    3.866516948e-01    8.025768995e-01   -1.491978765e-06    2.066046000e-05    0.000000000e+00    0.000000000e+00    0.000000000e+00    0.000000000e+00
      345000000    4.809008241e-01    7.416682243e-01    1.629721373e-05   -4.031974822e-05    0.000000000e+00    0.000000000e+00    0.000000000e+00    0.000000000e+00
      352250000    5.669866204e-01    6.700701118e-01    1.460313797e-05    2.938322723e-06    0.000000000e+00    0.000000000e+00    0.000000000e+00    0.000000000e+00
      359500000    6.426858306e-01    5.881820917e-01   -7.924623787e-06    1.593772322e-05    0.000000000e+00    0.000000000e+00    0.000000000e+00    0.000000000e+00
      366750000    7.079682350e-01    4.992786646e-01   -1.832377166e-05    1.635495573e-05    0.000000000e+00    0.000000000e+00    0.000000000e+00    0.000000000e+00
      374000000    7.612661123e-01    4.039237499e-01   -4.131346941e-06   -3.081094474e-05    0.000000000e+00    0.000000000e+00    0.000000000e+00    0.000000000e+00
      381250000    8.028811812e-01    3.023448288e-01   -1.695007086e-07   -1.071859151e-05    0.000000000e+00    0.000000000e+00    0.000000000e+00    0.000000000e+00
      388500000    8.320492506e-01    1.990418732e-01    4.710629582e-06    7.877126336e-06    0.000000000e+00    0.000000000e+00    0.000000000e+00    0.000000000e+00
      395750000    8.485921025e-01    9.406788647e-02   -5.271285772e-06   -4.622153938e-06    0.000000000e+00    0.000000000e+00    0.000000000e+00    0.000000000e+00
      403000000    8.534862995e-01   -1.059398334e-02    4.861131310e-05    1.206994057e-05    0.000000000e+00    0.000000000e+00    0.000000000e+00    0.000000000e+00
      410250000    8.465967774e-01   -1.152315810e-01   -1.993589103e-05   -7.758848369e-06    0.000000000e+00    0.000000000e+00    0.000000000e+00    0.000000000e+00
      417500000    8.291603327e-01   -2.166371644e-01   -8.487142622e-06   -6.917864084e-06    0.000000000e+00    0.000000000e+00    0.000000000e+00    0.000000000e+00
      424750000    7.999054790e-01   -3.156084418e-01   -2.739951015e-06   -1.336634159e-05    0.000000000e+00    0.000000000e+00    0.000000000e+00    0.000000000e+00
      432000000    7.612833977e-01   -4.097391665e-01    1.679640263e-05   -2.030283213e-06    0.000000000e+00    0.000000000e+00    0.000000000e+00    0.000000000e+00
      439250000    7.131984234e-01   -4.983178973e-01   -1.616869122e-05    3.538466990e-05    0.000000000e+00    0.000000000e+00    0.000000000e+00    0.000000000e+00
      446500000    6.557140946e-01   -5.812370777e-01    4.640780389e-06    9.126961231e-07    0.000000000e+00    0.000000000e+00    0.000000000e+00    0.000000000e+00
      453750000    5.915883780e-01   -6.566817164e-01    6.116926670e-06    7.351860404e-06    0.000000000e+00    0.000000000e+00    0.000000000e+00    0.000000000e+00
      461000000    5.179094076e-01   -7.249784470e-01   -1.367181540e-06   -1.897104084e-06    0.000000000e+00    0.000000000e+00    0.000000000e+00    0.000000000e+00
      468250000    4.400685132e-01   -7.849634886e-01    2.849195153e-05    1.852959394e-05    0.000000000e+00    0.000000000e+00    0.000000000e+00    0.000000000e+00
      475500000    3.538681567e-01   -8.371334076e-01   -1.216586679e-05   -1.790095121e-05    0.000000000e+00    0.000000000e+00    0.000000000e+00    0.000000000e+00
      482750000    2.653277814e-01   -8.800342679e-01   -6.122514606e-06    4.538800567e-05    0.000000000e+00    0.000000000e+00    0.000000000e+00    0.000000000e+00
      490000000    1.708850861e-01   -9.130427837e-01    3.245938569e-05    4.426110536e-05    0.000000000e+00    0.000000000e+00    0.000000000e+00    0.000000000e+00
      497250000    7.422304153e-02   -9.362615943e-01   -3.423728049e-05    2.068839967e-05    0.000000000e+00    0.000000000e+00    0.000000000e+00    0.000000000e+00
      504500000   -2.600953355e-02   -9.487391710e-01    6.412155926e-06   -1.239869744e-05    0.000000000e+00    0.000000000e+00    0.000000000e+00    0.000000000e+00
      511750000   -1.263552457e-01   -9.508720040e-01    7.934868336e-07    3.451667726e-05    0.000000000e+00    0.000000000e+00    0.000000000e+00    0.000000000e+00
      519000000   -2.276931554e-01   -9.423699975e-01   -1.136772335e-05    6.295740604e-06    0.000000000e+00    0.000000000e+00    0.000000000e+00    0.000000000e+00
      526250000   -3.282474577e-01   -9.219352603e-01   -1.483131200e-05    1.108460128e-05    0.000000000e+00    0.000000000e+00    0.000000000e+00    0.000000000e+00
      533500000   -4.266752899e-01   -8.907027841e-01   -1.389253885e-05    6.896909326e-05    0.000000000e+00    0.000000000e+00    0.000000000e+00    0.000000000e+00
      540750000   -5.210206509e-01   -8.488368988e-01   -3.414228559e-05   -1.041591167e-05    0.000000000e+00    0.000000000e+00    0.000000000e+00    0.000000000e+00
      548000000   -6.118615866e-01   -7.950465679e-01   -2.483930439e-05   -2.681184560e-05    0.000000000e+00    0.000000000e+00    0.000000000e+00    0.000000000e+00
      555250000   -6.954024434e-01   -7.307595015e-01   -3.365799785e-06   -2.197548747e-05    0.000000000e+00    0.000000000e+00    0.000000000e+00    0.000000000e+00
      562500000   -7.714288831e-01   -6.570453644e-01   -5.753710866e-06    1.620501280e-06    0.000000000e+00    0.000000000e+00    0.000000000e+00    0.000000000e+00
      569750000   -8.392432332e-01   -5.745644569e-01    3.826245666e-05   -2.253614366e-05    0.000000000e+00    0.000000000e+00    0.000000000e+00    0.000000000e+00
      577000000   -8.965479732e-01   -4.844426513e-01   -3.672204912e-06   -2.699904144e-06    0.000000000e+00    0.000000000e+00    0.000000000e+00    0.000000000e+00
      584250000   -9.432002306e-01   -3.860354722e-01   -3.710389137e-06    1.931563020e-06    0.000000000e+00    0.000000000e+00    0.000000000e+00    0.000000000e+00
      591500000   -9.778301120e-01   -2.849499881e-01   -2.022832632e-05    2.227257937e-05    0.000000000e+00    0.000000000e+00    0.000000000e+00    0.000000000e+00
      598750000   -1.000474215e+00   -1.773428619e-01    2.777576447e-05    3.868248314e-05    0.000000000e+00    0.000000000e+00    0.000000000e+00    0.000000000e+00
      606000000   -1.009365320e+00   -6.976260245e-02    1.548230648e-05   -4.715286195e-06    0.000000000e+00    0.000000000e+00    0.000000000e+00    0.000000000e+00
      613250000   -1.004848242e+00    3.854145110e-02    1.181755215e-05   -1.571141183e-06    0.000000000e+00    0.000000000e+00    0.000000000e+00    0.000000000e+00
      620500000   -9.873830676e-01    1.462304294e-01    1.579429954e-05   -1.670699567e-05    0.000000000e+00    0.000000000e+00    0.000000000e+00    0.000000000e+00
      627750000   -9.577819705e-01    2.499621511e-01   -2.729706466e-06    1.887325197e-05    0.000000000e+00    0.000000000e+00    0.000000000e+00    0.000000000e+00
      635000000   -9.169792533e-01    3.479938507e-01   -3.903079778e-05    3.878120333e-05    0.000000000e+00    0.000000000e+00    0.000000000e+00    0.000000000e+00
      642250000   -8.627848029e-01    4.414761961e-01   -5.392264575e-05   -1.127552241e-05    0.000000000e+00    0.000000000e+00    0.000000000e+00    0.000000000e+00
      649500000   -7.997257113e-01    5.257026553e-01   -6.274320185e-06    1.947768033e-05    0.000000000e+00    0.000000000e+00    0.000000000e+00    0.000000000e+00
      656750000   -7.279906273e-01    6.021541953e-01    3.546569496e-05   -1.275911927e-07    0.000000000e+00    0.000000000e+00    0.000000000e+00    0.000000000e+00
      664000000   -6.485031843e-01    6.682818532e-01    4.332512617e-06   -1.610815525e-05    0.000000000e+00    0.000000000e+00    0.000000000e+00    0.000000000e+00
      671250000   -5.617691875e-01    7.254184484e-01    1.231580973e-05    2.488028258e-05    0.000000000e+00    0.000000000e+00    0.000000000e+00    0.000000000e+00
      678500000   -4.705785811e-01    7.710278034e-01    9.993091226e-06   -1.065433025e-05    0.000000000e+00    0.000000000e+00    0.000000000e+00    0.000000000e+00
      685750000   -3.761755824e-01    8.055632114e-01    8.594244719e-06    1.034699380e-06    0.000000000e+00    0.000000000e+00    0.000000000e+00    0.000000000e+00
      693000000   -2.800539136e-01    8.292223811e-01    3.361608833e-05    2.187117934e-05    0.000000000e+00    0.000000000e+00    0.000000000e+00    0.000000000e+00
      700250000   -1.821632534e-01    8.426113725e-01   -1.162104309e-05   -3.967434168e-07    0.000000000e+00    0.000000000e+00    0.000000000e+00    0.000000000e+00
      707500000   -8.435760438e-02    8.448576331e-01    4.646368325e-05   -1.092255116e-05    0.000000000e+00    0.000000000e+00    0.000000000e+00    0.000000000e+00
      714750000    1.265268680e-02    8.372555971e-01    7.046386600e-06   -1.424737275e-05    0.000000000e+00    0.000000000e+00    0.000000000e+00    0.000000000e+00
      722000000    1.069240272e-01    8.189156055e-01   -2.389773726e-06    5.375687033e-05    0.000000000e+00    0.000000000e+00    0.000000000e+00    0.000000000e+00
      729250000    1.989155710e-01    7.914517522e-01    2.460554242e-06    3.329198807e-05    0.000000000e+00    0.000000000e+00    0.000000000e+00    0.000000000e+00
      736500000    2.855957150e-01    7.551404834e-01    2.263765782e-05   -4.015397280e-05    0.000000000e+00    0.000000000e+00    0.000000000e+00    0.000000000e+00
      743750000    3.672570288e-01    7.109301090e-01    5.164183676e-06   -2.021063119e-05    0.000000000e+00    0.000000000e+00    0.000000000e+00    0.000000000e+00
      751000000    4.439246356e-01    6.591138244e-01    3.231316805e-05    1.318659633e-05    0.000000000e+00    0.000000000e+00    0.000000000e+00    0.000000000e+00
      758250000    5.147941113e-01    5.994216204e-01   -6.817281246e-07    1.700036228e-05    0.000000000e+00    0.000000000e+00    0.000000000e+00    0.000000000e+00
      765500000    5.794556141e-01    5.330224037e-01    6.548129022e-06    9.424984455e-07    0.000000000e+00    0.000000000e+00    0.000000000e+00    0.000000000e+00
      772750000    6.385618448e-01    4.600591660e-01   -6.270594895e-06    3.973487765e-05    0.000000000e+00    0.000000000e+00    0.000000000e+00    0.000000000e+00
      780000000    6.866446137e-01    3.842691183e-01   -2.428889275e-06    5.746912211e-05    0.000000000e+00    0.000000000e+00    0.000000000e+00    0.000000000e+00
      787250000    7.306327224e-01    3.005583286e-01   -1.475494355e-05    1.074746251e-05    0.000000000e+00    0.000000000e+00    0.000000000e+00    0.000000000e+00
      794500000    7.654519081e-01    2.132646590e-01   -1.421291381e-05    7.589347661e-06    0.000000000e+00    0.000000000e+00    0.000000000e+00    0.000000000e+00
      801750000    7.907315493e-01    1.236240268e-01    1.327320933e-05   -4.063919187e-05    0.000000000e+00    0.000000000e+00    0.000000000e+00    0.000000000e+00
      809000000    8.068226576e-01    3.093597479e-02    3.201141953e-05    6.706453860e-06    0.000000000e+00    0.000000000e+00    0.000000000e+00    0.000000000e+00
      816250000    8.130933642e-01   -6.429564208e-02   -2.400390804e-05   -1.174304634e-05    0.000000000e+00    0.000000000e+00    0.000000000e+00    0.000000000e+00
      823500000    8.094642162e-01   -1.613977998e-01   -1.491513103e-05   -2.021901309e-06    0.000000000e+00    0.000000000e+00    0.000000000e+00    0.000000000e+00
      830750000    7.968413830e-01   -2.575351596e-01    5.727633834e-06    2.926960588e-05    0.000000000e+00    0.000000000e+00    0.000000000e+00    0.000000000e+00
      838000000    7.718318105e-01   -3.532583416e-01    1.379847527e-05    1.876428723e-05    0.000000000e+00    0.000000000e+00    0.000000000e+00    0.000000000e+00
      845250000    7.373760343e-01   -4.456066489e-01   -4.363246262e-06    1.218169928e-06    0.000000000e+00    0.000000000e+00    0.000000000e+00    0.000000000e+00
      852500000    6.905073524e-01   -5.368304253e-01   -2.352241427e-05    1.245457679e-05    0.000000000e+00    0.000000000e+00    0.000000000e+00    0.000000000e+00
      859750000    6.346825957e-01   -6.213607788e-01    6.098300219e-05   -1.594703645e-05    0.000000000e+00    0.000000000e+00    0.000000000e+00    0.000000000e+00
      867000000    5.647649169e-01   -7.022423148e-01   -1.064501703e-06    4.354864359e-06    0.000000000e+00    0.000000000e+00    0.000000000e+00    0.000000000e+00
      874250000    4.884377420e-01   -7.733845115e-01   -1.642946154e-05   -1.267902553e-05    0.000000000e+00    0.000000000e+00    0.000000000e+00    0.000000000e+00
      881500000    3.987368643e-01   -8.368107080e-01   -2.075731754e-05    1.274794340e-05    0.000000000e+00    0.000000000e+00    0.000000000e+00    0.000000000e+00
      888750000    3.047577441e-01   -8.883697987e-01   -1.056678593e-05    2.653338015e-06    0.000000000e+00    0.000000000e+00    0.000000000e+00    0.000000000e+00
      896000000    2.009380907e-01   -9.283472896e-01   -9.723939002e-06   -3.080721945e-05    0.000000000e+00    0.000000000e+00    0.000000000e+00    0.000000000e+00
      903250000    9.413834661e-02   -9.546052217e-01   -2.473592758e-06    2.099201083e-06    0.000000000e+00    0.000000000e+00    0.000000000e+00    0.000000000e+00
      910500000   -1.935062930e-02   -9.665071368e-01   -2.224557102e-05    1.590698957e-06    0.000000000e+00    0.000000000e+00    0.000000000e+00    0.000000000e+00
      917750000   -1.311083883e-01   -9.638803005e-01   -3.816839308e-05   -5.550682545e-05    0.000000000e+00    0.000000000e+00    0.000000000e+00    0.000000000e+00
      925000000   -2.429670990e-01   -9.451535940e-01    2.113915980e-05    2.020969987e-05    0.000000000e+00    0.000000000e+00    0.000000000e+00    0.000000000e+00
      932250000   -3.536206782e-01   -9.106135964e-01    2.844072878e-05   -6.400048733e-05    0.000000000e+00    0.000000000e+00    0.000000000e+00    0.000000000e+00
      939500000   -4.547221959e-01   -8.633360863e-01    4.297215492e-05    6.555579603e-06    0.000000000e+00    0.000000000e+00    0.000000000e+00    0.000000000e+00
      946750000   -5.493790507e-01   -8.025479317e-01   -1.794472337e-05   -2.077966928e-05    0.000000000e+00    0.000000000e+00    0.000000000e+00    0.000000000e+00
      954000000   -6.325041652e-01   -7.317768335e-01   -3.094226122e-05   -1.869164407e-05    0.000000000e+00    0.000000000e+00    0.000000000e+00    0.000000000e+00
      961250000   -7.053653598e-01   -6.503190398e-01   -2.608727664e-05   -3.157183528e-06    0.000000000e+00    0.000000000e+00    0.000000000e+00    0.000000000e+00
      968500000   -7.676458359e-01   -5.597794652e-01    7.579103112e-06   -9.614042938e-06    0.000000000e+00    0.000000000e+00    0.000000000e+00    0.000000000e+00
      975750000   -8.148958087e-01   -4.660647810e-01   -1.446250826e-05    1.471117139e-05    0.000000000e+00    0.000000000e+00    0.000000000e+00    0.000000000e+00
      983000000   -8.493289351e-01   -3.673045635e-01   -1.438893378e-06   -1.318473369e-05    0.000000000e+00    0.000000000e+00    0.000000000e+00    0.000000000e+00
      990250000   -8.718003631e-01   -2.682518661e-01   -1.719873399e-05    1.341663301e-05    0.000000000e+00    0.000000000e+00    0.000000000e+00    0.000000000e+00
      997500000   -8.809161782e-01   -1.680217981e-01    2.685282379e-05   -1.253094524e-05    0.000000000e+00    0.000000000e+00    0.000000000e+00    0.000000000e+00
     1004750000   -8.783376813e-01   -7.097880542e-02    1.861061901e-05   -1.062639058e-06    0.000000000e+00    0.000000000e+00    0.000000000e+00    0.000000000e+00
     1012000000   -8.644536734e-01    2.373350784e-02   -4.576519132e-06   -5.433335900e-06    0.000000000e+00    0.000000000e+00    0.000000000e+00    0.000000000e+00
     1019250000   -8.405690193e-01    1.137797311e-01    1.519080251e-05   -2.449378371e-05    0.000000000e+00    0.000000000e+00    0.000000000e+00    0.000000000e+00
     1026500000   -8.082464337e-01    1.974664032e-01   -1.583900303e-05    1.861434430e-05    0.000000000e+00    0.000000000e+00    0.000000000e+00    0.000000000e+00
     1033750000   -7.671813965e-01    2.768409252e-01   -3.274343908e-05   -2.076104283e-05    0.000000000e+00    0.000000000e+00    0.000000000e+00    0.000000000e+00
     1041000000   -7.206873894e-01    3.485164046e-01    1.630745828e-05    9.420327842e-06    0.000000000e+00    0.000000000e+00    0.000000000e+00    0.000000000e+00
