! NanoVNA-App by OneOfEleven et al v1.1.209 (+OD15) 
! Date: 2024-07-30 12:37:10
! Start: 50kHz Stop: 5MHz Points: 201
! S-Parameter data: F S11 S21 S12 S22
# Hz S RI R 50
!     Frequency           S11_Real           S11_Imag           S21_Real           S21_Imag           S12_Real           S12_Imag           S22_Real           S22_Imag
          50000    1.005298734e+00   -1.622145064e-02    1.227017492e-05    2.304092050e-06    0.000000000e+00    0.000000000e+00    0.000000000e+00    0.000000000e+00
          74750    1.004348159e+00   -2.501641028e-02   -1.808907837e-05   -1.598242670e-05    0.000000000e+00    0.000000000e+00    0.000000000e+00    0.000000000e+00
          99500    1.006877542e+00   -3.522621095e-02   -2.247933298e-05    5.866400898e-06    0.000000000e+00    0.000000000e+00    0.000000000e+00    0.000000000e+00
         124250    1.009503007e+00   -4.756560922e-02   -1.002103090e-05    9.132549167e-06    0.000000000e+00    0.000000000e+00    0.000000000e+00    0.000000000e+00
         149000    1.011634350e+00   -6.124703586e-02   -4.098750651e-06   -5.024485290e-06    0.000000000e+00    0.000000000e+00    0.000000000e+00    0.000000000e+00
         173750    9.905191064e-01   -1.343121380e-01   -5.164183676e-06   -1.338869333e-05    0.000000000e+00    0.000000000e+00    0.000000000e+00    0.000000000e+00
         198500    9.882215261e-01   -1.516176462e-01   -3.444030881e-06   -1.129135489e-05    0.000000000e+00    0.000000000e+00    0.000000000e+00    0.000000000e+00
         223250    9.833147526e-01   -1.686545461e-01   -1.345947385e-05   -3.134831786e-05    0.000000000e+00    0.000000000e+00    0.000000000e+00    0.000000000e+00
         248000    9.749972224e-01   -1.868463755e-01   -1.896265894e-05   -1.328624785e-05    0.000000000e+00    0.000000000e+00    0.000000000e+00    0.000000000e+00
         272750    9.636017680e-01   -2.027681619e-01   -3.450177610e-05   -3.084540367e-06    0.000000000e+00    0.000000000e+00    0.000000000e+00    0.000000000e+00
         297500    9.506794810e-01   -2.166555077e-01   -1.432187855e-05   -3.364123404e-05    0.000000000e+00    0.000000000e+00    0.000000000e+00    0.000000000e+00
         322250    9.357967973e-01   -2.291935384e-01   -2.492684871e-05    3.547687083e-05    0.000000000e+00    0.000000000e+00    0.000000000e+00    0.000000000e+00
         347000    9.188271761e-01   -2.383801937e-01   -2.132728696e-07   -6.303191185e-06    0.000000000e+00    0.000000000e+00    0.000000000e+00    0.000000000e+00
         371750    9.033957124e-01   -2.450255603e-01   -2.284534276e-05   -5.058944225e-06    0.000000000e+00    0.000000000e+00    0.000000000e+00    0.000000000e+00
         396500    8.870562911e-01   -2.499282509e-01    4.972331226e-06    1.053139567e-05    0.000000000e+00    0.000000000e+00    0.000000000e+00    0.000000000e+00
         421250    8.956447840e-01   -1.744944751e-01    3.299862146e-05    3.408547491e-05    0.000000000e+00    0.000000000e+00    0.000000000e+00    0.000000000e+00
         446000    8.809681535e-01   -1.775978059e-01   -5.422160029e-06    1.424830407e-05    0.000000000e+00    0.000000000e+00    0.000000000e+00    0.000000000e+00
         470750    8.680037856e-01   -1.781277061e-01   -5.830079317e-06    2.120621502e-06    0.000000000e+00    0.000000000e+00    0.000000000e+00    0.000000000e+00
         495500    8.555669785e-01   -1.773546338e-01   -3.639608622e-05   -2.528820187e-05    0.000000000e+00    0.000000000e+00    0.000000000e+00    0.000000000e+00
         520250    8.448035121e-01   -1.765218973e-01   -1.931842417e-05   -2.598296851e-05    0.000000000e+00    0.000000000e+00    0.000000000e+00    0.000000000e+00
         545000    8.353034258e-01   -1.747754067e-01    3.822334111e-05   -7.556006312e-05    0.000000000e+00    0.000000000e+00    0.000000000e+00    0.000000000e+00
         569750    8.254104853e-01   -1.725666225e-01    1.605041325e-05    1.166015863e-05    0.000000000e+00    0.000000000e+00    0.000000000e+00    0.000000000e+00
         594500    8.172475100e-01   -1.703796238e-01    3.698561341e-05    3.252364695e-05    0.000000000e+00    0.000000000e+00    0.000000000e+00    0.000000000e+00
         619250    8.102698326e-01   -1.673485488e-01    4.075653851e-05   -4.882924259e-06    0.000000000e+00    0.000000000e+00    0.000000000e+00    0.000000000e+00
         644000    8.029353023e-01   -1.651014686e-01   -2.218037844e-05   -1.896917820e-05    0.000000000e+00    0.000000000e+00    0.000000000e+00    0.000000000e+00
         668750    7.964526415e-01   -1.621579975e-01   -4.440080374e-05    1.178216189e-05    0.000000000e+00    0.000000000e+00    0.000000000e+00    0.000000000e+00
         693500    7.907820940e-01   -1.592066735e-01    8.209608495e-06   -4.043895751e-05    0.000000000e+00    0.000000000e+00    0.000000000e+00    0.000000000e+00
         718250    7.852324843e-01   -1.561854780e-01    1.490954310e-05   -4.176050425e-05    0.000000000e+00    0.000000000e+00    0.000000000e+00    0.000000000e+00
         743000    7.804545760e-01   -1.537245363e-01   -6.009824574e-06    4.696939141e-05    0.000000000e+00    0.000000000e+00    0.000000000e+00    0.000000000e+00
         767750    7.755514383e-01   -1.512837112e-01    2.480018884e-05    3.047287464e-05    0.000000000e+00    0.000000000e+00    0.000000000e+00    0.000000000e+00
         792500    7.718701363e-01   -1.482268721e-01    6.219372153e-06    2.495758235e-05    0.000000000e+00    0.000000000e+00    0.000000000e+00    0.000000000e+00
         817250    7.678793669e-01   -1.457200795e-01   -1.122150570e-05   -1.184549183e-05    0.000000000e+00    0.000000000e+00    0.000000000e+00    0.000000000e+00
         842000    7.642825842e-01   -1.434244365e-01   -8.568167686e-06    8.959323168e-06    0.000000000e+00    0.000000000e+00    0.000000000e+00    0.000000000e+00
         866750    7.607535124e-01   -1.409863830e-01   -1.973565668e-05    1.738499850e-05    0.000000000e+00    0.000000000e+00    0.000000000e+00    0.000000000e+00
         891500    7.578464150e-01   -1.386335641e-01    2.899765968e-05    2.560112625e-05    0.000000000e+00    0.000000000e+00    0.000000000e+00    0.000000000e+00
         916250    7.546604872e-01   -1.361307651e-01    9.940005839e-06   -1.481361687e-05    0.000000000e+00    0.000000000e+00    0.000000000e+00    0.000000000e+00
         941000    7.521679401e-01   -1.342997551e-01   -2.411473542e-05    2.227351069e-05    0.000000000e+00    0.000000000e+00    0.000000000e+00    0.000000000e+00
         965750    7.496993542e-01   -1.320778728e-01   -2.601556480e-05    1.473911107e-05    0.000000000e+00    0.000000000e+00    0.000000000e+00    0.000000000e+00
         990500    7.469499707e-01   -1.305156648e-01   -4.887022078e-05   -4.950631410e-05    0.000000000e+00    0.000000000e+00    0.000000000e+00    0.000000000e+00
        1015250    7.452514768e-01   -1.284632385e-01    2.759974450e-05    1.676380634e-07    0.000000000e+00    0.000000000e+00    0.000000000e+00    0.000000000e+00
        1040000    7.429103255e-01   -1.268145442e-01    1.746881753e-05    2.858787775e-05    0.000000000e+00    0.000000000e+00    0.000000000e+00    0.000000000e+00
        1064750    7.405133843e-01   -1.240366772e-01   -3.838911653e-06   -2.802256495e-05    0.000000000e+00    0.000000000e+00    0.000000000e+00    0.000000000e+00
        1089500    7.389339209e-01   -1.232921556e-01   -3.904104233e-06    4.756450653e-05    0.000000000e+00    0.000000000e+00    0.000000000e+00    0.000000000e+00
        1114250    7.372581959e-01   -1.215047464e-01   -6.340444088e-06    4.732981324e-06    0.000000000e+00    0.000000000e+00    0.000000000e+00    0.000000000e+00
        1139000    7.356072664e-01   -1.196678728e-01   -3.522168845e-05    2.579670399e-05    0.000000000e+00    0.000000000e+00    0.000000000e+00    0.000000000e+00
        1163750    7.335846424e-01   -1.184664667e-01   -5.670823157e-06    1.441314816e-05    0.000000000e+00    0.000000000e+00    0.000000000e+00    0.000000000e+00
        1188500    7.322795987e-01   -1.165175289e-01   -7.651746273e-06    1.756660640e-05    0.000000000e+00    0.000000000e+00    0.000000000e+00    0.000000000e+00
        1213250    7.310841680e-01   -1.152459681e-01    2.718344331e-05   -1.182314008e-05    0.000000000e+00    0.000000000e+00    0.000000000e+00    0.000000000e+00
        1238000    7.293413281e-01   -1.140156463e-01    1.896079630e-05   -2.323556691e-05    0.000000000e+00    0.000000000e+00    0.000000000e+00    0.000000000e+00
        1262750    7.281425595e-01   -1.128506586e-01   -2.445187420e-05    7.519498467e-06    0.000000000e+00    0.000000000e+00    0.000000000e+00    0.000000000e+00
        1287500    7.268084884e-01   -1.112832129e-01   -1.807976514e-05   -6.087124348e-06    0.000000000e+00    0.000000000e+00    0.000000000e+00    0.000000000e+00
        1312250    7.256993055e-01   -1.099837348e-01   -4.945416003e-05   -2.641510218e-05    0.000000000e+00    0.000000000e+00    0.000000000e+00    0.000000000e+00
        1337000    7.242096663e-01   -1.092225015e-01   -2.983864397e-05    2.199783921e-05    0.000000000e+00    0.000000000e+00    0.000000000e+00    0.000000000e+00
        1361750    7.235122323e-01   -1.076544076e-01    1.506786793e-05    1.068226993e-05    0.000000000e+00    0.000000000e+00    0.000000000e+00    0.000000000e+00
        1386500    7.225770950e-01   -1.066307351e-01   -1.366343349e-05   -4.754401743e-06    0.000000000e+00    0.000000000e+00    0.000000000e+00    0.000000000e+00
        1411250    7.213960886e-01   -1.053902730e-01    3.449618816e-05   -2.514198422e-05    0.000000000e+00    0.000000000e+00    0.000000000e+00    0.000000000e+00
        1436000    7.204930186e-01   -1.046352312e-01    1.427251846e-05    2.497620881e-05    0.000000000e+00    0.000000000e+00    0.000000000e+00    0.000000000e+00
        1460750    7.199595571e-01   -1.035389751e-01    3.833416849e-05    7.539987564e-06    0.000000000e+00    0.000000000e+00    0.000000000e+00    0.000000000e+00
        1485500    7.188627124e-01   -1.021438837e-01   -2.798065543e-05    3.792066127e-05    0.000000000e+00    0.000000000e+00    0.000000000e+00    0.000000000e+00
        1510250    7.178878784e-01   -1.017181650e-01    1.216679811e-05    1.336634159e-05    0.000000000e+00    0.000000000e+00    0.000000000e+00    0.000000000e+00
        1535000    7.174425125e-01   -1.006639823e-01    1.682806760e-05   -7.133930922e-06    0.000000000e+00    0.000000000e+00    0.000000000e+00    0.000000000e+00
        1559750    7.158575654e-01   -9.947858006e-02   -4.870444536e-05    1.967512071e-05    0.000000000e+00    0.000000000e+00    0.000000000e+00    0.000000000e+00
        1584500    7.156947851e-01   -9.905134141e-02   -1.758337021e-05   -3.134552389e-05    0.000000000e+00    0.000000000e+00    0.000000000e+00    0.000000000e+00
        1609250    7.152031064e-01   -9.817625582e-02    5.053356290e-06    5.028862506e-05    0.000000000e+00    0.000000000e+00    0.000000000e+00    0.000000000e+00
        1634000    7.140963078e-01   -9.706395864e-02    2.988707274e-05    2.432055771e-05    0.000000000e+00    0.000000000e+00    0.000000000e+00    0.000000000e+00
        1658750    7.138779759e-01   -9.634317458e-02   -1.992098987e-05    9.433366358e-06    0.000000000e+00    0.000000000e+00    0.000000000e+00    0.000000000e+00
        1683500    7.129071355e-01   -9.567057341e-02    1.578778028e-05    9.462237358e-06    0.000000000e+00    0.000000000e+00    0.000000000e+00    0.000000000e+00
        1708250    7.122324109e-01   -9.485983104e-02   -2.256967127e-05   -8.796341717e-06    0.000000000e+00    0.000000000e+00    0.000000000e+00    0.000000000e+00
        1733000    7.116903663e-01   -9.422311187e-02   -4.020519555e-06   -1.550465822e-05    0.000000000e+00    0.000000000e+00    0.000000000e+00    0.000000000e+00
        1757750    7.111133933e-01   -9.383011609e-02   -1.651048660e-05    1.486018300e-05    0.000000000e+00    0.000000000e+00    0.000000000e+00    0.000000000e+00
        1782500    7.108556628e-01   -9.307502210e-02   -4.849117249e-05    1.024827361e-05    0.000000000e+00    0.000000000e+00    0.000000000e+00    0.000000000e+00
        1807250    7.101547122e-01   -9.220407158e-02   -3.133527935e-05   -5.562603474e-05    0.000000000e+00    0.000000000e+00    0.000000000e+00    0.000000000e+00
        1832000    7.096639872e-01   -9.185510874e-02   -1.278426498e-05    3.203283995e-05    0.000000000e+00    0.000000000e+00    0.000000000e+00    0.000000000e+00
        1856750    7.093688250e-01   -9.158013016e-02    7.755123079e-06   -2.106651664e-06    0.000000000e+00    0.000000000e+00    0.000000000e+00    0.000000000e+00
        1881500    7.089160681e-01   -9.067294747e-02    1.202803105e-05    2.915970981e-05    0.000000000e+00    0.000000000e+00    0.000000000e+00    0.000000000e+00
        1906250    7.084267139e-01   -9.050866216e-02    1.897569746e-05   -2.238899469e-05    0.000000000e+00    0.000000000e+00    0.000000000e+00    0.000000000e+00
        1931000    7.079870701e-01   -8.978185058e-02   -6.399117410e-06   -1.803878695e-05    0.000000000e+00    0.000000000e+00    0.000000000e+00    0.000000000e+00
        1955750    7.075653076e-01   -8.885489404e-02    8.494593203e-06    1.476891339e-05    0.000000000e+00    0.000000000e+00    0.000000000e+00    0.000000000e+00
        1980500    7.071468234e-01   -8.881678432e-02    6.714835763e-06    2.467911690e-05    0.000000000e+00    0.000000000e+00    0.000000000e+00    0.000000000e+00
        2005250    7.069948316e-01   -8.853274584e-02   -7.555820048e-06   -2.153497189e-05    0.000000000e+00    0.000000000e+00    0.000000000e+00    0.000000000e+00
        2030000    7.066414356e-01   -8.752560616e-02   -4.746019840e-06   -1.003313810e-05    0.000000000e+00    0.000000000e+00    0.000000000e+00    0.000000000e+00
        2054750    7.061593533e-01   -8.735880256e-02   -4.650093615e-06    5.903653800e-06    0.000000000e+00    0.000000000e+00    0.000000000e+00    0.000000000e+00
        2079500    7.056882977e-01   -8.710023016e-02   -2.761930227e-05   -1.920294017e-05    0.000000000e+00    0.000000000e+00    0.000000000e+00    0.000000000e+00
        2104250    7.056258321e-01   -8.633258194e-02   -1.548416913e-05   -5.326233804e-06    0.000000000e+00    0.000000000e+00    0.000000000e+00    0.000000000e+00
        2129000    7.050262094e-01   -8.612478524e-02    8.447095752e-06    1.616030931e-05    0.000000000e+00    0.000000000e+00    0.000000000e+00    0.000000000e+00
        2153750    7.048300505e-01   -8.594459295e-02   -3.286916763e-05   -2.297293395e-05    0.000000000e+00    0.000000000e+00    0.000000000e+00    0.000000000e+00
        2178500    7.047222257e-01   -8.555012196e-02   -1.717638224e-05   -3.690738231e-05    0.000000000e+00    0.000000000e+00    0.000000000e+00    0.000000000e+00
        2203250    7.043814063e-01   -8.509831876e-02   -2.781301737e-05    1.744553447e-05    0.000000000e+00    0.000000000e+00    0.000000000e+00    0.000000000e+00
        2228000    7.038503885e-01   -8.501374722e-02    9.296461940e-06    3.421772271e-05    0.000000000e+00    0.000000000e+00    0.000000000e+00    0.000000000e+00
        2252750    7.039048672e-01   -8.466948569e-02   -3.002211452e-05    1.069065183e-05    0.000000000e+00    0.000000000e+00    0.000000000e+00    0.000000000e+00
        2277500    7.033661604e-01   -8.434215933e-02    1.596007496e-05    1.605600119e-05    0.000000000e+00    0.000000000e+00    0.000000000e+00    0.000000000e+00
        2302250    7.032537460e-01   -8.392912149e-02   -4.470348358e-05    8.952803910e-06    0.000000000e+00    0.000000000e+00    0.000000000e+00    0.000000000e+00
        2327000    7.031908035e-01   -8.354245126e-02   -4.942528903e-06   -3.233924508e-05    0.000000000e+00    0.000000000e+00    0.000000000e+00    0.000000000e+00
        2351750    7.031611800e-01   -8.331202716e-02   -4.263129085e-05    1.502875239e-05    0.000000000e+00    0.000000000e+00    0.000000000e+00    0.000000000e+00
        2376500    7.025350928e-01   -8.335390687e-02   -1.885462552e-05   -9.092502296e-06    0.000000000e+00    0.000000000e+00    0.000000000e+00    0.000000000e+00
        2401250    7.027302384e-01   -8.316897601e-02    2.183951437e-05   -5.495734513e-05    0.000000000e+00    0.000000000e+00    0.000000000e+00    0.000000000e+00
        2426000    7.022041082e-01   -8.279132098e-02   -3.485940397e-06   -2.397876233e-05    0.000000000e+00    0.000000000e+00    0.000000000e+00    0.000000000e+00
        2450750    7.021602988e-01   -8.256425709e-02   -1.357682049e-05    2.563279122e-05    0.000000000e+00    0.000000000e+00    0.000000000e+00    0.000000000e+00
        2475500    7.021093369e-01   -8.238816261e-02   -3.138743341e-05   -3.379769623e-06    0.000000000e+00    0.000000000e+00    0.000000000e+00    0.000000000e+00
        2500250    7.014720440e-01   -8.249499649e-02   -4.857312888e-05    2.783816308e-05    0.000000000e+00    0.000000000e+00    0.000000000e+00    0.000000000e+00
        2525000    7.014780045e-01   -8.180974424e-02   -2.225954086e-05    1.739617437e-05    0.000000000e+00    0.000000000e+00    0.000000000e+00    0.000000000e+00
        2549750    7.012128234e-01   -8.186466247e-02   -3.532506526e-06    2.615153790e-06    0.000000000e+00    0.000000000e+00    0.000000000e+00    0.000000000e+00
        2574500    7.014742494e-01   -8.166775107e-02   -2.566725016e-05    1.867394894e-05    0.000000000e+00    0.000000000e+00    0.000000000e+00    0.000000000e+00
        2599250    7.010256052e-01   -8.172622323e-02    2.610962838e-05    4.699453712e-06    0.000000000e+00    0.000000000e+00    0.000000000e+00    0.000000000e+00
        2624000    7.009571791e-01   -8.131327480e-02    2.893339843e-05    1.517124474e-05    0.000000000e+00    0.000000000e+00    0.000000000e+00    0.000000000e+00
        2648750    7.008747458e-01   -8.136264980e-02    9.350478649e-06    4.878826439e-05    0.000000000e+00    0.000000000e+00    0.000000000e+00    0.000000000e+00
        2673500    7.006094456e-01   -8.135569841e-02   -3.529805690e-05   -4.296936095e-05    0.000000000e+00    0.000000000e+00    0.000000000e+00    0.000000000e+00
        2698250    7.003101110e-01   -8.093692362e-02   -7.119029760e-06   -1.350697130e-05    0.000000000e+00    0.000000000e+00    0.000000000e+00    0.000000000e+00
        2723000    7.004182339e-01   -8.110214025e-02    2.270843834e-05   -1.827534288e-05    0.000000000e+00    0.000000000e+00    0.000000000e+00    0.000000000e+00
        2747750    7.003018260e-01   -8.093161881e-02    2.079177648e-05    3.617256880e-06    0.000000000e+00    0.000000000e+00    0.000000000e+00    0.000000000e+00
        2772500    7.001528144e-01   -8.085484058e-02   -9.306706488e-06   -3.508292139e-06    0.000000000e+00    0.000000000e+00    0.000000000e+00    0.000000000e+00
        2797250    6.998823285e-01   -8.080045879e-02   -2.816226333e-05    3.031454980e-05    0.000000000e+00    0.000000000e+00    0.000000000e+00    0.000000000e+00
        2822000    6.999729872e-01   -8.066660166e-02   -4.264991730e-05   -4.610233009e-05    0.000000000e+00    0.000000000e+00    0.000000000e+00    0.000000000e+00
        2846750    6.998367310e-01   -8.058734983e-02    5.512405187e-05   -1.900270581e-05    0.000000000e+00    0.000000000e+00    0.000000000e+00    0.000000000e+00
        2871500    6.996095777e-01   -8.080162853e-02   -9.900890291e-06    2.458970994e-05    0.000000000e+00    0.000000000e+00    0.000000000e+00    0.000000000e+00
        2896250    6.998623013e-01   -8.051422983e-02   -1.553352922e-05   -1.108273864e-06    0.000000000e+00    0.000000000e+00    0.000000000e+00    0.000000000e+00
        2921000    6.991562247e-01   -8.052187413e-02   -4.197191447e-05    5.884096026e-06    0.000000000e+00    0.000000000e+00    0.000000000e+00    0.000000000e+00
