! NanoVNA-App by OneOfEleven et al v1.1.209 (+OD15) 
! Date: 2024-07-30 12:37:11
! Start: 50kHz Stop: 5MHz Points: 201
! S-Parameter data: F S11 S21 S12 S22
# Hz S RI R 50
!     Frequency           S11_Real           S11_Imag           S21_Real           S21_Imag           S12_Real           S12_Imag           S22_Real           S22_Imag
          50000    1.005311370e+00   -1.625319943e-02    2.289190888e-06    6.714835763e-06    0.000000000e+00    0.000000000e+00    0.000000000e+00    0.000000000e+00
          74750    1.004642248e+00   -2.468994819e-02   -7.573515177e-06   -1.915544271e-05    0.000000000e+00    0.000000000e+00    0.000000000e+00    0.000000000e+00
          99500    1.006570220e+00   -3.522677720e-02   -2.826657146e-05    9.894371033e-06    0.000000000e+00    0.000000000e+00    0.000000000e+00    0.000000000e+00
         124250    1.009893894e+00   -4.747458920e-02   -1.070834696e-05    9.989365935e-06    0.000000000e+00    0.000000000e+00    0.000000000e+00    0.000000000e+00
         149000    1.011475801e+00   -6.153585762e-02    1.008622348e-05   -7.121823728e-06    0.000000000e+00    0.000000000e+00    0.000000000e+00    0.000000000e+00
         173750    9.904891849e-01   -1.341370195e-01    8.376315236e-06   -8.050352335e-06    0.000000000e+00    0.000000000e+00    0.000000000e+00    0.000000000e+00
         198500    9.881308675e-01   -1.513597667e-01    4.053115845e-06   -1.040194184e-05    0.000000000e+00    0.000000000e+00    0.000000000e+00    0.000000000e+00
         223250    9.829836488e-01   -1.687409133e-01   -3.774650395e-06    1.543201506e-06    0.000000000e+00    0.000000000e+00    0.000000000e+00    0.000000000e+00
         248000    9.750527740e-01   -1.865055263e-01    3.441236913e-06   -8.252449334e-06    0.000000000e+00    0.000000000e+00    0.000000000e+00    0.000000000e+00
         272750    9.638810754e-01   -2.028707415e-01   -1.886300743e-05   -5.879439414e-06    0.000000000e+00    0.000000000e+00    0.000000000e+00    0.000000000e+00
         297500    9.506301880e-01   -2.166679054e-01   -1.863017678e-05    2.717599273e-06    0.000000000e+00    0.000000000e+00    0.000000000e+00    0.000000000e+00
         322250    9.358581901e-01   -2.290173769e-01   -3.660097718e-07   -8.078292012e-06    0.000000000e+00    0.000000000e+00    0.000000000e+00    0.000000000e+00
         347000    9.190259576e-01   -2.383877784e-01    2.421438694e-07   -6.434507668e-06    0.000000000e+00    0.000000000e+00    0.000000000e+00    0.000000000e+00
         371750    9.029865861e-01   -2.451718450e-01    1.081731170e-05    6.602145731e-06    0.000000000e+00    0.000000000e+00    0.000000000e+00    0.000000000e+00
         396500    8.870655894e-01   -2.498598248e-01    5.171634257e-06    1.020357013e-05    0.000000000e+00    0.000000000e+00    0.000000000e+00    0.000000000e+00
         421250    8.955481052e-01   -1.744751483e-01   -1.841969788e-05   -3.636907786e-05    0.000000000e+00    0.000000000e+00    0.000000000e+00    0.000000000e+00
         446000    8.808985353e-01   -1.775359660e-01   -1.205690205e-05   -1.190602779e-05    0.000000000e+00    0.000000000e+00    0.000000000e+00    0.000000000e+00
         470750    8.679273725e-01   -1.783830971e-01    3.366824239e-05   -5.918554962e-06    0.000000000e+00    0.000000000e+00    0.000000000e+00    0.000000000e+00
         495500    8.553873897e-01   -1.773716658e-01   -5.895271897e-06   -4.245154560e-05    0.000000000e+00    0.000000000e+00    0.000000000e+00    0.000000000e+00
         520250    8.447595239e-01   -1.767563373e-01    1.755543053e-05   -4.455540329e-05    0.000000000e+00    0.000000000e+00    0.000000000e+00    0.000000000e+00
         545000    8.349611759e-01   -1.748552024e-01   -1.795589924e-06    5.614291877e-05    0.000000000e+00    0.000000000e+00    0.000000000e+00    0.000000000e+00
         569750    8.254625797e-01   -1.724592149e-01   -5.479902029e-06   -1.649558544e-05    0.000000000e+00    0.000000000e+00    0.000000000e+00    0.000000000e+00
         594500    8.173694015e-01   -1.700112969e-01   -3.753229976e-07   -6.234273314e-06    0.000000000e+00    0.000000000e+00    0.000000000e+00    0.000000000e+00
         619250    8.098840117e-01   -1.672257632e-01   -8.421950042e-06    1.544132829e-06    0.000000000e+00    0.000000000e+00    0.000000000e+00    0.000000000e+00
         644000    8.025222421e-01   -1.653028280e-01    2.356618643e-05   -3.646314144e-05    0.000000000e+00    0.000000000e+00    0.000000000e+00    0.000000000e+00
         668750    7.964051366e-01   -1.617984474e-01    3.742054105e-05   -2.658087760e-05    0.000000000e+00    0.000000000e+00    0.000000000e+00    0.000000000e+00
         693500    7.904520035e-01   -1.593972445e-01   -2.051703632e-05    1.412257552e-05    0.000000000e+00    0.000000000e+00    0.000000000e+00    0.000000000e+00
         718250    7.853266001e-01   -1.564234942e-01   -2.887099981e-07    3.073271364e-05    0.000000000e+00    0.000000000e+00    0.000000000e+00    0.000000000e+00
         743000    7.802382112e-01   -1.536414474e-01    1.229345798e-06    2.425722778e-05    0.000000000e+00    0.000000000e+00    0.000000000e+00    0.000000000e+00
         767750    7.756307125e-01   -1.511704922e-01    1.670978963e-05   -4.823040217e-05    0.000000000e+00    0.000000000e+00    0.000000000e+00    0.000000000e+00
         792500    7.719693780e-01   -1.483367383e-01   -1.502968371e-05   -5.924142897e-05    0.000000000e+00    0.000000000e+00    0.000000000e+00    0.000000000e+00
         817250    7.677873969e-01   -1.455997974e-01    7.441267371e-07    3.788620234e-06    0.000000000e+00    0.000000000e+00    0.000000000e+00    0.000000000e+00
         842000    7.643613219e-01   -1.431100816e-01   -1.877825707e-05   -8.361414075e-06    0.000000000e+00    0.000000000e+00    0.000000000e+00    0.000000000e+00
         866750    7.609864473e-01   -1.410298198e-01    4.374701530e-05    3.935024142e-05    0.000000000e+00    0.000000000e+00    0.000000000e+00    0.000000000e+00
         891500    7.578509450e-01   -1.385657936e-01   -1.370813698e-05   -2.528633922e-05    0.000000000e+00    0.000000000e+00    0.000000000e+00    0.000000000e+00
         916250    7.542286515e-01   -1.368058622e-01   -4.035141319e-05   -1.565273851e-05    0.000000000e+00    0.000000000e+00    0.000000000e+00    0.000000000e+00
         941000    7.519252896e-01   -1.346627623e-01   -3.777351230e-05    1.844763756e-05    0.000000000e+00    0.000000000e+00    0.000000000e+00    0.000000000e+00
         965750    7.494120002e-01   -1.324616969e-01    1.386925578e-05    3.179535270e-05    0.000000000e+00    0.000000000e+00    0.000000000e+00    0.000000000e+00
         990500    7.472136021e-01   -1.304964721e-01   -3.298744559e-05    2.125278115e-06    0.000000000e+00    0.000000000e+00    0.000000000e+00    0.000000000e+00
        1015250    7.449038625e-01   -1.282024980e-01   -4.689302295e-05    3.979075700e-05    0.000000000e+00    0.000000000e+00    0.000000000e+00    0.000000000e+00
        1040000    7.431197166e-01   -1.264111996e-01   -2.047605813e-05    7.878057659e-06    0.000000000e+00    0.000000000e+00    0.000000000e+00    0.000000000e+00
        1064750    7.407456040e-01   -1.251626462e-01    3.233179450e-05   -2.450682223e-05    0.000000000e+00    0.000000000e+00    0.000000000e+00    0.000000000e+00
        1089500    7.387021184e-01   -1.231363118e-01    2.054404467e-05   -2.628564835e-05    0.000000000e+00    0.000000000e+00    0.000000000e+00    0.000000000e+00
        1114250    7.371279597e-01   -1.210663393e-01    1.004897058e-05   -2.769473940e-05    0.000000000e+00    0.000000000e+00    0.000000000e+00    0.000000000e+00
        1139000    7.349655628e-01   -1.200116053e-01   -3.594160080e-05    7.481314242e-06    0.000000000e+00    0.000000000e+00    0.000000000e+00    0.000000000e+00
        1163750    7.339113355e-01   -1.188137978e-01    1.568906009e-05   -1.987162977e-05    0.000000000e+00    0.000000000e+00    0.000000000e+00    0.000000000e+00
        1188500    7.326734066e-01   -1.169855073e-01    1.170393080e-05   -1.281779259e-05    0.000000000e+00    0.000000000e+00    0.000000000e+00    0.000000000e+00
        1213250    7.308817506e-01   -1.152039394e-01    8.158385754e-06   -1.319684088e-05    0.000000000e+00    0.000000000e+00    0.000000000e+00    0.000000000e+00
        1238000    7.295035124e-01   -1.138588190e-01    2.031214535e-06   -4.475936294e-06    0.000000000e+00    0.000000000e+00    0.000000000e+00    0.000000000e+00
        1262750    7.283312678e-01   -1.126499698e-01   -8.272007108e-06    1.627858728e-05    0.000000000e+00    0.000000000e+00    0.000000000e+00    0.000000000e+00
        1287500    7.270556688e-01   -1.109341010e-01   -4.008132964e-05    5.271565169e-05    0.000000000e+00    0.000000000e+00    0.000000000e+00    0.000000000e+00
        1312250    7.258021235e-01   -1.100555956e-01    2.002436668e-05    1.199077815e-05    0.000000000e+00    0.000000000e+00    0.000000000e+00    0.000000000e+00
        1337000    7.244625688e-01   -1.088966057e-01   -2.360530198e-05    1.169741154e-06    0.000000000e+00    0.000000000e+00    0.000000000e+00    0.000000000e+00
        1361750    7.232440710e-01   -1.076067835e-01    1.203175634e-05    2.861954272e-05    0.000000000e+00    0.000000000e+00    0.000000000e+00    0.000000000e+00
        1386500    7.224455476e-01   -1.063913926e-01    1.304410398e-05    1.664180309e-05    0.000000000e+00    0.000000000e+00    0.000000000e+00    0.000000000e+00
        1411250    7.213653326e-01   -1.058460847e-01    2.004671842e-05   -1.864507794e-06    0.000000000e+00    0.000000000e+00    0.000000000e+00    0.000000000e+00
        1436000    7.207823992e-01   -1.046507210e-01    3.138929605e-05    1.183710992e-05    0.000000000e+00    0.000000000e+00    0.000000000e+00    0.000000000e+00
        1460750    7.196476460e-01   -1.030633748e-01    3.838632256e-05    8.516013622e-06    0.000000000e+00    0.000000000e+00    0.000000000e+00    0.000000000e+00
        1485500    7.186077237e-01   -1.024023369e-01   -1.931749284e-05   -2.559553832e-05    0.000000000e+00    0.000000000e+00    0.000000000e+00    0.000000000e+00
        1510250    7.178812027e-01   -1.013598517e-01   -3.465451300e-05   -9.325332940e-06    0.000000000e+00    0.000000000e+00    0.000000000e+00    0.000000000e+00
        1535000    7.171519995e-01   -1.003634557e-01   -1.294258982e-05    1.820176840e-05    0.000000000e+00    0.000000000e+00    0.000000000e+00    0.000000000e+00
        1559750    7.160566449e-01   -9.962968528e-02    4.390627146e-05    5.397107452e-05    0.000000000e+00    0.000000000e+00    0.000000000e+00    0.000000000e+00
        1584500    7.154224515e-01   -9.881509095e-02   -3.363005817e-06   -8.163042367e-06    0.000000000e+00    0.000000000e+00    0.000000000e+00    0.000000000e+00
        1609250    7.150561810e-01   -9.789958596e-02   -7.698312402e-06   -8.773058653e-06    0.000000000e+00    0.000000000e+00    0.000000000e+00    0.000000000e+00
        1634000    7.141699791e-01   -9.740785509e-02   -3.885105252e-05    2.351962030e-05    0.000000000e+00    0.000000000e+00    0.000000000e+00    0.000000000e+00
        1658750    7.135578394e-01   -9.679767489e-02    9.130686522e-06    3.278255463e-07    0.000000000e+00    0.000000000e+00    0.000000000e+00    0.000000000e+00
        1683500    7.130449414e-01   -9.577937424e-02    4.209578037e-07   -1.594610512e-05    0.000000000e+00    0.000000000e+00    0.000000000e+00    0.000000000e+00
        1708250    7.123364806e-01   -9.491788596e-02   -8.617527783e-06    1.887604594e-05    0.000000000e+00    0.000000000e+00    0.000000000e+00    0.000000000e+00
        1733000    7.120515108e-01   -9.413460642e-02    2.502370626e-05    4.994682968e-06    0.000000000e+00    0.000000000e+00    0.000000000e+00    0.000000000e+00
        1757750    7.114429474e-01   -9.383692592e-02    2.482440323e-05   -3.822147846e-06    0.000000000e+00    0.000000000e+00    0.000000000e+00    0.000000000e+00
        1782500    7.107110620e-01   -9.304106236e-02   -1.139007509e-06    3.024656326e-05    0.000000000e+00    0.000000000e+00    0.000000000e+00    0.000000000e+00
        1807250    7.102769017e-01   -9.233982861e-02    8.868053555e-06   -8.529052138e-06    0.000000000e+00    0.000000000e+00    0.000000000e+00    0.000000000e+00
        1832000    7.095878720e-01   -9.188768268e-02   -2.460833639e-05   -1.138076186e-06    0.000000000e+00    0.000000000e+00    0.000000000e+00    0.000000000e+00
        1856750    7.092834711e-01   -9.142172337e-02    3.459677100e-05    3.688596189e-05    0.000000000e+00    0.000000000e+00    0.000000000e+00    0.000000000e+00
        1881500    7.087954879e-01   -9.059092402e-02   -4.148669541e-05    1.746509224e-05    0.000000000e+00    0.000000000e+00    0.000000000e+00    0.000000000e+00
        1906250    7.082698345e-01   -9.040832520e-02    1.805275679e-05   -5.373358727e-05    0.000000000e+00    0.000000000e+00    0.000000000e+00    0.000000000e+00
        1931000    7.080059052e-01   -8.942380548e-02    6.826594472e-07    1.351349056e-05    0.000000000e+00    0.000000000e+00    0.000000000e+00    0.000000000e+00
        1955750    7.074124217e-01   -8.905556053e-02    6.354413927e-06   -1.846998930e-05    0.000000000e+00    0.000000000e+00    0.000000000e+00    0.000000000e+00
        1980500    7.070985436e-01   -8.882050216e-02   -4.954636097e-07   -1.827627420e-05    0.000000000e+00    0.000000000e+00    0.000000000e+00    0.000000000e+00
        2005250    7.069019675e-01   -8.824257553e-02   -2.867821604e-05   -1.588556916e-05    0.000000000e+00    0.000000000e+00    0.000000000e+00    0.000000000e+00
        2030000    7.067646384e-01   -8.793614060e-02   -5.342066288e-06    4.421919584e-06    0.000000000e+00    0.000000000e+00    0.000000000e+00    0.000000000e+00
        2054750    7.060009837e-01   -8.716775477e-02    1.031998545e-05   -3.072433174e-06    0.000000000e+00    0.000000000e+00    0.000000000e+00    0.000000000e+00
        2079500    7.058389783e-01   -8.726292104e-02   -2.847053111e-06   -3.089848906e-05    0.000000000e+00    0.000000000e+00    0.000000000e+00    0.000000000e+00
        2104250    7.056877613e-01   -8.631050587e-02   -4.968326539e-05   -2.115685493e-05    0.000000000e+00    0.000000000e+00    0.000000000e+00    0.000000000e+00
        2129000    7.052208781e-01   -8.597955108e-02   -1.425482333e-05   -2.932827920e-05    0.000000000e+00    0.000000000e+00    0.000000000e+00    0.000000000e+00
        2153750    7.048003674e-01   -8.593027294e-02    3.268662840e-05    3.928039223e-05    0.000000000e+00    0.000000000e+00    0.000000000e+00    0.000000000e+00
        2178500    7.047697306e-01   -8.540014923e-02    5.774199963e-08    1.146551222e-05    0.000000000e+00    0.000000000e+00    0.000000000e+00    0.000000000e+00
        2203250    7.043316960e-01   -8.494718373e-02   -2.244208008e-05    1.448206604e-05    0.000000000e+00    0.000000000e+00    0.000000000e+00    0.000000000e+00
        2228000    7.039256692e-01   -8.504059911e-02    2.261437476e-05   -3.638677299e-06    0.000000000e+00    0.000000000e+00    0.000000000e+00    0.000000000e+00
        2252750    7.038205862e-01   -8.450331539e-02   -1.125782728e-05   -1.636333764e-05    0.000000000e+00    0.000000000e+00    0.000000000e+00    0.000000000e+00
        2277500    7.035145164e-01   -8.419110626e-02   -2.114009112e-05   -2.053752542e-05    0.000000000e+00    0.000000000e+00    0.000000000e+00    0.000000000e+00
        2302250    7.035775781e-01   -8.399274200e-02   -5.423743278e-05    4.114583135e-06    0.000000000e+00    0.000000000e+00    0.000000000e+00    0.000000000e+00
        2327000    7.032009363e-01   -8.373408020e-02    2.223532647e-05    1.751445234e-05    0.000000000e+00    0.000000000e+00    0.000000000e+00    0.000000000e+00
        2351750    7.027513981e-01   -8.328106999e-02    1.689977944e-05   -2.223718911e-05    0.000000000e+00    0.000000000e+00    0.000000000e+00    0.000000000e+00
        2376500    7.026314735e-01   -8.355422318e-02    1.648440957e-07   -5.031470209e-05    0.000000000e+00    0.000000000e+00    0.000000000e+00    0.000000000e+00
        2401250    7.027249336e-01   -8.306062222e-02    2.519041300e-05   -4.188250750e-05    0.000000000e+00    0.000000000e+00    0.000000000e+00    0.000000000e+00
        2426000    7.022517323e-01   -8.275908977e-02   -5.651079118e-05   -4.412699491e-05    0.000000000e+00    0.000000000e+00    0.000000000e+00    0.000000000e+00
        2450750    7.016866803e-01   -8.288351446e-02    5.637295544e-06   -3.563426435e-05    0.000000000e+00    0.000000000e+00    0.000000000e+00    0.000000000e+00
        2475500    7.019389868e-01   -8.258514106e-02    2.477876842e-05    1.937150955e-06    0.000000000e+00    0.000000000e+00    0.000000000e+00    0.000000000e+00
        2500250    7.016222477e-01   -8.205702901e-02   -8.242204785e-07   -2.697948366e-05    0.000000000e+00    0.000000000e+00    0.000000000e+00    0.000000000e+00
        2525000    7.015303373e-01   -8.206398040e-02   -3.491062671e-05   -1.119542867e-05    0.000000000e+00    0.000000000e+00    0.000000000e+00    0.000000000e+00
        2549750    7.014379501e-01   -8.187408000e-02   -5.762279034e-05   -1.216772944e-05    0.000000000e+00    0.000000000e+00    0.000000000e+00    0.000000000e+00
        2574500    7.015336156e-01   -8.172085136e-02    2.259016037e-05   -8.916482329e-06    0.000000000e+00    0.000000000e+00    0.000000000e+00    0.000000000e+00
        2599250    7.010892630e-01   -8.146148920e-02    4.677101970e-06   -4.035513848e-05    0.000000000e+00    0.000000000e+00    0.000000000e+00    0.000000000e+00
        2624000    7.010359764e-01   -8.161821216e-02   -2.918485552e-05   -1.691095531e-05    0.000000000e+00    0.000000000e+00    0.000000000e+00    0.000000000e+00
        2648750    7.007570267e-01   -8.161833882e-02    1.006294042e-05    2.544373274e-05    0.000000000e+00    0.000000000e+00    0.000000000e+00    0.000000000e+00
        2673500    7.006353736e-01   -8.155862242e-02    1.842156053e-06   -9.889714420e-06    0.000000000e+00    0.000000000e+00    0.000000000e+00    0.000000000e+00
        2698250    7.002708316e-01   -8.108250052e-02   -2.356804907e-05   -3.360491246e-05    0.000000000e+00    0.000000000e+00    0.000000000e+00    0.000000000e+00
        2723000    7.005500197e-01   -8.140044659e-02    6.239861250e-08    2.939254045e-06    0.000000000e+00    0.000000000e+00    0.000000000e+00    0.000000000e+00
        2747750    7.003903985e-01   -8.122034371e-02    2.857297659e-06   -3.098975867e-05    0.000000000e+00    0.000000000e+00    0.000000000e+00    0.000000000e+00
        2772500    7.002748251e-01   -8.085174114e-02   -2.073962241e-05    8.157454431e-06    0.000000000e+00    0.000000000e+00    0.000000000e+00    0.000000000e+00
        2797250    7.001584172e-01   -8.086387068e-02   -1.186877489e-05   -1.264456660e-05    0.000000000e+00    0.000000000e+00    0.000000000e+00    0.000000000e+00
        2822000    6.997708082e-01   -8.077760041e-02    2.819858491e-05    5.903281271e-05    0.000000000e+00    0.000000000e+00    0.000000000e+00    0.000000000e+00
        2846750    6.997492909e-01   -8.047771454e-02    3.630295396e-06    2.172403038e-05    0.000000000e+00    0.000000000e+00    0.000000000e+00    0.000000000e+00
        2871500    6.995484829e-01   -8.087211102e-02   -2.841465175e-06   -4.920177162e-06    0.000000000e+00    0.000000000e+00    0.000000000e+00    0.000000000e+00
        2896250    6.998095512e-01   -8.068843931e-02    8.882023394e-06   -2.614874393e-05    0.000000000e+00    0.000000000e+00    0.000000000e+00    0.000000000e+00
        2921000    6.992189288e-01   -8.054668456e-02   -5.170702934e-06   -2.178177238e-05    0.000000000e+00    0.000000000e+00    0.000000000e+00    0.000000000e+00
