! NanoVNA-App by OneOfEleven et al v1.1.209 (+OD15) 
! Date: 2024-07-30 12:37:12
! Start: 50kHz Stop: 5MHz Points: 201
! S-Parameter data: F S11 S21 S12 S22
# Hz S RI R 50
!     Frequency           S11_Real           S11_Imag           S21_Real           S21_Imag           S12_Real           S12_Imag           S22_Real           S22_Imag
          50000    1.005254388e+00   -1.618078910e-02    2.092681825e-06   -4.755333066e-06    0.000000000e+00    0.000000000e+00    0.000000000e+00    0.000000000e+00
          74750    1.004349947e+00   -2.506844141e-02   -3.333948553e-05   -2.011004835e-05    0.000000000e+00    0.000000000e+00    0.000000000e+00    0.000000000e+00
          99500    1.006875753e+00   -3.507516161e-02   -2.541486174e-05   -1.698452979e-05    0.000000000e+00    0.000000000e+00    0.000000000e+00    0.000000000e+00
         124250    1.009846091e+00   -4.729625955e-02   -6.398186088e-06    3.232620656e-06    0.000000000e+00    0.000000000e+00    0.000000000e+00    0.000000000e+00
         149000    1.011479020e+00   -6.138718873e-02   -5.942769349e-06   -5.431473255e-06    0.000000000e+00    0.000000000e+00    0.000000000e+00    0.000000000e+00
         173750    9.906219840e-01   -1.343526840e-01    1.175049692e-05    5.962327123e-06    0.000000000e+00    0.000000000e+00    0.000000000e+00    0.000000000e+00
         198500    9.880906343e-01   -1.515724063e-01   -3.709457815e-06   -4.224479198e-06    0.000000000e+00    0.000000000e+00    0.000000000e+00    0.000000000e+00
         223250    9.832456112e-01   -1.685927361e-01   -1.248717308e-05   -1.254491508e-06    0.000000000e+00    0.000000000e+00    0.000000000e+00    0.000000000e+00
         248000    9.750993848e-01   -1.863726526e-01   -3.785826266e-06   -1.805182546e-05    0.000000000e+00    0.000000000e+00    0.000000000e+00    0.000000000e+00
         272750    9.638822675e-01   -2.028722614e-01   -3.511086106e-07   -1.319404691e-05    0.000000000e+00    0.000000000e+00    0.000000000e+00    0.000000000e+00
         297500    9.506899714e-01   -2.168267965e-01    8.186325431e-06   -1.830700785e-05    0.000000000e+00    0.000000000e+00    0.000000000e+00    0.000000000e+00
         322250    9.356226921e-01   -2.289288491e-01   -1.282617450e-05    4.541128874e-06    0.000000000e+00    0.000000000e+00    0.000000000e+00    0.000000000e+00
         347000    9.190772176e-01   -2.384046167e-01    7.198192179e-06    1.325923949e-05    0.000000000e+00    0.000000000e+00    0.000000000e+00    0.000000000e+00
         371750    9.028721452e-01   -2.451818585e-01   -7.455237210e-06    8.880160749e-06    0.000000000e+00    0.000000000e+00    0.000000000e+00    0.000000000e+00
         396500    8.868157268e-01   -2.500156164e-01   -1.557078212e-05   -2.091750503e-06    0.000000000e+00    0.000000000e+00    0.000000000e+00    0.000000000e+00
         421250    8.956131935e-01   -1.743243486e-01   -3.711786121e-05    3.559328616e-05    0.000000000e+00    0.000000000e+00    0.000000000e+00    0.000000000e+00
         446000    8.809669614e-01   -1.773787439e-01    8.158385754e-06    2.730730921e-05    0.000000000e+00    0.000000000e+00    0.000000000e+00    0.000000000e+00
         470750    8.680927753e-01   -1.782359928e-01    6.480142474e-06    5.401670933e-08    0.000000000e+00    0.000000000e+00    0.000000000e+00    0.000000000e+00
         495500    8.559821248e-01   -1.775601953e-01    1.269392669e-05   -4.852190614e-06    0.000000000e+00    0.000000000e+00    0.000000000e+00    0.000000000e+00
         520250    8.445158005e-01   -1.764506996e-01   -3.193505108e-06   -1.780409366e-05    0.000000000e+00    0.000000000e+00    0.000000000e+00    0.000000000e+00
         545000    8.348650932e-01   -1.751481593e-01   -2.052634954e-06    1.790281385e-05    0.000000000e+00    0.000000000e+00    0.000000000e+00    0.000000000e+00
         569750    8.256993890e-01   -1.725497097e-01    2.785865217e-05   -5.066394806e-05    0.000000000e+00    0.000000000e+00    0.000000000e+00    0.000000000e+00
         594500    8.173641562e-01   -1.702742130e-01   -4.692561924e-05    1.635681838e-05    0.000000000e+00    0.000000000e+00    0.000000000e+00    0.000000000e+00
         619250    8.095977902e-01   -1.679802686e-01   -2.889335155e-05    1.350417733e-06    0.000000000e+00    0.000000000e+00    0.000000000e+00    0.000000000e+00
         644000    8.028264642e-01   -1.646301746e-01   -9.955838323e-06   -3.054738045e-05    0.000000000e+00    0.000000000e+00    0.000000000e+00    0.000000000e+00
         668750    7.964868546e-01   -1.617621779e-01    1.436937600e-05   -7.835216820e-06    0.000000000e+00    0.000000000e+00    0.000000000e+00    0.000000000e+00
         693500    7.903547287e-01   -1.597044617e-01    4.543922842e-05    2.268701792e-06    0.000000000e+00    0.000000000e+00    0.000000000e+00    0.000000000e+00
         718250    7.847531438e-01   -1.565334350e-01    2.881605178e-05   -3.240630031e-05    0.000000000e+00    0.000000000e+00    0.000000000e+00    0.000000000e+00
         743000    7.802988887e-01   -1.536720246e-01   -4.099961370e-05    2.860836685e-05    0.000000000e+00    0.000000000e+00    0.000000000e+00    0.000000000e+00
         767750    7.758894563e-01   -1.509311795e-01    4.829000682e-05   -6.441678852e-05    0.000000000e+00    0.000000000e+00    0.000000000e+00    0.000000000e+00
         792500    7.713769674e-01   -1.487403214e-01   -3.647617996e-05    8.353032172e-06    0.000000000e+00    0.000000000e+00    0.000000000e+00    0.000000000e+00
         817250    7.676513791e-01   -1.459932178e-01    9.945593774e-06    1.287367195e-05    0.000000000e+00    0.000000000e+00    0.000000000e+00    0.000000000e+00
         842000    7.641857266e-01   -1.435684711e-01   -1.582596451e-05   -3.538094461e-06    0.000000000e+00    0.000000000e+00    0.000000000e+00    0.000000000e+00
         866750    7.608492374e-01   -1.411982924e-01   -3.869552165e-05    6.818212569e-06    0.000000000e+00    0.000000000e+00    0.000000000e+00    0.000000000e+00
         891500    7.575618029e-01   -1.390945613e-01    1.670047641e-05    2.529751509e-05    0.000000000e+00    0.000000000e+00    0.000000000e+00    0.000000000e+00
         916250    7.552254796e-01   -1.365554780e-01    4.226341844e-05   -4.307180643e-05    0.000000000e+00    0.000000000e+00    0.000000000e+00    0.000000000e+00
         941000    7.524580956e-01   -1.345355213e-01   -5.311332643e-06    3.150943667e-05    0.000000000e+00    0.000000000e+00    0.000000000e+00    0.000000000e+00
         965750    7.498932481e-01   -1.325112432e-01    1.150462776e-05   -1.118518412e-05    0.000000000e+00    0.000000000e+00    0.000000000e+00    0.000000000e+00
         990500    7.474750280e-01   -1.304757893e-01    3.322772682e-05   -4.499219358e-06    0.000000000e+00    0.000000000e+00    0.000000000e+00    0.000000000e+00
        1015250    7.451020479e-01   -1.283582896e-01    5.050376058e-05   -2.089422196e-05    0.000000000e+00    0.000000000e+00    0.000000000e+00    0.000000000e+00
        1040000    7.426953912e-01   -1.268279403e-01    1.844018698e-07   -1.750327647e-05    0.000000000e+00    0.000000000e+00    0.000000000e+00    0.000000000e+00
        1064750    7.408639193e-01   -1.248375997e-01    2.841465175e-06    1.312326640e-05    0.000000000e+00    0.000000000e+00    0.000000000e+00    0.000000000e+00
        1089500    7.392756343e-01   -1.229527369e-01    4.245899618e-05    3.081839532e-05    0.000000000e+00    0.000000000e+00    0.000000000e+00    0.000000000e+00
        1114250    7.371531129e-01   -1.216104850e-01    2.875830978e-05    1.055188477e-05    0.000000000e+00    0.000000000e+00    0.000000000e+00    0.000000000e+00
        1139000    7.354472280e-01   -1.196049526e-01   -5.740672350e-06    9.108334780e-06    0.000000000e+00    0.000000000e+00    0.000000000e+00    0.000000000e+00
        1163750    7.339000702e-01   -1.179809719e-01   -1.508742571e-07    4.213303328e-06    0.000000000e+00    0.000000000e+00    0.000000000e+00    0.000000000e+00
        1188500    7.322576046e-01   -1.166085079e-01   -1.765880734e-05    4.393048584e-06    0.000000000e+00    0.000000000e+00    0.000000000e+00    0.000000000e+00
        1213250    7.308998108e-01   -1.150506586e-01   -1.233071089e-06   -3.527477384e-05    0.000000000e+00    0.000000000e+00    0.000000000e+00    0.000000000e+00
        1238000    7.295145988e-01   -1.138654053e-01    6.573274732e-06   -3.019999713e-05    0.000000000e+00    0.000000000e+00    0.000000000e+00    0.000000000e+00
        1262750    7.281801105e-01   -1.126026958e-01   -3.061909229e-05    3.578141332e-05    0.000000000e+00    0.000000000e+00    0.000000000e+00    0.000000000e+00
        1287500    7.267475724e-01   -1.112416089e-01   -3.696605563e-05    6.863847375e-07    0.000000000e+00    0.000000000e+00    0.000000000e+00    0.000000000e+00
        1312250    7.254072428e-01   -1.100727394e-01    6.789341569e-06    3.866851330e-06    0.000000000e+00    0.000000000e+00    0.000000000e+00    0.000000000e+00
        1337000    7.245321870e-01   -1.086563170e-01    9.033828974e-07   -9.780749679e-06    0.000000000e+00    0.000000000e+00    0.000000000e+00    0.000000000e+00
        1361750    7.234448195e-01   -1.075658649e-01   -1.068878919e-05    3.734603524e-06    0.000000000e+00    0.000000000e+00    0.000000000e+00    0.000000000e+00
        1386500    7.225573659e-01   -1.068290994e-01    1.016817987e-05    2.561789006e-05    0.000000000e+00    0.000000000e+00    0.000000000e+00    0.000000000e+00
        1411250    7.213811278e-01   -1.058212519e-01    1.321081072e-05   -2.790521830e-05    0.000000000e+00    0.000000000e+00    0.000000000e+00    0.000000000e+00
        1436000    7.205229998e-01   -1.044204533e-01   -1.552514732e-05   -2.796575427e-05    0.000000000e+00    0.000000000e+00    0.000000000e+00    0.000000000e+00
        1460750    7.196623087e-01   -1.037335321e-01   -1.119635999e-05   -1.041777432e-05    0.000000000e+00    0.000000000e+00    0.000000000e+00    0.000000000e+00
        1485500    7.184828520e-01   -1.024008393e-01   -5.076546222e-05   -2.277921885e-05    0.000000000e+00    0.000000000e+00    0.000000000e+00    0.000000000e+00
        1510250    7.178701758e-01   -1.015544683e-01    1.450255513e-05    2.074893564e-05    0.000000000e+00    0.000000000e+00    0.000000000e+00    0.000000000e+00
        1535000    7.172157168e-01   -1.007439867e-01   -3.707502037e-05   -1.587998122e-05    0.000000000e+00    0.000000000e+00    0.000000000e+00    0.000000000e+00
        1559750    7.163593769e-01   -9.991212934e-02   -4.277471453e-05    4.459917545e-05    0.000000000e+00    0.000000000e+00    0.000000000e+00    0.000000000e+00
        1584500    7.153733373e-01   -9.867575020e-02    2.891942859e-05   -1.402013004e-05    0.000000000e+00    0.000000000e+00    0.000000000e+00    0.000000000e+00
        1609250    7.150954008e-01   -9.837825596e-02   -9.925104678e-06    1.269765198e-05    0.000000000e+00    0.000000000e+00    0.000000000e+00    0.000000000e+00
        1634000    7.141723633e-01   -9.724875540e-02    1.396052539e-06    6.029382348e-06    0.000000000e+00    0.000000000e+00    0.000000000e+00    0.000000000e+00
        1658750    7.139444351e-01   -9.657185525e-02    7.430091500e-06    1.148227602e-05    0.000000000e+00    0.000000000e+00    0.000000000e+00    0.000000000e+00
        1683500    7.127816081e-01   -9.555076063e-02   -7.292255759e-06   -8.367933333e-06    0.000000000e+00    0.000000000e+00    0.000000000e+00    0.000000000e+00
        1708250    7.123820186e-01   -9.500388801e-02    6.484799087e-06   -2.281740308e-06    0.000000000e+00    0.000000000e+00    0.000000000e+00    0.000000000e+00
        1733000    7.117763758e-01   -9.419035167e-02    2.507120371e-06   -2.656318247e-05    0.000000000e+00    0.000000000e+00    0.000000000e+00    0.000000000e+00
        1757750    7.114514112e-01   -9.338020533e-02    2.503395081e-06   -9.321607649e-06    0.000000000e+00    0.000000000e+00    0.000000000e+00    0.000000000e+00
        1782500    7.107775807e-01   -9.323349595e-02    1.546926796e-05   -1.266226172e-05    0.000000000e+00    0.000000000e+00    0.000000000e+00    0.000000000e+00
        1807250    7.101826072e-01   -9.252000600e-02    1.428183168e-05   -7.224269211e-06    0.000000000e+00    0.000000000e+00    0.000000000e+00    0.000000000e+00
        1832000    7.097887397e-01   -9.171389043e-02   -2.908334136e-05    1.464039087e-06    0.000000000e+00    0.000000000e+00    0.000000000e+00    0.000000000e+00
        1856750    7.093633413e-01   -9.145445377e-02   -6.227754056e-06   -3.580749035e-05    0.000000000e+00    0.000000000e+00    0.000000000e+00    0.000000000e+00
        1881500    7.090600133e-01   -9.097471088e-02   -1.700315624e-05    1.693144441e-05    0.000000000e+00    0.000000000e+00    0.000000000e+00    0.000000000e+00
        1906250    7.085973620e-01   -9.024494141e-02   -2.171378583e-05    5.682930350e-06    0.000000000e+00    0.000000000e+00    0.000000000e+00    0.000000000e+00
        1931000    7.080129981e-01   -8.944411576e-02   -2.732500434e-06    2.316758037e-05    0.000000000e+00    0.000000000e+00    0.000000000e+00    0.000000000e+00
        1955750    7.073348165e-01   -8.937958628e-02   -1.849234104e-05   -3.421958536e-05    0.000000000e+00    0.000000000e+00    0.000000000e+00    0.000000000e+00
        1980500    7.073777914e-01   -8.874993026e-02   -5.425885320e-06    7.921829820e-06    0.000000000e+00    0.000000000e+00    0.000000000e+00    0.000000000e+00
        2005250    7.066993117e-01   -8.791911602e-02    2.954155207e-06   -1.912098378e-05    0.000000000e+00    0.000000000e+00    0.000000000e+00    0.000000000e+00
        2030000    7.065085769e-01   -8.778316528e-02   -1.828372478e-05   -1.294817775e-05    0.000000000e+00    0.000000000e+00    0.000000000e+00    0.000000000e+00
        2054750    7.059130669e-01   -8.745326847e-02    2.441275865e-05    1.085083932e-05    0.000000000e+00    0.000000000e+00    0.000000000e+00    0.000000000e+00
        2079500    7.055447698e-01   -8.695023507e-02    3.532506526e-06   -5.016103387e-06    0.000000000e+00    0.000000000e+00    0.000000000e+00    0.000000000e+00
        2104250    7.055424452e-01   -8.637347817e-02   -1.608859748e-05   -1.446716487e-05    0.000000000e+00    0.000000000e+00    0.000000000e+00    0.000000000e+00
        2129000    7.052831650e-01   -8.625639230e-02    2.234149724e-05    1.796614379e-05    0.000000000e+00    0.000000000e+00    0.000000000e+00    0.000000000e+00
        2153750    7.050116658e-01   -8.600883931e-02    1.878384501e-05    3.005377948e-06    0.000000000e+00    0.000000000e+00    0.000000000e+00    0.000000000e+00
        2178500    7.045820355e-01   -8.538852632e-02    1.710653305e-05    3.056600690e-06    0.000000000e+00    0.000000000e+00    0.000000000e+00    0.000000000e+00
        2203250    7.046669126e-01   -8.545590937e-02   -3.440026194e-05   -8.391216397e-07    0.000000000e+00    0.000000000e+00    0.000000000e+00    0.000000000e+00
        2228000    7.041718364e-01   -8.508164436e-02    1.746043563e-05    2.341903746e-05    0.000000000e+00    0.000000000e+00    0.000000000e+00    0.000000000e+00
        2252750    7.035330534e-01   -8.421510458e-02   -4.645902663e-05   -4.469044507e-05    0.000000000e+00    0.000000000e+00    0.000000000e+00    0.000000000e+00
        2277500    7.034778595e-01   -8.449520171e-02    9.192153811e-07   -2.123415470e-07    0.000000000e+00    0.000000000e+00    0.000000000e+00    0.000000000e+00
        2302250    7.033190727e-01   -8.404679596e-02    1.590698957e-06    5.314499140e-05    0.000000000e+00    0.000000000e+00    0.000000000e+00    0.000000000e+00
        2327000    7.033750415e-01   -8.388157934e-02    3.177672625e-06    2.862047404e-05    0.000000000e+00    0.000000000e+00    0.000000000e+00    0.000000000e+00
        2351750    7.030765414e-01   -8.353716880e-02   -1.352932304e-05   -3.134272993e-05    0.000000000e+00    0.000000000e+00    0.000000000e+00    0.000000000e+00
        2376500    7.027819157e-01   -8.338831365e-02   -2.580229193e-05   -2.011284232e-05    0.000000000e+00    0.000000000e+00    0.000000000e+00    0.000000000e+00
        2401250    7.023230791e-01   -8.282085508e-02   -1.640059054e-06    4.141591489e-05    0.000000000e+00    0.000000000e+00    0.000000000e+00    0.000000000e+00
        2426000    7.019749284e-01   -8.262810111e-02    1.629441977e-05    3.679748625e-05    0.000000000e+00    0.000000000e+00    0.000000000e+00    0.000000000e+00
        2450750    7.021861672e-01   -8.251779526e-02    1.754052937e-05   -2.915319055e-05    0.000000000e+00    0.000000000e+00    0.000000000e+00    0.000000000e+00
        2475500    7.019914985e-01   -8.271091431e-02    7.927417755e-06   -1.366529614e-05    0.000000000e+00    0.000000000e+00    0.000000000e+00    0.000000000e+00
        2500250    7.016264200e-01   -8.214634657e-02    2.855435014e-06   -2.183765173e-05    0.000000000e+00    0.000000000e+00    0.000000000e+00    0.000000000e+00
        2525000    7.014107108e-01   -8.198542893e-02    7.619149983e-06   -2.369284630e-06    0.000000000e+00    0.000000000e+00    0.000000000e+00    0.000000000e+00
        2549750    7.014942169e-01   -8.180052042e-02    3.701075912e-06    1.764576882e-05    0.000000000e+00    0.000000000e+00    0.000000000e+00    0.000000000e+00
        2574500    7.010645270e-01   -8.167222142e-02   -2.615060657e-05    6.839632988e-05    0.000000000e+00    0.000000000e+00    0.000000000e+00    0.000000000e+00
        2599250    7.007634044e-01   -8.151856065e-02    1.040101051e-05    3.438070416e-05    0.000000000e+00    0.000000000e+00    0.000000000e+00    0.000000000e+00
        2624000    7.009769082e-01   -8.169166744e-02    1.865439117e-05    3.244448453e-05    0.000000000e+00    0.000000000e+00    0.000000000e+00    0.000000000e+00
        2648750    7.007150650e-01   -8.136142790e-02    3.594905138e-06    1.963227987e-06    0.000000000e+00    0.000000000e+00    0.000000000e+00    0.000000000e+00
        2673500    7.006363869e-01   -8.107274771e-02    4.708766937e-06   -2.099759877e-05    0.000000000e+00    0.000000000e+00    0.000000000e+00    0.000000000e+00
        2698250    7.005146146e-01   -8.109988272e-02   -3.216788173e-06   -5.953013897e-06    0.000000000e+00    0.000000000e+00    0.000000000e+00    0.000000000e+00
        2723000    7.000817060e-01   -8.128595352e-02    1.583248377e-07   -2.626329660e-06    0.000000000e+00    0.000000000e+00    0.000000000e+00    0.000000000e+00
        2747750    7.001934052e-01   -8.080009371e-02    1.192465425e-05    2.635177225e-05    0.000000000e+00    0.000000000e+00    0.000000000e+00    0.000000000e+00
        2772500    7.001543045e-01   -8.099704981e-02    3.290735185e-05   -2.233590931e-05    0.000000000e+00    0.000000000e+00    0.000000000e+00    0.000000000e+00
        2797250    7.000557184e-01   -8.089426905e-02   -8.842907846e-06   -4.012789577e-05    0.000000000e+00    0.000000000e+00    0.000000000e+00    0.000000000e+00
        2822000    6.995987296e-01   -8.056700975e-02   -1.587625593e-05    4.585832357e-06    0.000000000e+00    0.000000000e+00    0.000000000e+00    0.000000000e+00
        2846750    6.997804046e-01   -8.082996309e-02    1.296401024e-05    5.968846381e-06    0.000000000e+00    0.000000000e+00    0.000000000e+00    0.000000000e+00
        2871500    6.998847127e-01   -8.077511936e-02   -2.372078598e-05    3.267079592e-06    0.000000000e+00    0.000000000e+00    0.000000000e+00    0.000000000e+00
        2896250    6.994606853e-01   -8.068320155e-02   -1.413095742e-05   -1.798477024e-05    0.000000000e+00    0.000000000e+00    0.000000000e+00    0.000000000e+00
        2921000    6.992288232e-01   -8.057601750e-02   -1.681689173e-05   -2.486631274e-06    0.000000000e+00    0.000000000e+00    0.000000000e+00    0.000000000e+00
