! NanoVNA-App by OneOfEleven et al v1.1.209 (+OD15) 
! Date: 2024-07-30 12:37:13
! Start: 50kHz Stop: 5MHz Points: 201
! S-Parameter data: F S11 S21 S12 S22
# Hz S RI R 50
!     Frequency           S11_Real           S11_Imag           S21_Real           S21_Imag           S12_Real           S12_Imag           S22_Real           S22_Imag
          50000    1.005332947e+00   -1.629856788e-02    2.546235919e-06   -2.014450729e-06    0.000000000e+00    0.000000000e+00    0.000000000e+00    0.000000000e+00
          74750    1.004257917e+00   -2.506646514e-02   -2.192612737e-05   -1.268554479e-05    0.000000000e+00    0.000000000e+00    0.000000000e+00    0.000000000e+00
          99500    1.006959677e+00   -3.508464992e-02   -2.956483513e-05   -1.165363938e-05    0.000000000e+00    0.000000000e+00    0.000000000e+00    0.000000000e+00
         124250    1.009804964e+00   -4.737439379e-02   -2.908520401e-06    9.682960808e-06    0.000000000e+00    0.000000000e+00    0.000000000e+00    0.000000000e+00
         149000    1.011572123e+00   -6.128012016e-02    1.884810627e-05    9.311363101e-06    0.000000000e+00    0.000000000e+00    0.000000000e+00    0.000000000e+00
         173750    9.904024005e-01   -1.340176612e-01   -1.971516758e-05    1.145340502e-05    0.000000000e+00    0.000000000e+00    0.000000000e+00    0.000000000e+00
         198500    9.879992008e-01   -1.516470611e-01    4.446133971e-06   -5.477108061e-06    0.000000000e+00    0.000000000e+00    0.000000000e+00    0.000000000e+00
         223250    9.830316305e-01   -1.689366102e-01   -8.067116141e-06   -4.730466753e-05    0.000000000e+00    0.000000000e+00    0.000000000e+00    0.000000000e+00
         248000    9.751365185e-01   -1.861181706e-01   -1.862645149e-05   -6.352551281e-06    0.000000000e+00    0.000000000e+00    0.000000000e+00    0.000000000e+00
         272750    9.635744691e-01   -2.028161287e-01    6.487593055e-06    8.455477655e-06    0.000000000e+00    0.000000000e+00    0.000000000e+00    0.000000000e+00
         297500    9.504138231e-01   -2.165468782e-01   -4.067085683e-06   -1.759454608e-05    0.000000000e+00    0.000000000e+00    0.000000000e+00    0.000000000e+00
         322250    9.358189106e-01   -2.289540619e-01   -5.314126611e-06    3.367662430e-06    0.000000000e+00    0.000000000e+00    0.000000000e+00    0.000000000e+00
         347000    9.191790223e-01   -2.385031134e-01    7.473863661e-06   -1.678243279e-05    0.000000000e+00    0.000000000e+00    0.000000000e+00    0.000000000e+00
         371750    9.033135772e-01   -2.449436039e-01    1.720152795e-06    1.598149538e-05    0.000000000e+00    0.000000000e+00    0.000000000e+00    0.000000000e+00
         396500    8.868857026e-01   -2.496229708e-01   -1.636054367e-05    1.540128142e-05    0.000000000e+00    0.000000000e+00    0.000000000e+00    0.000000000e+00
         421250    8.953402638e-01   -1.743791848e-01    7.075257599e-06    6.938353181e-07    0.000000000e+00    0.000000000e+00    0.000000000e+00    0.000000000e+00
         446000    8.808745146e-01   -1.775860190e-01   -5.378946662e-05    4.687998444e-05    0.000000000e+00    0.000000000e+00    0.000000000e+00    0.000000000e+00
         470750    8.677842617e-01   -1.784605235e-01    1.437123865e-05   -1.613050699e-05    0.000000000e+00    0.000000000e+00    0.000000000e+00    0.000000000e+00
         495500    8.556857705e-01   -1.778192818e-01    2.182088792e-05   -4.122965038e-06    0.000000000e+00    0.000000000e+00    0.000000000e+00    0.000000000e+00
         520250    8.443462253e-01   -1.766478717e-01   -1.758057624e-05   -2.448633313e-05    0.000000000e+00    0.000000000e+00    0.000000000e+00    0.000000000e+00
         545000    8.348130584e-01   -1.753372848e-01    6.089918315e-06    3.028195351e-05    0.000000000e+00    0.000000000e+00    0.000000000e+00    0.000000000e+00
         569750    8.255537748e-01   -1.727316231e-01    3.112480044e-06    8.783303201e-06    0.000000000e+00    0.000000000e+00    0.000000000e+00    0.000000000e+00
         594500    8.172445893e-01   -1.704072058e-01    1.078844070e-05   -4.866905510e-05    0.000000000e+00    0.000000000e+00    0.000000000e+00    0.000000000e+00
         619250    8.097099066e-01   -1.682746261e-01    2.609286457e-05   -8.875504136e-07    0.000000000e+00    0.000000000e+00    0.000000000e+00    0.000000000e+00
         644000    8.030815721e-01   -1.648587584e-01   -3.863312304e-05   -1.479499042e-05    0.000000000e+00    0.000000000e+00    0.000000000e+00    0.000000000e+00
         668750    7.963545322e-01   -1.619175971e-01   -2.575851977e-05   -1.355633140e-05    0.000000000e+00    0.000000000e+00    0.000000000e+00    0.000000000e+00
         693500    7.906773090e-01   -1.598431021e-01    1.700315624e-05    1.491326839e-05    0.000000000e+00    0.000000000e+00    0.000000000e+00    0.000000000e+00
         718250    7.845149636e-01   -1.562001854e-01    5.147140473e-05   -1.402292401e-05    0.000000000e+00    0.000000000e+00    0.000000000e+00    0.000000000e+00
         743000    7.805589437e-01   -1.534051448e-01    2.122111619e-05    2.790242434e-06    0.000000000e+00    0.000000000e+00    0.000000000e+00    0.000000000e+00
         767750    7.759449482e-01   -1.513740718e-01   -6.692484021e-06   -2.973061055e-05    0.000000000e+00    0.000000000e+00    0.000000000e+00    0.000000000e+00
         792500    7.716252804e-01   -1.487837583e-01   -1.459382474e-06    2.024415880e-05    0.000000000e+00    0.000000000e+00    0.000000000e+00    0.000000000e+00
         817250    7.675018311e-01   -1.459666640e-01    1.859758049e-05   -5.825050175e-05    0.000000000e+00    0.000000000e+00    0.000000000e+00    0.000000000e+00
         842000    7.643078566e-01   -1.435785294e-01    7.171183825e-06   -1.381337643e-05    0.000000000e+00    0.000000000e+00    0.000000000e+00    0.000000000e+00
         866750    7.611349225e-01   -1.411594599e-01   -5.610287189e-05    4.080124199e-06    0.000000000e+00    0.000000000e+00    0.000000000e+00    0.000000000e+00
         891500    7.577041984e-01   -1.389597207e-01   -4.232674837e-05    0.000000000e+00    0.000000000e+00    0.000000000e+00    0.000000000e+00    0.000000000e+00
         916250    7.550665140e-01   -1.363870949e-01   -2.265907824e-05   -8.921138942e-06    0.000000000e+00    0.000000000e+00    0.000000000e+00    0.000000000e+00
         941000    7.525430322e-01   -1.343072653e-01   -2.286210656e-05    4.439335316e-05    0.000000000e+00    0.000000000e+00    0.000000000e+00    0.000000000e+00
         965750    7.498285174e-01   -1.321091205e-01    2.326723188e-05   -2.633687109e-05    0.000000000e+00    0.000000000e+00    0.000000000e+00    0.000000000e+00
         990500    7.473981380e-01   -1.303524375e-01    3.619305789e-05    1.727882773e-05    0.000000000e+00    0.000000000e+00    0.000000000e+00    0.000000000e+00
        1015250    7.453157306e-01   -1.283522397e-01   -6.362795830e-06    7.635448128e-05    0.000000000e+00    0.000000000e+00    0.000000000e+00    0.000000000e+00
        1040000    7.430558801e-01   -1.268343925e-01   -3.115646541e-05   -4.221964628e-05    0.000000000e+00    0.000000000e+00    0.000000000e+00    0.000000000e+00
        1064750    7.410420179e-01   -1.247498766e-01    2.578832209e-06    1.448486000e-05    0.000000000e+00    0.000000000e+00    0.000000000e+00    0.000000000e+00
        1089500    7.388912439e-01   -1.225600094e-01   -1.032464206e-05   -1.155398786e-05    0.000000000e+00    0.000000000e+00    0.000000000e+00    0.000000000e+00
        1114250    7.370743752e-01   -1.213022098e-01   -4.481896758e-05   -1.157261431e-05    0.000000000e+00    0.000000000e+00    0.000000000e+00    0.000000000e+00
        1139000    7.354363203e-01   -1.200046167e-01    2.227164805e-05    2.013519406e-05    0.000000000e+00    0.000000000e+00    0.000000000e+00    0.000000000e+00
        1163750    7.332893014e-01   -1.183387339e-01   -2.889893949e-05   -3.701727837e-05    0.000000000e+00    0.000000000e+00    0.000000000e+00    0.000000000e+00
        1188500    7.324397564e-01   -1.166611910e-01   -2.902839333e-05   -1.633167267e-05    0.000000000e+00    0.000000000e+00    0.000000000e+00    0.000000000e+00
        1213250    7.308642268e-01   -1.157167703e-01   -5.174335092e-05    2.652592957e-05    0.000000000e+00    0.000000000e+00    0.000000000e+00    0.000000000e+00
        1238000    7.292179465e-01   -1.141269431e-01   -2.932455391e-05    2.165418118e-05    0.000000000e+00    0.000000000e+00    0.000000000e+00    0.000000000e+00
        1262750    7.277720571e-01   -1.126544774e-01    6.428919733e-06   -1.172348857e-05    0.000000000e+00    0.000000000e+00    0.000000000e+00    0.000000000e+00
        1287500    7.269386649e-01   -1.110303178e-01   -5.401670933e-07    1.253187656e-05    0.000000000e+00    0.000000000e+00    0.000000000e+00    0.000000000e+00
        1312250    7.257748842e-01   -1.101359054e-01    3.982894123e-05   -3.541074693e-05    0.000000000e+00    0.000000000e+00    0.000000000e+00    0.000000000e+00
        1337000    7.245132327e-01   -1.087921858e-01   -1.830235124e-05   -4.123896360e-06    0.000000000e+00    0.000000000e+00    0.000000000e+00    0.000000000e+00
        1361750    7.235692739e-01   -1.074116081e-01    3.727339208e-05   -3.834534436e-05    0.000000000e+00    0.000000000e+00    0.000000000e+00    0.000000000e+00
        1386500    7.225580215e-01   -1.064727157e-01   -1.387950033e-05   -6.957724690e-05    0.000000000e+00    0.000000000e+00    0.000000000e+00    0.000000000e+00
        1411250    7.215260863e-01   -1.058739126e-01    2.534408122e-05   -3.829505295e-05    0.000000000e+00    0.000000000e+00    0.000000000e+00    0.000000000e+00
        1436000    7.201479673e-01   -1.042998359e-01   -5.960464478e-06   -4.043336958e-05    0.000000000e+00    0.000000000e+00    0.000000000e+00    0.000000000e+00
        1460750    7.195812464e-01   -1.032976881e-01    2.097617835e-05    3.899820149e-05    0.000000000e+00    0.000000000e+00    0.000000000e+00    0.000000000e+00
        1485500    7.188623548e-01   -1.026631966e-01    3.807246685e-05   -3.788899630e-05    0.000000000e+00    0.000000000e+00    0.000000000e+00    0.000000000e+00
        1510250    7.180548310e-01   -1.017007455e-01   -2.152658999e-05    2.471730113e-05    0.000000000e+00    0.000000000e+00    0.000000000e+00    0.000000000e+00
        1535000    7.170387506e-01   -1.003360525e-01    1.019425690e-05   -1.727603376e-05    0.000000000e+00    0.000000000e+00    0.000000000e+00    0.000000000e+00
        1559750    7.161819935e-01   -9.989852458e-02   -6.803311408e-06   -1.635402441e-05    0.000000000e+00    0.000000000e+00    0.000000000e+00    0.000000000e+00
        1584500    7.160387635e-01   -9.904944897e-02   -1.208763570e-05   -4.297867417e-05    0.000000000e+00    0.000000000e+00    0.000000000e+00    0.000000000e+00
        1609250    7.148381472e-01   -9.787525982e-02    1.570675522e-05    2.359971404e-05    0.000000000e+00    0.000000000e+00    0.000000000e+00    0.000000000e+00
        1634000    7.138599753e-01   -9.724762291e-02   -1.686532050e-05    3.537256271e-05    0.000000000e+00    0.000000000e+00    0.000000000e+00    0.000000000e+00
        1658750    7.134734392e-01   -9.678200632e-02    1.184735447e-05   -2.289190888e-05    0.000000000e+00    0.000000000e+00    0.000000000e+00    0.000000000e+00
        1683500    7.129800916e-01   -9.570665658e-02   -3.907643259e-05   -1.035816967e-05    0.000000000e+00    0.000000000e+00    0.000000000e+00    0.000000000e+00
        1708250    7.121992707e-01   -9.493668377e-02   -1.940224320e-05   -1.331977546e-05    0.000000000e+00    0.000000000e+00    0.000000000e+00    0.000000000e+00
        1733000    7.115947008e-01   -9.475776553e-02   -1.615099609e-05   -1.517217606e-05    0.000000000e+00    0.000000000e+00    0.000000000e+00    0.000000000e+00
        1757750    7.112823129e-01   -9.361356497e-02    1.419894397e-05   -1.435074955e-05    0.000000000e+00    0.000000000e+00    0.000000000e+00    0.000000000e+00
        1782500    7.105481029e-01   -9.310921282e-02   -7.347203791e-06   -4.844740033e-06    0.000000000e+00    0.000000000e+00    0.000000000e+00    0.000000000e+00
        1807250    7.102660537e-01   -9.248334169e-02   -1.906976104e-05   -2.712011337e-06    0.000000000e+00    0.000000000e+00    0.000000000e+00    0.000000000e+00
        1832000    7.097482085e-01   -9.190308303e-02    4.438310862e-05   -2.193264663e-06    0.000000000e+00    0.000000000e+00    0.000000000e+00    0.000000000e+00
        1856750    7.092790604e-01   -9.145849198e-02    1.192279160e-05    1.049228013e-05    0.000000000e+00    0.000000000e+00    0.000000000e+00    0.000000000e+00
        1881500    7.091321945e-01   -9.061067551e-02   -7.505528629e-06    5.151052028e-05    0.000000000e+00    0.000000000e+00    0.000000000e+00    0.000000000e+00
        1906250    7.083492875e-01   -9.023134410e-02    9.946525097e-06    1.774542034e-05    0.000000000e+00    0.000000000e+00    0.000000000e+00    0.000000000e+00
        1931000    7.079266310e-01   -8.968337625e-02    1.496542245e-05    1.565460116e-05    0.000000000e+00    0.000000000e+00    0.000000000e+00    0.000000000e+00
        1955750    7.075977921e-01   -8.905782551e-02    4.176050425e-06    7.659196854e-06    0.000000000e+00    0.000000000e+00    0.000000000e+00    0.000000000e+00
        1980500    7.071213722e-01   -8.870328218e-02   -7.721595466e-06    2.467073500e-06    0.000000000e+00    0.000000000e+00    0.000000000e+00    0.000000000e+00
        2005250    7.069238424e-01   -8.833475411e-02    1.294165850e-05   -3.765989095e-05    0.000000000e+00    0.000000000e+00    0.000000000e+00    0.000000000e+00
        2030000    7.069704533e-01   -8.783754706e-02    1.581199467e-05    1.657195389e-05    0.000000000e+00    0.000000000e+00    0.000000000e+00    0.000000000e+00
        2054750    7.060669065e-01   -8.722186089e-02    4.928745329e-05   -5.248934031e-06    0.000000000e+00    0.000000000e+00    0.000000000e+00    0.000000000e+00
        2079500    7.056526542e-01   -8.721119165e-02    7.556751370e-06    5.470588803e-06    0.000000000e+00    0.000000000e+00    0.000000000e+00    0.000000000e+00
        2104250    7.058287859e-01   -8.658464998e-02   -3.152526915e-06    2.817250788e-06    0.000000000e+00    0.000000000e+00    0.000000000e+00    0.000000000e+00
        2129000    7.053254247e-01   -8.621396124e-02    6.617046893e-06   -5.968846381e-06    0.000000000e+00    0.000000000e+00    0.000000000e+00    0.000000000e+00
        2153750    7.050645947e-01   -8.554445207e-02    1.229997724e-05   -1.358333975e-05    0.000000000e+00    0.000000000e+00    0.000000000e+00    0.000000000e+00
        2178500    7.049079537e-01   -8.578519523e-02    1.658871770e-05    1.325551420e-05    0.000000000e+00    0.000000000e+00    0.000000000e+00    0.000000000e+00
        2203250    7.043055892e-01   -8.493062109e-02    1.677032560e-05   -1.919362694e-05    0.000000000e+00    0.000000000e+00    0.000000000e+00    0.000000000e+00
        2228000    7.039273977e-01   -8.470758051e-02    8.225440979e-06   -7.039867342e-06    0.000000000e+00    0.000000000e+00    0.000000000e+00    0.000000000e+00
        2252750    7.038037181e-01   -8.474656940e-02    3.564171493e-05    3.626570106e-05    0.000000000e+00    0.000000000e+00    0.000000000e+00    0.000000000e+00
        2277500    7.037107944e-01   -8.416751772e-02    2.069491893e-05    2.601370215e-05    0.000000000e+00    0.000000000e+00    0.000000000e+00    0.000000000e+00
        2302250    7.032666206e-01   -8.412092924e-02   -2.132076770e-05   -1.193396747e-05    0.000000000e+00    0.000000000e+00    0.000000000e+00    0.000000000e+00
        2327000    7.031252384e-01   -8.376798779e-02    2.192612737e-05   -7.139518857e-06    0.000000000e+00    0.000000000e+00    0.000000000e+00    0.000000000e+00
        2351750    7.027865648e-01   -8.330592513e-02   -1.550000161e-05   -2.395641059e-05    0.000000000e+00    0.000000000e+00    0.000000000e+00    0.000000000e+00
        2376500    7.026005983e-01   -8.329895139e-02    1.428928226e-05   -1.727975905e-05    0.000000000e+00    0.000000000e+00    0.000000000e+00    0.000000000e+00
        2401250    7.024157047e-01   -8.324042708e-02    2.916995436e-05    3.521982580e-05    0.000000000e+00    0.000000000e+00    0.000000000e+00    0.000000000e+00
        2426000    7.024185658e-01   -8.287985623e-02   -3.292877227e-05    1.337751746e-05    0.000000000e+00    0.000000000e+00    0.000000000e+00    0.000000000e+00
        2450750    7.021571398e-01   -8.261813968e-02    1.613050699e-05   -3.171898425e-05    0.000000000e+00    0.000000000e+00    0.000000000e+00    0.000000000e+00
        2475500    7.019069195e-01   -8.231839538e-02   -1.293793321e-05    1.584179699e-06    0.000000000e+00    0.000000000e+00    0.000000000e+00    0.000000000e+00
        2500250    7.018996477e-01   -8.244748414e-02   -1.117866486e-05    6.076786667e-05    0.000000000e+00    0.000000000e+00    0.000000000e+00    0.000000000e+00
        2525000    7.014358640e-01   -8.176298440e-02    2.374313772e-05    7.655471563e-07    0.000000000e+00    0.000000000e+00    0.000000000e+00    0.000000000e+00
        2549750    7.011411190e-01   -8.198077232e-02    2.629496157e-05   -3.147870302e-07    0.000000000e+00    0.000000000e+00    0.000000000e+00    0.000000000e+00
        2574500    7.016228437e-01   -8.201650530e-02    9.331852198e-07   -4.151836038e-06    0.000000000e+00    0.000000000e+00    0.000000000e+00    0.000000000e+00
        2599250    7.010776997e-01   -8.176634461e-02    4.189554602e-05    2.738088369e-07    0.000000000e+00    0.000000000e+00    0.000000000e+00    0.000000000e+00
        2624000    7.008231878e-01   -8.128690720e-02   -8.947215974e-06    3.100372851e-06    0.000000000e+00    0.000000000e+00    0.000000000e+00    0.000000000e+00
        2648750    7.005590796e-01   -8.133514225e-02    2.889614552e-05    4.475004971e-05    0.000000000e+00    0.000000000e+00    0.000000000e+00    0.000000000e+00
        2673500    7.009472847e-01   -8.102488518e-02   -1.331977546e-05   -1.187995076e-05    0.000000000e+00    0.000000000e+00    0.000000000e+00    0.000000000e+00
        2698250    7.004538774e-01   -8.123099059e-02    1.659803092e-05    1.171231270e-05    0.000000000e+00    0.000000000e+00    0.000000000e+00    0.000000000e+00
        2723000    7.002936602e-01   -8.114158362e-02   -2.782978117e-05   -1.361314207e-05    0.000000000e+00    0.000000000e+00    0.000000000e+00    0.000000000e+00
        2747750    7.001977563e-01   -8.124727011e-02    3.477558494e-05   -8.380971849e-06    0.000000000e+00    0.000000000e+00    0.000000000e+00    0.000000000e+00
        2772500    6.999938488e-01   -8.085183799e-02   -2.552848309e-05    1.083221287e-05    0.000000000e+00    0.000000000e+00    0.000000000e+00    0.000000000e+00
        2797250    6.998654604e-01   -8.085196465e-02    2.899952233e-05   -1.815333962e-05    0.000000000e+00    0.000000000e+00    0.000000000e+00    0.000000000e+00
        2822000    7.001535892e-01   -8.067800850e-02    2.738926560e-05   -2.950802445e-05    0.000000000e+00    0.000000000e+00    0.000000000e+00    0.000000000e+00
        2846750    6.997212768e-01   -8.056644350e-02    2.617761493e-05    2.233870327e-05    0.000000000e+00    0.000000000e+00    0.000000000e+00    0.000000000e+00
        2871500    6.996839643e-01   -8.075828105e-02   -1.659616828e-06   -1.143664122e-06    0.000000000e+00    0.000000000e+00    0.000000000e+00    0.000000000e+00
        2896250    6.992855668e-01   -8.084117621e-02    1.193117350e-05   -2.623628825e-05    0.000000000e+00    0.000000000e+00    0.000000000e+00    0.000000000e+00
        2921000    6.994260550e-01   -8.033633232e-02    1.554656774e-05   -2.752151340e-05    0.000000000e+00    0.000000000e+00    0.000000000e+00    0.000000000e+00
