! NanoVNA-App by OneOfEleven et al v1.1.209 (+OD15) 
! Date: 2024-07-30 12:37:13
! Start: 50kHz Stop: 5MHz Points: 201
! S-Parameter data: F S11 S21 S12 S22
# Hz S RI R 50
!     Frequency           S11_Real           S11_Imag           S21_Real           S21_Imag           S12_Real           S12_Imag           S22_Real           S22_Imag
          50000    1.005250931e+00   -1.622024737e-02    3.136694431e-06   -5.215406418e-08    0.000000000e+00    0.000000000e+00    0.000000000e+00    0.000000000e+00
          74750    1.004298925e+00   -2.501813695e-02   -2.401042730e-05   -1.767091453e-05    0.000000000e+00    0.000000000e+00    0.000000000e+00    0.000000000e+00
          99500    1.006681442e+00   -3.524140269e-02   -2.143159509e-05    3.455206752e-06    0.000000000e+00    0.000000000e+00    0.000000000e+00    0.000000000e+00
         124250    1.009646773e+00   -4.738966376e-02   -3.145076334e-06    2.459250391e-05    0.000000000e+00    0.000000000e+00    0.000000000e+00    0.000000000e+00
         149000    1.011700511e+00   -6.135697663e-02    3.868713975e-06   -1.775100827e-06    0.000000000e+00    0.000000000e+00    0.000000000e+00    0.000000000e+00
         173750    9.905149341e-01   -1.342450678e-01   -4.159286618e-06   -6.828457117e-06    0.000000000e+00    0.000000000e+00    0.000000000e+00    0.000000000e+00
         198500    9.881734252e-01   -1.516830772e-01   -8.149072528e-06   -4.915520549e-06    0.000000000e+00    0.000000000e+00    0.000000000e+00    0.000000000e+00
         223250    9.828158617e-01   -1.689058393e-01    3.237277269e-06   -6.236135960e-06    0.000000000e+00    0.000000000e+00    0.000000000e+00    0.000000000e+00
         248000    9.752103090e-01   -1.865511686e-01   -1.281313598e-05    5.555618554e-05    0.000000000e+00    0.000000000e+00    0.000000000e+00    0.000000000e+00
         272750    9.639444351e-01   -2.027561516e-01   -6.446614861e-06   -4.627741873e-06    0.000000000e+00    0.000000000e+00    0.000000000e+00    0.000000000e+00
         297500    9.503822327e-01   -2.167859972e-01   -5.510635674e-06   -3.096740693e-05    0.000000000e+00    0.000000000e+00    0.000000000e+00    0.000000000e+00
         322250    9.356066585e-01   -2.293124497e-01    9.721145034e-06    1.627672464e-05    0.000000000e+00    0.000000000e+00    0.000000000e+00    0.000000000e+00
         347000    9.190459847e-01   -2.382967770e-01   -2.075359225e-05   -8.901581168e-06    0.000000000e+00    0.000000000e+00    0.000000000e+00    0.000000000e+00
         371750    9.030256271e-01   -2.450097054e-01   -2.028420568e-06    7.068738341e-06    0.000000000e+00    0.000000000e+00    0.000000000e+00    0.000000000e+00
         396500    8.868626356e-01   -2.497652322e-01   -1.679919660e-05    1.188553870e-05    0.000000000e+00    0.000000000e+00    0.000000000e+00    0.000000000e+00
         421250    8.951798081e-01   -1.744245887e-01    7.950700819e-06   -2.383347601e-05    0.000000000e+00    0.000000000e+00    0.000000000e+00    0.000000000e+00
         446000    8.810591102e-01   -1.777595729e-01    8.217990398e-06   -2.007093281e-05    0.000000000e+00    0.000000000e+00    0.000000000e+00    0.000000000e+00
         470750    8.680123687e-01   -1.781407148e-01   -2.373661846e-05    1.563876867e-05    0.000000000e+00    0.000000000e+00    0.000000000e+00    0.000000000e+00
         495500    8.561108112e-01   -1.777337343e-01   -3.829598427e-05   -2.915412188e-05    0.000000000e+00    0.000000000e+00    0.000000000e+00    0.000000000e+00
         520250    8.445107341e-01   -1.768672317e-01    4.475936294e-06   -3.504659981e-05    0.000000000e+00    0.000000000e+00    0.000000000e+00    0.000000000e+00
         545000    8.349421024e-01   -1.752072573e-01    3.656372428e-06    1.749023795e-06    0.000000000e+00    0.000000000e+00    0.000000000e+00    0.000000000e+00
         569750    8.255817890e-01   -1.726340652e-01    3.739632666e-05    1.030974090e-06    0.000000000e+00    0.000000000e+00    0.000000000e+00    0.000000000e+00
         594500    8.173696399e-01   -1.704264283e-01   -4.485249519e-06    2.466794103e-05    0.000000000e+00    0.000000000e+00    0.000000000e+00    0.000000000e+00
         619250    8.099087477e-01   -1.683207005e-01    3.121793270e-05    2.729985863e-05    0.000000000e+00    0.000000000e+00    0.000000000e+00    0.000000000e+00
         644000    8.031594157e-01   -1.646310389e-01    2.252869308e-06   -2.459622920e-05    0.000000000e+00    0.000000000e+00    0.000000000e+00    0.000000000e+00
         668750    7.963397503e-01   -1.622106731e-01    2.164673060e-05   -2.302881330e-05    0.000000000e+00    0.000000000e+00    0.000000000e+00    0.000000000e+00
         693500    7.906910777e-01   -1.595631838e-01    2.902001143e-05   -3.657862544e-05    0.000000000e+00    0.000000000e+00    0.000000000e+00    0.000000000e+00
         718250    7.849249840e-01   -1.563689560e-01   -1.879874617e-05   -4.941131920e-05    0.000000000e+00    0.000000000e+00    0.000000000e+00    0.000000000e+00
         743000    7.807586789e-01   -1.534709483e-01   -1.094024628e-05   -4.511792213e-05    0.000000000e+00    0.000000000e+00    0.000000000e+00    0.000000000e+00
         767750    7.760784030e-01   -1.510839611e-01   -1.578778028e-05   -7.442198694e-06    0.000000000e+00    0.000000000e+00    0.000000000e+00    0.000000000e+00
         792500    7.715480328e-01   -1.484049857e-01   -1.745019108e-05   -1.708976924e-05    0.000000000e+00    0.000000000e+00    0.000000000e+00    0.000000000e+00
         817250    7.676256299e-01   -1.462732553e-01   -1.791864634e-05   -2.475548536e-05    0.000000000e+00    0.000000000e+00    0.000000000e+00    0.000000000e+00
         842000    7.641683817e-01   -1.435327083e-01   -2.474896610e-05    3.822147846e-06    0.000000000e+00    0.000000000e+00    0.000000000e+00    0.000000000e+00
         866750    7.611604333e-01   -1.411332637e-01    3.752764314e-05    2.506468445e-05    0.000000000e+00    0.000000000e+00    0.000000000e+00    0.000000000e+00
         891500    7.578061223e-01   -1.384493262e-01    3.548711538e-05   -1.091603190e-05    0.000000000e+00    0.000000000e+00    0.000000000e+00    0.000000000e+00
         916250    7.546821237e-01   -1.364697963e-01   -8.282251656e-06   -9.268522263e-06    0.000000000e+00    0.000000000e+00    0.000000000e+00    0.000000000e+00
         941000    7.522221208e-01   -1.341598332e-01   -6.885267794e-06   -1.377519220e-05    0.000000000e+00    0.000000000e+00    0.000000000e+00    0.000000000e+00
         965750    7.493068576e-01   -1.319268644e-01   -3.563426435e-05   -3.233086318e-05    0.000000000e+00    0.000000000e+00    0.000000000e+00    0.000000000e+00
         990500    7.471908927e-01   -1.305529773e-01   -2.048816532e-05    6.344169378e-06    0.000000000e+00    0.000000000e+00    0.000000000e+00    0.000000000e+00
        1015250    7.448307276e-01   -1.286168844e-01   -3.862474114e-05    4.394724965e-05    0.000000000e+00    0.000000000e+00    0.000000000e+00    0.000000000e+00
        1040000    7.423334122e-01   -1.266636103e-01   -3.766734153e-05    2.877041698e-05    0.000000000e+00    0.000000000e+00    0.000000000e+00    0.000000000e+00
        1064750    7.411282659e-01   -1.246251017e-01    1.389533281e-05   -1.845136285e-05    0.000000000e+00    0.000000000e+00    0.000000000e+00    0.000000000e+00
        1089500    7.386877537e-01   -1.232380420e-01    1.544412225e-05   -2.037733793e-06    0.000000000e+00    0.000000000e+00    0.000000000e+00    0.000000000e+00
        1114250    7.373926044e-01   -1.214129254e-01   -2.414081246e-05   -4.493538290e-05    0.000000000e+00    0.000000000e+00    0.000000000e+00    0.000000000e+00
        1139000    7.353794575e-01   -1.199560612e-01    3.044772893e-05   -4.733074456e-05    0.000000000e+00    0.000000000e+00    0.000000000e+00    0.000000000e+00
        1163750    7.338282466e-01   -1.178217828e-01    3.874301910e-07   -4.003755748e-06    0.000000000e+00    0.000000000e+00    0.000000000e+00    0.000000000e+00
        1188500    7.321052551e-01   -1.169318557e-01    3.172084689e-06   -1.391675323e-05    0.000000000e+00    0.000000000e+00    0.000000000e+00    0.000000000e+00
        1213250    7.309877872e-01   -1.152972877e-01   -2.191122621e-05   -6.032176316e-06    0.000000000e+00    0.000000000e+00    0.000000000e+00    0.000000000e+00
        1238000    7.297794819e-01   -1.135759801e-01   -1.550652087e-05    3.944337368e-05    0.000000000e+00    0.000000000e+00    0.000000000e+00    0.000000000e+00
        1262750    7.279257774e-01   -1.126353815e-01   -1.598335803e-05   -3.332085907e-05    0.000000000e+00    0.000000000e+00    0.000000000e+00    0.000000000e+00
        1287500    7.267809510e-01   -1.112557501e-01    3.021396697e-05   -4.563480616e-06    0.000000000e+00    0.000000000e+00    0.000000000e+00    0.000000000e+00
        1312250    7.255207300e-01   -1.100321040e-01    1.478008926e-06    1.634377986e-05    0.000000000e+00    0.000000000e+00    0.000000000e+00    0.000000000e+00
        1337000    7.246711850e-01   -1.083712652e-01    1.147016883e-05    7.060356438e-06    0.000000000e+00    0.000000000e+00    0.000000000e+00    0.000000000e+00
        1361750    7.235058546e-01   -1.076052859e-01   -3.209989518e-05    3.832392395e-06    0.000000000e+00    0.000000000e+00    0.000000000e+00    0.000000000e+00
        1386500    7.223383784e-01   -1.065240651e-01   -2.352520823e-06   -4.165712744e-05    0.000000000e+00    0.000000000e+00    0.000000000e+00    0.000000000e+00
        1411250    7.212393284e-01   -1.055288315e-01    6.932765245e-06   -4.459638149e-05    0.000000000e+00    0.000000000e+00    0.000000000e+00    0.000000000e+00
        1436000    7.204580903e-01   -1.043258682e-01   -1.176446676e-05    1.006666571e-05    0.000000000e+00    0.000000000e+00    0.000000000e+00    0.000000000e+00
        1460750    7.194683552e-01   -1.036244258e-01   -6.734393537e-06    2.855528146e-05    0.000000000e+00    0.000000000e+00    0.000000000e+00    0.000000000e+00
        1485500    7.185505629e-01   -1.025629565e-01    4.539079964e-05   -1.391954720e-05    0.000000000e+00    0.000000000e+00    0.000000000e+00    0.000000000e+00
        1510250    7.179414630e-01   -1.013212055e-01   -2.439133823e-05   -5.742534995e-06    0.000000000e+00    0.000000000e+00    0.000000000e+00    0.000000000e+00
        1535000    7.170831561e-01   -1.006444320e-01    5.612149835e-06   -2.533569932e-05    0.000000000e+00    0.000000000e+00    0.000000000e+00    0.000000000e+00
        1559750    7.164140344e-01   -9.985906631e-02    4.370883107e-05    1.284759492e-05    0.000000000e+00    0.000000000e+00    0.000000000e+00    0.000000000e+00
        1584500    7.155159712e-01   -9.900622070e-02   -8.989125490e-06   -9.549781680e-06    0.000000000e+00    0.000000000e+00    0.000000000e+00    0.000000000e+00
        1609250    7.147144675e-01   -9.797480702e-02   -8.702278137e-06   -2.383813262e-05    0.000000000e+00    0.000000000e+00    0.000000000e+00    0.000000000e+00
        1634000    7.143366933e-01   -9.748803079e-02    4.771351814e-05   -1.511536539e-06    0.000000000e+00    0.000000000e+00    0.000000000e+00    0.000000000e+00
        1658750    7.134408951e-01   -9.648556262e-02   -4.750490189e-05   -2.871640027e-05    0.000000000e+00    0.000000000e+00    0.000000000e+00    0.000000000e+00
        1683500    7.128431201e-01   -9.571956098e-02   -3.100186586e-05    4.403665662e-05    0.000000000e+00    0.000000000e+00    0.000000000e+00    0.000000000e+00
        1708250    7.122889757e-01   -9.531296790e-02    1.003127545e-05    6.523914635e-06    0.000000000e+00    0.000000000e+00    0.000000000e+00    0.000000000e+00
        1733000    7.116599083e-01   -9.432723373e-02   -2.219155431e-05    4.721805453e-05    0.000000000e+00    0.000000000e+00    0.000000000e+00    0.000000000e+00
        1757750    7.111161351e-01   -9.338656068e-02   -1.012999564e-05   -7.350929081e-06    0.000000000e+00    0.000000000e+00    0.000000000e+00    0.000000000e+00
        1782500    7.105212212e-01   -9.320009500e-02   -1.077167690e-05   -2.942979336e-06    0.000000000e+00    0.000000000e+00    0.000000000e+00    0.000000000e+00
        1807250    7.101995349e-01   -9.257451445e-02   -4.416052252e-05    5.936250091e-06    0.000000000e+00    0.000000000e+00    0.000000000e+00    0.000000000e+00
        1832000    7.098922729e-01   -9.178194404e-02   -4.079192877e-05   -1.207180321e-05    0.000000000e+00    0.000000000e+00    0.000000000e+00    0.000000000e+00
        1856750    7.094264030e-01   -9.127588570e-02    1.762993634e-05   -5.401670933e-07    0.000000000e+00    0.000000000e+00    0.000000000e+00    0.000000000e+00
        1881500    7.088553905e-01   -9.090864658e-02   -3.236997873e-05    2.811290324e-05    0.000000000e+00    0.000000000e+00    0.000000000e+00    0.000000000e+00
        1906250    7.085239291e-01   -9.018675983e-02    1.095235348e-06   -3.290083259e-05    0.000000000e+00    0.000000000e+00    0.000000000e+00    0.000000000e+00
        1931000    7.080718875e-01   -8.950248361e-02   -8.870847523e-06   -4.081055522e-06    0.000000000e+00    0.000000000e+00    0.000000000e+00    0.000000000e+00
        1955750    7.075598836e-01   -8.949092776e-02    2.459902316e-05    3.572460264e-05    0.000000000e+00    0.000000000e+00    0.000000000e+00    0.000000000e+00
        1980500    7.072581649e-01   -8.878351748e-02    4.936009645e-06    1.263990998e-05    0.000000000e+00    0.000000000e+00    0.000000000e+00    0.000000000e+00
        2005250    7.067258358e-01   -8.801086247e-02   -4.585832357e-05    1.974962652e-05    0.000000000e+00    0.000000000e+00    0.000000000e+00    0.000000000e+00
        2030000    7.066265941e-01   -8.766371012e-02   -5.359761417e-05   -2.471636981e-05    0.000000000e+00    0.000000000e+00    0.000000000e+00    0.000000000e+00
        2054750    7.060932517e-01   -8.744418621e-02    2.817250788e-06    1.142639667e-05    0.000000000e+00    0.000000000e+00    0.000000000e+00    0.000000000e+00
        2079500    7.057890296e-01   -8.702671528e-02    2.318993211e-07   -2.419017255e-05    0.000000000e+00    0.000000000e+00    0.000000000e+00    0.000000000e+00
        2104250    7.055854797e-01   -8.647478372e-02   -4.933215678e-06    1.310557127e-05    0.000000000e+00    0.000000000e+00    0.000000000e+00    0.000000000e+00
        2129000    7.051637173e-01   -8.633667976e-02    1.421663910e-05   -4.568975419e-05    0.000000000e+00    0.000000000e+00    0.000000000e+00    0.000000000e+00
        2153750    7.048695087e-01   -8.573183417e-02   -1.329183578e-05    1.208856702e-06    0.000000000e+00    0.000000000e+00    0.000000000e+00    0.000000000e+00
        2178500    7.044454217e-01   -8.532404155e-02    5.592312664e-05   -3.247335553e-05    0.000000000e+00    0.000000000e+00    0.000000000e+00    0.000000000e+00
        2203250    7.042714357e-01   -8.518112451e-02    6.920658052e-06    4.014093429e-05    0.000000000e+00    0.000000000e+00    0.000000000e+00    0.000000000e+00
        2228000    7.043086290e-01   -8.468993008e-02   -2.610031515e-05    1.510325819e-05    0.000000000e+00    0.000000000e+00    0.000000000e+00    0.000000000e+00
        2252750    7.038235664e-01   -8.472114056e-02    3.371387720e-07   -1.637358218e-05    0.000000000e+00    0.000000000e+00    0.000000000e+00    0.000000000e+00
        2277500    7.034639120e-01   -8.426113427e-02    3.855023533e-05   -1.456681639e-05    0.000000000e+00    0.000000000e+00    0.000000000e+00    0.000000000e+00
        2302250    7.035390139e-01   -8.386941254e-02   -1.464691013e-05   -1.437030733e-06    0.000000000e+00    0.000000000e+00    0.000000000e+00    0.000000000e+00
        2327000    7.028341889e-01   -8.354306966e-02   -7.688067853e-06   -2.829451114e-05    0.000000000e+00    0.000000000e+00    0.000000000e+00    0.000000000e+00
        2351750    7.027523518e-01   -8.361890912e-02    1.557357609e-05   -2.818182111e-05    0.000000000e+00    0.000000000e+00    0.000000000e+00    0.000000000e+00
        2376500    7.027809024e-01   -8.336324990e-02   -1.907814294e-05   -4.510488361e-05    0.000000000e+00    0.000000000e+00    0.000000000e+00    0.000000000e+00
        2401250    7.024679184e-01   -8.289273083e-02    2.170726657e-05   -1.516938210e-05    0.000000000e+00    0.000000000e+00    0.000000000e+00    0.000000000e+00
        2426000    7.023060322e-01   -8.259579539e-02    2.210866660e-05    6.614252925e-06    0.000000000e+00    0.000000000e+00    0.000000000e+00    0.000000000e+00
        2450750    7.022922039e-01   -8.259063959e-02   -3.821682185e-05   -1.039821655e-05    0.000000000e+00    0.000000000e+00    0.000000000e+00    0.000000000e+00
        2475500    7.016874552e-01   -8.266518265e-02   -5.849637091e-06    2.149026841e-05    0.000000000e+00    0.000000000e+00    0.000000000e+00    0.000000000e+00
        2500250    7.013823390e-01   -8.216002584e-02   -1.964345574e-05   -3.188848495e-06    0.000000000e+00    0.000000000e+00    0.000000000e+00    0.000000000e+00
        2525000    7.013137341e-01   -8.220201731e-02   -1.918710768e-05    1.440849155e-05    0.000000000e+00    0.000000000e+00    0.000000000e+00    0.000000000e+00
        2549750    7.014699578e-01   -8.183018118e-02   -5.062296987e-05   -5.047768354e-07    0.000000000e+00    0.000000000e+00    0.000000000e+00    0.000000000e+00
        2574500    7.008481622e-01   -8.172733337e-02    7.289461792e-06    1.314375550e-05    0.000000000e+00    0.000000000e+00    0.000000000e+00    0.000000000e+00
        2599250    7.009193897e-01   -8.162166178e-02   -1.495145261e-05    1.378357410e-05    0.000000000e+00    0.000000000e+00    0.000000000e+00    0.000000000e+00
        2624000    7.011344433e-01   -8.169612288e-02    1.244246960e-06    1.644436270e-05    0.000000000e+00    0.000000000e+00    0.000000000e+00    0.000000000e+00
        2648750    7.006601691e-01   -8.149060607e-02   -2.291146666e-05    9.739771485e-06    0.000000000e+00    0.000000000e+00    0.000000000e+00    0.000000000e+00
        2673500    7.006034851e-01   -8.112183958e-02   -4.196539521e-05   -1.417007297e-05    0.000000000e+00    0.000000000e+00    0.000000000e+00    0.000000000e+00
        2698250    7.007313967e-01   -8.114191145e-02   -2.078432590e-05    1.713540405e-05    0.000000000e+00    0.000000000e+00    0.000000000e+00    0.000000000e+00
        2723000    7.003328800e-01   -8.127474785e-02   -8.586794138e-06    3.417022526e-06    0.000000000e+00    0.000000000e+00    0.000000000e+00    0.000000000e+00
        2747750    7.001071572e-01   -8.095262945e-02   -8.651986718e-06    1.562573016e-05    0.000000000e+00    0.000000000e+00    0.000000000e+00    0.000000000e+00
        2772500    7.000658512e-01   -8.114939183e-02   -2.959743142e-05   -2.492312342e-05    0.000000000e+00    0.000000000e+00    0.000000000e+00    0.000000000e+00
        2797250    6.999604702e-01   -8.067693561e-02   -1.115631312e-05    1.096259803e-05    0.000000000e+00    0.000000000e+00    0.000000000e+00    0.000000000e+00
        2822000    6.999711394e-01   -8.063177764e-02   -1.444760710e-05    1.792050898e-05    0.000000000e+00    0.000000000e+00    0.000000000e+00    0.000000000e+00
        2846750    6.997905374e-01   -8.063291758e-02   -1.792050898e-05   -4.296191037e-06    0.000000000e+00    0.000000000e+00    0.000000000e+00    0.000000000e+00
        2871500    6.993816495e-01   -8.092027158e-02    4.584714770e-05    1.625437289e-05    0.000000000e+00    0.000000000e+00    0.000000000e+00    0.000000000e+00
        2896250    6.996353865e-01   -8.048413694e-02   -7.576309144e-06    3.623124212e-05    0.000000000e+00    0.000000000e+00    0.000000000e+00    0.000000000e+00
        2921000    6.995875239e-01   -8.051288873e-02   -8.613802493e-06   -1.187901944e-05    0.000000000e+00    0.000000000e+00    0.000000000e+00    0.000000000e+00
