! NanoVNA-App by OneOfEleven et al v1.1.209 (+OD15) 
! Date: 2024-07-30 12:37:14
! Start: 50kHz Stop: 5MHz Points: 201
! S-Parameter data: F S11 S21 S12 S22
# Hz S RI R 50
!     Frequency           S11_Real           S11_Imag           S21_Real           S21_Imag           S12_Real           S12_Imag           S22_Real           S22_Imag
          50000    1.005272746e+00   -1.621640287e-02   -6.964430213e-06    6.586313248e-06    0.000000000e+00    0.000000000e+00    0.000000000e+00    0.000000000e+00
          74750    1.004448414e+00   -2.501295507e-02   -6.879679859e-06   -1.752376556e-05    0.000000000e+00    0.000000000e+00    0.000000000e+00    0.000000000e+00
          99500    1.006697178e+00   -3.531322256e-02   -2.480112016e-05    1.387111843e-05    0.000000000e+00    0.000000000e+00    0.000000000e+00    0.000000000e+00
         124250    1.009761572e+00   -4.743782431e-02   -1.619756222e-05    8.081085980e-06    0.000000000e+00    0.000000000e+00    0.000000000e+00    0.000000000e+00
         149000    1.011672974e+00   -6.139301509e-02   -7.985159755e-06    8.756294847e-06    0.000000000e+00    0.000000000e+00    0.000000000e+00    0.000000000e+00
         173750    9.905772805e-01   -1.342085600e-01    6.424263120e-06    9.632669389e-06    0.000000000e+00    0.000000000e+00    0.000000000e+00    0.000000000e+00
         198500    9.881026745e-01   -1.513558775e-01   -4.393048584e-06   -5.327165127e-06    0.000000000e+00    0.000000000e+00    0.000000000e+00    0.000000000e+00
         223250    9.834316373e-01   -1.688224375e-01   -8.329749107e-06    6.848946214e-06    0.000000000e+00    0.000000000e+00    0.000000000e+00    0.000000000e+00
         248000    9.752626419e-01   -1.865996718e-01    2.663489431e-05   -8.136034012e-06    0.000000000e+00    0.000000000e+00    0.000000000e+00    0.000000000e+00
         272750    9.636365175e-01   -2.027615607e-01    7.947906852e-06   -2.271495759e-05    0.000000000e+00    0.000000000e+00    0.000000000e+00    0.000000000e+00
         297500    9.506917596e-01   -2.168910205e-01   -5.196779966e-06   -3.598071635e-05    0.000000000e+00    0.000000000e+00    0.000000000e+00    0.000000000e+00
         322250    9.355141521e-01   -2.292563766e-01   -7.329508662e-07   -1.472327858e-05    0.000000000e+00    0.000000000e+00    0.000000000e+00    0.000000000e+00
         347000    9.191372991e-01   -2.384510934e-01    6.669200957e-06   -8.947215974e-06    0.000000000e+00    0.000000000e+00    0.000000000e+00    0.000000000e+00
         371750    9.028483033e-01   -2.449012250e-01   -2.772547305e-06    2.057757229e-05    0.000000000e+00    0.000000000e+00    0.000000000e+00    0.000000000e+00
         396500    8.870753050e-01   -2.499078959e-01    5.578622222e-07   -7.857568562e-06    0.000000000e+00    0.000000000e+00    0.000000000e+00    0.000000000e+00
         421250    8.952003717e-01   -1.742484570e-01   -1.895613968e-05    4.351139069e-06    0.000000000e+00    0.000000000e+00    0.000000000e+00    0.000000000e+00
         446000    8.807102442e-01   -1.771769524e-01    4.937872291e-06    1.169368625e-05    0.000000000e+00    0.000000000e+00    0.000000000e+00    0.000000000e+00
         470750    8.685566187e-01   -1.778679937e-01   -8.846260607e-05   -1.651234925e-06    0.000000000e+00    0.000000000e+00    0.000000000e+00    0.000000000e+00
         495500    8.557072282e-01   -1.774781346e-01    4.252418876e-06    2.979580313e-05    0.000000000e+00    0.000000000e+00    0.000000000e+00    0.000000000e+00
         520250    8.444070220e-01   -1.763470769e-01    2.099480480e-05    2.761837095e-05    0.000000000e+00    0.000000000e+00    0.000000000e+00    0.000000000e+00
         545000    8.346967101e-01   -1.749006063e-01   -3.031920642e-05   -2.706423402e-06    0.000000000e+00    0.000000000e+00    0.000000000e+00    0.000000000e+00
         569750    8.257701397e-01   -1.726816297e-01    1.800060272e-05    1.931469887e-05    0.000000000e+00    0.000000000e+00    0.000000000e+00    0.000000000e+00
         594500    8.166438341e-01   -1.702682376e-01   -1.191720366e-05   -4.276633263e-05    0.000000000e+00    0.000000000e+00    0.000000000e+00    0.000000000e+00
         619250    8.090599179e-01   -1.677337587e-01   -1.758523285e-05    2.318993211e-06    0.000000000e+00    0.000000000e+00    0.000000000e+00    0.000000000e+00
         644000    8.030936718e-01   -1.647163033e-01   -4.525762051e-05   -4.004407674e-05    0.000000000e+00    0.000000000e+00    0.000000000e+00    0.000000000e+00
         668750    7.960251570e-01   -1.620009094e-01   -2.620276064e-05   -1.502502710e-05    0.000000000e+00    0.000000000e+00    0.000000000e+00    0.000000000e+00
         693500    7.906675935e-01   -1.597954929e-01    3.523193300e-05   -5.234964192e-06    0.000000000e+00    0.000000000e+00    0.000000000e+00    0.000000000e+00
         718250    7.859463096e-01   -1.567703336e-01    6.555113941e-05    3.316998482e-05    0.000000000e+00    0.000000000e+00    0.000000000e+00    0.000000000e+00
         743000    7.804039717e-01   -1.537251770e-01    2.451613545e-05    1.076608896e-05    0.000000000e+00    0.000000000e+00    0.000000000e+00    0.000000000e+00
         767750    7.758533359e-01   -1.515068114e-01   -4.875473678e-06    6.663613021e-06    0.000000000e+00    0.000000000e+00    0.000000000e+00    0.000000000e+00
         792500    7.719556093e-01   -1.484525353e-01    2.944562584e-05   -3.322865814e-05    0.000000000e+00    0.000000000e+00    0.000000000e+00    0.000000000e+00
         817250    7.683088779e-01   -1.461164057e-01   -1.213327050e-05   -2.071354538e-05    0.000000000e+00    0.000000000e+00    0.000000000e+00    0.000000000e+00
         842000    7.646442056e-01   -1.434407532e-01   -3.407243639e-05    9.070150554e-06    0.000000000e+00    0.000000000e+00    0.000000000e+00    0.000000000e+00
         866750    7.609433532e-01   -1.411314756e-01   -2.157315612e-05   -7.643364370e-06    0.000000000e+00    0.000000000e+00    0.000000000e+00    0.000000000e+00
         891500    7.580460310e-01   -1.389960200e-01    3.226101398e-06   -2.953037620e-05    0.000000000e+00    0.000000000e+00    0.000000000e+00    0.000000000e+00
         916250    7.547935247e-01   -1.368105561e-01   -1.881457865e-05    5.673617125e-06    0.000000000e+00    0.000000000e+00    0.000000000e+00    0.000000000e+00
         941000    7.520312667e-01   -1.345320493e-01    2.312101424e-05   -1.286901534e-05    0.000000000e+00    0.000000000e+00    0.000000000e+00    0.000000000e+00
         965750    7.494632602e-01   -1.327398270e-01    1.875963062e-05   -4.137400538e-05    0.000000000e+00    0.000000000e+00    0.000000000e+00    0.000000000e+00
         990500    7.473842502e-01   -1.300588846e-01   -1.891050488e-05   -8.640810847e-06    0.000000000e+00    0.000000000e+00    0.000000000e+00    0.000000000e+00
        1015250    7.446582913e-01   -1.286186576e-01    9.365566075e-05    2.982188016e-05    0.000000000e+00    0.000000000e+00    0.000000000e+00    0.000000000e+00
        1040000    7.432722449e-01   -1.269356459e-01    3.558583558e-06    5.539506674e-06    0.000000000e+00    0.000000000e+00    0.000000000e+00    0.000000000e+00
        1064750    7.408615351e-01   -1.250753701e-01   -2.475921065e-05    3.352761269e-05    0.000000000e+00    0.000000000e+00    0.000000000e+00    0.000000000e+00
        1089500    7.389233112e-01   -1.229895577e-01    1.594889909e-05    6.904825568e-06    0.000000000e+00    0.000000000e+00    0.000000000e+00    0.000000000e+00
        1114250    7.371238470e-01   -1.215414628e-01   -3.114342690e-05   -3.003422171e-05    0.000000000e+00    0.000000000e+00    0.000000000e+00    0.000000000e+00
        1139000    7.354131937e-01   -1.197090894e-01   -9.219162166e-06   -1.339334995e-05    0.000000000e+00    0.000000000e+00    0.000000000e+00    0.000000000e+00
        1163750    7.340204716e-01   -1.181310266e-01    3.400258720e-06   -8.123926818e-06    0.000000000e+00    0.000000000e+00    0.000000000e+00    0.000000000e+00
        1188500    7.321031094e-01   -1.166270524e-01    9.790062904e-06    5.674082786e-05    0.000000000e+00    0.000000000e+00    0.000000000e+00    0.000000000e+00
        1213250    7.308763862e-01   -1.155483350e-01    3.963708878e-05   -3.445800394e-05    0.000000000e+00    0.000000000e+00    0.000000000e+00    0.000000000e+00
        1238000    7.292954922e-01   -1.137814522e-01   -7.208436728e-07    5.935318768e-06    0.000000000e+00    0.000000000e+00    0.000000000e+00    0.000000000e+00
        1262750    7.283200622e-01   -1.127303988e-01    1.219287515e-05   -2.313777804e-05    0.000000000e+00    0.000000000e+00    0.000000000e+00    0.000000000e+00
        1287500    7.270043492e-01   -1.111190990e-01   -3.325659782e-05    3.739260137e-06    0.000000000e+00    0.000000000e+00    0.000000000e+00    0.000000000e+00
        1312250    7.257730365e-01   -1.102545485e-01   -5.907379091e-06    3.647245467e-05    0.000000000e+00    0.000000000e+00    0.000000000e+00    0.000000000e+00
        1337000    7.247378826e-01   -1.086606085e-01    2.434290946e-05    1.427251846e-05    0.000000000e+00    0.000000000e+00    0.000000000e+00    0.000000000e+00
        1361750    7.234280109e-01   -1.074289903e-01    2.635549754e-05   -2.060085535e-06    0.000000000e+00    0.000000000e+00    0.000000000e+00    0.000000000e+00
        1386500    7.227571607e-01   -1.066652536e-01    1.060497016e-05   -2.616923302e-05    0.000000000e+00    0.000000000e+00    0.000000000e+00    0.000000000e+00
        1411250    7.212987542e-01   -1.053757668e-01    6.034225225e-05   -3.593973815e-06    0.000000000e+00    0.000000000e+00    0.000000000e+00    0.000000000e+00
        1436000    7.207723856e-01   -1.041696668e-01   -2.537388355e-05    3.101583570e-05    0.000000000e+00    0.000000000e+00    0.000000000e+00    0.000000000e+00
        1460750    7.195872068e-01   -1.036353633e-01    4.700012505e-05   -2.366025001e-05    0.000000000e+00    0.000000000e+00    0.000000000e+00    0.000000000e+00
        1485500    7.186852098e-01   -1.023164317e-01   -3.332924098e-05    9.573996067e-07    0.000000000e+00    0.000000000e+00    0.000000000e+00    0.000000000e+00
        1510250    7.176302075e-01   -1.014505252e-01   -1.710746437e-05   -4.435889423e-06    0.000000000e+00    0.000000000e+00    0.000000000e+00    0.000000000e+00
        1535000    7.171455026e-01   -1.008941606e-01    2.761743963e-05   -8.216127753e-06    0.000000000e+00    0.000000000e+00    0.000000000e+00    0.000000000e+00
        1559750    7.168811560e-01   -9.966643900e-02    8.337199688e-06   -1.874752343e-06    0.000000000e+00    0.000000000e+00    0.000000000e+00    0.000000000e+00
        1584500    7.155904770e-01   -9.866282344e-02   -2.195779234e-05   -4.362221807e-05    0.000000000e+00    0.000000000e+00    0.000000000e+00    0.000000000e+00
        1609250    7.144892812e-01   -9.818905592e-02   -4.274211824e-05   -7.184222341e-06    0.000000000e+00    0.000000000e+00    0.000000000e+00    0.000000000e+00
        1634000    7.142741084e-01   -9.759132564e-02    2.353917807e-05   -3.295578063e-05    0.000000000e+00    0.000000000e+00    0.000000000e+00    0.000000000e+00
        1658750    7.136410475e-01   -9.685050696e-02    2.023484558e-05    1.603737473e-05    0.000000000e+00    0.000000000e+00    0.000000000e+00    0.000000000e+00
        1683500    7.126112580e-01   -9.567998350e-02    1.049228013e-05   -2.355407923e-05    0.000000000e+00    0.000000000e+00    0.000000000e+00    0.000000000e+00
        1708250    7.124205828e-01   -9.534744918e-02    2.282857895e-05   -1.740828156e-05    0.000000000e+00    0.000000000e+00    0.000000000e+00    0.000000000e+00
        1733000    7.121356130e-01   -9.449028969e-02   -2.342276275e-06   -4.328135401e-05    0.000000000e+00    0.000000000e+00    0.000000000e+00    0.000000000e+00
        1757750    7.115540504e-01   -9.368206561e-02   -3.253109753e-05    2.221576869e-05    0.000000000e+00    0.000000000e+00    0.000000000e+00    0.000000000e+00
        1782500    7.105224729e-01   -9.312538803e-02   -3.509502858e-05   -8.929520845e-06    0.000000000e+00    0.000000000e+00    0.000000000e+00    0.000000000e+00
        1807250    7.101109624e-01   -9.231039137e-02   -1.457985491e-05   -3.092177212e-05    0.000000000e+00    0.000000000e+00    0.000000000e+00    0.000000000e+00
        1832000    7.096979022e-01   -9.170609713e-02   -2.277642488e-05   -3.016088158e-05    0.000000000e+00    0.000000000e+00    0.000000000e+00    0.000000000e+00
        1856750    7.092722058e-01   -9.122872353e-02    2.133660018e-06    8.605420589e-07    0.000000000e+00    0.000000000e+00    0.000000000e+00    0.000000000e+00
        1881500    7.087473869e-01   -9.084285796e-02   -1.814402640e-05   -1.630745828e-06    0.000000000e+00    0.000000000e+00    0.000000000e+00    0.000000000e+00
        1906250    7.086905241e-01   -9.051109105e-02    6.031244993e-06    2.578459680e-05    0.000000000e+00    0.000000000e+00    0.000000000e+00    0.000000000e+00
        1931000    7.079336643e-01   -8.952909708e-02   -3.238487989e-05    1.140218228e-05    0.000000000e+00    0.000000000e+00    0.000000000e+00    0.000000000e+00
        1955750    7.074165344e-01   -8.933480084e-02   -2.256594598e-06   -3.214459866e-05    0.000000000e+00    0.000000000e+00    0.000000000e+00    0.000000000e+00
        1980500    7.070916295e-01   -8.849564195e-02    2.658832818e-05    2.128258348e-05    0.000000000e+00    0.000000000e+00    0.000000000e+00    0.000000000e+00
        2005250    7.068041563e-01   -8.819417655e-02   -1.834239811e-05    1.147296280e-05    0.000000000e+00    0.000000000e+00    0.000000000e+00    0.000000000e+00
        2030000    7.063180208e-01   -8.767785877e-02    2.322625369e-05    9.223818779e-06    0.000000000e+00    0.000000000e+00    0.000000000e+00    0.000000000e+00
        2054750    7.060929537e-01   -8.758892864e-02    3.067497164e-05   -2.464558929e-05    0.000000000e+00    0.000000000e+00    0.000000000e+00    0.000000000e+00
        2079500    7.058855891e-01   -8.703852445e-02   -1.452770084e-05    1.802667975e-05    0.000000000e+00    0.000000000e+00    0.000000000e+00    0.000000000e+00
        2104250    7.053917646e-01   -8.656494319e-02   -1.302268356e-05    6.212852895e-06    0.000000000e+00    0.000000000e+00    0.000000000e+00    0.000000000e+00
        2129000    7.051697373e-01   -8.640214056e-02   -2.407468855e-05    1.852773130e-05    0.000000000e+00    0.000000000e+00    0.000000000e+00    0.000000000e+00
        2153750    7.050327659e-01   -8.589874953e-02    2.470333129e-05   -2.379808575e-05    0.000000000e+00    0.000000000e+00    0.000000000e+00    0.000000000e+00
        2178500    7.045511603e-01   -8.518623561e-02    1.668464392e-05    2.368539572e-05    0.000000000e+00    0.000000000e+00    0.000000000e+00    0.000000000e+00
        2203250    7.043592930e-01   -8.530448377e-02    1.301988959e-06   -1.165084541e-06    0.000000000e+00    0.000000000e+00    0.000000000e+00    0.000000000e+00
        2228000    7.041937709e-01   -8.480683714e-02   -2.216920257e-05   -4.172325134e-07    0.000000000e+00    0.000000000e+00    0.000000000e+00    0.000000000e+00
        2252750    7.036425471e-01   -8.498138189e-02   -2.375338227e-05    5.206093192e-06    0.000000000e+00    0.000000000e+00    0.000000000e+00    0.000000000e+00
        2277500    7.035029531e-01   -8.444793522e-02    8.807517588e-06   -4.807580262e-05    0.000000000e+00    0.000000000e+00    0.000000000e+00    0.000000000e+00
        2302250    7.034934759e-01   -8.400420099e-02    3.241933882e-06   -1.073442400e-05    0.000000000e+00    0.000000000e+00    0.000000000e+00    0.000000000e+00
        2327000    7.029586434e-01   -8.346655220e-02   -1.169648021e-05   -1.124478877e-05    0.000000000e+00    0.000000000e+00    0.000000000e+00    0.000000000e+00
        2351750    7.027819157e-01   -8.365618438e-02   -8.838251233e-07   -4.269462079e-05    0.000000000e+00    0.000000000e+00    0.000000000e+00    0.000000000e+00
        2376500    7.029712200e-01   -8.348754793e-02    1.749303192e-05    5.067326128e-06    0.000000000e+00    0.000000000e+00    0.000000000e+00    0.000000000e+00
        2401250    7.022169828e-01   -8.287690580e-02   -4.683621228e-06    2.340413630e-06    0.000000000e+00    0.000000000e+00    0.000000000e+00    0.000000000e+00
        2426000    7.022373676e-01   -8.295094967e-02    1.383945346e-06   -6.341375411e-06    0.000000000e+00    0.000000000e+00    0.000000000e+00    0.000000000e+00
        2450750    7.022835016e-01   -8.293334395e-02    2.982094884e-05   -1.345388591e-05    0.000000000e+00    0.000000000e+00    0.000000000e+00    0.000000000e+00
        2475500    7.019115090e-01   -8.256803453e-02   -4.832632840e-06    8.859671652e-06    0.000000000e+00    0.000000000e+00    0.000000000e+00    0.000000000e+00
        2500250    7.015736699e-01   -8.221726120e-02   -2.566911280e-05   -2.983864397e-05    0.000000000e+00    0.000000000e+00    0.000000000e+00    0.000000000e+00
        2525000    7.015768290e-01   -8.212719113e-02   -5.998648703e-06    5.587935448e-06    0.000000000e+00    0.000000000e+00    0.000000000e+00    0.000000000e+00
        2549750    7.015973330e-01   -8.188470453e-02   -2.908334136e-05   -8.659437299e-06    0.000000000e+00    0.000000000e+00    0.000000000e+00    0.000000000e+00
        2574500    7.011048198e-01   -8.158501238e-02    1.670699567e-05   -4.751607776e-06    0.000000000e+00    0.000000000e+00    0.000000000e+00    0.000000000e+00
        2599250    7.008401752e-01   -8.145686239e-02   -4.936195910e-05    6.562098861e-06    0.000000000e+00    0.000000000e+00    0.000000000e+00    0.000000000e+00
        2624000    7.008941174e-01   -8.164246380e-02    1.455377787e-05    4.673376679e-06    0.000000000e+00    0.000000000e+00    0.000000000e+00    0.000000000e+00
        2648750    7.005748153e-01   -8.169923723e-02   -5.367211998e-06   -1.587159932e-05    0.000000000e+00    0.000000000e+00    0.000000000e+00    0.000000000e+00
        2673500    7.005777359e-01   -8.108057082e-02    1.708045602e-06   -1.187436283e-05    0.000000000e+00    0.000000000e+00    0.000000000e+00    0.000000000e+00
        2698250    7.007604241e-01   -8.134462684e-02   -2.330169082e-05   -2.308655530e-05    0.000000000e+00    0.000000000e+00    0.000000000e+00    0.000000000e+00
        2723000    7.002685666e-01   -8.121828735e-02   -1.642759889e-05   -5.108304322e-06    0.000000000e+00    0.000000000e+00    0.000000000e+00    0.000000000e+00
        2747750    7.002665401e-01   -8.100318909e-02   -2.476666123e-05   -1.203268766e-06    0.000000000e+00    0.000000000e+00    0.000000000e+00    0.000000000e+00
        2772500    7.001158595e-01   -8.084174991e-02   -2.574548125e-05   -6.906688213e-06    0.000000000e+00    0.000000000e+00    0.000000000e+00    0.000000000e+00
        2797250    7.002049088e-01   -8.060958982e-02    3.348104656e-06    1.606997102e-05    0.000000000e+00    0.000000000e+00    0.000000000e+00    0.000000000e+00
        2822000    6.998868585e-01   -8.054530621e-02   -1.544971019e-05   -6.671994925e-06    0.000000000e+00    0.000000000e+00    0.000000000e+00    0.000000000e+00
        2846750    6.999517679e-01   -8.068070561e-02   -4.032626748e-06   -4.999339581e-06    0.000000000e+00    0.000000000e+00    0.000000000e+00    0.000000000e+00
        2871500    6.997652054e-01   -8.067397773e-02    3.307219595e-05   -5.159527063e-06    0.000000000e+00    0.000000000e+00    0.000000000e+00    0.000000000e+00
        2896250    6.994230151e-01   -8.044059575e-02    1.027248800e-06    1.899339259e-05    0.000000000e+00    0.000000000e+00    0.000000000e+00    0.000000000e+00
        2921000    6.992167234e-01   -8.054722846e-02   -1.403875649e-05    2.845469862e-05    0.000000000e+00    0.000000000e+00    0.000000000e+00    0.000000000e+00
