! NanoVNA-App by OneOfEleven et al v1.1.209 (+OD15) 
! Date: 2024-07-30 12:37:15
! Start: 50kHz Stop: 5MHz Points: 201
! S-Parameter data: F S11 S21 S12 S22
# Hz S RI R 50
!     Frequency           S11_Real           S11_Imag           S21_Real           S21_Imag           S12_Real           S12_Imag           S22_Real           S22_Imag
          50000    1.005229354e+00   -1.621167362e-02    6.893649697e-06   -1.408159733e-06    0.000000000e+00    0.000000000e+00    0.000000000e+00    0.000000000e+00
          74750    1.004338980e+00   -2.519223653e-02    5.482695997e-06   -1.495331526e-05    0.000000000e+00    0.000000000e+00    0.000000000e+00    0.000000000e+00
          99500    1.006847739e+00   -3.520044684e-02   -1.980364323e-05    9.040348232e-06    0.000000000e+00    0.000000000e+00    0.000000000e+00    0.000000000e+00
         124250    1.009816766e+00   -4.738358036e-02   -1.246668398e-05    1.683551818e-05    0.000000000e+00    0.000000000e+00    0.000000000e+00    0.000000000e+00
         149000    1.011355758e+00   -6.121560186e-02    5.885958672e-06   -1.017190516e-05    0.000000000e+00    0.000000000e+00    0.000000000e+00    0.000000000e+00
         173750    9.907408953e-01   -1.341972053e-01   -7.016584277e-06    6.461516023e-06    0.000000000e+00    0.000000000e+00    0.000000000e+00    0.000000000e+00
         198500    9.879819751e-01   -1.515864581e-01    1.768022776e-05    1.900084317e-05    0.000000000e+00    0.000000000e+00    0.000000000e+00    0.000000000e+00
         223250    9.830852151e-01   -1.688014567e-01    1.253746450e-05   -1.721363515e-05    0.000000000e+00    0.000000000e+00    0.000000000e+00    0.000000000e+00
         248000    9.751036763e-01   -1.863952726e-01    1.097097993e-06   -1.015327871e-05    0.000000000e+00    0.000000000e+00    0.000000000e+00    0.000000000e+00
         272750    9.635757804e-01   -2.028556764e-01   -7.751397789e-06    4.284083843e-07    0.000000000e+00    0.000000000e+00    0.000000000e+00    0.000000000e+00
         297500    9.506018162e-01   -2.167840153e-01   -1.379381865e-05   -1.693982631e-05    0.000000000e+00    0.000000000e+00    0.000000000e+00    0.000000000e+00
         322250    9.356514215e-01   -2.293937504e-01    3.084540367e-06   -7.050111890e-06    0.000000000e+00    0.000000000e+00    0.000000000e+00    0.000000000e+00
         347000    9.191558957e-01   -2.383893579e-01   -6.301328540e-06    1.838523895e-05    0.000000000e+00    0.000000000e+00    0.000000000e+00    0.000000000e+00
         371750    9.030257463e-01   -2.449220419e-01   -1.104176044e-05   -2.504885197e-05    0.000000000e+00    0.000000000e+00    0.000000000e+00    0.000000000e+00
         396500    8.869037628e-01   -2.496043444e-01    2.277083695e-05    1.236796379e-06    0.000000000e+00    0.000000000e+00    0.000000000e+00    0.000000000e+00
         421250    8.954595327e-01   -1.747663915e-01   -1.396611333e-05   -3.116857260e-05    0.000000000e+00    0.000000000e+00    0.000000000e+00    0.000000000e+00
         446000    8.808884025e-01   -1.775643080e-01   -4.523061216e-05    3.619119525e-06    0.000000000e+00    0.000000000e+00    0.000000000e+00    0.000000000e+00
         470750    8.681584001e-01   -1.780749559e-01    3.635417670e-05   -5.791895092e-06    0.000000000e+00    0.000000000e+00    0.000000000e+00    0.000000000e+00
         495500    8.551918864e-01   -1.776844859e-01    1.366250217e-05    7.717870176e-06    0.000000000e+00    0.000000000e+00    0.000000000e+00    0.000000000e+00
         520250    8.449199796e-01   -1.766736805e-01   -1.882202923e-06    4.395842552e-07    0.000000000e+00    0.000000000e+00    0.000000000e+00    0.000000000e+00
         545000    8.354461789e-01   -1.749083251e-01    1.611746848e-05    4.244968295e-06    0.000000000e+00    0.000000000e+00    0.000000000e+00    0.000000000e+00
         569750    8.251537085e-01   -1.725396365e-01   -4.108250141e-05    2.072844654e-05    0.000000000e+00    0.000000000e+00    0.000000000e+00    0.000000000e+00
         594500    8.174155951e-01   -1.702822149e-01   -2.820976079e-05    6.558373570e-06    0.000000000e+00    0.000000000e+00    0.000000000e+00    0.000000000e+00
         619250    8.099548817e-01   -1.672528982e-01   -2.068467438e-06    2.184230834e-05    0.000000000e+00    0.000000000e+00    0.000000000e+00    0.000000000e+00
         644000    8.024088144e-01   -1.651143432e-01    3.023725003e-05    6.601214409e-06    0.000000000e+00    0.000000000e+00    0.000000000e+00    0.000000000e+00
         668750    7.961964607e-01   -1.618617922e-01    1.359730959e-06   -1.042522490e-05    0.000000000e+00    0.000000000e+00    0.000000000e+00    0.000000000e+00
         693500    7.905166745e-01   -1.591823250e-01   -1.486111432e-05   -1.455098391e-05    0.000000000e+00    0.000000000e+00    0.000000000e+00    0.000000000e+00
         718250    7.854658365e-01   -1.562480330e-01    1.159682870e-05    2.542883158e-05    0.000000000e+00    0.000000000e+00    0.000000000e+00    0.000000000e+00
         743000    7.803849578e-01   -1.537204534e-01   -1.426786184e-05   -3.074854612e-05    0.000000000e+00    0.000000000e+00    0.000000000e+00    0.000000000e+00
         767750    7.755209208e-01   -1.512312889e-01   -2.199131995e-05   -1.046899706e-05    0.000000000e+00    0.000000000e+00    0.000000000e+00    0.000000000e+00
         792500    7.718422413e-01   -1.482274681e-01   -1.324433833e-05    3.212038428e-05    0.000000000e+00    0.000000000e+00    0.000000000e+00    0.000000000e+00
         817250    7.677967548e-01   -1.455084234e-01    7.268041372e-06   -4.622992128e-05    0.000000000e+00    0.000000000e+00    0.000000000e+00    0.000000000e+00
         842000    7.642099261e-01   -1.428747624e-01   -4.369951785e-05   -2.612732351e-05    0.000000000e+00    0.000000000e+00    0.000000000e+00    0.000000000e+00
         866750    7.606036067e-01   -1.411634535e-01   -3.962591290e-05    7.592141628e-06    0.000000000e+00    0.000000000e+00    0.000000000e+00    0.000000000e+00
         891500    7.577609420e-01   -1.386208385e-01   -2.637133002e-05   -5.107372999e-06    0.000000000e+00    0.000000000e+00    0.000000000e+00    0.000000000e+00
         916250    7.547039986e-01   -1.364221573e-01   -2.718716860e-05    5.998648703e-06    0.000000000e+00    0.000000000e+00    0.000000000e+00    0.000000000e+00
         941000    7.525299191e-01   -1.341466904e-01   -2.269912511e-05    6.615184247e-06    0.000000000e+00    0.000000000e+00    0.000000000e+00    0.000000000e+00
         965750    7.497046590e-01   -1.319059283e-01   -1.700501889e-05    2.794899046e-06    0.000000000e+00    0.000000000e+00    0.000000000e+00    0.000000000e+00
         990500    7.469593883e-01   -1.306310892e-01    5.979090929e-07   -9.911134839e-06    0.000000000e+00    0.000000000e+00    0.000000000e+00    0.000000000e+00
        1015250    7.450349927e-01   -1.285366118e-01   -2.777669579e-05   -2.260692418e-05    0.000000000e+00    0.000000000e+00    0.000000000e+00    0.000000000e+00
        1040000    7.429388165e-01   -1.269544512e-01   -1.912750304e-05    9.925104678e-06    0.000000000e+00    0.000000000e+00    0.000000000e+00    0.000000000e+00
        1064750    7.406343818e-01   -1.250886619e-01    1.631025225e-05    1.776218414e-05    0.000000000e+00    0.000000000e+00    0.000000000e+00    0.000000000e+00
        1089500    7.389267683e-01   -1.233208850e-01   -9.273178875e-06   -2.013891935e-05    0.000000000e+00    0.000000000e+00    0.000000000e+00    0.000000000e+00
        1114250    7.373204231e-01   -1.213257909e-01    4.697963595e-05    5.182903260e-05    0.000000000e+00    0.000000000e+00    0.000000000e+00    0.000000000e+00
        1139000    7.355953455e-01   -1.196477264e-01    1.039355993e-05    1.945532858e-06    0.000000000e+00    0.000000000e+00    0.000000000e+00    0.000000000e+00
        1163750    7.339640856e-01   -1.185210124e-01    5.025882274e-05   -3.019068390e-05    0.000000000e+00    0.000000000e+00    0.000000000e+00    0.000000000e+00
        1188500    7.320492268e-01   -1.165252477e-01   -5.172099918e-05    1.900270581e-05    0.000000000e+00    0.000000000e+00    0.000000000e+00    0.000000000e+00
        1213250    7.310041189e-01   -1.151534691e-01    1.981109381e-05    2.224184573e-05    0.000000000e+00    0.000000000e+00    0.000000000e+00    0.000000000e+00
        1238000    7.293598652e-01   -1.143028289e-01   -9.243376553e-06    6.473623216e-06    0.000000000e+00    0.000000000e+00    0.000000000e+00    0.000000000e+00
        1262750    7.282769680e-01   -1.129739657e-01   -1.577660441e-06    7.348135114e-06    0.000000000e+00    0.000000000e+00    0.000000000e+00    0.000000000e+00
        1287500    7.268611193e-01   -1.114054620e-01   -3.482680768e-05    3.854185343e-05    0.000000000e+00    0.000000000e+00    0.000000000e+00    0.000000000e+00
        1312250    7.257634401e-01   -1.099571735e-01    1.424551010e-05   -5.815178156e-06    0.000000000e+00    0.000000000e+00    0.000000000e+00    0.000000000e+00
        1337000    7.241759896e-01   -1.092323288e-01    3.356207162e-05   -3.353040665e-05    0.000000000e+00    0.000000000e+00    0.000000000e+00    0.000000000e+00
        1361750    7.233346105e-01   -1.079487354e-01   -3.930181265e-05    2.660974860e-05    0.000000000e+00    0.000000000e+00    0.000000000e+00    0.000000000e+00
        1386500    7.227220535e-01   -1.064809859e-01    3.702752292e-05   -1.659989357e-05    0.000000000e+00    0.000000000e+00    0.000000000e+00    0.000000000e+00
        1411250    7.213855982e-01   -1.056078598e-01    4.325993359e-06   -9.322538972e-06    0.000000000e+00    0.000000000e+00    0.000000000e+00    0.000000000e+00
        1436000    7.203884721e-01   -1.046117544e-01    5.495268852e-05    9.186565876e-06    0.000000000e+00    0.000000000e+00    0.000000000e+00    0.000000000e+00
        1460750    7.197632194e-01   -1.037104130e-01    3.844406456e-05   -4.032067955e-05    0.000000000e+00    0.000000000e+00    0.000000000e+00    0.000000000e+00
        1485500    7.188456059e-01   -1.022421271e-01   -1.376029104e-05   -1.940317452e-05    0.000000000e+00    0.000000000e+00    0.000000000e+00    0.000000000e+00
        1510250    7.180321813e-01   -1.017262563e-01   -8.522532880e-06    2.103019506e-05    0.000000000e+00    0.000000000e+00    0.000000000e+00    0.000000000e+00
        1535000    7.172049880e-01   -1.006070971e-01    2.991035581e-05    2.528261393e-05    0.000000000e+00    0.000000000e+00    0.000000000e+00    0.000000000e+00
        1559750    7.159597874e-01   -9.928183258e-02    1.144595444e-05   -1.311115921e-05    0.000000000e+00    0.000000000e+00    0.000000000e+00    0.000000000e+00
        1584500    7.155894041e-01   -9.913286567e-02    9.634532034e-06   -5.142763257e-06    0.000000000e+00    0.000000000e+00    0.000000000e+00    0.000000000e+00
        1609250    7.151718140e-01   -9.810218960e-02   -9.275972843e-06    2.877973020e-05    0.000000000e+00    0.000000000e+00    0.000000000e+00    0.000000000e+00
        1634000    7.140004039e-01   -9.706972539e-02    1.311674714e-05    1.401640475e-06    0.000000000e+00    0.000000000e+00    0.000000000e+00    0.000000000e+00
        1658750    7.138507962e-01   -9.649077803e-02   -1.265667379e-05   -2.439413220e-05    0.000000000e+00    0.000000000e+00    0.000000000e+00    0.000000000e+00
        1683500    7.127879858e-01   -9.586505592e-02    8.188188076e-06    3.400351852e-05    0.000000000e+00    0.000000000e+00    0.000000000e+00    0.000000000e+00
        1708250    7.123146653e-01   -9.516011924e-02   -2.460461110e-05    2.053845674e-05    0.000000000e+00    0.000000000e+00    0.000000000e+00    0.000000000e+00
        1733000    7.117302418e-01   -9.395321459e-02   -2.209749073e-05    1.295283437e-05    0.000000000e+00    0.000000000e+00    0.000000000e+00    0.000000000e+00
        1757750    7.110526562e-01   -9.378307313e-02   -1.902226359e-05    5.017966032e-06    0.000000000e+00    0.000000000e+00    0.000000000e+00    0.000000000e+00
        1782500    7.106875181e-01   -9.322113544e-02    3.642402589e-06   -9.194016457e-06    0.000000000e+00    0.000000000e+00    0.000000000e+00    0.000000000e+00
        1807250    7.100956440e-01   -9.234172106e-02   -7.160007954e-06    1.798477024e-05    0.000000000e+00    0.000000000e+00    0.000000000e+00    0.000000000e+00
        1832000    7.095418572e-01   -9.214380383e-02   -5.044974387e-06    2.329330891e-05    0.000000000e+00    0.000000000e+00    0.000000000e+00    0.000000000e+00
        1856750    7.096412182e-01   -9.123009443e-02    1.230370253e-05   -6.519258022e-09    0.000000000e+00    0.000000000e+00    0.000000000e+00    0.000000000e+00
        1881500    7.086532116e-01   -9.042166173e-02    1.119822264e-05    2.615246922e-05    0.000000000e+00    0.000000000e+00    0.000000000e+00    0.000000000e+00
        1906250    7.082970142e-01   -9.037891030e-02    5.798414350e-05   -2.348888665e-05    0.000000000e+00    0.000000000e+00    0.000000000e+00    0.000000000e+00
        1931000    7.081615925e-01   -8.976349980e-02   -1.012627035e-05    1.013837755e-05    0.000000000e+00    0.000000000e+00    0.000000000e+00    0.000000000e+00
        1955750    7.076271176e-01   -8.889736980e-02   -4.877988249e-05   -9.275972843e-06    0.000000000e+00    0.000000000e+00    0.000000000e+00    0.000000000e+00
        1980500    7.069878578e-01   -8.893778920e-02   -3.155786544e-05   -7.530674338e-06    0.000000000e+00    0.000000000e+00    0.000000000e+00    0.000000000e+00
        2005250    7.069935799e-01   -8.857144415e-02   -1.642201096e-05   -1.053046435e-05    0.000000000e+00    0.000000000e+00    0.000000000e+00    0.000000000e+00
        2030000    7.065501213e-01   -8.766981959e-02    3.918539733e-05    7.129274309e-06    0.000000000e+00    0.000000000e+00    0.000000000e+00    0.000000000e+00
        2054750    7.061062455e-01   -8.711696416e-02   -2.649705857e-05   -1.124199480e-05    0.000000000e+00    0.000000000e+00    0.000000000e+00    0.000000000e+00
        2079500    7.060489058e-01   -8.727920800e-02   -5.613081157e-06   -3.032013774e-05    0.000000000e+00    0.000000000e+00    0.000000000e+00    0.000000000e+00
        2104250    7.056363821e-01   -8.651546389e-02   -1.166947186e-06    1.006480306e-05    0.000000000e+00    0.000000000e+00    0.000000000e+00    0.000000000e+00
        2129000    7.050866485e-01   -8.611463010e-02    3.472901881e-05   -3.152340651e-05    0.000000000e+00    0.000000000e+00    0.000000000e+00    0.000000000e+00
        2153750    7.048696280e-01   -8.613160998e-02    1.137331128e-05    1.662410796e-05    0.000000000e+00    0.000000000e+00    0.000000000e+00    0.000000000e+00
        2178500    7.048835754e-01   -8.541955799e-02    4.699733108e-05    7.850117981e-06    0.000000000e+00    0.000000000e+00    0.000000000e+00    0.000000000e+00
        2203250    7.045951486e-01   -8.504728228e-02    2.365931869e-05    1.167412847e-05    0.000000000e+00    0.000000000e+00    0.000000000e+00    0.000000000e+00
        2228000    7.042675614e-01   -8.526948839e-02    5.464069545e-06   -4.471279681e-06    0.000000000e+00    0.000000000e+00    0.000000000e+00    0.000000000e+00
        2252750    7.039386630e-01   -8.488095552e-02    1.150276512e-05    2.590473741e-05    0.000000000e+00    0.000000000e+00    0.000000000e+00    0.000000000e+00
        2277500    7.034977674e-01   -8.421505988e-02   -1.657474786e-05   -2.796575427e-05    0.000000000e+00    0.000000000e+00    0.000000000e+00    0.000000000e+00
        2302250    7.032932639e-01   -8.409856260e-02   -9.522773325e-06   -4.148483276e-05    0.000000000e+00    0.000000000e+00    0.000000000e+00    0.000000000e+00
        2327000    7.034745216e-01   -8.372040838e-02   -2.706144005e-05   -1.490954310e-05    0.000000000e+00    0.000000000e+00    0.000000000e+00    0.000000000e+00
        2351750    7.030389309e-01   -8.335041255e-02    1.677311957e-05    1.844018698e-07    0.000000000e+00    0.000000000e+00    0.000000000e+00    0.000000000e+00
        2376500    7.027658224e-01   -8.325084299e-02   -2.337619662e-07    1.413188875e-05    0.000000000e+00    0.000000000e+00    0.000000000e+00    0.000000000e+00
        2401250    7.026363015e-01   -8.291972429e-02   -5.504116416e-06   -1.184549183e-05    0.000000000e+00    0.000000000e+00    0.000000000e+00    0.000000000e+00
        2426000    7.022534013e-01   -8.302998543e-02   -2.411473542e-05    3.718957305e-05    0.000000000e+00    0.000000000e+00    0.000000000e+00    0.000000000e+00
        2450750    7.018379569e-01   -8.258409053e-02    4.062894732e-05    2.150889486e-05    0.000000000e+00    0.000000000e+00    0.000000000e+00    0.000000000e+00
        2475500    7.022358775e-01   -8.256655186e-02   -2.871267498e-06    3.911834210e-05    0.000000000e+00    0.000000000e+00    0.000000000e+00    0.000000000e+00
        2500250    7.017318010e-01   -8.240339905e-02   -9.904615581e-06   -2.784468234e-05    0.000000000e+00    0.000000000e+00    0.000000000e+00    0.000000000e+00
        2525000    7.015591860e-01   -8.190406859e-02    2.038758248e-05    1.925975084e-06    0.000000000e+00    0.000000000e+00    0.000000000e+00    0.000000000e+00
        2549750    7.012674809e-01   -8.201839775e-02    8.150003850e-06   -1.241732389e-05    0.000000000e+00    0.000000000e+00    0.000000000e+00    0.000000000e+00
        2574500    7.013785243e-01   -8.149833977e-02   -2.178456634e-05    3.519468009e-06    0.000000000e+00    0.000000000e+00    0.000000000e+00    0.000000000e+00
        2599250    7.009424567e-01   -8.154536784e-02    2.468656749e-05    7.171183825e-08    0.000000000e+00    0.000000000e+00    0.000000000e+00    0.000000000e+00
        2624000    7.007133365e-01   -8.150909096e-02   -3.135669976e-05    3.511272371e-05    0.000000000e+00    0.000000000e+00    0.000000000e+00    0.000000000e+00
        2648750    7.008371949e-01   -8.141924441e-02   -1.183059067e-05   -1.392606646e-05    0.000000000e+00    0.000000000e+00    0.000000000e+00    0.000000000e+00
        2673500    7.007528543e-01   -8.130756766e-02    3.425683826e-05   -2.424884588e-05    0.000000000e+00    0.000000000e+00    0.000000000e+00    0.000000000e+00
        2698250    7.003810406e-01   -8.133959025e-02    2.430751920e-07    1.694634557e-05    0.000000000e+00    0.000000000e+00    0.000000000e+00    0.000000000e+00
        2723000    7.006471157e-01   -8.099622279e-02   -1.121312380e-06    4.095025361e-06    0.000000000e+00    0.000000000e+00    0.000000000e+00    0.000000000e+00
        2747750    7.000247240e-01   -8.118543029e-02   -4.576891661e-05   -4.458241165e-06    0.000000000e+00    0.000000000e+00    0.000000000e+00    0.000000000e+00
        2772500    7.001754642e-01   -8.058831841e-02    1.026224345e-05   -3.714859486e-05    0.000000000e+00    0.000000000e+00    0.000000000e+00    0.000000000e+00
        2797250    7.001121044e-01   -8.091732860e-02   -2.587679774e-05   -8.655712008e-06    0.000000000e+00    0.000000000e+00    0.000000000e+00    0.000000000e+00
        2822000    6.999738812e-01   -8.063416183e-02   -8.373521268e-06    3.676209599e-05    0.000000000e+00    0.000000000e+00    0.000000000e+00    0.000000000e+00
        2846750    6.997166872e-01   -8.040850610e-02    5.485489964e-07    6.422400475e-06    0.000000000e+00    0.000000000e+00    0.000000000e+00    0.000000000e+00
        2871500    6.999968886e-01   -8.069526404e-02    8.287839592e-06   -2.504605800e-05    0.000000000e+00    0.000000000e+00    0.000000000e+00    0.000000000e+00
        2896250    6.992820501e-01   -8.082119375e-02    1.144595444e-06    2.870708704e-05    0.000000000e+00    0.000000000e+00    0.000000000e+00    0.000000000e+00
        2921000    6.993525028e-01   -8.049796522e-02    5.105510354e-06   -6.386078894e-06    0.000000000e+00    0.000000000e+00    0.000000000e+00    0.000000000e+00
