! NanoVNA-App by OneOfEleven et al v1.1.209 (+OD15) 
! Date: 2024-07-30 12:37:08
! Start: 50kHz Stop: 5MHz Points: 201
! S-Parameter data: F S11 S21 S12 S22
# Hz S RI R 50
!     Frequency           S11_Real           S11_Imag           S21_Real           S21_Imag           S12_Real           S12_Imag           S22_Real           S22_Imag
          50000    1.005432606e+00   -1.628337801e-02   -6.495974958e-06    7.808208466e-06    0.000000000e+00    0.000000000e+00    0.000000000e+00    0.000000000e+00
          74750    1.004306674e+00   -2.509545721e-02   -6.146728992e-06   -2.602208406e-05    0.000000000e+00    0.000000000e+00    0.000000000e+00    0.000000000e+00
          99500    1.006952524e+00   -3.516972438e-02   -2.911593765e-05    1.955777407e-06    0.000000000e+00    0.000000000e+00    0.000000000e+00    0.000000000e+00
         124250    1.009774566e+00   -4.747797176e-02   -6.380490959e-06    1.686997712e-05    0.000000000e+00    0.000000000e+00    0.000000000e+00    0.000000000e+00
         149000    1.011399865e+00   -6.146074831e-02   -5.982816219e-06    1.263804734e-06    0.000000000e+00    0.000000000e+00    0.000000000e+00    0.000000000e+00
         173750    9.906139374e-01   -1.342790574e-01    3.483146429e-06   -6.074085832e-06    0.000000000e+00    0.000000000e+00    0.000000000e+00    0.000000000e+00
         198500    9.880748391e-01   -1.513426155e-01   -1.396890730e-05    1.878477633e-05    0.000000000e+00    0.000000000e+00    0.000000000e+00    0.000000000e+00
         223250    9.829857349e-01   -1.687543690e-01    6.184913218e-06   -1.691468060e-05    0.000000000e+00    0.000000000e+00    0.000000000e+00    0.000000000e+00
         248000    9.749692678e-01   -1.866039485e-01    7.556751370e-06    1.097097993e-06    0.000000000e+00    0.000000000e+00    0.000000000e+00    0.000000000e+00
         272750    9.637215137e-01   -2.026392221e-01   -8.317641914e-06    6.718561053e-06    0.000000000e+00    0.000000000e+00    0.000000000e+00    0.000000000e+00
         297500    9.506203532e-01   -2.168124169e-01    1.593492925e-06   -2.853665501e-05    0.000000000e+00    0.000000000e+00    0.000000000e+00    0.000000000e+00
         322250    9.357030392e-01   -2.293051034e-01    1.548510045e-05    2.002157271e-05    0.000000000e+00    0.000000000e+00    0.000000000e+00    0.000000000e+00
         347000    9.193813205e-01   -2.382304221e-01    2.139341086e-05    1.207925379e-06    0.000000000e+00    0.000000000e+00    0.000000000e+00    0.000000000e+00
         371750    9.031578898e-01   -2.453166395e-01    8.158385754e-07    6.997026503e-06    0.000000000e+00    0.000000000e+00    0.000000000e+00    0.000000000e+00
         396500    8.870599866e-01   -2.497459203e-01    1.671537757e-05    2.425443381e-05    0.000000000e+00    0.000000000e+00    0.000000000e+00    0.000000000e+00
         421250    8.955106139e-01   -1.743314862e-01    4.257913679e-05    1.146830618e-05    0.000000000e+00    0.000000000e+00    0.000000000e+00    0.000000000e+00
         446000    8.808209896e-01   -1.774594039e-01    1.773610711e-05    3.143213689e-05    0.000000000e+00    0.000000000e+00    0.000000000e+00    0.000000000e+00
         470750    8.678631186e-01   -1.781177223e-01    2.703443170e-05   -5.716178566e-05    0.000000000e+00    0.000000000e+00    0.000000000e+00    0.000000000e+00
         495500    8.554412127e-01   -1.776465476e-01   -1.621618867e-05   -1.499429345e-07    0.000000000e+00    0.000000000e+00    0.000000000e+00    0.000000000e+00
         520250    8.444968462e-01   -1.765049994e-01   -3.578141332e-06   -1.180823892e-05    0.000000000e+00    0.000000000e+00    0.000000000e+00    0.000000000e+00
         545000    8.347207904e-01   -1.756028682e-01    3.794766963e-05   -3.842636943e-05    0.000000000e+00    0.000000000e+00    0.000000000e+00    0.000000000e+00
         569750    8.254191875e-01   -1.725843847e-01    2.628192306e-06    9.376555681e-06    0.000000000e+00    0.000000000e+00    0.000000000e+00    0.000000000e+00
         594500    8.172687888e-01   -1.703699976e-01   -3.127474338e-05    2.941116691e-06    0.000000000e+00    0.000000000e+00    0.000000000e+00    0.000000000e+00
         619250    8.094683886e-01   -1.681209654e-01   -1.718290150e-06   -1.895241439e-06    0.000000000e+00    0.000000000e+00    0.000000000e+00    0.000000000e+00
         644000    8.031385541e-01   -1.650378108e-01    2.004578710e-05   -1.922808588e-05    0.000000000e+00    0.000000000e+00    0.000000000e+00    0.000000000e+00
         668750    7.966960073e-01   -1.618816108e-01   -4.400499165e-06    2.225115895e-05    0.000000000e+00    0.000000000e+00    0.000000000e+00    0.000000000e+00
         693500    7.906421423e-01   -1.597884297e-01   -5.661509931e-06   -1.516193151e-05    0.000000000e+00    0.000000000e+00    0.000000000e+00    0.000000000e+00
         718250    7.846680880e-01   -1.565698832e-01   -1.851562411e-05    4.089530557e-05    0.000000000e+00    0.000000000e+00    0.000000000e+00    0.000000000e+00
         743000    7.805406451e-01   -1.535296440e-01    1.491606236e-05    8.882675320e-05    0.000000000e+00    0.000000000e+00    0.000000000e+00    0.000000000e+00
         767750    7.761796117e-01   -1.510609686e-01    7.702969015e-06   -1.818872988e-05    0.000000000e+00    0.000000000e+00    0.000000000e+00    0.000000000e+00
         792500    7.712868452e-01   -1.483734250e-01   -4.154350609e-05   -1.154188067e-05    0.000000000e+00    0.000000000e+00    0.000000000e+00    0.000000000e+00
         817250    7.678610682e-01   -1.461347640e-01   -3.827735782e-06    2.306327224e-05    0.000000000e+00    0.000000000e+00    0.000000000e+00    0.000000000e+00
         842000    7.640843987e-01   -1.436065882e-01   -3.186147660e-05   -2.521555871e-05    0.000000000e+00    0.000000000e+00    0.000000000e+00    0.000000000e+00
         866750    7.613041997e-01   -1.410614401e-01   -3.146007657e-05    5.863420665e-05    0.000000000e+00    0.000000000e+00    0.000000000e+00    0.000000000e+00
         891500    7.579384446e-01   -1.386432499e-01    4.327483475e-05   -2.370495349e-05    0.000000000e+00    0.000000000e+00    0.000000000e+00    0.000000000e+00
         916250    7.547584772e-01   -1.362771541e-01   -1.229345798e-05   -2.682767808e-05    0.000000000e+00    0.000000000e+00    0.000000000e+00    0.000000000e+00
         941000    7.522280812e-01   -1.341551393e-01   -2.604536712e-05   -3.149174154e-05    0.000000000e+00    0.000000000e+00    0.000000000e+00    0.000000000e+00
         965750    7.497579455e-01   -1.320406944e-01    1.994799823e-05   -2.809800208e-05    0.000000000e+00    0.000000000e+00    0.000000000e+00    0.000000000e+00
         990500    7.469236851e-01   -1.306899786e-01   -2.699438483e-05    3.421213478e-05    0.000000000e+00    0.000000000e+00    0.000000000e+00    0.000000000e+00
        1015250    7.450645566e-01   -1.285578161e-01    3.487709910e-05    1.505855471e-05    0.000000000e+00    0.000000000e+00    0.000000000e+00    0.000000000e+00
        1040000    7.423227429e-01   -1.267116815e-01   -8.088536561e-06    1.095794141e-05    0.000000000e+00    0.000000000e+00    0.000000000e+00    0.000000000e+00
        1064750    7.411929369e-01   -1.247895434e-01    9.406358004e-08    9.935349226e-06    0.000000000e+00    0.000000000e+00    0.000000000e+00    0.000000000e+00
        1089500    7.386519313e-01   -1.233989820e-01   -2.982001752e-05    5.809590220e-06    0.000000000e+00    0.000000000e+00    0.000000000e+00    0.000000000e+00
        1114250    7.371545434e-01   -1.215118840e-01   -5.830638111e-05    1.184456050e-05    0.000000000e+00    0.000000000e+00    0.000000000e+00    0.000000000e+00
        1139000    7.353503704e-01   -1.200412139e-01    1.965090632e-06   -4.911795259e-06    0.000000000e+00    0.000000000e+00    0.000000000e+00    0.000000000e+00
        1163750    7.340466976e-01   -1.180413142e-01   -8.185394108e-06    6.941147149e-06    0.000000000e+00    0.000000000e+00    0.000000000e+00    0.000000000e+00
        1188500    7.321974039e-01   -1.169347018e-01   -2.519600093e-05   -3.809854388e-05    0.000000000e+00    0.000000000e+00    0.000000000e+00    0.000000000e+00
        1213250    7.307829261e-01   -1.156270802e-01    1.258216798e-05   -2.970453352e-05    0.000000000e+00    0.000000000e+00    0.000000000e+00    0.000000000e+00
        1238000    7.296844721e-01   -1.140631959e-01    6.994232535e-07    7.352791727e-06    0.000000000e+00    0.000000000e+00    0.000000000e+00    0.000000000e+00
        1262750    7.282342315e-01   -1.125144511e-01    9.901821613e-06   -1.464504749e-05    0.000000000e+00    0.000000000e+00    0.000000000e+00    0.000000000e+00
        1287500    7.267552018e-01   -1.116189361e-01   -1.645367593e-05    2.472847700e-05    0.000000000e+00    0.000000000e+00    0.000000000e+00    0.000000000e+00
        1312250    7.257813811e-01   -1.099537015e-01   -3.614649177e-05   -5.021691322e-05    0.000000000e+00    0.000000000e+00    0.000000000e+00    0.000000000e+00
        1337000    7.246913910e-01   -1.085777432e-01    1.696683466e-05   -3.577768803e-05    0.000000000e+00    0.000000000e+00    0.000000000e+00    0.000000000e+00
        1361750    7.233105898e-01   -1.073821262e-01   -1.904554665e-06    2.282019705e-05    0.000000000e+00    0.000000000e+00    0.000000000e+00    0.000000000e+00
        1386500    7.225114107e-01   -1.065190807e-01   -3.855954856e-05   -2.459622920e-06    0.000000000e+00    0.000000000e+00    0.000000000e+00    0.000000000e+00
        1411250    7.212696671e-01   -1.056472510e-01    2.577900887e-06    5.171634257e-06    0.000000000e+00    0.000000000e+00    0.000000000e+00    0.000000000e+00
        1436000    7.208328247e-01   -1.041646451e-01    4.285201430e-05   -2.264510840e-05    0.000000000e+00    0.000000000e+00    0.000000000e+00    0.000000000e+00
        1460750    7.195585966e-01   -1.034328863e-01   -9.834766388e-06    1.671724021e-06    0.000000000e+00    0.000000000e+00    0.000000000e+00    0.000000000e+00
        1485500    7.187057137e-01   -1.024047583e-01    3.635883331e-06   -3.890320659e-05    0.000000000e+00    0.000000000e+00    0.000000000e+00    0.000000000e+00
        1510250    7.179865837e-01   -1.014413536e-01    2.629123628e-05    3.271270543e-05    0.000000000e+00    0.000000000e+00    0.000000000e+00    0.000000000e+00
        1535000    7.170892954e-01   -1.008678302e-01    3.733299673e-05   -5.631707609e-06    0.000000000e+00    0.000000000e+00    0.000000000e+00    0.000000000e+00
        1559750    7.170534730e-01   -9.973898530e-02    2.691615373e-05   -4.607345909e-05    0.000000000e+00    0.000000000e+00    0.000000000e+00    0.000000000e+00
        1584500    7.156154513e-01   -9.876736253e-02   -8.015893400e-06    7.458031178e-06    0.000000000e+00    0.000000000e+00    0.000000000e+00    0.000000000e+00
        1609250    7.147439122e-01   -9.812054783e-02    3.321096301e-06   -2.984516323e-05    0.000000000e+00    0.000000000e+00    0.000000000e+00    0.000000000e+00
        1634000    7.142696381e-01   -9.740134329e-02    1.103151590e-05    6.314367056e-06    0.000000000e+00    0.000000000e+00    0.000000000e+00    0.000000000e+00
        1658750    7.134781480e-01   -9.632323682e-02   -1.605786383e-05   -1.220963895e-05    0.000000000e+00    0.000000000e+00    0.000000000e+00    0.000000000e+00
        1683500    7.132164836e-01   -9.569508582e-02    4.021730274e-05   -2.655200660e-06    0.000000000e+00    0.000000000e+00    0.000000000e+00    0.000000000e+00
        1708250    7.122985721e-01   -9.495887160e-02    9.313225746e-09    1.771748066e-05    0.000000000e+00    0.000000000e+00    0.000000000e+00    0.000000000e+00
        1733000    7.117716074e-01   -9.415072948e-02   -1.866277307e-05   -1.617241651e-05    0.000000000e+00    0.000000000e+00    0.000000000e+00    0.000000000e+00
        1757750    7.112215757e-01   -9.350134432e-02   -1.920387149e-06    5.751848221e-06    0.000000000e+00    0.000000000e+00    0.000000000e+00    0.000000000e+00
        1782500    7.107286453e-01   -9.324710071e-02   -2.229306847e-05    3.058463335e-06    0.000000000e+00    0.000000000e+00    0.000000000e+00    0.000000000e+00
        1807250    7.104074955e-01   -9.265741706e-02   -1.896545291e-05   -1.017842442e-05    0.000000000e+00    0.000000000e+00    0.000000000e+00    0.000000000e+00
        1832000    7.099534273e-01   -9.203070402e-02    1.831352711e-05    9.714625776e-06    0.000000000e+00    0.000000000e+00    0.000000000e+00    0.000000000e+00
        1856750    7.092686892e-01   -9.117366374e-02   -1.446064562e-05   -1.054257154e-06    0.000000000e+00    0.000000000e+00    0.000000000e+00    0.000000000e+00
        1881500    7.086458206e-01   -9.078831226e-02    1.374259591e-05   -3.535021096e-05    0.000000000e+00    0.000000000e+00    0.000000000e+00    0.000000000e+00
        1906250    7.087627053e-01   -9.017176926e-02   -1.041963696e-05    2.347305417e-05    0.000000000e+00    0.000000000e+00    0.000000000e+00    0.000000000e+00
        1931000    7.079316378e-01   -8.962541074e-02    1.419708133e-05   -1.187250018e-05    0.000000000e+00    0.000000000e+00    0.000000000e+00    0.000000000e+00
        1955750    7.077205777e-01   -8.901283145e-02   -5.068257451e-06   -7.028691471e-06    0.000000000e+00    0.000000000e+00    0.000000000e+00    0.000000000e+00
        1980500    7.072373033e-01   -8.861606568e-02    7.791444659e-06   -1.923833042e-05    0.000000000e+00    0.000000000e+00    0.000000000e+00    0.000000000e+00
        2005250    7.068155408e-01   -8.816107363e-02   -1.739710569e-06    1.198425889e-05    0.000000000e+00    0.000000000e+00    0.000000000e+00    0.000000000e+00
        2030000    7.066627741e-01   -8.742150664e-02   -7.481314242e-06   -1.264829189e-05    0.000000000e+00    0.000000000e+00    0.000000000e+00    0.000000000e+00
        2054750    7.060167789e-01   -8.746794611e-02   -1.396425068e-05   -1.673866063e-05    0.000000000e+00    0.000000000e+00    0.000000000e+00    0.000000000e+00
        2079500    7.057156563e-01   -8.711523563e-02   -4.411023110e-05   -4.370138049e-05    0.000000000e+00    0.000000000e+00    0.000000000e+00    0.000000000e+00
        2104250    7.054351568e-01   -8.612325042e-02   -1.098960638e-05    1.013278961e-05    0.000000000e+00    0.000000000e+00    0.000000000e+00    0.000000000e+00
        2129000    7.050731778e-01   -8.639502525e-02   -1.704413444e-05    2.359040082e-06    0.000000000e+00    0.000000000e+00    0.000000000e+00    0.000000000e+00
        2153750    7.050822377e-01   -8.579120785e-02    2.166535705e-05    2.551544458e-05    0.000000000e+00    0.000000000e+00    0.000000000e+00    0.000000000e+00
        2178500    7.045182586e-01   -8.504134417e-02    2.793036401e-06    2.843327820e-06    0.000000000e+00    0.000000000e+00    0.000000000e+00    0.000000000e+00
        2203250    7.044361830e-01   -8.512677997e-02    2.708286047e-05    1.584552228e-05    0.000000000e+00    0.000000000e+00    0.000000000e+00    0.000000000e+00
        2228000    7.042799592e-01   -8.485716581e-02    2.746377140e-05   -1.058168709e-05    0.000000000e+00    0.000000000e+00    0.000000000e+00    0.000000000e+00
        2252750    7.036939263e-01   -8.468526602e-02   -6.224028766e-06    4.445109516e-05    0.000000000e+00    0.000000000e+00    0.000000000e+00    0.000000000e+00
        2277500    7.033898830e-01   -8.421330154e-02   -2.527236938e-05    3.494322300e-06    0.000000000e+00    0.000000000e+00    0.000000000e+00    0.000000000e+00
        2302250    7.033589482e-01   -8.384446055e-02   -9.143725038e-06    4.023499787e-05    0.000000000e+00    0.000000000e+00    0.000000000e+00    0.000000000e+00
        2327000    7.030560970e-01   -8.348312229e-02    2.456177026e-05    2.715550363e-05    0.000000000e+00    0.000000000e+00    0.000000000e+00    0.000000000e+00
        2351750    7.028026581e-01   -8.350864053e-02    2.069398761e-06    3.278441727e-05    0.000000000e+00    0.000000000e+00    0.000000000e+00    0.000000000e+00
        2376500    7.026824355e-01   -8.318565041e-02   -1.419428736e-05    1.433026046e-05    0.000000000e+00    0.000000000e+00    0.000000000e+00    0.000000000e+00
        2401250    7.023549676e-01   -8.288603276e-02    1.729186624e-05   -4.121102393e-06    0.000000000e+00    0.000000000e+00    0.000000000e+00    0.000000000e+00
        2426000    7.020147443e-01   -8.264988661e-02    1.783482730e-06    4.326924682e-06    0.000000000e+00    0.000000000e+00    0.000000000e+00    0.000000000e+00
        2450750    7.020901442e-01   -8.266475797e-02    3.040675074e-05    3.657303751e-06    0.000000000e+00    0.000000000e+00    0.000000000e+00    0.000000000e+00
        2475500    7.017729282e-01   -8.244928718e-02   -2.863071859e-05   -3.311689943e-05    0.000000000e+00    0.000000000e+00    0.000000000e+00    0.000000000e+00
        2500250    7.015281916e-01   -8.219171315e-02   -3.606826067e-05   -1.379754394e-05    0.000000000e+00    0.000000000e+00    0.000000000e+00    0.000000000e+00
        2525000    7.013627887e-01   -8.211692423e-02   -4.487112164e-06   -7.729977369e-07    0.000000000e+00    0.000000000e+00    0.000000000e+00    0.000000000e+00
        2549750    7.014809847e-01   -8.189694583e-02   -4.122965038e-06    4.083849490e-05    0.000000000e+00    0.000000000e+00    0.000000000e+00    0.000000000e+00
        2574500    7.010914683e-01   -8.153044432e-02   -3.803148866e-05   -4.900712520e-05    0.000000000e+00    0.000000000e+00    0.000000000e+00    0.000000000e+00
        2599250    7.007544637e-01   -8.163445443e-02    2.313312143e-05   -4.898943007e-05    0.000000000e+00    0.000000000e+00    0.000000000e+00    0.000000000e+00
        2624000    7.009137869e-01   -8.166961372e-02    2.495944500e-07    1.435726881e-05    0.000000000e+00    0.000000000e+00    0.000000000e+00    0.000000000e+00
        2648750    7.006715536e-01   -8.152028918e-02   -3.720168024e-05   -5.974434316e-06    0.000000000e+00    0.000000000e+00    0.000000000e+00    0.000000000e+00
        2673500    7.004566789e-01   -8.118616790e-02   -2.037733793e-05   -4.952773452e-06    0.000000000e+00    0.000000000e+00    0.000000000e+00    0.000000000e+00
        2698250    7.007205486e-01   -8.107189089e-02    5.885958672e-06    2.904701978e-05    0.000000000e+00    0.000000000e+00    0.000000000e+00    0.000000000e+00
        2723000    7.000806928e-01   -8.097237349e-02   -4.208739847e-05   -1.729559153e-05    0.000000000e+00    0.000000000e+00    0.000000000e+00    0.000000000e+00
        2747750    7.000416517e-01   -8.097980917e-02   -2.119783312e-05   -4.455447197e-06    0.000000000e+00    0.000000000e+00    0.000000000e+00    0.000000000e+00
        2772500    6.998953223e-01   -8.123487234e-02   -1.889094710e-05    1.330766827e-05    0.000000000e+00    0.000000000e+00    0.000000000e+00    0.000000000e+00
        2797250    6.999344826e-01   -8.091291785e-02    2.101995051e-05   -6.158836186e-06    0.000000000e+00    0.000000000e+00    0.000000000e+00    0.000000000e+00
        2822000    6.996865273e-01   -8.050984144e-02   -1.924298704e-05   -1.861713827e-06    0.000000000e+00    0.000000000e+00    0.000000000e+00    0.000000000e+00
        2846750    6.996613145e-01   -8.084646612e-02   -3.977492452e-05    2.760067582e-05    0.000000000e+00    0.000000000e+00    0.000000000e+00    0.000000000e+00
        2871500    6.994521618e-01   -8.074411005e-02   -3.166683018e-05   -1.270975918e-05    0.000000000e+00    0.000000000e+00    0.000000000e+00    0.000000000e+00
        2896250    6.993728280e-01   -8.057463169e-02    8.896924555e-06    8.543953300e-06    0.000000000e+00    0.000000000e+00    0.000000000e+00    0.000000000e+00
        2921000    6.993829608e-01   -8.059350401e-02    5.072448403e-05   -3.485195339e-05    0.000000000e+00    0.000000000e+00    0.000000000e+00    0.000000000e+00
