! NanoVNA-App by OneOfEleven et al v1.1.209 (+OD15) 
! Date: 2024-07-30 12:37:08
! Start: 50kHz Stop: 5MHz Points: 201
! S-Parameter data: F S11 S21 S12 S22
# Hz S RI R 50
!     Frequency           S11_Real           S11_Imag           S21_Real           S21_Imag           S12_Real           S12_Imag           S22_Real           S22_Imag
          50000    1.005302072e+00   -1.616318338e-02    3.335997462e-06   -4.165805876e-06    0.000000000e+00    0.000000000e+00    0.000000000e+00    0.000000000e+00
          74750    1.004295111e+00   -2.499318123e-02   -1.792144030e-05   -2.975575626e-06    0.000000000e+00    0.000000000e+00    0.000000000e+00    0.000000000e+00
          99500    1.006758928e+00   -3.509461507e-02   -3.763753921e-05    7.243826985e-06    0.000000000e+00    0.000000000e+00    0.000000000e+00    0.000000000e+00
         124250    1.009581566e+00   -4.743241891e-02   -2.230051905e-05    7.859431207e-06    0.000000000e+00    0.000000000e+00    0.000000000e+00    0.000000000e+00
         149000    1.011267662e+00   -6.149313226e-02   -6.373040378e-06    5.643814802e-06    0.000000000e+00    0.000000000e+00    0.000000000e+00    0.000000000e+00
         173750    9.902849793e-01   -1.342666298e-01    9.505078197e-06   -4.489906132e-06    0.000000000e+00    0.000000000e+00    0.000000000e+00    0.000000000e+00
         198500    9.880462885e-01   -1.517610699e-01   -1.593958586e-05   -3.317371011e-06    0.000000000e+00    0.000000000e+00    0.000000000e+00    0.000000000e+00
         223250    9.830970764e-01   -1.688074321e-01   -1.562852412e-05   -2.928730100e-05    0.000000000e+00    0.000000000e+00    0.000000000e+00    0.000000000e+00
         248000    9.751467705e-01   -1.864880770e-01   -1.297052950e-05    3.385357559e-06    0.000000000e+00    0.000000000e+00    0.000000000e+00    0.000000000e+00
         272750    9.636176229e-01   -2.029896677e-01   -1.548975706e-05   -2.340320498e-05    0.000000000e+00    0.000000000e+00    0.000000000e+00    0.000000000e+00
         297500    9.507746696e-01   -2.169886082e-01   -1.728348434e-05   -9.335577488e-06    0.000000000e+00    0.000000000e+00    0.000000000e+00    0.000000000e+00
         322250    9.358119965e-01   -2.289614677e-01    8.501112461e-06   -9.547919035e-06    0.000000000e+00    0.000000000e+00    0.000000000e+00    0.000000000e+00
         347000    9.189133644e-01   -2.384597659e-01   -1.682341099e-05   -1.739896834e-05    0.000000000e+00    0.000000000e+00    0.000000000e+00    0.000000000e+00
         371750    9.031224251e-01   -2.448413968e-01   -2.112332731e-05   -2.040434629e-05    0.000000000e+00    0.000000000e+00    0.000000000e+00    0.000000000e+00
         396500    8.871870637e-01   -2.499717474e-01   -2.470146865e-05   -5.244277418e-06    0.000000000e+00    0.000000000e+00    0.000000000e+00    0.000000000e+00
         421250    8.954729438e-01   -1.745011806e-01   -1.473911107e-05    8.707866073e-07    0.000000000e+00    0.000000000e+00    0.000000000e+00    0.000000000e+00
         446000    8.807699084e-01   -1.775942445e-01   -8.947215974e-06    8.692033589e-06    0.000000000e+00    0.000000000e+00    0.000000000e+00    0.000000000e+00
         470750    8.679242730e-01   -1.779199839e-01   -1.944508404e-05   -7.299706340e-06    0.000000000e+00    0.000000000e+00    0.000000000e+00    0.000000000e+00
         495500    8.556543589e-01   -1.776572168e-01   -1.601967961e-05   -4.274677485e-05    0.000000000e+00    0.000000000e+00    0.000000000e+00    0.000000000e+00
         520250    8.445767164e-01   -1.766255200e-01    1.525133848e-05    2.015754580e-05    0.000000000e+00    0.000000000e+00    0.000000000e+00    0.000000000e+00
         545000    8.348113298e-01   -1.752105057e-01    2.396572381e-05    4.313141108e-05    0.000000000e+00    0.000000000e+00    0.000000000e+00    0.000000000e+00
         569750    8.255137205e-01   -1.720409542e-01    1.816079021e-05   -4.978850484e-06    0.000000000e+00    0.000000000e+00    0.000000000e+00    0.000000000e+00
         594500    8.172797561e-01   -1.702890843e-01    3.054831177e-05    1.073814929e-06    0.000000000e+00    0.000000000e+00    0.000000000e+00    0.000000000e+00
         619250    8.096744418e-01   -1.681693643e-01   -2.387538552e-05   -7.232651114e-06    0.000000000e+00    0.000000000e+00    0.000000000e+00    0.000000000e+00
         644000    8.028253317e-01   -1.648520529e-01    3.540888429e-06    3.623869270e-05    0.000000000e+00    0.000000000e+00    0.000000000e+00    0.000000000e+00
         668750    7.965644598e-01   -1.618183553e-01   -1.762807369e-05    3.445986658e-05    0.000000000e+00    0.000000000e+00    0.000000000e+00    0.000000000e+00
         693500    7.903586030e-01   -1.595758945e-01    6.465241313e-06    2.009980381e-05    0.000000000e+00    0.000000000e+00    0.000000000e+00    0.000000000e+00
         718250    7.847476602e-01   -1.561363935e-01   -5.167536438e-05   -1.661200076e-05    0.000000000e+00    0.000000000e+00    0.000000000e+00    0.000000000e+00
         743000    7.802762985e-01   -1.533944160e-01    1.068878919e-05   -6.109476089e-06    0.000000000e+00    0.000000000e+00    0.000000000e+00    0.000000000e+00
         767750    7.762871385e-01   -1.509639025e-01   -7.326714694e-06   -1.650117338e-05    0.000000000e+00    0.000000000e+00    0.000000000e+00    0.000000000e+00
         792500    7.713380456e-01   -1.484581679e-01   -5.032308400e-05   -9.974464774e-07    0.000000000e+00    0.000000000e+00    0.000000000e+00    0.000000000e+00
         817250    7.675741911e-01   -1.460633725e-01    1.612585038e-05   -4.141591489e-06    0.000000000e+00    0.000000000e+00    0.000000000e+00    0.000000000e+00
         842000    7.639909983e-01   -1.434959173e-01   -2.246722579e-05    1.786649227e-05    0.000000000e+00    0.000000000e+00    0.000000000e+00    0.000000000e+00
         866750    7.606948018e-01   -1.413078904e-01    2.032145858e-06    4.325993359e-06    0.000000000e+00    0.000000000e+00    0.000000000e+00    0.000000000e+00
         891500    7.574663758e-01   -1.388104260e-01    1.484528184e-05   -1.341663301e-05    0.000000000e+00    0.000000000e+00    0.000000000e+00    0.000000000e+00
         916250    7.553380132e-01   -1.364879608e-01   -2.109445632e-06    2.677366138e-05    0.000000000e+00    0.000000000e+00    0.000000000e+00    0.000000000e+00
         941000    7.525612116e-01   -1.341987848e-01   -2.402812243e-06    1.623481512e-05    0.000000000e+00    0.000000000e+00    0.000000000e+00    0.000000000e+00
         965750    7.498745322e-01   -1.326902658e-01    9.276904166e-06    1.526065171e-05    0.000000000e+00    0.000000000e+00    0.000000000e+00    0.000000000e+00
         990500    7.470644116e-01   -1.301629543e-01    2.798158675e-05   -1.433677971e-05    0.000000000e+00    0.000000000e+00    0.000000000e+00    0.000000000e+00
        1015250    7.450051308e-01   -1.281490028e-01   -1.052301377e-05   -2.556759864e-05    0.000000000e+00    0.000000000e+00    0.000000000e+00    0.000000000e+00
        1040000    7.429907918e-01   -1.264324486e-01    1.358520240e-05    1.032464206e-05    0.000000000e+00    0.000000000e+00    0.000000000e+00    0.000000000e+00
        1064750    7.410775423e-01   -1.248141453e-01    1.135282218e-05   -2.155452967e-05    0.000000000e+00    0.000000000e+00    0.000000000e+00    0.000000000e+00
        1089500    7.390728593e-01   -1.229282767e-01   -1.977384090e-05    3.449991345e-05    0.000000000e+00    0.000000000e+00    0.000000000e+00    0.000000000e+00
        1114250    7.372860312e-01   -1.214421019e-01   -9.280629456e-06   -2.243183553e-05    0.000000000e+00    0.000000000e+00    0.000000000e+00    0.000000000e+00
        1139000    7.354726195e-01   -1.196822375e-01   -2.728588879e-05    9.517185390e-06    0.000000000e+00    0.000000000e+00    0.000000000e+00    0.000000000e+00
        1163750    7.339603901e-01   -1.179865450e-01   -2.014730126e-05   -4.325062037e-06    0.000000000e+00    0.000000000e+00    0.000000000e+00    0.000000000e+00
        1188500    7.321717143e-01   -1.164704785e-01    2.924352884e-07    1.411885023e-05    0.000000000e+00    0.000000000e+00    0.000000000e+00    0.000000000e+00
        1213250    7.309260368e-01   -1.151939705e-01   -4.543550313e-05   -2.048257738e-05    0.000000000e+00    0.000000000e+00    0.000000000e+00    0.000000000e+00
        1238000    7.294249535e-01   -1.136964634e-01   -2.886541188e-05    3.434717655e-05    0.000000000e+00    0.000000000e+00    0.000000000e+00    0.000000000e+00
        1262750    7.282994390e-01   -1.124775410e-01   -5.642417818e-05    2.812314779e-05    0.000000000e+00    0.000000000e+00    0.000000000e+00    0.000000000e+00
        1287500    7.269755006e-01   -1.113709882e-01    4.139728844e-06   -1.824088395e-05    0.000000000e+00    0.000000000e+00    0.000000000e+00    0.000000000e+00
        1312250    7.256546617e-01   -1.098822504e-01   -2.459902316e-05   -4.691071808e-06    0.000000000e+00    0.000000000e+00    0.000000000e+00    0.000000000e+00
        1337000    7.246753573e-01   -1.085131243e-01    6.963498890e-06    2.403557301e-05    0.000000000e+00    0.000000000e+00    0.000000000e+00    0.000000000e+00
        1361750    7.234127522e-01   -1.078376621e-01   -1.836940646e-05   -2.785213292e-05    0.000000000e+00    0.000000000e+00    0.000000000e+00    0.000000000e+00
        1386500    7.226145864e-01   -1.065120026e-01    1.240056008e-05    3.564544022e-05    0.000000000e+00    0.000000000e+00    0.000000000e+00    0.000000000e+00
        1411250    7.218220234e-01   -1.055160388e-01    3.593321890e-05   -3.281794488e-05    0.000000000e+00    0.000000000e+00    0.000000000e+00    0.000000000e+00
        1436000    7.207050920e-01   -1.042747572e-01    4.909932613e-06   -1.536495984e-05    0.000000000e+00    0.000000000e+00    0.000000000e+00    0.000000000e+00
        1460750    7.193305492e-01   -1.034667566e-01    1.712236553e-05    3.397744149e-05    0.000000000e+00    0.000000000e+00    0.000000000e+00    0.000000000e+00
        1485500    7.188010812e-01   -1.024281010e-01   -1.507531852e-05   -2.286490053e-05    0.000000000e+00    0.000000000e+00    0.000000000e+00    0.000000000e+00
        1510250    7.179511786e-01   -1.013084427e-01    3.544613719e-06   -2.835877240e-06    0.000000000e+00    0.000000000e+00    0.000000000e+00    0.000000000e+00
        1535000    7.168002725e-01   -1.007332057e-01    1.080241054e-05   -9.787268937e-06    0.000000000e+00    0.000000000e+00    0.000000000e+00    0.000000000e+00
        1559750    7.161482573e-01   -9.971681237e-02    1.623295248e-06    2.174079418e-05    0.000000000e+00    0.000000000e+00    0.000000000e+00    0.000000000e+00
        1584500    7.154411674e-01   -9.879262000e-02    9.449198842e-06   -6.303191185e-06    0.000000000e+00    0.000000000e+00    0.000000000e+00    0.000000000e+00
        1609250    7.148785591e-01   -9.830620140e-02   -1.476705074e-05    2.074334770e-05    0.000000000e+00    0.000000000e+00    0.000000000e+00    0.000000000e+00
        1634000    7.142699361e-01   -9.710735828e-02    4.219356924e-05    5.305744708e-06    0.000000000e+00    0.000000000e+00    0.000000000e+00    0.000000000e+00
        1658750    7.136446834e-01   -9.655097127e-02   -1.602806151e-05    1.234468073e-05    0.000000000e+00    0.000000000e+00    0.000000000e+00    0.000000000e+00
        1683500    7.131974697e-01   -9.569688886e-02    1.751445234e-05   -6.289221346e-06    0.000000000e+00    0.000000000e+00    0.000000000e+00    0.000000000e+00
        1708250    7.122278810e-01   -9.503798932e-02   -7.000751793e-06   -4.039797932e-05    0.000000000e+00    0.000000000e+00    0.000000000e+00    0.000000000e+00
        1733000    7.119264603e-01   -9.410838783e-02    6.957910955e-06   -2.978555858e-05    0.000000000e+00    0.000000000e+00    0.000000000e+00    0.000000000e+00
        1757750    7.114734650e-01   -9.351955354e-02    5.577690899e-06   -3.881659359e-05    0.000000000e+00    0.000000000e+00    0.000000000e+00    0.000000000e+00
        1782500    7.108178735e-01   -9.343518317e-02    5.728565156e-06    7.181428373e-06    0.000000000e+00    0.000000000e+00    0.000000000e+00    0.000000000e+00
        1807250    7.103944421e-01   -9.216415137e-02   -1.289881766e-06    6.813276559e-05    0.000000000e+00    0.000000000e+00    0.000000000e+00    0.000000000e+00
        1832000    7.097555995e-01   -9.180596471e-02   -4.433654249e-05   -4.884786904e-06    0.000000000e+00    0.000000000e+00    0.000000000e+00    0.000000000e+00
        1856750    7.091178298e-01   -9.177462757e-02    8.115544915e-06    1.220032573e-07    0.000000000e+00    0.000000000e+00    0.000000000e+00    0.000000000e+00
        1881500    7.090733647e-01   -9.087824076e-02   -4.914589226e-06    3.705359995e-05    0.000000000e+00    0.000000000e+00    0.000000000e+00    0.000000000e+00
        1906250    7.084482908e-01   -9.017735720e-02    1.266133040e-05   -3.179535270e-06    0.000000000e+00    0.000000000e+00    0.000000000e+00    0.000000000e+00
        1931000    7.079831362e-01   -8.967622370e-02    2.515129745e-05    1.129508018e-05    0.000000000e+00    0.000000000e+00    0.000000000e+00    0.000000000e+00
        1955750    7.078117132e-01   -8.942854404e-02    2.494454384e-05   -6.906688213e-06    0.000000000e+00    0.000000000e+00    0.000000000e+00    0.000000000e+00
        1980500    7.075694799e-01   -8.866646886e-02    3.201700747e-05   -1.580454409e-05    0.000000000e+00    0.000000000e+00    0.000000000e+00    0.000000000e+00
        2005250    7.065915465e-01   -8.804479241e-02    2.088025212e-06   -7.466413081e-06    0.000000000e+00    0.000000000e+00    0.000000000e+00    0.000000000e+00
        2030000    7.065141201e-01   -8.787816763e-02   -2.261996269e-05   -8.345581591e-06    0.000000000e+00    0.000000000e+00    0.000000000e+00    0.000000000e+00
        2054750    7.062087655e-01   -8.741641790e-02    6.197020411e-06    6.161630154e-06    0.000000000e+00    0.000000000e+00    0.000000000e+00    0.000000000e+00
        2079500    7.055732012e-01   -8.671686053e-02    2.207234502e-05   -9.701587260e-06    0.000000000e+00    0.000000000e+00    0.000000000e+00    0.000000000e+00
        2104250    7.056434751e-01   -8.656303585e-02    1.264736056e-05   -2.495758235e-05    0.000000000e+00    0.000000000e+00    0.000000000e+00    0.000000000e+00
        2129000    7.053850889e-01   -8.651051670e-02   -2.311170101e-05   -1.413747668e-06    0.000000000e+00    0.000000000e+00    0.000000000e+00    0.000000000e+00
        2153750    7.050262094e-01   -8.590751141e-02    1.608207822e-05    2.940651029e-05    0.000000000e+00    0.000000000e+00    0.000000000e+00    0.000000000e+00
        2178500    7.046589255e-01   -8.537275344e-02    1.026317477e-06    1.012161374e-05    0.000000000e+00    0.000000000e+00    0.000000000e+00    0.000000000e+00
        2203250    7.045850754e-01   -8.521331102e-02   -1.016072929e-05   -2.105720341e-06    0.000000000e+00    0.000000000e+00    0.000000000e+00    0.000000000e+00
        2228000    7.042081356e-01   -8.502893150e-02    2.276059240e-05    2.019107342e-05    0.000000000e+00    0.000000000e+00    0.000000000e+00    0.000000000e+00
        2252750    7.038111091e-01   -8.437348902e-02    5.504116416e-06    8.136034012e-06    0.000000000e+00    0.000000000e+00    0.000000000e+00    0.000000000e+00
        2277500    7.036154270e-01   -8.446397632e-02    8.977018297e-06   -2.671033144e-05    0.000000000e+00    0.000000000e+00    0.000000000e+00    0.000000000e+00
        2302250    7.033648491e-01   -8.426114172e-02   -3.357976675e-05    1.716054976e-05    0.000000000e+00    0.000000000e+00    0.000000000e+00    0.000000000e+00
        2327000    7.030342817e-01   -8.358370513e-02    1.699104905e-05    7.797963917e-06    0.000000000e+00    0.000000000e+00    0.000000000e+00    0.000000000e+00
        2351750    7.028802633e-01   -8.367107064e-02   -3.289803863e-05   -1.768581569e-06    0.000000000e+00    0.000000000e+00    0.000000000e+00    0.000000000e+00
        2376500    7.027758956e-01   -8.333084732e-02    7.180497050e-07    1.585762948e-05    0.000000000e+00    0.000000000e+00    0.000000000e+00    0.000000000e+00
        2401250    7.025882006e-01   -8.277786523e-02   -2.799183130e-05   -2.303346992e-05    0.000000000e+00    0.000000000e+00    0.000000000e+00    0.000000000e+00
        2426000    7.021946311e-01   -8.308658749e-02    1.358333975e-05   -3.870949149e-05    0.000000000e+00    0.000000000e+00    0.000000000e+00    0.000000000e+00
        2450750    7.022954822e-01   -8.259583265e-02   -7.662922144e-06   -4.346761853e-05    0.000000000e+00    0.000000000e+00    0.000000000e+00    0.000000000e+00
        2475500    7.018123865e-01   -8.250911534e-02   -1.468509436e-05    1.633446664e-05    0.000000000e+00    0.000000000e+00    0.000000000e+00    0.000000000e+00
        2500250    7.015025020e-01   -8.233056962e-02    1.339055598e-05    2.950616181e-05    0.000000000e+00    0.000000000e+00    0.000000000e+00    0.000000000e+00
        2525000    7.016883492e-01   -8.222418278e-02   -2.209004015e-05   -6.496906281e-06    0.000000000e+00    0.000000000e+00    0.000000000e+00    0.000000000e+00
        2549750    7.015696168e-01   -8.198621869e-02   -5.774665624e-05   -9.816139936e-07    0.000000000e+00    0.000000000e+00    0.000000000e+00    0.000000000e+00
        2574500    7.012694478e-01   -8.146962523e-02   -1.613423228e-05    2.968590707e-05    0.000000000e+00    0.000000000e+00    0.000000000e+00    0.000000000e+00
        2599250    7.008219361e-01   -8.167485148e-02   -5.838461220e-06    7.630325854e-06    0.000000000e+00    0.000000000e+00    0.000000000e+00    0.000000000e+00
        2624000    7.012804151e-01   -8.173830062e-02   -7.093884051e-06   -2.042390406e-05    0.000000000e+00    0.000000000e+00    0.000000000e+00    0.000000000e+00
        2648750    7.004816532e-01   -8.122492582e-02    5.671754479e-07    1.420080662e-05    0.000000000e+00    0.000000000e+00    0.000000000e+00    0.000000000e+00
        2673500    7.005013824e-01   -8.110444993e-02   -1.896265894e-05   -3.321468830e-05    0.000000000e+00    0.000000000e+00    0.000000000e+00    0.000000000e+00
        2698250    7.006664872e-01   -8.092629164e-02   -6.766058505e-06   -1.360941678e-05    0.000000000e+00    0.000000000e+00    0.000000000e+00    0.000000000e+00
        2723000    7.003416419e-01   -8.093458414e-02   -1.771654934e-05    2.047698945e-05    0.000000000e+00    0.000000000e+00    0.000000000e+00    0.000000000e+00
        2747750    7.000775337e-01   -8.077616990e-02   -2.078898251e-05   -4.852190614e-07    0.000000000e+00    0.000000000e+00    0.000000000e+00    0.000000000e+00
        2772500    7.002502084e-01   -8.098373562e-02    2.708565444e-05   -7.078982890e-06    0.000000000e+00    0.000000000e+00    0.000000000e+00    0.000000000e+00
        2797250    7.001247406e-01   -8.080516756e-02    4.222616553e-05   -2.334360033e-05    0.000000000e+00    0.000000000e+00    0.000000000e+00    0.000000000e+00
        2822000    6.996206045e-01   -8.052648604e-02   -3.622844815e-06    2.647656947e-05    0.000000000e+00    0.000000000e+00    0.000000000e+00    0.000000000e+00
        2846750    6.996040940e-01   -8.086848259e-02   -3.309361637e-05    9.272247553e-06    0.000000000e+00    0.000000000e+00    0.000000000e+00    0.000000000e+00
        2871500    6.997573972e-01   -8.059909940e-02   -1.201964915e-05    2.079084516e-05    0.000000000e+00    0.000000000e+00    0.000000000e+00    0.000000000e+00
        2896250    6.997759342e-01   -8.035869896e-02    1.541897655e-05   -2.766773105e-05    0.000000000e+00    0.000000000e+00    0.000000000e+00    0.000000000e+00
        2921000    6.993275285e-01   -8.079671115e-02    1.829396933e-05   -1.353770494e-05    0.000000000e+00    0.000000000e+00    0.000000000e+00    0.000000000e+00
