! NanoVNA-App by OneOfEleven et al v1.1.209 (+OD15) 
! Date: 2024-07-30 12:37:16
! Start: 50kHz Stop: 5MHz Points: 201
! S-Parameter data: F S11 S21 S12 S22
# Hz S RI R 50
!     Frequency           S11_Real           S11_Imag           S21_Real           S21_Imag           S12_Real           S12_Imag           S22_Real           S22_Imag
          50000    1.005357742e+00   -1.627704315e-02    6.623566151e-06    1.102685928e-06    0.000000000e+00    0.000000000e+00    0.000000000e+00    0.000000000e+00
          74750    1.004487514e+00   -2.488533966e-02   -7.856637239e-06   -1.265667379e-06    0.000000000e+00    0.000000000e+00    0.000000000e+00    0.000000000e+00
          99500    1.006883621e+00   -3.518519551e-02   -1.961365342e-05    9.283423424e-06    0.000000000e+00    0.000000000e+00    0.000000000e+00    0.000000000e+00
         124250    1.009637475e+00   -4.760363325e-02   -1.001358032e-05    1.975521445e-05    0.000000000e+00    0.000000000e+00    0.000000000e+00    0.000000000e+00
         149000    1.011497974e+00   -6.144582480e-02   -9.906478226e-06    1.035910100e-05    0.000000000e+00    0.000000000e+00    0.000000000e+00    0.000000000e+00
         173750    9.905833602e-01   -1.343143731e-01   -1.168064773e-05   -1.514051110e-05    0.000000000e+00    0.000000000e+00    0.000000000e+00    0.000000000e+00
         198500    9.878637791e-01   -1.517036557e-01    1.003406942e-05    9.222887456e-06    0.000000000e+00    0.000000000e+00    0.000000000e+00    0.000000000e+00
         223250    9.831449986e-01   -1.687157303e-01   -1.149438322e-05    1.258496195e-05    0.000000000e+00    0.000000000e+00    0.000000000e+00    0.000000000e+00
         248000    9.750317335e-01   -1.865742356e-01    8.563511074e-06    2.855435014e-06    0.000000000e+00    0.000000000e+00    0.000000000e+00    0.000000000e+00
         272750    9.634975791e-01   -2.027687728e-01   -1.880619675e-05   -8.206814528e-06    0.000000000e+00    0.000000000e+00    0.000000000e+00    0.000000000e+00
         297500    9.509149790e-01   -2.164230198e-01    5.859881639e-06   -2.126768231e-05    0.000000000e+00    0.000000000e+00    0.000000000e+00    0.000000000e+00
         322250    9.361537695e-01   -2.292948216e-01   -5.614943802e-06    4.852190614e-06    0.000000000e+00    0.000000000e+00    0.000000000e+00    0.000000000e+00
         347000    9.187902212e-01   -2.384039164e-01    1.198612154e-05   -1.065060496e-05    0.000000000e+00    0.000000000e+00    0.000000000e+00    0.000000000e+00
         371750    9.031949639e-01   -2.449308187e-01    1.715123653e-05    6.869435310e-06    0.000000000e+00    0.000000000e+00    0.000000000e+00    0.000000000e+00
         396500    8.868662715e-01   -2.496430129e-01    5.687493831e-05   -9.262934327e-06    0.000000000e+00    0.000000000e+00    0.000000000e+00    0.000000000e+00
         421250    8.958909512e-01   -1.744590998e-01    3.964826465e-05   -2.683047205e-05    0.000000000e+00    0.000000000e+00    0.000000000e+00    0.000000000e+00
         446000    8.813079596e-01   -1.774024069e-01   -4.052463919e-05   -2.474710345e-05    0.000000000e+00    0.000000000e+00    0.000000000e+00    0.000000000e+00
         470750    8.679566979e-01   -1.783659160e-01   -2.209842205e-05    4.708115011e-05    0.000000000e+00    0.000000000e+00    0.000000000e+00    0.000000000e+00
         495500    8.561550975e-01   -1.775014549e-01    2.984981984e-05    1.224409789e-05    0.000000000e+00    0.000000000e+00    0.000000000e+00    0.000000000e+00
         520250    8.447474241e-01   -1.767368466e-01    3.947317600e-05    4.598777741e-05    0.000000000e+00    0.000000000e+00    0.000000000e+00    0.000000000e+00
         545000    8.346406817e-01   -1.752779335e-01    1.292210072e-05   -6.122048944e-05    0.000000000e+00    0.000000000e+00    0.000000000e+00    0.000000000e+00
         569750    8.256594539e-01   -1.722226739e-01   -1.804716885e-05   -4.137679935e-05    0.000000000e+00    0.000000000e+00    0.000000000e+00    0.000000000e+00
         594500    8.172847629e-01   -1.701943427e-01    2.308376133e-05   -2.115964890e-05    0.000000000e+00    0.000000000e+00    0.000000000e+00    0.000000000e+00
         619250    8.095945716e-01   -1.682053357e-01   -1.865532249e-05    5.836598575e-06    0.000000000e+00    0.000000000e+00    0.000000000e+00    0.000000000e+00
         644000    8.029639721e-01   -1.646948904e-01    3.985129297e-06    6.482005119e-07    0.000000000e+00    0.000000000e+00    0.000000000e+00    0.000000000e+00
         668750    7.962371707e-01   -1.619636118e-01    5.400646478e-05    2.281926572e-05    0.000000000e+00    0.000000000e+00    0.000000000e+00    0.000000000e+00
         693500    7.903079987e-01   -1.594593823e-01   -3.224238753e-06   -2.612546086e-05    0.000000000e+00    0.000000000e+00    0.000000000e+00    0.000000000e+00
         718250    7.847890258e-01   -1.563539803e-01    1.382641494e-05    7.417052984e-06    0.000000000e+00    0.000000000e+00    0.000000000e+00    0.000000000e+00
         743000    7.804939747e-01   -1.534855515e-01   -1.573842019e-05    1.020170748e-05    0.000000000e+00    0.000000000e+00    0.000000000e+00    0.000000000e+00
         767750    7.758371234e-01   -1.513083726e-01   -8.082017303e-06    6.435438991e-07    0.000000000e+00    0.000000000e+00    0.000000000e+00    0.000000000e+00
         792500    7.713502049e-01   -1.485771239e-01   -4.125200212e-05    4.053581506e-05    0.000000000e+00    0.000000000e+00    0.000000000e+00    0.000000000e+00
         817250    7.673857212e-01   -1.461734027e-01    1.911632717e-05   -4.356820136e-05    0.000000000e+00    0.000000000e+00    0.000000000e+00    0.000000000e+00
         842000    7.639313340e-01   -1.435843110e-01   -3.276485950e-05   -3.041420132e-05    0.000000000e+00    0.000000000e+00    0.000000000e+00    0.000000000e+00
         866750    7.614485621e-01   -1.412895620e-01   -3.486592323e-05   -7.393769920e-06    0.000000000e+00    0.000000000e+00    0.000000000e+00    0.000000000e+00
         891500    7.579909563e-01   -1.385793388e-01   -5.562324077e-05    1.040659845e-05    0.000000000e+00    0.000000000e+00    0.000000000e+00    0.000000000e+00
         916250    7.547464967e-01   -1.363730431e-01    1.216866076e-05    3.171432763e-05    0.000000000e+00    0.000000000e+00    0.000000000e+00    0.000000000e+00
         941000    7.522096038e-01   -1.340811998e-01   -5.654990673e-06   -1.884065568e-05    0.000000000e+00    0.000000000e+00    0.000000000e+00    0.000000000e+00
         965750    7.492743731e-01   -1.323491186e-01    1.137144864e-05    4.033371806e-05    0.000000000e+00    0.000000000e+00    0.000000000e+00    0.000000000e+00
         990500    7.475132346e-01   -1.305001229e-01   -5.980860442e-05    9.495764971e-06    0.000000000e+00    0.000000000e+00    0.000000000e+00    0.000000000e+00
        1015250    7.450524569e-01   -1.286710352e-01    8.394941688e-05   -9.187497199e-06    0.000000000e+00    0.000000000e+00    0.000000000e+00    0.000000000e+00
        1040000    7.421274781e-01   -1.266608536e-01    2.722255886e-05    3.038812429e-05    0.000000000e+00    0.000000000e+00    0.000000000e+00    0.000000000e+00
        1064750    7.412851453e-01   -1.247738823e-01    2.384185791e-07   -1.765787601e-05    0.000000000e+00    0.000000000e+00    0.000000000e+00    0.000000000e+00
        1089500    7.388259172e-01   -1.232981309e-01   -2.874527127e-05   -4.153139889e-05    0.000000000e+00    0.000000000e+00    0.000000000e+00    0.000000000e+00
        1114250    7.373074293e-01   -1.214021146e-01   -1.180171967e-05   -2.228654921e-05    0.000000000e+00    0.000000000e+00    0.000000000e+00    0.000000000e+00
        1139000    7.354537249e-01   -1.201070994e-01    3.419630229e-05    2.384278923e-05    0.000000000e+00    0.000000000e+00    0.000000000e+00    0.000000000e+00
        1163750    7.337338328e-01   -1.179203019e-01   -2.803094685e-05    3.241002560e-07    0.000000000e+00    0.000000000e+00    0.000000000e+00    0.000000000e+00
        1188500    7.320846319e-01   -1.171108857e-01    7.237121463e-05   -1.345761120e-05    0.000000000e+00    0.000000000e+00    0.000000000e+00    0.000000000e+00
        1213250    7.308947444e-01   -1.154690310e-01    1.601874828e-07    4.315469414e-05    0.000000000e+00    0.000000000e+00    0.000000000e+00    0.000000000e+00
        1238000    7.296538353e-01   -1.136662811e-01   -4.906207323e-06    2.394802868e-05    0.000000000e+00    0.000000000e+00    0.000000000e+00    0.000000000e+00
        1262750    7.278002501e-01   -1.124202386e-01    1.823808998e-05   -1.311302185e-06    0.000000000e+00    0.000000000e+00    0.000000000e+00    0.000000000e+00
        1287500    7.268034816e-01   -1.114549264e-01   -3.754906356e-05   -4.196912050e-05    0.000000000e+00    0.000000000e+00    0.000000000e+00    0.000000000e+00
        1312250    7.256745100e-01   -1.100074351e-01   -3.684405237e-05    4.318542778e-06    0.000000000e+00    0.000000000e+00    0.000000000e+00    0.000000000e+00
        1337000    7.244026661e-01   -1.085098982e-01    1.610163599e-05    3.421679139e-06    0.000000000e+00    0.000000000e+00    0.000000000e+00    0.000000000e+00
        1361750    7.233494520e-01   -1.075595692e-01    2.118758857e-06   -1.074187458e-05    0.000000000e+00    0.000000000e+00    0.000000000e+00    0.000000000e+00
        1386500    7.224187255e-01   -1.065940335e-01    1.401081681e-05    1.463294029e-05    0.000000000e+00    0.000000000e+00    0.000000000e+00    0.000000000e+00
        1411250    7.212021351e-01   -1.052450612e-01   -1.538358629e-05   -3.471598029e-05    0.000000000e+00    0.000000000e+00    0.000000000e+00    0.000000000e+00
        1436000    7.206516266e-01   -1.040829569e-01   -2.376176417e-05    1.925043762e-06    0.000000000e+00    0.000000000e+00    0.000000000e+00    0.000000000e+00
        1460750    7.195467353e-01   -1.036116928e-01    2.737622708e-05    1.701246947e-05    0.000000000e+00    0.000000000e+00    0.000000000e+00    0.000000000e+00
        1485500    7.184793949e-01   -1.024170816e-01    7.987022400e-06    8.107163012e-06    0.000000000e+00    0.000000000e+00    0.000000000e+00    0.000000000e+00
        1510250    7.176023722e-01   -1.011485904e-01   -1.739058644e-05   -2.250820398e-05    0.000000000e+00    0.000000000e+00    0.000000000e+00    0.000000000e+00
        1535000    7.168514729e-01   -1.007011384e-01   -1.594424248e-06    4.121102393e-06    0.000000000e+00    0.000000000e+00    0.000000000e+00    0.000000000e+00
        1559750    7.169607878e-01   -9.989773482e-02    4.611629993e-05    2.077966928e-05    0.000000000e+00    0.000000000e+00    0.000000000e+00    0.000000000e+00
        1584500    7.155726552e-01   -9.873249382e-02   -1.508370042e-05   -2.494640648e-05    0.000000000e+00    0.000000000e+00    0.000000000e+00    0.000000000e+00
        1609250    7.145835757e-01   -9.826093912e-02   -1.009926200e-05   -1.654215157e-05    0.000000000e+00    0.000000000e+00    0.000000000e+00    0.000000000e+00
        1634000    7.142977118e-01   -9.759348631e-02   -1.274421811e-05   -1.287739724e-05    0.000000000e+00    0.000000000e+00    0.000000000e+00    0.000000000e+00
        1658750    7.135486007e-01   -9.632707387e-02    3.026518971e-05    1.749210060e-05    0.000000000e+00    0.000000000e+00    0.000000000e+00    0.000000000e+00
        1683500    7.130185366e-01   -9.566681832e-02    3.436766565e-05    1.393444836e-05    0.000000000e+00    0.000000000e+00    0.000000000e+00    0.000000000e+00
        1708250    7.124856710e-01   -9.532808512e-02    4.274770617e-06   -1.257378608e-05    0.000000000e+00    0.000000000e+00    0.000000000e+00    0.000000000e+00
        1733000    7.118287683e-01   -9.428453445e-02   -1.492165029e-05   -5.564279854e-05    0.000000000e+00    0.000000000e+00    0.000000000e+00    0.000000000e+00
        1757750    7.114279866e-01   -9.351080656e-02    1.188181341e-05   -2.775806934e-05    0.000000000e+00    0.000000000e+00    0.000000000e+00    0.000000000e+00
        1782500    7.104660869e-01   -9.327552468e-02   -2.524442971e-05   -2.833735198e-05    0.000000000e+00    0.000000000e+00    0.000000000e+00    0.000000000e+00
        1807250    7.103629112e-01   -9.266509861e-02   -1.984927803e-05    8.606351912e-06    0.000000000e+00    0.000000000e+00    0.000000000e+00    0.000000000e+00
        1832000    7.098692060e-01   -9.189622849e-02    1.656822860e-05   -2.136919647e-05    0.000000000e+00    0.000000000e+00    0.000000000e+00    0.000000000e+00
        1856750    7.093840241e-01   -9.116048366e-02    9.405426681e-06   -1.152884215e-05    0.000000000e+00    0.000000000e+00    0.000000000e+00    0.000000000e+00
        1881500    7.088856697e-01   -9.080223739e-02    2.421438694e-07   -9.595416486e-06    0.000000000e+00    0.000000000e+00    0.000000000e+00    0.000000000e+00
        1906250    7.086983323e-01   -9.033038467e-02   -1.876614988e-06   -3.157183528e-05    0.000000000e+00    0.000000000e+00    0.000000000e+00    0.000000000e+00
        1931000    7.079528570e-01   -8.955748379e-02    2.478063107e-05   -4.498288035e-06    0.000000000e+00    0.000000000e+00    0.000000000e+00    0.000000000e+00
        1955750    7.074515820e-01   -8.922553062e-02   -1.409556717e-05    1.284107566e-05    0.000000000e+00    0.000000000e+00    0.000000000e+00    0.000000000e+00
        1980500    7.072061300e-01   -8.857594430e-02   -2.024695277e-06    6.522051990e-06    0.000000000e+00    0.000000000e+00    0.000000000e+00    0.000000000e+00
        2005250    7.066087723e-01   -8.784414828e-02    7.951632142e-06   -5.189329386e-06    0.000000000e+00    0.000000000e+00    0.000000000e+00    0.000000000e+00
        2030000    7.066262960e-01   -8.764147013e-02    4.691071808e-06   -1.551304013e-05    0.000000000e+00    0.000000000e+00    0.000000000e+00    0.000000000e+00
        2054750    7.061010599e-01   -8.761450648e-02    1.257378608e-05   -3.782659769e-05    0.000000000e+00    0.000000000e+00    0.000000000e+00    0.000000000e+00
        2079500    7.058498859e-01   -8.691844344e-02   -1.143105328e-05   -2.277363092e-05    0.000000000e+00    0.000000000e+00    0.000000000e+00    0.000000000e+00
        2104250    7.051442862e-01   -8.628368378e-02   -5.118548870e-06   -1.676380634e-08    0.000000000e+00    0.000000000e+00    0.000000000e+00    0.000000000e+00
        2129000    7.050971985e-01   -8.629295975e-02   -2.885982394e-05    1.825392246e-06    0.000000000e+00    0.000000000e+00    0.000000000e+00    0.000000000e+00
        2153750    7.051040530e-01   -8.564859629e-02    2.272706479e-05   -7.281079888e-06    0.000000000e+00    0.000000000e+00    0.000000000e+00    0.000000000e+00
        2178500    7.046468854e-01   -8.534295857e-02   -2.641603351e-05   -1.614540815e-05    0.000000000e+00    0.000000000e+00    0.000000000e+00    0.000000000e+00
        2203250    7.045745254e-01   -8.557237685e-02   -6.127171218e-06    2.879742533e-05    0.000000000e+00    0.000000000e+00    0.000000000e+00    0.000000000e+00
        2228000    7.039833069e-01   -8.502373844e-02   -1.357961446e-05    2.161692828e-05    0.000000000e+00    0.000000000e+00    0.000000000e+00    0.000000000e+00
        2252750    7.036152482e-01   -8.458119631e-02    1.760013402e-05   -1.366343349e-05    0.000000000e+00    0.000000000e+00    0.000000000e+00    0.000000000e+00
        2277500    7.033981085e-01   -8.441470563e-02    2.833735198e-05   -8.984468877e-06    0.000000000e+00    0.000000000e+00    0.000000000e+00    0.000000000e+00
        2302250    7.033280730e-01   -8.418054134e-02   -7.160007954e-06    4.347413778e-06    0.000000000e+00    0.000000000e+00    0.000000000e+00    0.000000000e+00
        2327000    7.031894326e-01   -8.371438831e-02    1.493468881e-05   -2.617016435e-07    0.000000000e+00    0.000000000e+00    0.000000000e+00    0.000000000e+00
        2351750    7.031283379e-01   -8.362718672e-02    2.823863178e-05    1.233909279e-05    0.000000000e+00    0.000000000e+00    0.000000000e+00    0.000000000e+00
        2376500    7.027894258e-01   -8.318361640e-02   -2.770684659e-06   -1.342128962e-05    0.000000000e+00    0.000000000e+00    0.000000000e+00    0.000000000e+00
        2401250    7.027738094e-01   -8.276414871e-02    9.006820619e-06    6.779097021e-06    0.000000000e+00    0.000000000e+00    0.000000000e+00    0.000000000e+00
        2426000    7.019611001e-01   -8.294936270e-02   -2.194847912e-05   -6.609596312e-06    0.000000000e+00    0.000000000e+00    0.000000000e+00    0.000000000e+00
        2450750    7.021912336e-01   -8.272466063e-02    6.657093763e-06   -9.187497199e-06    0.000000000e+00    0.000000000e+00    0.000000000e+00    0.000000000e+00
        2475500    7.019943595e-01   -8.228264749e-02   -2.414453775e-05    7.553026080e-07    0.000000000e+00    0.000000000e+00    0.000000000e+00    0.000000000e+00
        2500250    7.016516924e-01   -8.243550360e-02    3.770925105e-06   -6.469152868e-05    0.000000000e+00    0.000000000e+00    0.000000000e+00    0.000000000e+00
        2525000    7.015454173e-01   -8.212995529e-02    1.368485391e-05    3.423355520e-05    0.000000000e+00    0.000000000e+00    0.000000000e+00    0.000000000e+00
        2549750    7.013755441e-01   -8.210027218e-02    1.056306064e-05    3.056507558e-05    0.000000000e+00    0.000000000e+00    0.000000000e+00    0.000000000e+00
        2574500    7.013441920e-01   -8.179419488e-02    1.877173781e-05    4.381872714e-06    0.000000000e+00    0.000000000e+00    0.000000000e+00    0.000000000e+00
        2599250    7.009571791e-01   -8.176121116e-02   -5.502253771e-06   -4.874821752e-05    0.000000000e+00    0.000000000e+00    0.000000000e+00    0.000000000e+00
        2624000    7.009510398e-01   -8.139964938e-02   -4.276260734e-05   -4.411023110e-05    0.000000000e+00    0.000000000e+00    0.000000000e+00    0.000000000e+00
        2648750    7.007234097e-01   -8.095245063e-02    1.183338463e-05   -1.062918454e-05    0.000000000e+00    0.000000000e+00    0.000000000e+00    0.000000000e+00
        2673500    7.004578710e-01   -8.121630549e-02    2.055801451e-05    2.902932465e-05    0.000000000e+00    0.000000000e+00    0.000000000e+00    0.000000000e+00
        2698250    7.003312707e-01   -8.129093051e-02   -1.637078822e-05   -2.587959170e-05    0.000000000e+00    0.000000000e+00    0.000000000e+00    0.000000000e+00
        2723000    7.003269196e-01   -8.083020896e-02    2.408586442e-05    3.085192293e-05    0.000000000e+00    0.000000000e+00    0.000000000e+00    0.000000000e+00
        2747750    6.999449134e-01   -8.101294935e-02   -3.056973219e-05   -2.363696694e-05    0.000000000e+00    0.000000000e+00    0.000000000e+00    0.000000000e+00
        2772500    7.000324130e-01   -8.115515113e-02    5.623325706e-06    4.861503839e-07    0.000000000e+00    0.000000000e+00    0.000000000e+00    0.000000000e+00
        2797250    6.998118162e-01   -8.115158230e-02    1.823995262e-05    1.487974077e-05    0.000000000e+00    0.000000000e+00    0.000000000e+00    0.000000000e+00
        2822000    6.997781992e-01   -8.077432960e-02   -3.287568688e-06   -4.979874939e-05    0.000000000e+00    0.000000000e+00    0.000000000e+00    0.000000000e+00
        2846750    6.998929977e-01   -8.097804338e-02    4.471931607e-05    7.759779692e-06    0.000000000e+00    0.000000000e+00    0.000000000e+00    0.000000000e+00
        2871500    6.993544698e-01   -8.096752316e-02   -1.438427716e-05   -7.323920727e-06    0.000000000e+00    0.000000000e+00    0.000000000e+00    0.000000000e+00
        2896250    6.992837787e-01   -8.037087321e-02   -4.130788147e-05   -2.874527127e-05    0.000000000e+00    0.000000000e+00    0.000000000e+00    0.000000000e+00
        2921000    6.997185946e-01   -8.097554743e-02   -3.642030060e-05    4.808418453e-06    0.000000000e+00    0.000000000e+00    0.000000000e+00    0.000000000e+00
