! NanoVNA-App by OneOfEleven et al v1.1.209 (+OD15) 
! Date: 2024-07-30 12:37:17
! Start: 50kHz Stop: 5MHz Points: 201
! S-Parameter data: F S11 S21 S12 S22
# Hz S RI R 50
!     Frequency           S11_Real           S11_Imag           S21_Real           S21_Imag           S12_Real           S12_Imag           S22_Real           S22_Imag
          50000    1.005217433e+00   -1.625370793e-02    5.597248673e-06    1.129787415e-05    0.000000000e+00    0.000000000e+00    0.000000000e+00    0.000000000e+00
          74750    1.004598379e+00   -2.496031672e-02   -2.023763955e-06   -2.801232040e-05    0.000000000e+00    0.000000000e+00    0.000000000e+00    0.000000000e+00
          99500    1.007001877e+00   -3.517663106e-02   -3.393925726e-05    1.730676740e-05    0.000000000e+00    0.000000000e+00    0.000000000e+00    0.000000000e+00
         124250    1.009617925e+00   -4.735575244e-02   -2.329237759e-06    2.578832209e-06    0.000000000e+00    0.000000000e+00    0.000000000e+00    0.000000000e+00
         149000    1.011709452e+00   -6.144250929e-02    5.223788321e-06   -8.299015462e-06    0.000000000e+00    0.000000000e+00    0.000000000e+00    0.000000000e+00
         173750    9.907526970e-01   -1.341342479e-01    1.114979386e-05   -3.094784915e-06    0.000000000e+00    0.000000000e+00    0.000000000e+00    0.000000000e+00
         198500    9.880780578e-01   -1.517061889e-01    1.176632941e-05   -5.935318768e-06    0.000000000e+00    0.000000000e+00    0.000000000e+00    0.000000000e+00
         223250    9.828715920e-01   -1.689033955e-01    1.125689596e-05   -7.844530046e-06    0.000000000e+00    0.000000000e+00    0.000000000e+00    0.000000000e+00
         248000    9.749130607e-01   -1.862333119e-01   -1.101382077e-05   -5.065463483e-06    0.000000000e+00    0.000000000e+00    0.000000000e+00    0.000000000e+00
         272750    9.634110928e-01   -2.028834075e-01    1.045037061e-05   -6.293877959e-06    0.000000000e+00    0.000000000e+00    0.000000000e+00    0.000000000e+00
         297500    9.507113099e-01   -2.168942541e-01   -7.336959243e-06   -1.607462764e-06    0.000000000e+00    0.000000000e+00    0.000000000e+00    0.000000000e+00
         322250    9.356496334e-01   -2.289931327e-01    1.405738294e-05   -7.390975952e-06    0.000000000e+00    0.000000000e+00    0.000000000e+00    0.000000000e+00
         347000    9.187557101e-01   -2.384773940e-01   -1.007039100e-05   -1.217518002e-05    0.000000000e+00    0.000000000e+00    0.000000000e+00    0.000000000e+00
         371750    9.029034972e-01   -2.451072335e-01   -5.615875125e-06    8.299015462e-06    0.000000000e+00    0.000000000e+00    0.000000000e+00    0.000000000e+00
         396500    8.868082166e-01   -2.498266250e-01   -2.894736826e-05    5.410984159e-06    0.000000000e+00    0.000000000e+00    0.000000000e+00    0.000000000e+00
         421250    8.951451778e-01   -1.743594706e-01    3.894697875e-05   -4.128552973e-06    0.000000000e+00    0.000000000e+00    0.000000000e+00    0.000000000e+00
         446000    8.807932138e-01   -1.778274328e-01   -2.020038664e-06   -1.381058246e-05    0.000000000e+00    0.000000000e+00    0.000000000e+00    0.000000000e+00
         470750    8.679651022e-01   -1.783756167e-01   -3.878585994e-05    3.623683006e-05    0.000000000e+00    0.000000000e+00    0.000000000e+00    0.000000000e+00
         495500    8.552051187e-01   -1.775411218e-01    1.736264676e-05   -2.569239587e-05    0.000000000e+00    0.000000000e+00    0.000000000e+00    0.000000000e+00
         520250    8.445559144e-01   -1.768804342e-01    1.484807581e-05    2.362206578e-05    0.000000000e+00    0.000000000e+00    0.000000000e+00    0.000000000e+00
         545000    8.351303339e-01   -1.746902615e-01   -2.939254045e-06    1.365412027e-05    0.000000000e+00    0.000000000e+00    0.000000000e+00    0.000000000e+00
         569750    8.253249526e-01   -1.727854908e-01   -3.576464951e-05    2.993736416e-05    0.000000000e+00    0.000000000e+00    0.000000000e+00    0.000000000e+00
         594500    8.168913722e-01   -1.704630703e-01   -5.044322461e-05   -1.556891948e-05    0.000000000e+00    0.000000000e+00    0.000000000e+00    0.000000000e+00
         619250    8.098959327e-01   -1.675176620e-01   -1.047831029e-05   -1.367181540e-05    0.000000000e+00    0.000000000e+00    0.000000000e+00    0.000000000e+00
         644000    8.027733564e-01   -1.651649773e-01    4.982575774e-07   -4.203990102e-06    0.000000000e+00    0.000000000e+00    0.000000000e+00    0.000000000e+00
         668750    7.962619066e-01   -1.618576050e-01   -1.475308090e-05   -3.957841545e-05    0.000000000e+00    0.000000000e+00    0.000000000e+00    0.000000000e+00
         693500    7.905691862e-01   -1.593768001e-01    3.134831786e-06   -3.732088953e-05    0.000000000e+00    0.000000000e+00    0.000000000e+00    0.000000000e+00
         718250    7.854121923e-01   -1.563985795e-01    1.979991794e-06   -2.632290125e-05    0.000000000e+00    0.000000000e+00    0.000000000e+00    0.000000000e+00
         743000    7.803005576e-01   -1.540011168e-01   -1.955777407e-07    3.312714398e-05    0.000000000e+00    0.000000000e+00    0.000000000e+00    0.000000000e+00
         767750    7.758030295e-01   -1.511415392e-01    4.059635103e-06   -1.436099410e-05    0.000000000e+00    0.000000000e+00    0.000000000e+00    0.000000000e+00
         792500    7.721855044e-01   -1.483047009e-01    2.584420145e-06    4.913657904e-06    0.000000000e+00    0.000000000e+00    0.000000000e+00    0.000000000e+00
         817250    7.680571079e-01   -1.457739323e-01   -1.425389200e-05   -1.590233296e-05    0.000000000e+00    0.000000000e+00    0.000000000e+00    0.000000000e+00
         842000    7.644650936e-01   -1.431850940e-01   -1.694262028e-05    1.837778836e-05    0.000000000e+00    0.000000000e+00    0.000000000e+00    0.000000000e+00
         866750    7.610447407e-01   -1.408719271e-01    7.099471986e-06   -3.525055945e-06    0.000000000e+00    0.000000000e+00    0.000000000e+00    0.000000000e+00
         891500    7.579884529e-01   -1.384023875e-01   -1.548510045e-05    2.981722355e-05    0.000000000e+00    0.000000000e+00    0.000000000e+00    0.000000000e+00
         916250    7.542654872e-01   -1.366933137e-01   -1.422129571e-05    1.740548760e-05    0.000000000e+00    0.000000000e+00    0.000000000e+00    0.000000000e+00
         941000    7.517046928e-01   -1.345509291e-01   -3.760680556e-06   -2.095289528e-05    0.000000000e+00    0.000000000e+00    0.000000000e+00    0.000000000e+00
         965750    7.494663000e-01   -1.326863319e-01    8.559785783e-06   -1.458823681e-05    0.000000000e+00    0.000000000e+00    0.000000000e+00    0.000000000e+00
         990500    7.473856211e-01   -1.304820925e-01   -2.503488213e-05   -1.180823892e-05    0.000000000e+00    0.000000000e+00    0.000000000e+00    0.000000000e+00
        1015250    7.451086044e-01   -1.282160878e-01    2.162065357e-05    3.661960363e-05    0.000000000e+00    0.000000000e+00    0.000000000e+00    0.000000000e+00
        1040000    7.431461215e-01   -1.266509593e-01    1.338496804e-05    3.141071647e-05    0.000000000e+00    0.000000000e+00    0.000000000e+00    0.000000000e+00
        1064750    7.407572865e-01   -1.249349937e-01   -1.308694482e-05    2.376362681e-05    0.000000000e+00    0.000000000e+00    0.000000000e+00    0.000000000e+00
        1089500    7.387394309e-01   -1.229430884e-01    9.986571968e-06    8.146278560e-06    0.000000000e+00    0.000000000e+00    0.000000000e+00    0.000000000e+00
        1114250    7.372025251e-01   -1.212209240e-01   -6.820075214e-06   -1.737102866e-05    0.000000000e+00    0.000000000e+00    0.000000000e+00    0.000000000e+00
        1139000    7.356888056e-01   -1.199125946e-01   -8.683651686e-06   -2.846121788e-06    0.000000000e+00    0.000000000e+00    0.000000000e+00    0.000000000e+00
        1163750    7.335170507e-01   -1.182301119e-01    3.726221621e-05   -3.078952432e-05    0.000000000e+00    0.000000000e+00    0.000000000e+00    0.000000000e+00
        1188500    7.323268056e-01   -1.164350733e-01   -8.819624782e-07    1.706462353e-05    0.000000000e+00    0.000000000e+00    0.000000000e+00    0.000000000e+00
        1213250    7.312499285e-01   -1.151524261e-01    1.519266516e-05   -4.535261542e-05    0.000000000e+00    0.000000000e+00    0.000000000e+00    0.000000000e+00
        1238000    7.293890119e-01   -1.139942780e-01    3.462936729e-05   -1.365970820e-05    0.000000000e+00    0.000000000e+00    0.000000000e+00    0.000000000e+00
        1262750    7.279508710e-01   -1.123088151e-01    4.915520549e-05    2.240762115e-05    0.000000000e+00    0.000000000e+00    0.000000000e+00    0.000000000e+00
        1287500    7.271974683e-01   -1.111558080e-01    1.684948802e-05    1.972541213e-05    0.000000000e+00    0.000000000e+00    0.000000000e+00    0.000000000e+00
        1312250    7.255607247e-01   -1.101606563e-01   -1.774821430e-05    1.710280776e-05    0.000000000e+00    0.000000000e+00    0.000000000e+00    0.000000000e+00
        1337000    7.245553732e-01   -1.089643613e-01   -1.064874232e-05   -9.397044778e-07    0.000000000e+00    0.000000000e+00    0.000000000e+00    0.000000000e+00
        1361750    7.235307097e-01   -1.078081131e-01    4.161242396e-05    7.113441825e-06    0.000000000e+00    0.000000000e+00    0.000000000e+00    0.000000000e+00
        1386500    7.223820090e-01   -1.062536463e-01    1.965742558e-05   -2.925749868e-05    0.000000000e+00    0.000000000e+00    0.000000000e+00    0.000000000e+00
        1411250    7.211499810e-01   -1.057761088e-01   -5.257036537e-05    6.575137377e-07    0.000000000e+00    0.000000000e+00    0.000000000e+00    0.000000000e+00
        1436000    7.205612659e-01   -1.046749204e-01   -4.833657295e-05    1.760013402e-05    0.000000000e+00    0.000000000e+00    0.000000000e+00    0.000000000e+00
        1460750    7.195679545e-01   -1.032847986e-01    1.944787800e-05    2.291239798e-05    0.000000000e+00    0.000000000e+00    0.000000000e+00    0.000000000e+00
        1485500    7.184518576e-01   -1.025929973e-01   -2.174079418e-05   -2.341251820e-05    0.000000000e+00    0.000000000e+00    0.000000000e+00    0.000000000e+00
        1510250    7.177694440e-01   -1.014302671e-01    2.682115883e-05   -7.392838597e-06    0.000000000e+00    0.000000000e+00    0.000000000e+00    0.000000000e+00
        1535000    7.171701193e-01   -1.003533676e-01    4.689209163e-06   -3.655813634e-05    0.000000000e+00    0.000000000e+00    0.000000000e+00    0.000000000e+00
        1559750    7.158684134e-01   -9.975937754e-02   -1.531373709e-05   -4.951376468e-05    0.000000000e+00    0.000000000e+00    0.000000000e+00    0.000000000e+00
        1584500    7.156508565e-01   -9.883622825e-02    2.742744982e-06   -4.166737199e-06    0.000000000e+00    0.000000000e+00    0.000000000e+00    0.000000000e+00
        1609250    7.148215175e-01   -9.767550230e-02   -3.944896162e-05    5.665048957e-05    0.000000000e+00    0.000000000e+00    0.000000000e+00    0.000000000e+00
        1634000    7.139797211e-01   -9.761703014e-02   -2.642348409e-05    7.916241884e-06    0.000000000e+00    0.000000000e+00    0.000000000e+00    0.000000000e+00
        1658750    7.135578990e-01   -9.667967260e-02    3.808084875e-05   -4.668720067e-06    0.000000000e+00    0.000000000e+00    0.000000000e+00    0.000000000e+00
        1683500    7.129141092e-01   -9.573692083e-02   -4.198867828e-05    2.404674888e-06    0.000000000e+00    0.000000000e+00    0.000000000e+00    0.000000000e+00
        1708250    7.121524811e-01   -9.493888170e-02   -1.164153218e-06    3.083515912e-05    0.000000000e+00    0.000000000e+00    0.000000000e+00    0.000000000e+00
        1733000    7.117061615e-01   -9.443024546e-02   -1.056771725e-05    5.379319191e-05    0.000000000e+00    0.000000000e+00    0.000000000e+00    0.000000000e+00
        1757750    7.114463449e-01   -9.390459955e-02    4.252418876e-06   -1.536775380e-05    0.000000000e+00    0.000000000e+00    0.000000000e+00    0.000000000e+00
        1782500    7.107551694e-01   -9.286285192e-02   -1.573935151e-06   -3.881286830e-05    0.000000000e+00    0.000000000e+00    0.000000000e+00    0.000000000e+00
        1807250    7.101206779e-01   -9.265866131e-02   -6.961636245e-06    8.372589946e-07    0.000000000e+00    0.000000000e+00    0.000000000e+00    0.000000000e+00
        1832000    7.098661065e-01   -9.203799814e-02   -1.305062324e-05    1.009739935e-05    0.000000000e+00    0.000000000e+00    0.000000000e+00    0.000000000e+00
        1856750    7.092003822e-01   -9.120057523e-02   -1.811143011e-05   -6.796792150e-06    0.000000000e+00    0.000000000e+00    0.000000000e+00    0.000000000e+00
        1881500    7.086397409e-01   -9.088867158e-02    2.205464989e-05    2.947263420e-05    0.000000000e+00    0.000000000e+00    0.000000000e+00    0.000000000e+00
        1906250    7.086030245e-01   -9.027419984e-02   -8.828938007e-06   -2.945028245e-05    0.000000000e+00    0.000000000e+00    0.000000000e+00    0.000000000e+00
        1931000    7.081323862e-01   -8.978590369e-02   -2.498272806e-05   -2.796296030e-05    0.000000000e+00    0.000000000e+00    0.000000000e+00    0.000000000e+00
        1955750    7.074430585e-01   -8.929580450e-02    2.199225128e-05   -2.236012369e-05    0.000000000e+00    0.000000000e+00    0.000000000e+00    0.000000000e+00
        1980500    7.074313760e-01   -8.885756135e-02    3.152340651e-05    1.111440361e-05    0.000000000e+00    0.000000000e+00    0.000000000e+00    0.000000000e+00
        2005250    7.071468830e-01   -8.831582218e-02    2.694223076e-05    1.527182758e-05    0.000000000e+00    0.000000000e+00    0.000000000e+00    0.000000000e+00
        2030000    7.063605189e-01   -8.739432693e-02    1.262500882e-05   -2.190936357e-05    0.000000000e+00    0.000000000e+00    0.000000000e+00    0.000000000e+00
        2054750    7.061817050e-01   -8.756516129e-02    1.864694059e-05    3.444217145e-05    0.000000000e+00    0.000000000e+00    0.000000000e+00    0.000000000e+00
        2079500    7.059134245e-01   -8.699421585e-02   -1.126527786e-05   -5.912967026e-06    0.000000000e+00    0.000000000e+00    0.000000000e+00    0.000000000e+00
        2104250    7.051600814e-01   -8.639788628e-02   -3.352481872e-05    5.243346095e-07    0.000000000e+00    0.000000000e+00    0.000000000e+00    0.000000000e+00
        2129000    7.050858140e-01   -8.633459359e-02    7.661990821e-06    3.404915333e-05    0.000000000e+00    0.000000000e+00    0.000000000e+00    0.000000000e+00
        2153750    7.050002813e-01   -8.588177711e-02   -8.332543075e-06   -1.626089215e-06    0.000000000e+00    0.000000000e+00    0.000000000e+00    0.000000000e+00
        2178500    7.045632005e-01   -8.522310853e-02   -1.360848546e-05    3.552250564e-05    0.000000000e+00    0.000000000e+00    0.000000000e+00    0.000000000e+00
        2203250    7.042912245e-01   -8.537547290e-02    4.231557250e-05    2.300832421e-05    0.000000000e+00    0.000000000e+00    0.000000000e+00    0.000000000e+00
        2228000    7.042186856e-01   -8.462814987e-02   -3.417953849e-07   -7.136724889e-06    0.000000000e+00    0.000000000e+00    0.000000000e+00    0.000000000e+00
        2252750    7.036020756e-01   -8.461427689e-02   -9.583309293e-07    1.175235957e-05    0.000000000e+00    0.000000000e+00    0.000000000e+00    0.000000000e+00
        2277500    7.034137249e-01   -8.416891098e-02   -3.218743950e-05    1.947116107e-05    0.000000000e+00    0.000000000e+00    0.000000000e+00    0.000000000e+00
        2302250    7.035362124e-01   -8.403234184e-02   -2.381298691e-05   -2.149492502e-06    0.000000000e+00    0.000000000e+00    0.000000000e+00    0.000000000e+00
        2327000    7.032859921e-01   -8.351244032e-02   -8.279457688e-06   -7.678754628e-06    0.000000000e+00    0.000000000e+00    0.000000000e+00    0.000000000e+00
        2351750    7.026947737e-01   -8.338572830e-02    1.875869930e-05    7.682479918e-06    0.000000000e+00    0.000000000e+00    0.000000000e+00    0.000000000e+00
        2376500    7.025185227e-01   -8.321318775e-02   -9.655021131e-06   -1.750513911e-05    0.000000000e+00    0.000000000e+00    0.000000000e+00    0.000000000e+00
        2401250    7.024710178e-01   -8.313585818e-02   -2.663303167e-05    8.293427527e-06    0.000000000e+00    0.000000000e+00    0.000000000e+00    0.000000000e+00
        2426000    7.021047473e-01   -8.289764076e-02   -3.310479224e-05    2.498179674e-05    0.000000000e+00    0.000000000e+00    0.000000000e+00    0.000000000e+00
        2450750    7.023589611e-01   -8.272620291e-02    2.639368176e-06   -5.220063031e-06    0.000000000e+00    0.000000000e+00    0.000000000e+00    0.000000000e+00
        2475500    7.016473413e-01   -8.285703510e-02   -3.026984632e-05   -1.091789454e-05    0.000000000e+00    0.000000000e+00    0.000000000e+00    0.000000000e+00
        2500250    7.013913989e-01   -8.227353543e-02   -1.244340092e-05    4.842877388e-08    0.000000000e+00    0.000000000e+00    0.000000000e+00    0.000000000e+00
        2525000    7.013825178e-01   -8.205031604e-02    1.522619277e-05   -4.714354873e-06    0.000000000e+00    0.000000000e+00    0.000000000e+00    0.000000000e+00
        2549750    7.013949156e-01   -8.185245097e-02   -1.879036427e-05    1.566018909e-05    0.000000000e+00    0.000000000e+00    0.000000000e+00    0.000000000e+00
        2574500    7.010862231e-01   -8.174491674e-02   -2.269633114e-06    8.428469300e-07    0.000000000e+00    0.000000000e+00    0.000000000e+00    0.000000000e+00
        2599250    7.010166645e-01   -8.166145533e-02   -5.921348929e-06   -3.414228559e-05    0.000000000e+00    0.000000000e+00    0.000000000e+00    0.000000000e+00
        2624000    7.009973526e-01   -8.171110600e-02    4.157796502e-05   -7.292255759e-06    0.000000000e+00    0.000000000e+00    0.000000000e+00    0.000000000e+00
        2648750    7.006316781e-01   -8.140113950e-02    6.959773600e-06   -1.969467849e-05    0.000000000e+00    0.000000000e+00    0.000000000e+00    0.000000000e+00
        2673500    7.004005313e-01   -8.108557016e-02    3.796257079e-05   -5.878321826e-05    0.000000000e+00    0.000000000e+00    0.000000000e+00    0.000000000e+00
        2698250    7.005055547e-01   -8.108440042e-02    1.612957567e-05    1.683831215e-05    0.000000000e+00    0.000000000e+00    0.000000000e+00    0.000000000e+00
        2723000    7.000712156e-01   -8.088994026e-02    4.339031875e-06   -1.048669219e-06    0.000000000e+00    0.000000000e+00    0.000000000e+00    0.000000000e+00
        2747750    7.002335787e-01   -8.095054328e-02    2.272892743e-05    7.821246982e-06    0.000000000e+00    0.000000000e+00    0.000000000e+00    0.000000000e+00
        2772500    7.003655434e-01   -8.086438477e-02   -1.817382872e-05    3.976840526e-05    0.000000000e+00    0.000000000e+00    0.000000000e+00    0.000000000e+00
        2797250    6.998967528e-01   -8.131459355e-02   -9.932555258e-06    5.060806870e-06    0.000000000e+00    0.000000000e+00    0.000000000e+00    0.000000000e+00
        2822000    6.996032596e-01   -8.066403121e-02    2.819858491e-05    5.263835192e-06    0.000000000e+00    0.000000000e+00    0.000000000e+00    0.000000000e+00
        2846750    7.000947595e-01   -8.090539277e-02   -1.705903560e-05    6.752088666e-06    0.000000000e+00    0.000000000e+00    0.000000000e+00    0.000000000e+00
        2871500    6.994081736e-01   -8.070147038e-02   -5.108304322e-06   -3.123749048e-05    0.000000000e+00    0.000000000e+00    0.000000000e+00    0.000000000e+00
        2896250    6.995432973e-01   -8.066299558e-02    2.440623939e-05   -1.483876258e-05    0.000000000e+00    0.000000000e+00    0.000000000e+00    0.000000000e+00
        2921000    6.993792057e-01   -8.094426244e-02   -7.356517017e-06   -3.932137042e-05    0.000000000e+00    0.000000000e+00    0.000000000e+00    0.000000000e+00
