! NanoVNA-App by OneOfEleven et al v1.1.209 (+OD15) 
! Date: 2024-07-30 12:37:09
! Start: 50kHz Stop: 5MHz Points: 201
! S-Parameter data: F S11 S21 S12 S22
# Hz S RI R 50
!     Frequency           S11_Real           S11_Imag           S21_Real           S21_Imag           S12_Real           S12_Imag           S22_Real           S22_Imag
          50000    1.005241990e+00   -1.609300822e-02   -6.128102541e-06   -1.071766019e-05    0.000000000e+00    0.000000000e+00    0.000000000e+00    0.000000000e+00
          74750    1.004343987e+00   -2.499959432e-02   -1.330487430e-05   -3.983266652e-06    0.000000000e+00    0.000000000e+00    0.000000000e+00    0.000000000e+00
          99500    1.006863236e+00   -3.512093052e-02   -3.202632070e-05    1.031626016e-05    0.000000000e+00    0.000000000e+00    0.000000000e+00    0.000000000e+00
         124250    1.009545207e+00   -4.732060060e-02   -1.448206604e-06    1.476146281e-05    0.000000000e+00    0.000000000e+00    0.000000000e+00    0.000000000e+00
         149000    1.011524439e+00   -6.138706207e-02    3.112480044e-06    4.191882908e-06    0.000000000e+00    0.000000000e+00    0.000000000e+00    0.000000000e+00
         173750    9.905138016e-01   -1.341126710e-01   -1.309439540e-06   -8.684583008e-06    0.000000000e+00    0.000000000e+00    0.000000000e+00    0.000000000e+00
         198500    9.880461097e-01   -1.515325606e-01    1.727882773e-05   -4.906207323e-06    0.000000000e+00    0.000000000e+00    0.000000000e+00    0.000000000e+00
         223250    9.826649427e-01   -1.685962826e-01   -2.392381430e-05   -1.025106758e-05    0.000000000e+00    0.000000000e+00    0.000000000e+00    0.000000000e+00
         248000    9.751054049e-01   -1.866326779e-01   -9.918585420e-06   -3.799796104e-07    0.000000000e+00    0.000000000e+00    0.000000000e+00    0.000000000e+00
         272750    9.635912180e-01   -2.028647512e-01    1.021195203e-05   -1.430511475e-05    0.000000000e+00    0.000000000e+00    0.000000000e+00    0.000000000e+00
         297500    9.508057833e-01   -2.166358382e-01    1.724809408e-06   -2.831313759e-05    0.000000000e+00    0.000000000e+00    0.000000000e+00    0.000000000e+00
         322250    9.356251955e-01   -2.289678901e-01   -1.849979162e-05   -1.309439540e-06    0.000000000e+00    0.000000000e+00    0.000000000e+00    0.000000000e+00
         347000    9.191889167e-01   -2.384141386e-01   -6.078742445e-06   -2.696178854e-05    0.000000000e+00    0.000000000e+00    0.000000000e+00    0.000000000e+00
         371750    9.029713273e-01   -2.449964136e-01   -2.421066165e-05   -1.093931496e-05    0.000000000e+00    0.000000000e+00    0.000000000e+00    0.000000000e+00
         396500    8.870819211e-01   -2.499479502e-01    3.179628402e-05    7.800757885e-06    0.000000000e+00    0.000000000e+00    0.000000000e+00    0.000000000e+00
         421250    8.956519365e-01   -1.746068746e-01   -4.496518523e-05    5.187187344e-05    0.000000000e+00    0.000000000e+00    0.000000000e+00    0.000000000e+00
         446000    8.810142279e-01   -1.773789376e-01    1.176260412e-06    5.422160029e-06    0.000000000e+00    0.000000000e+00    0.000000000e+00    0.000000000e+00
         470750    8.679860830e-01   -1.783369035e-01    2.705119550e-05    3.538466990e-05    0.000000000e+00    0.000000000e+00    0.000000000e+00    0.000000000e+00
         495500    8.559679985e-01   -1.776954234e-01   -9.250827134e-06    1.525506377e-05    0.000000000e+00    0.000000000e+00    0.000000000e+00    0.000000000e+00
         520250    8.446268439e-01   -1.767649353e-01   -1.648068428e-05    1.950748265e-05    0.000000000e+00    0.000000000e+00    0.000000000e+00    0.000000000e+00
         545000    8.346388936e-01   -1.752144247e-01   -6.692484021e-06    2.280808985e-06    0.000000000e+00    0.000000000e+00    0.000000000e+00    0.000000000e+00
         569750    8.256071806e-01   -1.726488173e-01   -6.358139217e-06    1.046154648e-05    0.000000000e+00    0.000000000e+00    0.000000000e+00    0.000000000e+00
         594500    8.174442649e-01   -1.703177094e-01    1.488346606e-05    3.969948739e-05    0.000000000e+00    0.000000000e+00    0.000000000e+00    0.000000000e+00
         619250    8.096101284e-01   -1.683669835e-01   -3.658607602e-05   -1.849234104e-05    0.000000000e+00    0.000000000e+00    0.000000000e+00    0.000000000e+00
         644000    8.029187918e-01   -1.647884101e-01    1.876614988e-05   -2.962537110e-05    0.000000000e+00    0.000000000e+00    0.000000000e+00    0.000000000e+00
         668750    7.966256142e-01   -1.619656235e-01   -2.334918827e-05   -4.670489579e-05    0.000000000e+00    0.000000000e+00    0.000000000e+00    0.000000000e+00
         693500    7.903842330e-01   -1.596612185e-01   -9.093433619e-06   -5.823560059e-06    0.000000000e+00    0.000000000e+00    0.000000000e+00    0.000000000e+00
         718250    7.846636176e-01   -1.566935182e-01   -4.855543375e-05    2.371426672e-05    0.000000000e+00    0.000000000e+00    0.000000000e+00    0.000000000e+00
         743000    7.803902626e-01   -1.538507044e-01    2.260971814e-05    2.286862582e-05    0.000000000e+00    0.000000000e+00    0.000000000e+00    0.000000000e+00
         767750    7.761958241e-01   -1.510563940e-01   -5.532056093e-06    1.020636410e-05    0.000000000e+00    0.000000000e+00    0.000000000e+00    0.000000000e+00
         792500    7.717336416e-01   -1.484375149e-01   -1.686625183e-05   -2.475455403e-05    0.000000000e+00    0.000000000e+00    0.000000000e+00    0.000000000e+00
         817250    7.677244544e-01   -1.458977610e-01    6.961636245e-06   -6.081536412e-07    0.000000000e+00    0.000000000e+00    0.000000000e+00    0.000000000e+00
         842000    7.643766403e-01   -1.434808820e-01   -4.987232387e-06   -3.201700747e-05    0.000000000e+00    0.000000000e+00    0.000000000e+00    0.000000000e+00
         866750    7.605885863e-01   -1.416330636e-01    3.616698086e-05    1.718848944e-05    0.000000000e+00    0.000000000e+00    0.000000000e+00    0.000000000e+00
         891500    7.575119138e-01   -1.393952817e-01   -2.187024802e-05   -2.691522241e-06    0.000000000e+00    0.000000000e+00    0.000000000e+00    0.000000000e+00
         916250    7.551631331e-01   -1.365690082e-01    1.124385744e-05   -4.300009459e-05    0.000000000e+00    0.000000000e+00    0.000000000e+00    0.000000000e+00
         941000    7.523767352e-01   -1.344203204e-01   -2.950429916e-06   -3.070570529e-06    0.000000000e+00    0.000000000e+00    0.000000000e+00    0.000000000e+00
         965750    7.498131394e-01   -1.323465258e-01    1.071020961e-06   -2.567097545e-05    0.000000000e+00    0.000000000e+00    0.000000000e+00    0.000000000e+00
         990500    7.468782663e-01   -1.305738389e-01    1.830421388e-05    2.775620669e-05    0.000000000e+00    0.000000000e+00    0.000000000e+00    0.000000000e+00
        1015250    7.451981306e-01   -1.280990243e-01    1.277402043e-05   -1.573935151e-07    0.000000000e+00    0.000000000e+00    0.000000000e+00    0.000000000e+00
        1040000    7.425726652e-01   -1.265941858e-01   -1.813750714e-05    3.918353468e-05    0.000000000e+00    0.000000000e+00    0.000000000e+00    0.000000000e+00
        1064750    7.405493855e-01   -1.249629185e-01   -1.156702638e-05   -2.892781049e-05    0.000000000e+00    0.000000000e+00    0.000000000e+00    0.000000000e+00
        1089500    7.389886379e-01   -1.231556982e-01   -1.213978976e-05   -7.178634405e-06    0.000000000e+00    0.000000000e+00    0.000000000e+00    0.000000000e+00
        1114250    7.372511029e-01   -1.210622117e-01    1.890584826e-07    3.177393228e-05    0.000000000e+00    0.000000000e+00    0.000000000e+00    0.000000000e+00
        1139000    7.351185679e-01   -1.200752109e-01    5.379691720e-05    1.501757652e-05    0.000000000e+00    0.000000000e+00    0.000000000e+00    0.000000000e+00
        1163750    7.338577509e-01   -1.185351610e-01   -1.191999763e-05    1.691281796e-06    0.000000000e+00    0.000000000e+00    0.000000000e+00    0.000000000e+00
        1188500    7.325773835e-01   -1.165973842e-01    2.564769238e-05    8.584000170e-06    0.000000000e+00    0.000000000e+00    0.000000000e+00    0.000000000e+00
        1213250    7.309377193e-01   -1.150355935e-01   -4.090368748e-06   -8.089467883e-06    0.000000000e+00    0.000000000e+00    0.000000000e+00    0.000000000e+00
        1238000    7.292318344e-01   -1.140445322e-01   -5.243346095e-07    2.345256507e-05    0.000000000e+00    0.000000000e+00    0.000000000e+00    0.000000000e+00
        1262750    7.279604673e-01   -1.126959026e-01    1.257099211e-05   -1.996289939e-05    0.000000000e+00    0.000000000e+00    0.000000000e+00    0.000000000e+00
        1287500    7.274064422e-01   -1.113428324e-01    1.409463584e-05    8.021481335e-06    0.000000000e+00    0.000000000e+00    0.000000000e+00    0.000000000e+00
        1312250    7.259333730e-01   -1.099077761e-01    2.446770668e-05   -2.467166632e-05    0.000000000e+00    0.000000000e+00    0.000000000e+00    0.000000000e+00
        1337000    7.246165872e-01   -1.090584248e-01   -3.771018237e-05    3.944803029e-05    0.000000000e+00    0.000000000e+00    0.000000000e+00    0.000000000e+00
        1361750    7.238751054e-01   -1.077267304e-01   -3.972090781e-06   -4.937313497e-05    0.000000000e+00    0.000000000e+00    0.000000000e+00    0.000000000e+00
        1386500    7.223548889e-01   -1.063682958e-01   -5.189515650e-05    2.711173147e-05    0.000000000e+00    0.000000000e+00    0.000000000e+00    0.000000000e+00
        1411250    7.212070227e-01   -1.058213115e-01    1.576822251e-05   -4.549417645e-05    0.000000000e+00    0.000000000e+00    0.000000000e+00    0.000000000e+00
        1436000    7.206317782e-01   -1.048109755e-01    8.660368621e-06    2.318527550e-05    0.000000000e+00    0.000000000e+00    0.000000000e+00    0.000000000e+00
        1460750    7.196848392e-01   -1.031193882e-01   -9.981915355e-06    3.123469651e-05    0.000000000e+00    0.000000000e+00    0.000000000e+00    0.000000000e+00
        1485500    7.187438011e-01   -1.024167687e-01    6.759539247e-06   -8.963048458e-06    0.000000000e+00    0.000000000e+00    0.000000000e+00    0.000000000e+00
        1510250    7.179828286e-01   -1.015045494e-01    2.015288919e-05    1.938175410e-05    0.000000000e+00    0.000000000e+00    0.000000000e+00    0.000000000e+00
        1535000    7.170639634e-01   -1.005955338e-01    2.667494118e-05    2.418085933e-05    0.000000000e+00    0.000000000e+00    0.000000000e+00    0.000000000e+00
        1559750    7.164028287e-01   -9.982287139e-02    2.697296441e-05    2.719461918e-06    0.000000000e+00    0.000000000e+00    0.000000000e+00    0.000000000e+00
        1584500    7.156366110e-01   -9.921852499e-02    1.509394497e-05   -3.302935511e-05    0.000000000e+00    0.000000000e+00    0.000000000e+00    0.000000000e+00
        1609250    7.149850130e-01   -9.797539562e-02   -2.839602530e-06    1.961644739e-05    0.000000000e+00    0.000000000e+00    0.000000000e+00    0.000000000e+00
        1634000    7.143643498e-01   -9.708670527e-02    2.068560570e-05    2.238433808e-05    0.000000000e+00    0.000000000e+00    0.000000000e+00    0.000000000e+00
        1658750    7.136037350e-01   -9.682168812e-02    3.691110760e-05   -3.466848284e-05    0.000000000e+00    0.000000000e+00    0.000000000e+00    0.000000000e+00
        1683500    7.129986286e-01   -9.582956135e-02   -3.836303949e-05   -1.193769276e-05    0.000000000e+00    0.000000000e+00    0.000000000e+00    0.000000000e+00
        1708250    7.123956680e-01   -9.483328462e-02    5.646608770e-06   -5.579832941e-05    0.000000000e+00    0.000000000e+00    0.000000000e+00    0.000000000e+00
        1733000    7.116795778e-01   -9.467015415e-02   -1.678429544e-05   -3.909319639e-05    0.000000000e+00    0.000000000e+00    0.000000000e+00    0.000000000e+00
        1757750    7.113972902e-01   -9.348147362e-02   -7.121823728e-06    6.835907698e-07    0.000000000e+00    0.000000000e+00    0.000000000e+00    0.000000000e+00
        1782500    7.108142376e-01   -9.312519431e-02    2.435036004e-05   -2.733152360e-05    0.000000000e+00    0.000000000e+00    0.000000000e+00    0.000000000e+00
        1807250    7.105417848e-01   -9.237247705e-02    4.032626748e-07   -5.824863911e-05    0.000000000e+00    0.000000000e+00    0.000000000e+00    0.000000000e+00
        1832000    7.096882463e-01   -9.206743538e-02    1.540128142e-05   -2.451241016e-05    0.000000000e+00    0.000000000e+00    0.000000000e+00    0.000000000e+00
        1856750    7.094141245e-01   -9.141664952e-02    1.614633948e-05    1.992378384e-05    0.000000000e+00    0.000000000e+00    0.000000000e+00    0.000000000e+00
        1881500    7.090791464e-01   -9.074604511e-02    1.056119800e-05    3.719702363e-06    0.000000000e+00    0.000000000e+00    0.000000000e+00    0.000000000e+00
        1906250    7.083982229e-01   -9.038551152e-02   -3.809109330e-05    9.744428098e-06    0.000000000e+00    0.000000000e+00    0.000000000e+00    0.000000000e+00
        1931000    7.080540061e-01   -8.971874416e-02    2.398341894e-05   -9.935349226e-06    0.000000000e+00    0.000000000e+00    0.000000000e+00    0.000000000e+00
        1955750    7.077559829e-01   -8.910892159e-02    3.303494304e-05   -3.118347377e-05    0.000000000e+00    0.000000000e+00    0.000000000e+00    0.000000000e+00
        1980500    7.071020603e-01   -8.884613961e-02    6.488524377e-06    5.037803203e-05    0.000000000e+00    0.000000000e+00    0.000000000e+00    0.000000000e+00
        2005250    7.068460584e-01   -8.830782771e-02   -2.010446042e-05   -2.281088382e-05    0.000000000e+00    0.000000000e+00    0.000000000e+00    0.000000000e+00
        2030000    7.066513300e-01   -8.772506565e-02    4.624947906e-06    1.393537968e-05    0.000000000e+00    0.000000000e+00    0.000000000e+00    0.000000000e+00
        2054750    7.064027190e-01   -8.725990355e-02   -4.542991519e-06    4.601664841e-06    0.000000000e+00    0.000000000e+00    0.000000000e+00    0.000000000e+00
        2079500    7.058565617e-01   -8.710343391e-02    1.120846719e-05    1.429859549e-05    0.000000000e+00    0.000000000e+00    0.000000000e+00    0.000000000e+00
        2104250    7.057393193e-01   -8.628227562e-02    3.332272172e-06    2.373941243e-06    0.000000000e+00    0.000000000e+00    0.000000000e+00    0.000000000e+00
        2129000    7.054547668e-01   -8.613523841e-02   -2.055335790e-05    4.673376679e-06    0.000000000e+00    0.000000000e+00    0.000000000e+00    0.000000000e+00
        2153750    7.047244906e-01   -8.588478714e-02    2.165976912e-05   -9.251758456e-06    0.000000000e+00    0.000000000e+00    0.000000000e+00    0.000000000e+00
        2178500    7.048951387e-01   -8.535279334e-02    2.538505942e-05    2.235732973e-05    0.000000000e+00    0.000000000e+00    0.000000000e+00    0.000000000e+00
        2203250    7.043514252e-01   -8.489830047e-02    6.001442671e-06   -6.220303476e-06    0.000000000e+00    0.000000000e+00    0.000000000e+00    0.000000000e+00
        2228000    7.041061521e-01   -8.507212251e-02   -2.549029887e-06   -9.006820619e-06    0.000000000e+00    0.000000000e+00    0.000000000e+00    0.000000000e+00
        2252750    7.039046884e-01   -8.485668898e-02   -2.047792077e-05    2.616643906e-05    0.000000000e+00    0.000000000e+00    0.000000000e+00    0.000000000e+00
        2277500    7.034907341e-01   -8.438757062e-02   -4.275422543e-05    4.614610225e-05    0.000000000e+00    0.000000000e+00    0.000000000e+00    0.000000000e+00
        2302250    7.032543421e-01   -8.415760100e-02    1.664087176e-05    2.448260784e-05    0.000000000e+00    0.000000000e+00    0.000000000e+00    0.000000000e+00
        2327000    7.033419609e-01   -8.366536349e-02    1.994334161e-05    1.321360469e-05    0.000000000e+00    0.000000000e+00    0.000000000e+00    0.000000000e+00
        2351750    7.027896047e-01   -8.339116722e-02    1.342035830e-06   -7.854774594e-06    0.000000000e+00    0.000000000e+00    0.000000000e+00    0.000000000e+00
        2376500    7.025207877e-01   -8.332558721e-02   -1.212395728e-05    4.164222628e-05    0.000000000e+00    0.000000000e+00    0.000000000e+00    0.000000000e+00
        2401250    7.028679252e-01   -8.319447190e-02    4.077330232e-06   -5.010515451e-06    0.000000000e+00    0.000000000e+00    0.000000000e+00    0.000000000e+00
        2426000    7.023921013e-01   -8.292222768e-02    1.341756433e-05   -8.684583008e-06    0.000000000e+00    0.000000000e+00    0.000000000e+00    0.000000000e+00
        2450750    7.020118833e-01   -8.245346695e-02   -7.462687790e-06    2.287793905e-05    0.000000000e+00    0.000000000e+00    0.000000000e+00    0.000000000e+00
        2475500    7.018023133e-01   -8.240638673e-02    3.159046173e-06    4.388391972e-05    0.000000000e+00    0.000000000e+00    0.000000000e+00    0.000000000e+00
        2500250    7.018885612e-01   -8.243399113e-02    1.370441169e-05   -3.260374069e-05    0.000000000e+00    0.000000000e+00    0.000000000e+00    0.000000000e+00
        2525000    7.015491128e-01   -8.176457882e-02   -1.623388380e-05   -3.399793059e-05    0.000000000e+00    0.000000000e+00    0.000000000e+00    0.000000000e+00
        2549750    7.011306882e-01   -8.166116476e-02    7.675029337e-06   -2.036709338e-05    0.000000000e+00    0.000000000e+00    0.000000000e+00    0.000000000e+00
        2574500    7.015392184e-01   -8.188536763e-02    1.622550189e-05   -1.142174006e-05    0.000000000e+00    0.000000000e+00    0.000000000e+00    0.000000000e+00
        2599250    7.012080550e-01   -8.179086447e-02   -1.989211887e-05   -2.614967525e-05    0.000000000e+00    0.000000000e+00    0.000000000e+00    0.000000000e+00
        2624000    7.009372115e-01   -8.118759096e-02   -2.267863601e-05    8.368864655e-06    0.000000000e+00    0.000000000e+00    0.000000000e+00    0.000000000e+00
        2648750    7.007176876e-01   -8.137350529e-02    2.062506974e-05   -1.024827361e-05    0.000000000e+00    0.000000000e+00    0.000000000e+00    0.000000000e+00
        2673500    7.009008527e-01   -8.124458790e-02    3.276020288e-05    3.279931843e-05    0.000000000e+00    0.000000000e+00    0.000000000e+00    0.000000000e+00
        2698250    7.004970908e-01   -8.112786710e-02   -5.728565156e-06   -1.779850572e-05    0.000000000e+00    0.000000000e+00    0.000000000e+00    0.000000000e+00
        2723000    7.003662586e-01   -8.102010190e-02   -3.056228161e-05    9.860843420e-06    0.000000000e+00    0.000000000e+00    0.000000000e+00    0.000000000e+00
        2747750    7.004332542e-01   -8.073244989e-02    2.774409950e-06    6.949529052e-06    0.000000000e+00    0.000000000e+00    0.000000000e+00    0.000000000e+00
        2772500    7.000597119e-01   -8.121532202e-02    3.760866821e-05   -1.442711800e-05    0.000000000e+00    0.000000000e+00    0.000000000e+00    0.000000000e+00
        2797250    6.998130679e-01   -8.064546436e-02   -3.431923687e-06   -2.622138709e-05    0.000000000e+00    0.000000000e+00    0.000000000e+00    0.000000000e+00
        2822000    6.998995543e-01   -8.066448569e-02   -1.591909677e-05    4.784204066e-06    0.000000000e+00    0.000000000e+00    0.000000000e+00    0.000000000e+00
        2846750    6.997966170e-01   -8.098067343e-02    2.577994019e-05   -4.807487130e-06    0.000000000e+00    0.000000000e+00    0.000000000e+00    0.000000000e+00
        2871500    6.995887756e-01   -8.064484596e-02    3.845058382e-05   -2.023857087e-05    0.000000000e+00    0.000000000e+00    0.000000000e+00    0.000000000e+00
        2896250    6.997147202e-01   -8.065286279e-02   -5.234032869e-06    5.901698023e-05    0.000000000e+00    0.000000000e+00    0.000000000e+00    0.000000000e+00
        2921000    6.993604898e-01   -8.065353334e-02    2.817716449e-05   -9.535811841e-06    0.000000000e+00    0.000000000e+00    0.000000000e+00    0.000000000e+00
