! R140 Conversion
! Date: 2025-10-17 15:59:06
! Start: 300.00MHz  Stop: 6.00GHz  Points: 2001
 ! S-Parameter data: F S11 e
# Hz S RI R 50
Frequency           S11_Real           S11_Imag           Perm_Real           Perm_Imag
3.000000000000E+8      9.542757334670E-1      -2.698531243550E-1      0.000000000000E+0      0.000000000000E+0
3.028500000000E+8      9.548127443210E-1      -2.730703089160E-1      0.000000000000E+0      0.000000000000E+0
3.057000000000E+8      9.548480032720E-1      -2.757908795790E-1      0.000000000000E+0      0.000000000000E+0
3.085500000000E+8      9.537678238300E-1      -2.789723438100E-1      0.000000000000E+0      0.000000000000E+0
3.114000000000E+8      9.538303766680E-1      -2.812258406490E-1      0.000000000000E+0      0.000000000000E+0
3.142500000000E+8      9.532907246590E-1      -2.845525554560E-1      0.000000000000E+0      0.000000000000E+0
3.171000000000E+8      9.521002140740E-1      -2.871869405950E-1      0.000000000000E+0      0.000000000000E+0
3.199500000000E+8      9.512404655710E-1      -2.896696979300E-1      0.000000000000E+0      0.000000000000E+0
3.228000000000E+8      9.502990275970E-1      -2.920306576680E-1      0.000000000000E+0      0.000000000000E+0
3.256500000000E+8      9.501127537310E-1      -2.944766510040E-1      0.000000000000E+0      0.000000000000E+0
3.285000000000E+8      9.492011412310E-1      -2.967303147300E-1      0.000000000000E+0      0.000000000000E+0
3.313500000000E+8      9.480804905780E-1      -2.987787800000E-1      0.000000000000E+0      0.000000000000E+0
3.342000000000E+8      9.472205795340E-1      -3.014795093720E-1      0.000000000000E+0      0.000000000000E+0
3.370500000000E+8      9.463868943870E-1      -3.039142215460E-1      0.000000000000E+0      0.000000000000E+0
3.399000000000E+8      9.455656604920E-1      -3.055780722140E-1      0.000000000000E+0      0.000000000000E+0
3.427500000000E+8      9.446140952210E-1      -3.092487810970E-1      0.000000000000E+0      0.000000000000E+0
3.456000000000E+8      9.440223414820E-1      -3.109514378040E-1      0.000000000000E+0      0.000000000000E+0
3.484500000000E+8      9.431974461410E-1      -3.133912181260E-1      0.000000000000E+0      0.000000000000E+0
3.513000000000E+8      9.421287523320E-1      -3.160167660100E-1      0.000000000000E+0      0.000000000000E+0
3.541500000000E+8      9.412157064220E-1      -3.186371719840E-1      0.000000000000E+0      0.000000000000E+0
3.570000000000E+8      9.402344727200E-1      -3.210613936310E-1      0.000000000000E+0      0.000000000000E+0
3.598500000000E+8      9.394070533830E-1      -3.234467050880E-1      0.000000000000E+0      0.000000000000E+0
3.627000000000E+8      9.356958494760E-1      -3.255983668610E-1      0.000000000000E+0      0.000000000000E+0
3.655500000000E+8      9.370195127240E-1      -3.281271012640E-1      0.000000000000E+0      0.000000000000E+0
3.684000000000E+8      9.363135154580E-1      -3.306188208150E-1      0.000000000000E+0      0.000000000000E+0
3.712500000000E+8      9.348293902500E-1      -3.324175181010E-1      0.000000000000E+0      0.000000000000E+0
3.741000000000E+8      9.341340916510E-1      -3.353867229090E-1      0.000000000000E+0      0.000000000000E+0
3.769500000000E+8      9.337814631960E-1      -3.371414986510E-1      0.000000000000E+0      0.000000000000E+0
3.798000000000E+8      9.323471777320E-1      -3.398900154530E-1      0.000000000000E+0      0.000000000000E+0
3.826500000000E+8      9.324765842390E-1      -3.432182711670E-1      0.000000000000E+0      0.000000000000E+0
3.855000000000E+8      9.303115160150E-1      -3.450700603010E-1      0.000000000000E+0      0.000000000000E+0
3.883500000000E+8      9.302001108840E-1      -3.470115251450E-1      0.000000000000E+0      0.000000000000E+0
3.912000000000E+8      9.288426124930E-1      -3.495535083680E-1      0.000000000000E+0      0.000000000000E+0
3.940500000000E+8      9.279690866450E-1      -3.521464305570E-1      0.000000000000E+0      0.000000000000E+0
3.969000000000E+8      9.269171600800E-1      -3.551273450790E-1      0.000000000000E+0      0.000000000000E+0
3.997500000000E+8      9.264374497150E-1      -3.562709482300E-1      0.000000000000E+0      0.000000000000E+0
4.026000000000E+8      9.252321527170E-1      -3.590099332730E-1      0.000000000000E+0      0.000000000000E+0
4.054500000000E+8      9.240332555320E-1      -3.608766547540E-1      0.000000000000E+0      0.000000000000E+0
4.083000000000E+8      9.228669626510E-1      -3.635706250130E-1      0.000000000000E+0      0.000000000000E+0
4.111500000000E+8      9.220830789040E-1      -3.654914060820E-1      0.000000000000E+0      0.000000000000E+0
4.140000000000E+8      9.201344264650E-1      -3.682871733960E-1      0.000000000000E+0      0.000000000000E+0
4.168500000000E+8      9.196614000950E-1      -3.711281527610E-1      0.000000000000E+0      0.000000000000E+0
4.197000000000E+8      9.178193808230E-1      -3.736147616100E-1      0.000000000000E+0      0.000000000000E+0
4.225500000000E+8      9.174024471720E-1      -3.754925750320E-1      0.000000000000E+0      0.000000000000E+0
4.254000000000E+8      9.164392201810E-1      -3.773849215190E-1      0.000000000000E+0      0.000000000000E+0
4.282500000000E+8      9.151269378760E-1      -3.802603368380E-1      0.000000000000E+0      0.000000000000E+0
4.311000000000E+8      9.141306700720E-1      -3.820416610610E-1      0.000000000000E+0      0.000000000000E+0
4.339500000000E+8      9.132263358700E-1      -3.836624635690E-1      0.000000000000E+0      0.000000000000E+0
4.368000000000E+8      9.123677326590E-1      -3.867343962370E-1      0.000000000000E+0      0.000000000000E+0
4.396500000000E+8      9.110256825850E-1      -3.893672851310E-1      0.000000000000E+0      0.000000000000E+0
4.425000000000E+8      9.099246267290E-1      -3.917015372210E-1      0.000000000000E+0      0.000000000000E+0
4.453500000000E+8      9.087830384960E-1      -3.938109751060E-1      0.000000000000E+0      0.000000000000E+0
4.482000000000E+8      9.078383291980E-1      -3.957623194690E-1      0.000000000000E+0      0.000000000000E+0
4.510500000000E+8      9.063826343470E-1      -3.986209181720E-1      0.000000000000E+0      0.000000000000E+0
4.539000000000E+8      9.053126163910E-1      -4.005593947450E-1      0.000000000000E+0      0.000000000000E+0
4.567500000000E+8      9.046166885890E-1      -4.025286374080E-1      0.000000000000E+0      0.000000000000E+0
4.596000000000E+8      9.028777379590E-1      -4.049848908560E-1      0.000000000000E+0      0.000000000000E+0
4.624500000000E+8      9.017327939310E-1      -4.073174958850E-1      0.000000000000E+0      0.000000000000E+0
4.653000000000E+8      9.010611923630E-1      -4.092192613690E-1      0.000000000000E+0      0.000000000000E+0
4.681500000000E+8      9.007399314080E-1      -4.117875402280E-1      0.000000000000E+0      0.000000000000E+0
4.710000000000E+8      8.986497480160E-1      -4.140412359000E-1      0.000000000000E+0      0.000000000000E+0
4.738500000000E+8      8.977549018640E-1      -4.164220161520E-1      0.000000000000E+0      0.000000000000E+0
4.767000000000E+8      8.961360966500E-1      -4.185483827980E-1      0.000000000000E+0      0.000000000000E+0
4.795500000000E+8      8.946843290900E-1      -4.207326654520E-1      0.000000000000E+0      0.000000000000E+0
4.824000000000E+8      8.933416592220E-1      -4.228526211230E-1      0.000000000000E+0      0.000000000000E+0
4.852500000000E+8      8.927837647730E-1      -4.252276665980E-1      0.000000000000E+0      0.000000000000E+0
4.881000000000E+8      8.912384534310E-1      -4.272957687900E-1      0.000000000000E+0      0.000000000000E+0
4.909500000000E+8      8.897249947300E-1      -4.296459719150E-1      0.000000000000E+0      0.000000000000E+0
4.938000000000E+8      8.879590321650E-1      -4.318428017230E-1      0.000000000000E+0      0.000000000000E+0
4.966500000000E+8      8.875853346100E-1      -4.347938972450E-1      0.000000000000E+0      0.000000000000E+0
4.995000000000E+8      8.870090909280E-1      -4.367870191330E-1      0.000000000000E+0      0.000000000000E+0
5.023500000000E+8      8.861697252420E-1      -4.383371826170E-1      0.000000000000E+0      0.000000000000E+0
5.052000000000E+8      8.841117493090E-1      -4.409290539130E-1      0.000000000000E+0      0.000000000000E+0
5.080500000000E+8      8.828081206190E-1      -4.427821932100E-1      0.000000000000E+0      0.000000000000E+0
5.109000000000E+8      8.817966914070E-1      -4.447291193310E-1      0.000000000000E+0      0.000000000000E+0
5.137500000000E+8      8.807664961770E-1      -4.471989745530E-1      0.000000000000E+0      0.000000000000E+0
5.166000000000E+8      8.790790842290E-1      -4.494301115350E-1      0.000000000000E+0      0.000000000000E+0
5.194500000000E+8      8.780101039350E-1      -4.512658483460E-1      0.000000000000E+0      0.000000000000E+0
5.223000000000E+8      8.766324850400E-1      -4.535750669820E-1      0.000000000000E+0      0.000000000000E+0
5.251500000000E+8      8.739843781980E-1      -4.612381119890E-1      0.000000000000E+0      0.000000000000E+0
5.280000000000E+8      8.742010276000E-1      -4.575877627600E-1      0.000000000000E+0      0.000000000000E+0
5.308500000000E+8      8.738222906230E-1      -4.583289289970E-1      0.000000000000E+0      0.000000000000E+0
5.337000000000E+8      8.716578893390E-1      -4.618027943190E-1      0.000000000000E+0      0.000000000000E+0
5.365500000000E+8      8.704609954900E-1      -4.641254902770E-1      0.000000000000E+0      0.000000000000E+0
5.394000000000E+8      8.691090185350E-1      -4.661696272910E-1      0.000000000000E+0      0.000000000000E+0
5.422500000000E+8      8.672014655270E-1      -4.677912044450E-1      0.000000000000E+0      0.000000000000E+0
5.451000000000E+8      8.668642196670E-1      -4.702390229400E-1      0.000000000000E+0      0.000000000000E+0
5.479500000000E+8      8.654475037110E-1      -4.724244396660E-1      0.000000000000E+0      0.000000000000E+0
5.508000000000E+8      8.643443101150E-1      -4.752712974820E-1      0.000000000000E+0      0.000000000000E+0
5.536500000000E+8      8.634020725790E-1      -4.783121781510E-1      0.000000000000E+0      0.000000000000E+0
5.565000000000E+8      8.600039438200E-1      -4.781900969390E-1      0.000000000000E+0      0.000000000000E+0
5.593500000000E+8      8.602838651080E-1      -4.800269734500E-1      0.000000000000E+0      0.000000000000E+0
5.622000000000E+8      8.587603609270E-1      -4.824707054140E-1      0.000000000000E+0      0.000000000000E+0
5.650500000000E+8      8.580915281970E-1      -4.851768445580E-1      0.000000000000E+0      0.000000000000E+0
5.679000000000E+8      8.539816846760E-1      -4.880156318040E-1      0.000000000000E+0      0.000000000000E+0
5.707500000000E+8      8.564749359250E-1      -4.897842191210E-1      0.000000000000E+0      0.000000000000E+0
5.736000000000E+8      8.536062406800E-1      -4.912222567810E-1      0.000000000000E+0      0.000000000000E+0
5.764500000000E+8      8.522236382640E-1      -4.920801081220E-1      0.000000000000E+0      0.000000000000E+0
5.793000000000E+8      8.505731316780E-1      -4.948892364310E-1      0.000000000000E+0      0.000000000000E+0
5.821500000000E+8      8.493532259370E-1      -4.968653339410E-1      0.000000000000E+0      0.000000000000E+0
5.850000000000E+8      8.486732267660E-1      -4.990450820600E-1      0.000000000000E+0      0.000000000000E+0
5.878500000000E+8      8.473083625660E-1      -5.011666965130E-1      0.000000000000E+0      0.000000000000E+0
5.907000000000E+8      8.457330012770E-1      -5.033010366810E-1      0.000000000000E+0      0.000000000000E+0
5.935500000000E+8      8.445652570030E-1      -5.053435169460E-1      0.000000000000E+0      0.000000000000E+0
5.964000000000E+8      8.429903503910E-1      -5.074790844520E-1      0.000000000000E+0      0.000000000000E+0
5.992500000000E+8      8.416081345300E-1      -5.097622982220E-1      0.000000000000E+0      0.000000000000E+0
6.021000000000E+8      8.404483224060E-1      -5.115019956000E-1      0.000000000000E+0      0.000000000000E+0
6.049500000000E+8      8.258058411550E-1      -5.080841777440E-1      0.000000000000E+0      0.000000000000E+0
6.078000000000E+8      8.378217436050E-1      -5.156452297970E-1      0.000000000000E+0      0.000000000000E+0
6.106500000000E+8      8.358441504690E-1      -5.175739370080E-1      0.000000000000E+0      0.000000000000E+0
6.135000000000E+8      8.347921390030E-1      -5.189271331150E-1      0.000000000000E+0      0.000000000000E+0
6.163500000000E+8      8.328716069130E-1      -5.213628916560E-1      0.000000000000E+0      0.000000000000E+0
6.192000000000E+8      8.312406172510E-1      -5.235133324490E-1      0.000000000000E+0      0.000000000000E+0
6.220500000000E+8      8.297454763020E-1      -5.258546043340E-1      0.000000000000E+0      0.000000000000E+0
6.249000000000E+8      8.289203865800E-1      -5.268044741730E-1      0.000000000000E+0      0.000000000000E+0
6.277500000000E+8      8.275821798180E-1      -5.283624925550E-1      0.000000000000E+0      0.000000000000E+0
6.306000000000E+8      8.258069907560E-1      -5.315328340150E-1      0.000000000000E+0      0.000000000000E+0
6.334500000000E+8      8.247699575520E-1      -5.331761257520E-1      0.000000000000E+0      0.000000000000E+0
6.363000000000E+8      8.226632701220E-1      -5.364804425130E-1      0.000000000000E+0      0.000000000000E+0
6.391500000000E+8      8.209565613810E-1      -5.373893923770E-1      0.000000000000E+0      0.000000000000E+0
6.420000000000E+8      8.188144566010E-1      -5.396935618960E-1      0.000000000000E+0      0.000000000000E+0
6.448500000000E+8      8.182981654060E-1      -5.413737728930E-1      0.000000000000E+0      0.000000000000E+0
6.477000000000E+8      8.178469020540E-1      -5.439549976050E-1      0.000000000000E+0      0.000000000000E+0
6.505500000000E+8      8.155306151640E-1      -5.457428228480E-1      0.000000000000E+0      0.000000000000E+0
6.534000000000E+8      8.144783588750E-1      -5.479804121830E-1      0.000000000000E+0      0.000000000000E+0
6.562500000000E+8      8.136047877210E-1      -5.496198924810E-1      0.000000000000E+0      0.000000000000E+0
6.591000000000E+8      8.112155606220E-1      -5.512167799920E-1      0.000000000000E+0      0.000000000000E+0
6.619500000000E+8      8.096517714990E-1      -5.525088585490E-1      0.000000000000E+0      0.000000000000E+0
6.648000000000E+8      8.077838568160E-1      -5.542547881660E-1      0.000000000000E+0      0.000000000000E+0
6.676500000000E+8      8.065209614180E-1      -5.562586814830E-1      0.000000000000E+0      0.000000000000E+0
6.705000000000E+8      8.048683679860E-1      -5.589233604540E-1      0.000000000000E+0      0.000000000000E+0
6.733500000000E+8      8.033836835770E-1      -5.597024533000E-1      0.000000000000E+0      0.000000000000E+0
6.762000000000E+8      8.020507081500E-1      -5.621294077430E-1      0.000000000000E+0      0.000000000000E+0
6.790500000000E+8      8.012657378030E-1      -5.633715103300E-1      0.000000000000E+0      0.000000000000E+0
6.819000000000E+8      7.993873095690E-1      -5.648616429960E-1      0.000000000000E+0      0.000000000000E+0
6.847500000000E+8      7.981599344910E-1      -5.665401736330E-1      0.000000000000E+0      0.000000000000E+0
6.876000000000E+8      7.964550895620E-1      -5.694022348190E-1      0.000000000000E+0      0.000000000000E+0
6.904500000000E+8      7.951443265070E-1      -5.709432212070E-1      0.000000000000E+0      0.000000000000E+0
6.933000000000E+8      7.936106058230E-1      -5.731621520710E-1      0.000000000000E+0      0.000000000000E+0
6.961500000000E+8      7.922240240630E-1      -5.748196204030E-1      0.000000000000E+0      0.000000000000E+0
6.990000000000E+8      7.906066447300E-1      -5.764700426810E-1      0.000000000000E+0      0.000000000000E+0
7.018500000000E+8      7.890038220600E-1      -5.779346172860E-1      0.000000000000E+0      0.000000000000E+0
7.047000000000E+8      7.871902575750E-1      -5.798080521510E-1      0.000000000000E+0      0.000000000000E+0
7.075500000000E+8      7.858821218940E-1      -5.815667124200E-1      0.000000000000E+0      0.000000000000E+0
7.104000000000E+8      7.836730276840E-1      -5.839163160870E-1      0.000000000000E+0      0.000000000000E+0
7.132500000000E+8      7.832807615170E-1      -5.876706382940E-1      0.000000000000E+0      0.000000000000E+0
7.161000000000E+8      7.828519736350E-1      -5.869823555170E-1      0.000000000000E+0      0.000000000000E+0
7.189500000000E+8      7.797956357790E-1      -5.879388244220E-1      0.000000000000E+0      0.000000000000E+0
7.218000000000E+8      7.772691059680E-1      -5.908251205030E-1      0.000000000000E+0      0.000000000000E+0
7.246500000000E+8      7.755953609780E-1      -5.921848208440E-1      0.000000000000E+0      0.000000000000E+0
7.275000000000E+8      7.751424919560E-1      -5.945057804100E-1      0.000000000000E+0      0.000000000000E+0
7.303500000000E+8      7.721824727360E-1      -5.962303233680E-1      0.000000000000E+0      0.000000000000E+0
7.332000000000E+8      7.719744675700E-1      -5.973081655070E-1      0.000000000000E+0      0.000000000000E+0
7.360500000000E+8      7.701245732210E-1      -5.972091152680E-1      0.000000000000E+0      0.000000000000E+0
7.389000000000E+8      7.694506309090E-1      -6.017636933750E-1      0.000000000000E+0      0.000000000000E+0
7.417500000000E+8      7.669059922190E-1      -6.036068114130E-1      0.000000000000E+0      0.000000000000E+0
7.446000000000E+8      7.650017862650E-1      -6.054560727380E-1      0.000000000000E+0      0.000000000000E+0
7.474500000000E+8      7.629353281550E-1      -6.055479009150E-1      0.000000000000E+0      0.000000000000E+0
7.503000000000E+8      7.618763574900E-1      -6.102440878790E-1      0.000000000000E+0      0.000000000000E+0
7.531500000000E+8      7.624751603890E-1      -6.083941562840E-1      0.000000000000E+0      0.000000000000E+0
7.560000000000E+8      7.589669461060E-1      -6.111586793310E-1      0.000000000000E+0      0.000000000000E+0
7.588500000000E+8      7.582251229670E-1      -6.134962775370E-1      0.000000000000E+0      0.000000000000E+0
7.617000000000E+8      7.556412700190E-1      -6.149805418360E-1      0.000000000000E+0      0.000000000000E+0
7.645500000000E+8      7.545751670720E-1      -6.162036072950E-1      0.000000000000E+0      0.000000000000E+0
7.674000000000E+8      7.527312614480E-1      -6.186055164170E-1      0.000000000000E+0      0.000000000000E+0
7.702500000000E+8      7.511282492040E-1      -6.198782525100E-1      0.000000000000E+0      0.000000000000E+0
7.731000000000E+8      7.487019347250E-1      -6.230069870050E-1      0.000000000000E+0      0.000000000000E+0
7.759500000000E+8      7.479468200360E-1      -6.240991002230E-1      0.000000000000E+0      0.000000000000E+0
7.788000000000E+8      7.467686028920E-1      -6.251123009320E-1      0.000000000000E+0      0.000000000000E+0
7.816500000000E+8      7.449290605280E-1      -6.270183614850E-1      0.000000000000E+0      0.000000000000E+0
7.845000000000E+8      7.431794847250E-1      -6.288383707720E-1      0.000000000000E+0      0.000000000000E+0
7.873500000000E+8      7.413689611080E-1      -6.303917063900E-1      0.000000000000E+0      0.000000000000E+0
7.902000000000E+8      7.337238129930E-1      -6.266459611130E-1      0.000000000000E+0      0.000000000000E+0
7.930500000000E+8      7.389103608630E-1      -6.337360086040E-1      0.000000000000E+0      0.000000000000E+0
7.959000000000E+8      7.366903475910E-1      -6.346087936730E-1      0.000000000000E+0      0.000000000000E+0
7.987500000000E+8      7.354956474380E-1      -6.367847842380E-1      0.000000000000E+0      0.000000000000E+0
8.016000000000E+8      7.332931861800E-1      -6.386491627990E-1      0.000000000000E+0      0.000000000000E+0
8.044500000000E+8      7.315889124600E-1      -6.403233627770E-1      0.000000000000E+0      0.000000000000E+0
