! NanoVNA-App
! Date: 2024-06-25 16:49:37
! Start: 200MHz Stop: 1.5GHz Points: 801
! S-Parameter data: F S11 S21 S12 S22
# Hz S RI R 50
!     Frequency           S11_Real           S11_Imag           S21_Real           S21_Imag           S12_Real           S12_Imag           S22_Real           S22_Imag
      200000000   -8.504641056e-01    1.428809315e-01    1.843074861e-04    7.772923709e-05    0.000000000e+00    0.000000000e+00    0.000000000e+00    0.000000000e+00
      201625000   -8.447632194e-01    1.695341617e-01    1.858825708e-04    6.682674575e-05    0.000000000e+00    0.000000000e+00    0.000000000e+00    0.000000000e+00
      203250000   -8.378961086e-01    1.959810108e-01    1.961901580e-04    6.101675535e-05    0.000000000e+00    0.000000000e+00    0.000000000e+00    0.000000000e+00
      204875000   -8.302827477e-01    2.219035029e-01    2.329393028e-04    5.299107215e-05    0.000000000e+00    0.000000000e+00    0.000000000e+00    0.000000000e+00
      206500000   -8.218731880e-01    2.474879324e-01    2.364702377e-04    7.178466331e-05    0.000000000e+00    0.000000000e+00    0.000000000e+00    0.000000000e+00
      208125000   -8.125007153e-01    2.727510631e-01    2.319042105e-04    6.890195800e-05    0.000000000e+00    0.000000000e+00    0.000000000e+00    0.000000000e+00
      209750000   -8.023423553e-01    2.977307141e-01    2.486495650e-04    8.111401257e-05    0.000000000e+00    0.000000000e+00    0.000000000e+00    0.000000000e+00
      211375000   -7.908605933e-01    3.220203817e-01    2.767237602e-04    1.033381996e-04    0.000000000e+00    0.000000000e+00    0.000000000e+00    0.000000000e+00
      213000000   -7.790247202e-01    3.457336724e-01    2.739597985e-04    1.008413819e-04    0.000000000e+00    0.000000000e+00    0.000000000e+00    0.000000000e+00
      214625000   -7.661620975e-01    3.689769804e-01    2.671736002e-04    1.112523387e-04    0.000000000e+00    0.000000000e+00    0.000000000e+00    0.000000000e+00
      216250000   -7.526551485e-01    3.917040527e-01    2.753836161e-04    1.217738172e-04    0.000000000e+00    0.000000000e+00    0.000000000e+00    0.000000000e+00
      217875000   -7.384279370e-01    4.139462411e-01    2.809469879e-04    1.100825248e-04    0.000000000e+00    0.000000000e+00    0.000000000e+00    0.000000000e+00
      219500000   -7.233029604e-01    4.355395138e-01    2.760905481e-04    1.257820550e-04    0.000000000e+00    0.000000000e+00    0.000000000e+00    0.000000000e+00
      221125000   -7.077298760e-01    4.564264119e-01    2.889809548e-04    1.194949728e-04    0.000000000e+00    0.000000000e+00    0.000000000e+00    0.000000000e+00
      222750000   -6.912277937e-01    4.767587185e-01    2.984203747e-04    1.008279578e-04    0.000000000e+00    0.000000000e+00    0.000000000e+00    0.000000000e+00
      224375000   -6.744124889e-01    4.962548912e-01    3.165855305e-04    1.453558507e-04    0.000000000e+00    0.000000000e+00    0.000000000e+00    0.000000000e+00
      226000000   -6.567744017e-01    5.152046680e-01    3.061562311e-04    1.321726886e-04    0.000000000e+00    0.000000000e+00    0.000000000e+00    0.000000000e+00
      227625000   -6.387806535e-01    5.333369374e-01    3.165083763e-04    1.529102010e-04    0.000000000e+00    0.000000000e+00    0.000000000e+00    0.000000000e+00
      229250000   -6.201187968e-01    5.510578156e-01    3.195768513e-04    1.489243150e-04    0.000000000e+00    0.000000000e+00    0.000000000e+00    0.000000000e+00
      230875000   -6.007983088e-01    5.678066611e-01    3.481690947e-04    1.287327323e-04    0.000000000e+00    0.000000000e+00    0.000000000e+00    0.000000000e+00
      232500000   -5.814521909e-01    5.840538144e-01    3.097505250e-04    1.409318502e-04    0.000000000e+00    0.000000000e+00    0.000000000e+00    0.000000000e+00
      234125000   -5.614630580e-01    5.991676450e-01    3.319642856e-04    1.276779076e-04    0.000000000e+00    0.000000000e+00    0.000000000e+00    0.000000000e+00
      235750000   -5.411268473e-01    6.137338877e-01    3.159147163e-04    1.398739842e-04    0.000000000e+00    0.000000000e+00    0.000000000e+00    0.000000000e+00
      237375000   -5.201621056e-01    6.275607347e-01    3.165328817e-04    1.511956798e-04    0.000000000e+00    0.000000000e+00    0.000000000e+00    0.000000000e+00
      239000000   -4.990121424e-01    6.404885054e-01    3.487259382e-04    1.317992865e-04    0.000000000e+00    0.000000000e+00    0.000000000e+00    0.000000000e+00
      240625000   -4.775483310e-01    6.529229283e-01    3.233313037e-04    1.650665363e-04    0.000000000e+00    0.000000000e+00    0.000000000e+00    0.000000000e+00
      242250000   -4.557898343e-01    6.644525528e-01    3.203908855e-04    1.595884241e-04    0.000000000e+00    0.000000000e+00    0.000000000e+00    0.000000000e+00
      243875000   -4.335817993e-01    6.753600240e-01    3.556926385e-04    1.361902541e-04    0.000000000e+00    0.000000000e+00    0.000000000e+00    0.000000000e+00
      245500000   -4.109650552e-01    6.854094863e-01    3.574117436e-04    1.575155184e-04    0.000000000e+00    0.000000000e+00    0.000000000e+00    0.000000000e+00
      247125000   -3.883884251e-01    6.950030923e-01    3.539572936e-04    1.238774421e-04    0.000000000e+00    0.000000000e+00    0.000000000e+00    0.000000000e+00
      248750000   -3.654968441e-01    7.036088705e-01    3.504412598e-04    1.430162083e-04    0.000000000e+00    0.000000000e+00    0.000000000e+00    0.000000000e+00
      250375000   -3.426138759e-01    7.115633488e-01    3.346637532e-04    1.382141345e-04    0.000000000e+00    0.000000000e+00    0.000000000e+00    0.000000000e+00
      252000000   -3.197774887e-01    7.183678746e-01    3.709867597e-04    1.636120433e-04    0.000000000e+00    0.000000000e+00    0.000000000e+00    0.000000000e+00
      253625000   -2.969436944e-01    7.249419093e-01    3.733402409e-04    1.553557086e-04    0.000000000e+00    0.000000000e+00    0.000000000e+00    0.000000000e+00
      255250000   -2.737376392e-01    7.303349972e-01    3.670441511e-04    1.492224110e-04    0.000000000e+00    0.000000000e+00    0.000000000e+00    0.000000000e+00
      256875000   -2.509409189e-01    7.351436615e-01    3.621495271e-04    1.605083235e-04    0.000000000e+00    0.000000000e+00    0.000000000e+00    0.000000000e+00
      258500000   -2.280511707e-01    7.392441630e-01    3.664281976e-04    1.579962991e-04    0.000000000e+00    0.000000000e+00    0.000000000e+00    0.000000000e+00
      260125000   -2.049764097e-01    7.425400615e-01    3.579013282e-04    1.259760902e-04    0.000000000e+00    0.000000000e+00    0.000000000e+00    0.000000000e+00
      261750000   -1.821964979e-01    7.453845739e-01    3.887146304e-04    1.434334990e-04    0.000000000e+00    0.000000000e+00    0.000000000e+00    0.000000000e+00
      263375000   -1.593888849e-01    7.469779849e-01    3.770072653e-04    1.321593445e-04    0.000000000e+00    0.000000000e+00    0.000000000e+00    0.000000000e+00
      265000000   -1.366777122e-01    7.480920553e-01    3.782307904e-04    1.226101012e-04    0.000000000e+00    0.000000000e+00    0.000000000e+00    0.000000000e+00
      266625000   -1.139871925e-01    7.485839725e-01    3.633905726e-04    1.355211425e-04    0.000000000e+00    0.000000000e+00    0.000000000e+00    0.000000000e+00
      268250000   -9.168040752e-02    7.485129833e-01    3.566594387e-04    1.471883734e-04    0.000000000e+00    0.000000000e+00    0.000000000e+00    0.000000000e+00
      269875000   -6.920268387e-02    7.475224733e-01    3.544598294e-04    1.635640656e-04    0.000000000e+00    0.000000000e+00    0.000000000e+00    0.000000000e+00
      271500000   -4.678723216e-02    7.460672855e-01    3.658107307e-04    1.354422566e-04    0.000000000e+00    0.000000000e+00    0.000000000e+00    0.000000000e+00
      273125000   -2.474093623e-02    7.439859509e-01    3.532819392e-04    1.246789616e-04    0.000000000e+00    0.000000000e+00    0.000000000e+00    0.000000000e+00
      274750000   -2.966959262e-03    7.410891056e-01    3.624457167e-04    1.334566623e-04    0.000000000e+00    0.000000000e+00    0.000000000e+00    0.000000000e+00
      276375000    1.863876544e-02    7.377187014e-01    3.466058406e-04    1.536082127e-04    0.000000000e+00    0.000000000e+00    0.000000000e+00    0.000000000e+00
      278000000    4.026174173e-02    7.339107394e-01    3.623464727e-04    1.214157528e-04    0.000000000e+00    0.000000000e+00    0.000000000e+00    0.000000000e+00
      279625000    6.119181588e-02    7.293533683e-01    3.654043248e-04    1.393802377e-04    0.000000000e+00    0.000000000e+00    0.000000000e+00    0.000000000e+00
      281250000    8.221835643e-02    7.241133451e-01    3.507222573e-04    1.276141556e-04    0.000000000e+00    0.000000000e+00    0.000000000e+00    0.000000000e+00
      282875000    1.031799391e-01    7.186508775e-01    3.201608197e-04    1.064981552e-04    0.000000000e+00    0.000000000e+00    0.000000000e+00    0.000000000e+00
      284500000    1.234886274e-01    7.126042843e-01    3.415335377e-04    1.146112336e-04    0.000000000e+00    0.000000000e+00    0.000000000e+00    0.000000000e+00
      286125000    1.437107474e-01    7.057411075e-01    3.464495821e-04    1.326655474e-04    0.000000000e+00    0.000000000e+00    0.000000000e+00    0.000000000e+00
      287750000    1.636259109e-01    6.990730762e-01    3.277717333e-04    1.125178969e-04    0.000000000e+00    0.000000000e+00    0.000000000e+00    0.000000000e+00
      289375000    1.832981706e-01    6.909837127e-01    3.192515578e-04    1.091704980e-04    0.000000000e+00    0.000000000e+00    0.000000000e+00    0.000000000e+00
      291000000    9.859181941e-02    6.509799957e-01    1.277450156e-05   -1.783747575e-04    0.000000000e+00    0.000000000e+00    0.000000000e+00    0.000000000e+00
      292625000    1.172325015e-01    6.444002986e-01   -5.892404442e-05   -5.643328404e-05    0.000000000e+00    0.000000000e+00    0.000000000e+00    0.000000000e+00
      294250000    1.349106282e-01    6.379297376e-01   -6.616716564e-05    6.859775021e-05    0.000000000e+00    0.000000000e+00    0.000000000e+00    0.000000000e+00
      295875000    1.529199332e-01    6.308351755e-01   -8.789673302e-05    4.755529881e-05    0.000000000e+00    0.000000000e+00    0.000000000e+00    0.000000000e+00
      297500000    1.705927998e-01    6.229960322e-01    4.384119893e-05   -1.352665095e-05    0.000000000e+00    0.000000000e+00    0.000000000e+00    0.000000000e+00
      299125000    1.881180853e-01    6.157575846e-01   -1.323306496e-04   -7.485040987e-05    0.000000000e+00    0.000000000e+00    0.000000000e+00    0.000000000e+00
      300750000    2.044721395e-01    6.070214510e-01   -7.245157030e-05    1.259614946e-04    0.000000000e+00    0.000000000e+00    0.000000000e+00    0.000000000e+00
      302375000    2.214982212e-01    5.982691646e-01    1.054967106e-05    5.300989869e-05    0.000000000e+00    0.000000000e+00    0.000000000e+00    0.000000000e+00
      304000000    2.372844219e-01    5.885699987e-01   -2.131614929e-05    4.674044976e-05    0.000000000e+00    0.000000000e+00    0.000000000e+00    0.000000000e+00
      305625000    2.532953918e-01    5.794907212e-01   -1.407208310e-05   -7.749109500e-05    0.000000000e+00    0.000000000e+00    0.000000000e+00    0.000000000e+00
      307250000    2.666716278e-01    5.681242347e-01   -1.991509343e-04    2.815463995e-05    0.000000000e+00    0.000000000e+00    0.000000000e+00    0.000000000e+00
      308875000    2.840409577e-01    5.592960119e-01   -1.159484164e-04    2.747596955e-05    0.000000000e+00    0.000000000e+00    0.000000000e+00    0.000000000e+00
      310500000    2.991484702e-01    5.488114953e-01   -1.761959866e-04   -1.404912036e-04    0.000000000e+00    0.000000000e+00    0.000000000e+00    0.000000000e+00
      312125000    3.135351241e-01    5.373613834e-01   -1.012938592e-04    3.405477401e-05    0.000000000e+00    0.000000000e+00    0.000000000e+00    0.000000000e+00
      313750000    3.269802332e-01    5.264321566e-01    4.039654414e-06    1.569780579e-04    0.000000000e+00    0.000000000e+00    0.000000000e+00    0.000000000e+00
      315375000    3.409014642e-01    5.145275593e-01   -3.471053060e-05   -2.781119838e-05    0.000000000e+00    0.000000000e+00    0.000000000e+00    0.000000000e+00
      317000000    3.547096252e-01    5.028479099e-01   -1.079419744e-04    2.477622184e-05    0.000000000e+00    0.000000000e+00    0.000000000e+00    0.000000000e+00
      318625000    3.671098351e-01    4.908930063e-01   -5.421474998e-05   -9.683880489e-05    0.000000000e+00    0.000000000e+00    0.000000000e+00    0.000000000e+00
      320250000    3.797571957e-01    4.782932997e-01   -2.015073405e-04   -3.732839104e-05    0.000000000e+00    0.000000000e+00    0.000000000e+00    0.000000000e+00
      321875000    3.915696144e-01    4.661678076e-01   -3.374617108e-06   -3.275424024e-05    0.000000000e+00    0.000000000e+00    0.000000000e+00    0.000000000e+00
      323500000    4.034903944e-01    4.535112977e-01   -8.910702309e-05    6.141830909e-06    0.000000000e+00    0.000000000e+00    0.000000000e+00    0.000000000e+00
      325125000    4.147295058e-01    4.404132068e-01    1.533407885e-05    2.163461431e-05    0.000000000e+00    0.000000000e+00    0.000000000e+00    0.000000000e+00
      326750000    4.257794619e-01    4.272336364e-01   -6.011153164e-05   -2.155445873e-05    0.000000000e+00    0.000000000e+00    0.000000000e+00    0.000000000e+00
      328375000    4.362075627e-01    4.138396084e-01   -1.116846470e-04   -1.086578050e-05    0.000000000e+00    0.000000000e+00    0.000000000e+00    0.000000000e+00
      330000000    4.462925494e-01    4.000274539e-01   -1.036421891e-04    1.306633658e-05    0.000000000e+00    0.000000000e+00    0.000000000e+00    0.000000000e+00
      331625000    4.559411108e-01    3.863190413e-01   -1.940118673e-04    3.456290506e-05    0.000000000e+00    0.000000000e+00    0.000000000e+00    0.000000000e+00
      333250000    4.654071629e-01    3.724844754e-01    6.900900189e-05   -3.630655920e-05    0.000000000e+00    0.000000000e+00    0.000000000e+00    0.000000000e+00
      334875000    4.740690887e-01    3.585306704e-01    6.320152170e-05   -6.820010458e-05    0.000000000e+00    0.000000000e+00    0.000000000e+00    0.000000000e+00
      336500000    4.829063416e-01    3.443323970e-01    1.400814654e-04    7.647402526e-05    0.000000000e+00    0.000000000e+00    0.000000000e+00    0.000000000e+00
      338125000    4.908057153e-01    3.301343322e-01   -1.787698129e-04   -7.252943033e-05    0.000000000e+00    0.000000000e+00    0.000000000e+00    0.000000000e+00
      339750000    4.988081753e-01    3.158716857e-01   -2.065111184e-04    7.603803533e-05    0.000000000e+00    0.000000000e+00    0.000000000e+00    0.000000000e+00
      341375000    5.064241290e-01    3.013231456e-01    3.791741619e-06   -9.526350186e-05    0.000000000e+00    0.000000000e+00    0.000000000e+00    0.000000000e+00
      343000000    5.133250952e-01    2.868594229e-01    2.722808858e-05   -3.988899698e-05    0.000000000e+00    0.000000000e+00    0.000000000e+00    0.000000000e+00
      344625000    5.200108886e-01    2.721129656e-01   -1.098275607e-04   -4.211309715e-05    0.000000000e+00    0.000000000e+00    0.000000000e+00    0.000000000e+00
      346250000    5.262368917e-01    2.579406202e-01   -3.614941306e-05   -6.274059706e-05    0.000000000e+00    0.000000000e+00    0.000000000e+00    0.000000000e+00
      347875000    5.320811272e-01    2.427695990e-01   -1.650698105e-04    2.933499309e-05    0.000000000e+00    0.000000000e+00    0.000000000e+00    0.000000000e+00
      349500000    5.377341509e-01    2.282155603e-01   -1.388147066e-04    3.560629193e-05    0.000000000e+00    0.000000000e+00    0.000000000e+00    0.000000000e+00
      351125000    5.430189371e-01    2.136501968e-01   -1.321134332e-04   -5.269751637e-05    0.000000000e+00    0.000000000e+00    0.000000000e+00    0.000000000e+00
      352750000    5.478566289e-01    1.983727217e-01   -1.392772392e-04   -1.887897088e-04    0.000000000e+00    0.000000000e+00    0.000000000e+00    0.000000000e+00
      354375000    5.524640679e-01    1.836149096e-01   -3.294346971e-05    1.434621954e-04    0.000000000e+00    0.000000000e+00    0.000000000e+00    0.000000000e+00
      356000000    5.562523603e-01    1.683951020e-01   -1.097586137e-04    6.418216799e-05    0.000000000e+00    0.000000000e+00    0.000000000e+00    0.000000000e+00
      357625000    5.601711869e-01    1.536536068e-01   -4.305361654e-05   -7.920881035e-05    0.000000000e+00    0.000000000e+00    0.000000000e+00    0.000000000e+00
      359250000    5.637645721e-01    1.386294365e-01    5.513071301e-05    1.366529032e-04    0.000000000e+00    0.000000000e+00    0.000000000e+00    0.000000000e+00
      360875000    5.669441819e-01    1.235296801e-01   -9.542810585e-05   -1.849634718e-04    0.000000000e+00    0.000000000e+00    0.000000000e+00    0.000000000e+00
      362500000    5.696071386e-01    1.087462679e-01   -7.295464457e-05    1.342627511e-04    0.000000000e+00    0.000000000e+00    0.000000000e+00    0.000000000e+00
      364125000    5.723156929e-01    9.391070157e-02   -1.688677294e-04   -3.294557246e-05    0.000000000e+00    0.000000000e+00    0.000000000e+00    0.000000000e+00
      365750000    5.744455457e-01    7.883510739e-02    2.197228423e-05    2.278737520e-05    0.000000000e+00    0.000000000e+00    0.000000000e+00    0.000000000e+00
      367375000    5.762831569e-01    6.381503493e-02   -3.497119542e-05   -4.555104533e-05    0.000000000e+00    0.000000000e+00    0.000000000e+00    0.000000000e+00
      369000000    5.777350664e-01    4.910581931e-02   -1.612722263e-04    6.393138756e-05    0.000000000e+00    0.000000000e+00    0.000000000e+00    0.000000000e+00
      370625000    5.789477825e-01    3.419064358e-02    5.761556895e-05    8.270698163e-05    0.000000000e+00    0.000000000e+00    0.000000000e+00    0.000000000e+00
      372250000    5.799793601e-01    1.913573034e-02   -3.789552284e-05   -4.533206811e-05    0.000000000e+00    0.000000000e+00    0.000000000e+00    0.000000000e+00
      373875000    5.804367065e-01    4.638767336e-03   -1.323072938e-04    1.350142265e-04    0.000000000e+00    0.000000000e+00    0.000000000e+00    0.000000000e+00
      375500000    5.806314349e-01   -1.019383315e-02   -2.615606645e-04    1.079562426e-04    0.000000000e+00    0.000000000e+00    0.000000000e+00    0.000000000e+00
      377125000    5.805030465e-01   -2.499149926e-02   -1.313437970e-04    1.786938992e-05    0.000000000e+00    0.000000000e+00    0.000000000e+00    0.000000000e+00
      378750000    5.797947049e-01   -3.963790089e-02   -7.177569933e-05    1.891998545e-04    0.000000000e+00    0.000000000e+00    0.000000000e+00    0.000000000e+00
      380375000    5.792210102e-01   -5.418727547e-02   -1.110185694e-04   -3.355485387e-05    0.000000000e+00    0.000000000e+00    0.000000000e+00    0.000000000e+00
      382000000    5.780544877e-01   -6.875915825e-02   -4.510986764e-05    1.963692775e-04    0.000000000e+00    0.000000000e+00    0.000000000e+00    0.000000000e+00
      383625000    5.768198371e-01   -8.344810456e-02   -1.466660033e-04    4.587782678e-05    0.000000000e+00    0.000000000e+00    0.000000000e+00    0.000000000e+00
      385250000    5.750938654e-01   -9.769676626e-02   -9.840234998e-05    1.203839784e-04    0.000000000e+00    0.000000000e+00    0.000000000e+00    0.000000000e+00
      386875000    5.733202100e-01   -1.119651198e-01   -1.497093181e-04    1.215508455e-04    0.000000000e+00    0.000000000e+00    0.000000000e+00    0.000000000e+00
      388500000    5.709670782e-01   -1.263978034e-01   -1.645194716e-04    6.593731814e-05    0.000000000e+00    0.000000000e+00    0.000000000e+00    0.000000000e+00
