! NanoVNA-App
! Date: 2024-06-25 16:50:11
! Start: 200MHz Stop: 1.5GHz Points: 801
! S-Parameter data: F S11 S21 S12 S22
# Hz S RI R 50
!     Frequency           S11_Real           S11_Imag           S21_Real           S21_Imag           S12_Real           S12_Imag           S22_Real           S22_Imag
      200000000   -8.505708575e-01    1.427722126e-01    1.663667063e-04    6.114128337e-05    0.000000000e+00    0.000000000e+00    0.000000000e+00    0.000000000e+00
      201625000   -8.447250724e-01    1.695291549e-01    1.954230102e-04    4.605742288e-05    0.000000000e+00    0.000000000e+00    0.000000000e+00    0.000000000e+00
      203250000   -8.381227851e-01    1.960098892e-01    2.161112207e-04    4.361959145e-05    0.000000000e+00    0.000000000e+00    0.000000000e+00    0.000000000e+00
      204875000   -8.302029371e-01    2.220004052e-01    2.329044801e-04    4.840893962e-05    0.000000000e+00    0.000000000e+00    0.000000000e+00    0.000000000e+00
      206500000   -8.220196366e-01    2.475370020e-01    2.377004421e-04    8.722321218e-05    0.000000000e+00    0.000000000e+00    0.000000000e+00    0.000000000e+00
      208125000   -8.123966455e-01    2.727996111e-01    2.444227284e-04    8.267889643e-05    0.000000000e+00    0.000000000e+00    0.000000000e+00    0.000000000e+00
      209750000   -8.022245765e-01    2.976787090e-01    2.664076455e-04    7.431426639e-05    0.000000000e+00    0.000000000e+00    0.000000000e+00    0.000000000e+00
      211375000   -7.908776402e-01    3.218292296e-01    2.313971636e-04    8.770395652e-05    0.000000000e+00    0.000000000e+00    0.000000000e+00    0.000000000e+00
      213000000   -7.789277434e-01    3.457559347e-01    2.918977698e-04    9.790880722e-05    0.000000000e+00    0.000000000e+00    0.000000000e+00    0.000000000e+00
      214625000   -7.662349939e-01    3.690600395e-01    2.813028404e-04    1.032850050e-04    0.000000000e+00    0.000000000e+00    0.000000000e+00    0.000000000e+00
      216250000   -7.527387738e-01    3.919363022e-01    2.982182486e-04    1.026347090e-04    0.000000000e+00    0.000000000e+00    0.000000000e+00    0.000000000e+00
      217875000   -7.383542657e-01    4.140002429e-01    2.879841486e-04    9.548316302e-05    0.000000000e+00    0.000000000e+00    0.000000000e+00    0.000000000e+00
      219500000   -7.234885693e-01    4.356306493e-01    3.112447157e-04    1.128647782e-04    0.000000000e+00    0.000000000e+00    0.000000000e+00    0.000000000e+00
      221125000   -7.076138854e-01    4.562978446e-01    3.009912034e-04    1.092591774e-04    0.000000000e+00    0.000000000e+00    0.000000000e+00    0.000000000e+00
      222750000   -6.915112734e-01    4.767230153e-01    3.192938748e-04    1.099956498e-04    0.000000000e+00    0.000000000e+00    0.000000000e+00    0.000000000e+00
      224375000   -6.744483113e-01    4.965483546e-01    3.026866470e-04    1.215321245e-04    0.000000000e+00    0.000000000e+00    0.000000000e+00    0.000000000e+00
      226000000   -6.569838524e-01    5.154891610e-01    3.190639254e-04    1.216304590e-04    0.000000000e+00    0.000000000e+00    0.000000000e+00    0.000000000e+00
      227625000   -6.387548447e-01    5.335306525e-01    3.158812469e-04    1.451345015e-04    0.000000000e+00    0.000000000e+00    0.000000000e+00    0.000000000e+00
      229250000   -6.200246811e-01    5.511642694e-01    3.038305149e-04    1.311611122e-04    0.000000000e+00    0.000000000e+00    0.000000000e+00    0.000000000e+00
      230875000   -6.010329127e-01    5.677661300e-01    3.175674647e-04    1.516056800e-04    0.000000000e+00    0.000000000e+00    0.000000000e+00    0.000000000e+00
      232500000   -5.816083550e-01    5.840558410e-01    3.296414507e-04    1.529814326e-04    0.000000000e+00    0.000000000e+00    0.000000000e+00    0.000000000e+00
      234125000   -5.615599155e-01    5.991545320e-01    3.368452599e-04    1.498121856e-04    0.000000000e+00    0.000000000e+00    0.000000000e+00    0.000000000e+00
      235750000   -5.409355760e-01    6.139407158e-01    3.243110550e-04    1.430844422e-04    0.000000000e+00    0.000000000e+00    0.000000000e+00    0.000000000e+00
      237375000   -5.202378631e-01    6.274510622e-01    3.280306992e-04    1.533568284e-04    0.000000000e+00    0.000000000e+00    0.000000000e+00    0.000000000e+00
      239000000   -4.990276694e-01    6.406949759e-01    3.234602918e-04    1.315729314e-04    0.000000000e+00    0.000000000e+00    0.000000000e+00    0.000000000e+00
      240625000   -4.775558412e-01    6.529101729e-01    3.451906668e-04    1.286113402e-04    0.000000000e+00    0.000000000e+00    0.000000000e+00    0.000000000e+00
      242250000   -4.556932747e-01    6.643301845e-01    3.115708241e-04    1.366765209e-04    0.000000000e+00    0.000000000e+00    0.000000000e+00    0.000000000e+00
      243875000   -4.335205555e-01    6.753287315e-01    3.460354346e-04    1.519955986e-04    0.000000000e+00    0.000000000e+00    0.000000000e+00    0.000000000e+00
      245500000   -4.110923707e-01    6.855463386e-01    3.406463657e-04    1.221109269e-04    0.000000000e+00    0.000000000e+00    0.000000000e+00    0.000000000e+00
      247125000   -3.882918060e-01    6.949531436e-01    3.487598151e-04    1.076910703e-04    0.000000000e+00    0.000000000e+00    0.000000000e+00    0.000000000e+00
      248750000   -3.656751812e-01    7.037734985e-01    3.403449664e-04    1.355742570e-04    0.000000000e+00    0.000000000e+00    0.000000000e+00    0.000000000e+00
      250375000   -3.426035941e-01    7.114358544e-01    3.539097379e-04    1.255363313e-04    0.000000000e+00    0.000000000e+00    0.000000000e+00    0.000000000e+00
      252000000   -3.196433187e-01    7.186151743e-01    3.836262040e-04    1.532144524e-04    0.000000000e+00    0.000000000e+00    0.000000000e+00    0.000000000e+00
      253625000   -2.968280911e-01    7.248119712e-01    3.809355840e-04    1.335473498e-04    0.000000000e+00    0.000000000e+00    0.000000000e+00    0.000000000e+00
      255250000   -2.738902867e-01    7.303571105e-01    3.711745667e-04    1.441658678e-04    0.000000000e+00    0.000000000e+00    0.000000000e+00    0.000000000e+00
      256875000   -2.511322200e-01    7.350952625e-01    3.519029124e-04    1.497773628e-04    0.000000000e+00    0.000000000e+00    0.000000000e+00    0.000000000e+00
      258500000   -2.279705703e-01    7.392833233e-01    3.427963820e-04    1.370174432e-04    0.000000000e+00    0.000000000e+00    0.000000000e+00    0.000000000e+00
      260125000   -2.050631046e-01    7.425546050e-01    3.426256299e-04    1.359941962e-04    0.000000000e+00    0.000000000e+00    0.000000000e+00    0.000000000e+00
      261750000   -1.821944118e-01    7.453650832e-01    3.601373755e-04    1.402614143e-04    0.000000000e+00    0.000000000e+00    0.000000000e+00    0.000000000e+00
      263375000   -1.594821811e-01    7.470747232e-01    3.754807694e-04    1.435443992e-04    0.000000000e+00    0.000000000e+00    0.000000000e+00    0.000000000e+00
      265000000   -1.366471946e-01    7.482448220e-01    3.591846325e-04    1.516810880e-04    0.000000000e+00    0.000000000e+00    0.000000000e+00    0.000000000e+00
      266625000   -1.140592173e-01    7.485280633e-01    3.590251727e-04    1.364919590e-04    0.000000000e+00    0.000000000e+00    0.000000000e+00    0.000000000e+00
      268250000   -9.153632075e-02    7.484679222e-01    3.502879408e-04    1.253145892e-04    0.000000000e+00    0.000000000e+00    0.000000000e+00    0.000000000e+00
      269875000   -6.906896085e-02    7.476099133e-01    3.816793323e-04    1.309295621e-04    0.000000000e+00    0.000000000e+00    0.000000000e+00    0.000000000e+00
      271500000   -4.681059346e-02    7.460203171e-01    3.636612091e-04    1.494017197e-04    0.000000000e+00    0.000000000e+00    0.000000000e+00    0.000000000e+00
      273125000   -2.486331575e-02    7.440568805e-01    3.565491061e-04    1.086439297e-04    0.000000000e+00    0.000000000e+00    0.000000000e+00    0.000000000e+00
      274750000   -2.925291192e-03    7.413560748e-01    3.570869740e-04    1.296661940e-04    0.000000000e+00    0.000000000e+00    0.000000000e+00    0.000000000e+00
      276375000    1.874596253e-02    7.378361225e-01    3.608981497e-04    1.446797251e-04    0.000000000e+00    0.000000000e+00    0.000000000e+00    0.000000000e+00
      278000000    3.995240480e-02    7.338741422e-01    3.404904564e-04    1.154314523e-04    0.000000000e+00    0.000000000e+00    0.000000000e+00    0.000000000e+00
      279625000    6.127315387e-02    7.294002771e-01    3.347564198e-04    1.445512753e-04    0.000000000e+00    0.000000000e+00    0.000000000e+00    0.000000000e+00
      281250000    8.232256770e-02    7.244285941e-01    3.618806077e-04    1.336205751e-04    0.000000000e+00    0.000000000e+00    0.000000000e+00    0.000000000e+00
      282875000    1.031409502e-01    7.187486291e-01    3.348556638e-04    1.514216128e-04    0.000000000e+00    0.000000000e+00    0.000000000e+00    0.000000000e+00
      284500000    1.235620156e-01    7.126829624e-01    3.278552031e-04    1.195688092e-04    0.000000000e+00    0.000000000e+00    0.000000000e+00    0.000000000e+00
      286125000    1.436179578e-01    7.058731914e-01    3.262560931e-04    1.170387914e-04    0.000000000e+00    0.000000000e+00    0.000000000e+00    0.000000000e+00
      287750000    1.637188196e-01    6.990360022e-01    3.297768708e-04    1.170961259e-04    0.000000000e+00    0.000000000e+00    0.000000000e+00    0.000000000e+00
      289375000    1.831644177e-01    6.910226345e-01    3.237214987e-04    1.112171376e-04    0.000000000e+00    0.000000000e+00    0.000000000e+00    0.000000000e+00
      291000000    9.830007702e-02    6.509621143e-01   -1.597030787e-04    2.841843707e-05    0.000000000e+00    0.000000000e+00    0.000000000e+00    0.000000000e+00
      292625000    1.166801006e-01    6.444108486e-01   -9.872677765e-05    2.022395493e-04    0.000000000e+00    0.000000000e+00    0.000000000e+00    0.000000000e+00
      294250000    1.358224899e-01    6.374327540e-01   -2.691330519e-05   -3.074509004e-05    0.000000000e+00    0.000000000e+00    0.000000000e+00    0.000000000e+00
      295875000    1.529740244e-01    6.309768558e-01   -1.322395838e-04    7.693172665e-05    0.000000000e+00    0.000000000e+00    0.000000000e+00    0.000000000e+00
      297500000    1.708001643e-01    6.231183410e-01    1.556075233e-07    6.993395800e-06    0.000000000e+00    0.000000000e+00    0.000000000e+00    0.000000000e+00
      299125000    1.878582686e-01    6.153634191e-01    7.303420716e-06   -1.163551769e-05    0.000000000e+00    0.000000000e+00    0.000000000e+00    0.000000000e+00
      300750000    2.044397295e-01    6.068355441e-01    1.629073085e-05    1.928169077e-04    0.000000000e+00    0.000000000e+00    0.000000000e+00    0.000000000e+00
      302375000    2.213855982e-01    5.978879929e-01   -1.799928941e-05    5.378953210e-05    0.000000000e+00    0.000000000e+00    0.000000000e+00    0.000000000e+00
      304000000    2.376483381e-01    5.893401504e-01   -4.862559217e-05   -7.644552170e-06    0.000000000e+00    0.000000000e+00    0.000000000e+00    0.000000000e+00
      305625000    2.531064451e-01    5.795873404e-01    1.681188878e-04    9.508503717e-05    0.000000000e+00    0.000000000e+00    0.000000000e+00    0.000000000e+00
      307250000    2.682195008e-01    5.713871121e-01   -8.807529230e-05    7.984851982e-05    0.000000000e+00    0.000000000e+00    0.000000000e+00    0.000000000e+00
      308875000    2.840632796e-01    5.588266253e-01    5.509783296e-05    1.323813922e-04    0.000000000e+00    0.000000000e+00    0.000000000e+00    0.000000000e+00
      310500000    2.994741201e-01    5.490491390e-01   -2.420376259e-04   -1.114946717e-04    0.000000000e+00    0.000000000e+00    0.000000000e+00    0.000000000e+00
      312125000    3.135196865e-01    5.374764800e-01    2.090318230e-05   -4.952070231e-05    0.000000000e+00    0.000000000e+00    0.000000000e+00    0.000000000e+00
      313750000    3.276993036e-01    5.268517733e-01    3.481413296e-05    2.642303298e-05    0.000000000e+00    0.000000000e+00    0.000000000e+00    0.000000000e+00
      315375000    3.408735394e-01    5.149376392e-01   -1.765980414e-04   -1.084482719e-04    0.000000000e+00    0.000000000e+00    0.000000000e+00    0.000000000e+00
      317000000    3.544186354e-01    5.025513172e-01   -1.015358357e-04    4.586931755e-05    0.000000000e+00    0.000000000e+00    0.000000000e+00    0.000000000e+00
      318625000    3.671581745e-01    4.909535348e-01   -1.413300779e-04    1.478460181e-04    0.000000000e+00    0.000000000e+00    0.000000000e+00    0.000000000e+00
      320250000    3.798438013e-01    4.782204032e-01   -1.219083788e-04   -6.106602814e-05    0.000000000e+00    0.000000000e+00    0.000000000e+00    0.000000000e+00
      321875000    3.919581473e-01    4.657734632e-01   -1.798359008e-04    4.840968904e-05    0.000000000e+00    0.000000000e+00    0.000000000e+00    0.000000000e+00
      323500000    4.034206569e-01    4.533662200e-01   -9.907512867e-05    2.133420276e-05    0.000000000e+00    0.000000000e+00    0.000000000e+00    0.000000000e+00
      325125000    4.146327972e-01    4.404923022e-01    4.630714466e-05   -5.779390449e-06    0.000000000e+00    0.000000000e+00    0.000000000e+00    0.000000000e+00
      326750000    4.256286621e-01    4.267088473e-01   -5.709887773e-05    9.248129209e-05    0.000000000e+00    0.000000000e+00    0.000000000e+00    0.000000000e+00
      328375000    4.366323352e-01    4.138176143e-01   -9.724180563e-05    1.229131158e-04    0.000000000e+00    0.000000000e+00    0.000000000e+00    0.000000000e+00
      330000000    4.465193450e-01    4.003900290e-01   -1.424924849e-04   -7.312570960e-05    0.000000000e+00    0.000000000e+00    0.000000000e+00    0.000000000e+00
      331625000    4.559548497e-01    3.861122131e-01   -2.692432899e-04    3.085399294e-05    0.000000000e+00    0.000000000e+00    0.000000000e+00    0.000000000e+00
      333250000    4.655481875e-01    3.724767566e-01   -1.624717988e-04    6.755200593e-05    0.000000000e+00    0.000000000e+00    0.000000000e+00    0.000000000e+00
      334875000    4.741552472e-01    3.586624563e-01   -1.275684626e-04   -2.017921361e-05    0.000000000e+00    0.000000000e+00    0.000000000e+00    0.000000000e+00
      336500000    4.826816022e-01    3.444386721e-01    2.957942161e-05    1.002704812e-04    0.000000000e+00    0.000000000e+00    0.000000000e+00    0.000000000e+00
      338125000    4.910341501e-01    3.303179145e-01   -5.691801198e-05   -8.710658585e-05    0.000000000e+00    0.000000000e+00    0.000000000e+00    0.000000000e+00
      339750000    4.990622401e-01    3.159928620e-01   -4.742987585e-05   -8.619828441e-05    0.000000000e+00    0.000000000e+00    0.000000000e+00    0.000000000e+00
      341375000    5.064194798e-01    3.014984429e-01   -6.293762999e-05   -1.677784167e-04    0.000000000e+00    0.000000000e+00    0.000000000e+00    0.000000000e+00
      343000000    5.134562254e-01    2.867414057e-01   -2.271696285e-04   -7.917540643e-05    0.000000000e+00    0.000000000e+00    0.000000000e+00    0.000000000e+00
      344625000    5.201157928e-01    2.722863853e-01   -1.557053038e-04   -1.922695219e-06    0.000000000e+00    0.000000000e+00    0.000000000e+00    0.000000000e+00
      346250000    5.263418555e-01    2.576574683e-01   -9.871088696e-05   -1.770502058e-05    0.000000000e+00    0.000000000e+00    0.000000000e+00    0.000000000e+00
      347875000    5.322294235e-01    2.431341112e-01   -1.779621234e-04   -3.826650573e-05    0.000000000e+00    0.000000000e+00    0.000000000e+00    0.000000000e+00
      349500000    5.379537940e-01    2.283484340e-01   -6.931210373e-05   -2.870534991e-05    0.000000000e+00    0.000000000e+00    0.000000000e+00    0.000000000e+00
      351125000    5.430340767e-01    2.133620977e-01   -3.866725456e-05   -7.392500265e-05    0.000000000e+00    0.000000000e+00    0.000000000e+00    0.000000000e+00
      352750000    5.477286577e-01    1.982499510e-01   -3.363471478e-05    6.027568816e-06    0.000000000e+00    0.000000000e+00    0.000000000e+00    0.000000000e+00
      354375000    5.523486733e-01    1.835201979e-01   -1.429725380e-04    3.311046021e-05    0.000000000e+00    0.000000000e+00    0.000000000e+00    0.000000000e+00
      356000000    5.563413501e-01    1.686300933e-01   -1.967112476e-04   -1.259361889e-04    0.000000000e+00    0.000000000e+00    0.000000000e+00    0.000000000e+00
      357625000    5.606025457e-01    1.537334919e-01    7.901548997e-06   -1.241229329e-04    0.000000000e+00    0.000000000e+00    0.000000000e+00    0.000000000e+00
      359250000    5.636140108e-01    1.386534572e-01   -8.049276221e-05    1.216697710e-04    0.000000000e+00    0.000000000e+00    0.000000000e+00    0.000000000e+00
      360875000    5.669584274e-01    1.236561611e-01   -1.358403824e-04   -1.870659435e-05    0.000000000e+00    0.000000000e+00    0.000000000e+00    0.000000000e+00
      362500000    5.698412657e-01    1.087200195e-01   -6.220263458e-05    1.461634529e-04    0.000000000e+00    0.000000000e+00    0.000000000e+00    0.000000000e+00
      364125000    5.722810626e-01    9.364677966e-02   -8.610591613e-05   -1.068808706e-04    0.000000000e+00    0.000000000e+00    0.000000000e+00    0.000000000e+00
      365750000    5.743034482e-01    7.877713442e-02   -1.188830356e-04    9.249708091e-05    0.000000000e+00    0.000000000e+00    0.000000000e+00    0.000000000e+00
      367375000    5.762403011e-01    6.361895800e-02   -2.302723078e-05    1.587703264e-05    0.000000000e+00    0.000000000e+00    0.000000000e+00    0.000000000e+00
      369000000    5.777238607e-01    4.895983636e-02   -3.128916796e-05   -1.154488746e-05    0.000000000e+00    0.000000000e+00    0.000000000e+00    0.000000000e+00
      370625000    5.790279508e-01    3.415321559e-02   -1.740924345e-04   -7.867396198e-05    0.000000000e+00    0.000000000e+00    0.000000000e+00    0.000000000e+00
      372250000    5.795844197e-01    1.930697449e-02    1.913028245e-05    6.051148375e-05    0.000000000e+00    0.000000000e+00    0.000000000e+00    0.000000000e+00
      373875000    5.804317594e-01    4.547502380e-03    5.608660285e-05    4.217361493e-06    0.000000000e+00    0.000000000e+00    0.000000000e+00    0.000000000e+00
      375500000    5.804170370e-01   -1.027836557e-02   -1.288910862e-04    3.965447831e-05    0.000000000e+00    0.000000000e+00    0.000000000e+00    0.000000000e+00
      377125000    5.803305507e-01   -2.495757304e-02   -2.480885305e-04    1.557024661e-04    0.000000000e+00    0.000000000e+00    0.000000000e+00    0.000000000e+00
      378750000    5.798568130e-01   -3.966614604e-02   -8.796834663e-06   -6.509961167e-06    0.000000000e+00    0.000000000e+00    0.000000000e+00    0.000000000e+00
      380375000    5.791558027e-01   -5.414738879e-02   -8.631356468e-05    6.010575089e-05    0.000000000e+00    0.000000000e+00    0.000000000e+00    0.000000000e+00
      382000000    5.780708194e-01   -6.887120754e-02    6.051773380e-05   -4.379678285e-05    0.000000000e+00    0.000000000e+00    0.000000000e+00    0.000000000e+00
      383625000    5.765863657e-01   -8.336339146e-02   -1.090481019e-04    6.470187509e-05    0.000000000e+00    0.000000000e+00    0.000000000e+00    0.000000000e+00
      385250000    5.751148462e-01   -9.767736495e-02   -9.117915761e-05    7.754028047e-05    0.000000000e+00    0.000000000e+00    0.000000000e+00    0.000000000e+00
      386875000    5.733859539e-01   -1.121568158e-01   -1.309872605e-04    2.348531780e-05    0.000000000e+00    0.000000000e+00    0.000000000e+00    0.000000000e+00
      388500000    5.709125400e-01   -1.263170838e-01   -1.826300577e-04    6.055812628e-05    0.000000000e+00    0.000000000e+00    0.000000000e+00    0.000000000e+00
