! NanoVNA-App
! Date: 2024-06-25 16:50:21
! Start: 200MHz Stop: 1.5GHz Points: 801
! S-Parameter data: F S11 S21 S12 S22
# Hz S RI R 50
!     Frequency           S11_Real           S11_Imag           S21_Real           S21_Imag           S12_Real           S12_Imag           S22_Real           S22_Imag
      200000000   -8.505073190e-01    1.428584605e-01    1.738292631e-04    5.896636867e-05    0.000000000e+00    0.000000000e+00    0.000000000e+00    0.000000000e+00
      201625000   -8.448367715e-01    1.694620997e-01    1.821823098e-04    4.250958591e-05    0.000000000e+00    0.000000000e+00    0.000000000e+00    0.000000000e+00
      203250000   -8.381333947e-01    1.958888769e-01    2.126805630e-04    7.248104521e-05    0.000000000e+00    0.000000000e+00    0.000000000e+00    0.000000000e+00
      204875000   -8.305225372e-01    2.219989747e-01    2.210689272e-04    6.940247840e-05    0.000000000e+00    0.000000000e+00    0.000000000e+00    0.000000000e+00
      206500000   -8.220538497e-01    2.475957125e-01    2.387815912e-04    7.139551599e-05    0.000000000e+00    0.000000000e+00    0.000000000e+00    0.000000000e+00
      208125000   -8.124400973e-01    2.728595138e-01    2.536095853e-04    8.695190627e-05    0.000000000e+00    0.000000000e+00    0.000000000e+00    0.000000000e+00
      209750000   -8.022407293e-01    2.978101969e-01    2.741238277e-04    7.710778300e-05    0.000000000e+00    0.000000000e+00    0.000000000e+00    0.000000000e+00
      211375000   -7.908996940e-01    3.219265640e-01    2.670341346e-04    9.072096873e-05    0.000000000e+00    0.000000000e+00    0.000000000e+00    0.000000000e+00
      213000000   -7.790894508e-01    3.457402289e-01    2.736759488e-04    9.158230387e-05    0.000000000e+00    0.000000000e+00    0.000000000e+00    0.000000000e+00
      214625000   -7.663527727e-01    3.689260185e-01    2.705340448e-04    1.163462730e-04    0.000000000e+00    0.000000000e+00    0.000000000e+00    0.000000000e+00
      216250000   -7.527110577e-01    3.919084072e-01    2.920992556e-04    1.124693881e-04    0.000000000e+00    0.000000000e+00    0.000000000e+00    0.000000000e+00
      217875000   -7.383491993e-01    4.138767123e-01    2.802776871e-04    1.241924765e-04    0.000000000e+00    0.000000000e+00    0.000000000e+00    0.000000000e+00
      219500000   -7.234802842e-01    4.356221259e-01    2.990554494e-04    1.194975703e-04    0.000000000e+00    0.000000000e+00    0.000000000e+00    0.000000000e+00
      221125000   -7.076916099e-01    4.565413296e-01    3.146690142e-04    1.113364779e-04    0.000000000e+00    0.000000000e+00    0.000000000e+00    0.000000000e+00
      222750000   -6.913723946e-01    4.768344760e-01    2.997881675e-04    1.215711964e-04    0.000000000e+00    0.000000000e+00    0.000000000e+00    0.000000000e+00
      224375000   -6.743892431e-01    4.964522123e-01    3.245321859e-04    1.268840570e-04    0.000000000e+00    0.000000000e+00    0.000000000e+00    0.000000000e+00
      226000000   -6.567938924e-01    5.152475834e-01    2.990645007e-04    1.672106882e-04    0.000000000e+00    0.000000000e+00    0.000000000e+00    0.000000000e+00
      227625000   -6.387742758e-01    5.334711671e-01    3.054814297e-04    1.395240688e-04    0.000000000e+00    0.000000000e+00    0.000000000e+00    0.000000000e+00
      229250000   -6.200207472e-01    5.508461595e-01    3.111327242e-04    1.387798402e-04    0.000000000e+00    0.000000000e+00    0.000000000e+00    0.000000000e+00
      230875000   -6.010486484e-01    5.679197311e-01    3.217089106e-04    1.303406316e-04    0.000000000e+00    0.000000000e+00    0.000000000e+00    0.000000000e+00
      232500000   -5.815504193e-01    5.839601159e-01    3.304014390e-04    1.327180653e-04    0.000000000e+00    0.000000000e+00    0.000000000e+00    0.000000000e+00
      234125000   -5.615454912e-01    5.992096066e-01    3.452453821e-04    1.388792443e-04    0.000000000e+00    0.000000000e+00    0.000000000e+00    0.000000000e+00
      235750000   -5.409932733e-01    6.137650013e-01    3.101299226e-04    1.428021787e-04    0.000000000e+00    0.000000000e+00    0.000000000e+00    0.000000000e+00
      237375000   -5.202013254e-01    6.275107861e-01    3.253287869e-04    1.479570201e-04    0.000000000e+00    0.000000000e+00    0.000000000e+00    0.000000000e+00
      239000000   -4.990681410e-01    6.407065988e-01    3.194311575e-04    1.406659576e-04    0.000000000e+00    0.000000000e+00    0.000000000e+00    0.000000000e+00
      240625000   -4.775599837e-01    6.528552175e-01    3.643977398e-04    1.167847004e-04    0.000000000e+00    0.000000000e+00    0.000000000e+00    0.000000000e+00
      242250000   -4.557594061e-01    6.644476652e-01    3.309961176e-04    1.386987424e-04    0.000000000e+00    0.000000000e+00    0.000000000e+00    0.000000000e+00
      243875000   -4.337243438e-01    6.752899289e-01    3.476747370e-04    1.455420861e-04    0.000000000e+00    0.000000000e+00    0.000000000e+00    0.000000000e+00
      245500000   -4.112338424e-01    6.854615808e-01    3.368974139e-04    1.423078793e-04    0.000000000e+00    0.000000000e+00    0.000000000e+00    0.000000000e+00
      247125000   -3.884974122e-01    6.950849891e-01    3.720164823e-04    1.395991712e-04    0.000000000e+00    0.000000000e+00    0.000000000e+00    0.000000000e+00
      248750000   -3.656202257e-01    7.034602761e-01    3.564870567e-04    1.307485800e-04    0.000000000e+00    0.000000000e+00    0.000000000e+00    0.000000000e+00
      250375000   -3.427380025e-01    7.114214897e-01    3.534913994e-04    1.377024018e-04    0.000000000e+00    0.000000000e+00    0.000000000e+00    0.000000000e+00
      252000000   -3.198486567e-01    7.186549306e-01    3.593939473e-04    1.453189907e-04    0.000000000e+00    0.000000000e+00    0.000000000e+00    0.000000000e+00
      253625000   -2.969668806e-01    7.249472141e-01    3.542566556e-04    1.595695940e-04    0.000000000e+00    0.000000000e+00    0.000000000e+00    0.000000000e+00
      255250000   -2.738669813e-01    7.305819988e-01    3.518011072e-04    1.468702685e-04    0.000000000e+00    0.000000000e+00    0.000000000e+00    0.000000000e+00
      256875000   -2.509863973e-01    7.352699637e-01    3.411437501e-04    1.316010312e-04    0.000000000e+00    0.000000000e+00    0.000000000e+00    0.000000000e+00
      258500000   -2.279285043e-01    7.393391132e-01    3.533311246e-04    1.548580185e-04    0.000000000e+00    0.000000000e+00    0.000000000e+00    0.000000000e+00
      260125000   -2.051654905e-01    7.424930930e-01    3.607257968e-04    1.273350936e-04    0.000000000e+00    0.000000000e+00    0.000000000e+00    0.000000000e+00
      261750000   -1.823377907e-01    7.453658581e-01    3.834992240e-04    1.499618957e-04    0.000000000e+00    0.000000000e+00    0.000000000e+00    0.000000000e+00
      263375000   -1.593757719e-01    7.470506430e-01    3.615113383e-04    1.524781546e-04    0.000000000e+00    0.000000000e+00    0.000000000e+00    0.000000000e+00
      265000000   -1.365773231e-01    7.482664585e-01    3.701236565e-04    1.311452070e-04    0.000000000e+00    0.000000000e+00    0.000000000e+00    0.000000000e+00
      266625000   -1.141896099e-01    7.487205267e-01    3.784619621e-04    1.254687813e-04    0.000000000e+00    0.000000000e+00    0.000000000e+00    0.000000000e+00
      268250000   -9.141865373e-02    7.482924461e-01    3.576147719e-04    1.459384075e-04    0.000000000e+00    0.000000000e+00    0.000000000e+00    0.000000000e+00
      269875000   -6.918983907e-02    7.475916743e-01    3.684257972e-04    1.463117369e-04    0.000000000e+00    0.000000000e+00    0.000000000e+00    0.000000000e+00
      271500000   -4.699849337e-02    7.459469438e-01    3.623113444e-04    1.165981739e-04    0.000000000e+00    0.000000000e+00    0.000000000e+00    0.000000000e+00
      273125000   -2.483445592e-02    7.440227270e-01    3.715688363e-04    1.291703520e-04    0.000000000e+00    0.000000000e+00    0.000000000e+00    0.000000000e+00
      274750000   -3.002287820e-03    7.413064837e-01    3.681788512e-04    1.289130887e-04    0.000000000e+00    0.000000000e+00    0.000000000e+00    0.000000000e+00
      276375000    1.871180721e-02    7.378039956e-01    3.458518768e-04    1.231801289e-04    0.000000000e+00    0.000000000e+00    0.000000000e+00    0.000000000e+00
      278000000    4.015399516e-02    7.337951064e-01    3.528944217e-04    1.223705622e-04    0.000000000e+00    0.000000000e+00    0.000000000e+00    0.000000000e+00
      279625000    6.124261394e-02    7.295803428e-01    3.502072941e-04    1.264694001e-04    0.000000000e+00    0.000000000e+00    0.000000000e+00    0.000000000e+00
      281250000    8.223553747e-02    7.243107557e-01    3.413684026e-04    1.412034035e-04    0.000000000e+00    0.000000000e+00    0.000000000e+00    0.000000000e+00
      282875000    1.030445993e-01    7.187091708e-01    3.550832334e-04    1.136885767e-04    0.000000000e+00    0.000000000e+00    0.000000000e+00    0.000000000e+00
      284500000    1.235534325e-01    7.126566768e-01    3.330667096e-04    1.297144045e-04    0.000000000e+00    0.000000000e+00    0.000000000e+00    0.000000000e+00
      286125000    1.437879801e-01    7.058951259e-01    3.254190960e-04    1.303024037e-04    0.000000000e+00    0.000000000e+00    0.000000000e+00    0.000000000e+00
      287750000    1.637153774e-01    6.989921927e-01    3.288873413e-04    1.350402163e-04    0.000000000e+00    0.000000000e+00    0.000000000e+00    0.000000000e+00
      289375000    1.831551790e-01    6.909196377e-01    3.126158845e-04    1.012919747e-04    0.000000000e+00    0.000000000e+00    0.000000000e+00    0.000000000e+00
      291000000    9.849958122e-02    6.513667107e-01    1.438427862e-04   -6.584396033e-05    0.000000000e+00    0.000000000e+00    0.000000000e+00    0.000000000e+00
      292625000    1.166547909e-01    6.451331377e-01   -1.398390741e-04    1.072883151e-05    0.000000000e+00    0.000000000e+00    0.000000000e+00    0.000000000e+00
      294250000    1.354111433e-01    6.377257705e-01   -1.488821144e-04    4.194052599e-05    0.000000000e+00    0.000000000e+00    0.000000000e+00    0.000000000e+00
      295875000    1.533598602e-01    6.308013201e-01    2.041866719e-05   -9.303152183e-05    0.000000000e+00    0.000000000e+00    0.000000000e+00    0.000000000e+00
      297500000    1.705814749e-01    6.232463121e-01    8.690030518e-05    6.834938540e-05    0.000000000e+00    0.000000000e+00    0.000000000e+00    0.000000000e+00
      299125000    1.881042272e-01    6.154356599e-01   -1.248962799e-04   -1.688268458e-05    0.000000000e+00    0.000000000e+00    0.000000000e+00    0.000000000e+00
      300750000    2.048742771e-01    6.064510345e-01    7.145525888e-05    9.071842942e-05    0.000000000e+00    0.000000000e+00    0.000000000e+00    0.000000000e+00
      302375000    2.217234075e-01    5.981447697e-01    6.738744560e-05    4.504884782e-05    0.000000000e+00    0.000000000e+00    0.000000000e+00    0.000000000e+00
      304000000    2.376352549e-01    5.892471671e-01   -1.627361780e-04    3.655832188e-05    0.000000000e+00    0.000000000e+00    0.000000000e+00    0.000000000e+00
      305625000    2.537359297e-01    5.797767639e-01   -1.685390453e-04    1.368305584e-05    0.000000000e+00    0.000000000e+00    0.000000000e+00    0.000000000e+00
      307250000    2.676939368e-01    5.671383739e-01   -2.152668458e-04    1.393605489e-04    0.000000000e+00    0.000000000e+00    0.000000000e+00    0.000000000e+00
      308875000    2.840716839e-01    5.590959787e-01   -1.047796759e-04    2.053955541e-05    0.000000000e+00    0.000000000e+00    0.000000000e+00    0.000000000e+00
      310500000    2.990784645e-01    5.486434102e-01   -1.955136941e-05    1.243871229e-04    0.000000000e+00    0.000000000e+00    0.000000000e+00    0.000000000e+00
      312125000    3.132784963e-01    5.376510620e-01   -1.265751198e-04    7.555392222e-05    0.000000000e+00    0.000000000e+00    0.000000000e+00    0.000000000e+00
      313750000    3.272813559e-01    5.263420343e-01    2.322852924e-05    1.563779806e-04    0.000000000e+00    0.000000000e+00    0.000000000e+00    0.000000000e+00
      315375000    3.413037360e-01    5.147153139e-01   -5.897100345e-05    8.934683865e-05    0.000000000e+00    0.000000000e+00    0.000000000e+00    0.000000000e+00
      317000000    3.544511795e-01    5.030523539e-01    1.544752081e-06    3.892314999e-05    0.000000000e+00    0.000000000e+00    0.000000000e+00    0.000000000e+00
      318625000    3.677900732e-01    4.909761846e-01    8.378313214e-05    2.673379640e-05    0.000000000e+00    0.000000000e+00    0.000000000e+00    0.000000000e+00
      320250000    3.798578084e-01    4.785534441e-01   -8.208685904e-05    2.256372136e-05    0.000000000e+00    0.000000000e+00    0.000000000e+00    0.000000000e+00
      321875000    3.919065595e-01    4.661681652e-01   -1.996229403e-04   -1.693540435e-05    0.000000000e+00    0.000000000e+00    0.000000000e+00    0.000000000e+00
      323500000    4.033967853e-01    4.531650543e-01   -1.890658023e-04    8.363734378e-05    0.000000000e+00    0.000000000e+00    0.000000000e+00    0.000000000e+00
      325125000    4.153387547e-01    4.401910007e-01   -1.266602485e-04    2.676207441e-05    0.000000000e+00    0.000000000e+00    0.000000000e+00    0.000000000e+00
      326750000    4.257712960e-01    4.270002842e-01   -5.394480468e-05   -3.011280387e-05    0.000000000e+00    0.000000000e+00    0.000000000e+00    0.000000000e+00
      328375000    4.362626076e-01    4.138421416e-01   -4.148832159e-05    1.566804131e-04    0.000000000e+00    0.000000000e+00    0.000000000e+00    0.000000000e+00
      330000000    4.462723136e-01    3.999524117e-01    1.181267071e-04    4.853894279e-05    0.000000000e+00    0.000000000e+00    0.000000000e+00    0.000000000e+00
      331625000    4.560593367e-01    3.862813413e-01   -1.073051462e-04   -7.894344890e-05    0.000000000e+00    0.000000000e+00    0.000000000e+00    0.000000000e+00
      333250000    4.654180110e-01    3.725486994e-01    3.434371320e-05   -6.568211393e-05    0.000000000e+00    0.000000000e+00    0.000000000e+00    0.000000000e+00
      334875000    4.744504988e-01    3.585051298e-01    4.101952800e-05   -3.336610462e-05    0.000000000e+00    0.000000000e+00    0.000000000e+00    0.000000000e+00
      336500000    4.828104973e-01    3.444412947e-01   -2.136761468e-04   -9.337550000e-05    0.000000000e+00    0.000000000e+00    0.000000000e+00    0.000000000e+00
      338125000    4.911353886e-01    3.302152455e-01   -7.764512702e-05   -1.994200466e-05    0.000000000e+00    0.000000000e+00    0.000000000e+00    0.000000000e+00
      339750000    4.986741245e-01    3.159147501e-01   -2.101307655e-05    4.894213271e-05    0.000000000e+00    0.000000000e+00    0.000000000e+00    0.000000000e+00
      341375000    5.062769651e-01    3.015362918e-01   -5.430401507e-05    7.571847527e-05    0.000000000e+00    0.000000000e+00    0.000000000e+00    0.000000000e+00
      343000000    5.136179924e-01    2.869123816e-01    6.037104322e-05   -1.330207888e-04    0.000000000e+00    0.000000000e+00    0.000000000e+00    0.000000000e+00
      344625000    5.200589299e-01    2.723720074e-01   -7.254327647e-05   -7.355042180e-05    0.000000000e+00    0.000000000e+00    0.000000000e+00    0.000000000e+00
      346250000    5.262833238e-01    2.576866448e-01   -6.689664588e-05    5.038893050e-06    0.000000000e+00    0.000000000e+00    0.000000000e+00    0.000000000e+00
      347875000    5.321544409e-01    2.428072691e-01    1.381256970e-05   -9.616542957e-05    0.000000000e+00    0.000000000e+00    0.000000000e+00    0.000000000e+00
      349500000    5.378754735e-01    2.282701135e-01   -8.223477926e-05    1.906534521e-06    0.000000000e+00    0.000000000e+00    0.000000000e+00    0.000000000e+00
      351125000    5.430577993e-01    2.133219540e-01    4.656259625e-05    1.554087248e-06    0.000000000e+00    0.000000000e+00    0.000000000e+00    0.000000000e+00
      352750000    5.480443835e-01    1.983789504e-01    4.750920652e-06    7.090419967e-05    0.000000000e+00    0.000000000e+00    0.000000000e+00    0.000000000e+00
      354375000    5.524319410e-01    1.833001673e-01   -5.327409781e-06    2.120076715e-05    0.000000000e+00    0.000000000e+00    0.000000000e+00    0.000000000e+00
      356000000    5.565761328e-01    1.684361696e-01    4.500949944e-05   -1.508055084e-05    0.000000000e+00    0.000000000e+00    0.000000000e+00    0.000000000e+00
      357625000    5.603826642e-01    1.535049230e-01   -1.214464501e-04   -8.505933511e-05    0.000000000e+00    0.000000000e+00    0.000000000e+00    0.000000000e+00
      359250000    5.638558865e-01    1.385311633e-01   -2.434368507e-04   -5.805898763e-05    0.000000000e+00    0.000000000e+00    0.000000000e+00    0.000000000e+00
      360875000    5.668404102e-01    1.235480830e-01   -1.802779734e-04    3.605706297e-05    0.000000000e+00    0.000000000e+00    0.000000000e+00    0.000000000e+00
      362500000    5.697966814e-01    1.085486189e-01    4.887790783e-05   -4.699871715e-05    0.000000000e+00    0.000000000e+00    0.000000000e+00    0.000000000e+00
      364125000    5.721534491e-01    9.361331910e-02   -1.767577196e-04    1.145551651e-04    0.000000000e+00    0.000000000e+00    0.000000000e+00    0.000000000e+00
      365750000    5.744306445e-01    7.883176953e-02   -1.259951096e-04   -5.726018571e-05    0.000000000e+00    0.000000000e+00    0.000000000e+00    0.000000000e+00
      367375000    5.760279894e-01    6.382021308e-02   -1.085724507e-04    7.399774040e-05    0.000000000e+00    0.000000000e+00    0.000000000e+00    0.000000000e+00
      369000000    5.777214170e-01    4.883265123e-02   -1.744789624e-04    1.071611114e-04    0.000000000e+00    0.000000000e+00    0.000000000e+00    0.000000000e+00
      370625000    5.790153146e-01    3.393286467e-02   -8.000156231e-05    8.629966760e-05    0.000000000e+00    0.000000000e+00    0.000000000e+00    0.000000000e+00
      372250000    5.798915625e-01    1.968359761e-02   -6.424159801e-05    5.393436732e-05    0.000000000e+00    0.000000000e+00    0.000000000e+00    0.000000000e+00
      373875000    5.802266598e-01    4.513533786e-03   -1.376162691e-04    2.207804209e-04    0.000000000e+00    0.000000000e+00    0.000000000e+00    0.000000000e+00
      375500000    5.805312991e-01   -1.011187024e-02   -5.588026397e-05    3.235571785e-05    0.000000000e+00    0.000000000e+00    0.000000000e+00    0.000000000e+00
      377125000    5.805487037e-01   -2.488335595e-02   -1.417591120e-04   -1.506244444e-04    0.000000000e+00    0.000000000e+00    0.000000000e+00    0.000000000e+00
      378750000    5.798559189e-01   -3.981965035e-02   -6.072118049e-05    1.632043713e-04    0.000000000e+00    0.000000000e+00    0.000000000e+00    0.000000000e+00
      380375000    5.793029666e-01   -5.424552783e-02   -5.028210580e-05    1.729088690e-04    0.000000000e+00    0.000000000e+00    0.000000000e+00    0.000000000e+00
      382000000    5.781705379e-01   -6.876916438e-02   -3.068199148e-04    3.016702431e-05    0.000000000e+00    0.000000000e+00    0.000000000e+00    0.000000000e+00
      383625000    5.767337680e-01   -8.340003341e-02   -5.792885713e-05   -9.356297960e-05    0.000000000e+00    0.000000000e+00    0.000000000e+00    0.000000000e+00
      385250000    5.749789476e-01   -9.785165638e-02   -3.717860091e-05    6.060805754e-05    0.000000000e+00    0.000000000e+00    0.000000000e+00    0.000000000e+00
      386875000    5.731709003e-01   -1.121422127e-01   -2.413601906e-04    5.550237620e-05    0.000000000e+00    0.000000000e+00    0.000000000e+00    0.000000000e+00
      388500000    5.709564090e-01   -1.264986396e-01   -7.310283399e-05    2.385055632e-05    0.000000000e+00    0.000000000e+00    0.000000000e+00    0.000000000e+00
