! NanoVNA-App
! Date: 2024-06-25 16:50:24
! Start: 200MHz Stop: 1.5GHz Points: 801
! S-Parameter data: F S11 S21 S12 S22
# Hz S RI R 50
!     Frequency           S11_Real           S11_Imag           S21_Real           S21_Imag           S12_Real           S12_Imag           S22_Real           S22_Imag
      200000000   -8.505502343e-01    1.428605616e-01    1.736393315e-04    4.469566920e-05    0.000000000e+00    0.000000000e+00    0.000000000e+00    0.000000000e+00
      201625000   -8.446394801e-01    1.695479751e-01    2.161374287e-04    6.080020466e-05    0.000000000e+00    0.000000000e+00    0.000000000e+00    0.000000000e+00
      203250000   -8.380650282e-01    1.958885193e-01    2.183244942e-04    8.268267993e-05    0.000000000e+00    0.000000000e+00    0.000000000e+00    0.000000000e+00
      204875000   -8.303992748e-01    2.218466252e-01    2.349352580e-04    4.814186468e-05    0.000000000e+00    0.000000000e+00    0.000000000e+00    0.000000000e+00
      206500000   -8.219299912e-01    2.475380301e-01    2.441560791e-04    5.005118146e-05    0.000000000e+00    0.000000000e+00    0.000000000e+00    0.000000000e+00
      208125000   -8.124675751e-01    2.728200257e-01    2.505301381e-04    8.318081382e-05    0.000000000e+00    0.000000000e+00    0.000000000e+00    0.000000000e+00
      209750000   -8.022242188e-01    2.976987958e-01    2.511447528e-04    8.603883907e-05    0.000000000e+00    0.000000000e+00    0.000000000e+00    0.000000000e+00
      211375000   -7.909011245e-01    3.219414353e-01    2.721809724e-04    9.226481052e-05    0.000000000e+00    0.000000000e+00    0.000000000e+00    0.000000000e+00
      213000000   -7.790201902e-01    3.457048833e-01    2.708735992e-04    9.203564696e-05    0.000000000e+00    0.000000000e+00    0.000000000e+00    0.000000000e+00
      214625000   -7.661501765e-01    3.691098690e-01    2.626909700e-04    1.200121624e-04    0.000000000e+00    0.000000000e+00    0.000000000e+00    0.000000000e+00
      216250000   -7.525808215e-01    3.918831348e-01    2.815544431e-04    1.124902483e-04    0.000000000e+00    0.000000000e+00    0.000000000e+00    0.000000000e+00
      217875000   -7.384942174e-01    4.140368700e-01    2.882575500e-04    1.221953426e-04    0.000000000e+00    0.000000000e+00    0.000000000e+00    0.000000000e+00
      219500000   -7.234327197e-01    4.354374409e-01    2.887286828e-04    1.373377163e-04    0.000000000e+00    0.000000000e+00    0.000000000e+00    0.000000000e+00
      221125000   -7.078411579e-01    4.564858675e-01    3.161482164e-04    1.225201995e-04    0.000000000e+00    0.000000000e+00    0.000000000e+00    0.000000000e+00
      222750000   -6.913771033e-01    4.767066538e-01    3.181603388e-04    1.068956044e-04    0.000000000e+00    0.000000000e+00    0.000000000e+00    0.000000000e+00
      224375000   -6.744420528e-01    4.963566363e-01    2.817412023e-04    1.415734878e-04    0.000000000e+00    0.000000000e+00    0.000000000e+00    0.000000000e+00
      226000000   -6.568605900e-01    5.153808594e-01    3.189432609e-04    1.274656097e-04    0.000000000e+00    0.000000000e+00    0.000000000e+00    0.000000000e+00
      227625000   -6.387116313e-01    5.334914923e-01    2.824912954e-04    1.516825578e-04    0.000000000e+00    0.000000000e+00    0.000000000e+00    0.000000000e+00
      229250000   -6.202538610e-01    5.511256456e-01    3.153578728e-04    1.560091187e-04    0.000000000e+00    0.000000000e+00    0.000000000e+00    0.000000000e+00
      230875000   -6.011051536e-01    5.678668618e-01    3.486877540e-04    1.514259930e-04    0.000000000e+00    0.000000000e+00    0.000000000e+00    0.000000000e+00
      232500000   -5.814965367e-01    5.839254856e-01    3.018547432e-04    1.536997588e-04    0.000000000e+00    0.000000000e+00    0.000000000e+00    0.000000000e+00
      234125000   -5.615117550e-01    5.991788507e-01    3.354001092e-04    1.516136981e-04    0.000000000e+00    0.000000000e+00    0.000000000e+00    0.000000000e+00
      235750000   -5.412169695e-01    6.138225794e-01    3.461723099e-04    1.457976323e-04    0.000000000e+00    0.000000000e+00    0.000000000e+00    0.000000000e+00
      237375000   -5.202191472e-01    6.275647879e-01    3.253846953e-04    1.414212602e-04    0.000000000e+00    0.000000000e+00    0.000000000e+00    0.000000000e+00
      239000000   -4.991396964e-01    6.404752135e-01    3.393930674e-04    1.350057573e-04    0.000000000e+00    0.000000000e+00    0.000000000e+00    0.000000000e+00
      240625000   -4.775384963e-01    6.526284218e-01    3.352382337e-04    1.404902869e-04    0.000000000e+00    0.000000000e+00    0.000000000e+00    0.000000000e+00
      242250000   -4.557027817e-01    6.644864678e-01    3.259670921e-04    1.236023818e-04    0.000000000e+00    0.000000000e+00    0.000000000e+00    0.000000000e+00
      243875000   -4.335382879e-01    6.752436757e-01    3.453790268e-04    1.194582364e-04    0.000000000e+00    0.000000000e+00    0.000000000e+00    0.000000000e+00
      245500000   -4.110813439e-01    6.853974462e-01    3.323130950e-04    1.268244960e-04    0.000000000e+00    0.000000000e+00    0.000000000e+00    0.000000000e+00
      247125000   -3.885445893e-01    6.950393915e-01    3.562014317e-04    1.246099710e-04    0.000000000e+00    0.000000000e+00    0.000000000e+00    0.000000000e+00
      248750000   -3.655662835e-01    7.035129666e-01    3.546981898e-04    1.453370496e-04    0.000000000e+00    0.000000000e+00    0.000000000e+00    0.000000000e+00
      250375000   -3.426998854e-01    7.115433812e-01    3.564639483e-04    1.356961147e-04    0.000000000e+00    0.000000000e+00    0.000000000e+00    0.000000000e+00
      252000000   -3.197795451e-01    7.184779048e-01    3.650462604e-04    1.399081521e-04    0.000000000e+00    0.000000000e+00    0.000000000e+00    0.000000000e+00
      253625000   -2.969746292e-01    7.248560190e-01    3.618140181e-04    1.578701049e-04    0.000000000e+00    0.000000000e+00    0.000000000e+00    0.000000000e+00
      255250000   -2.738034129e-01    7.303848863e-01    3.615625319e-04    1.174038916e-04    0.000000000e+00    0.000000000e+00    0.000000000e+00    0.000000000e+00
      256875000   -2.509253621e-01    7.350500822e-01    3.496206773e-04    1.451047574e-04    0.000000000e+00    0.000000000e+00    0.000000000e+00    0.000000000e+00
      258500000   -2.280761153e-01    7.392631769e-01    3.604620870e-04    1.489893912e-04    0.000000000e+00    0.000000000e+00    0.000000000e+00    0.000000000e+00
      260125000   -2.051812559e-01    7.425308824e-01    3.447784984e-04    1.503042295e-04    0.000000000e+00    0.000000000e+00    0.000000000e+00    0.000000000e+00
      261750000   -1.822837591e-01    7.455005646e-01    3.762510023e-04    1.267339685e-04    0.000000000e+00    0.000000000e+00    0.000000000e+00    0.000000000e+00
      263375000   -1.594091803e-01    7.470343113e-01    3.602338838e-04    1.418872562e-04    0.000000000e+00    0.000000000e+00    0.000000000e+00    0.000000000e+00
      265000000   -1.366055310e-01    7.480900288e-01    3.572343558e-04    1.476237376e-04    0.000000000e+00    0.000000000e+00    0.000000000e+00    0.000000000e+00
      266625000   -1.141000614e-01    7.485277057e-01    3.626614343e-04    1.374436397e-04    0.000000000e+00    0.000000000e+00    0.000000000e+00    0.000000000e+00
      268250000   -9.150370955e-02    7.485132217e-01    3.608658735e-04    1.608151215e-04    0.000000000e+00    0.000000000e+00    0.000000000e+00    0.000000000e+00
      269875000   -6.907230616e-02    7.476901412e-01    3.576831659e-04    1.393293351e-04    0.000000000e+00    0.000000000e+00    0.000000000e+00    0.000000000e+00
      271500000   -4.695237800e-02    7.459687591e-01    3.667754354e-04    1.368947560e-04    0.000000000e+00    0.000000000e+00    0.000000000e+00    0.000000000e+00
      273125000   -2.490852959e-02    7.439805269e-01    3.702952235e-04    1.447335235e-04    0.000000000e+00    0.000000000e+00    0.000000000e+00    0.000000000e+00
      274750000   -3.004591679e-03    7.411445379e-01    3.521513718e-04    1.488291746e-04    0.000000000e+00    0.000000000e+00    0.000000000e+00    0.000000000e+00
      276375000    1.863101125e-02    7.378937006e-01    3.663054085e-04    1.257564873e-04    0.000000000e+00    0.000000000e+00    0.000000000e+00    0.000000000e+00
      278000000    4.019780457e-02    7.339709401e-01    3.465524351e-04    1.160034662e-04    0.000000000e+00    0.000000000e+00    0.000000000e+00    0.000000000e+00
      279625000    6.133987010e-02    7.294697762e-01    3.452743695e-04    1.308963110e-04    0.000000000e+00    0.000000000e+00    0.000000000e+00    0.000000000e+00
      281250000    8.239319175e-02    7.243496776e-01    3.444235772e-04    1.291297667e-04    0.000000000e+00    0.000000000e+00    0.000000000e+00    0.000000000e+00
      282875000    1.030858979e-01    7.188513279e-01    3.505795612e-04    1.185330257e-04    0.000000000e+00    0.000000000e+00    0.000000000e+00    0.000000000e+00
      284500000    1.235663295e-01    7.125492096e-01    3.495182900e-04    1.190419352e-04    0.000000000e+00    0.000000000e+00    0.000000000e+00    0.000000000e+00
      286125000    1.437879503e-01    7.059581280e-01    3.255874326e-04    1.345700002e-04    0.000000000e+00    0.000000000e+00    0.000000000e+00    0.000000000e+00
      287750000    1.638626307e-01    6.990100741e-01    3.267965221e-04    1.067884004e-04    0.000000000e+00    0.000000000e+00    0.000000000e+00    0.000000000e+00
      289375000    1.831751466e-01    6.911168694e-01    3.091849794e-04    1.138808366e-04    0.000000000e+00    0.000000000e+00    0.000000000e+00    0.000000000e+00
      291000000    9.870939702e-02    6.507687569e-01    9.644143574e-05    6.531535746e-06    0.000000000e+00    0.000000000e+00    0.000000000e+00    0.000000000e+00
      292625000    1.166049391e-01    6.445416808e-01   -6.957331789e-05   -1.209698530e-05    0.000000000e+00    0.000000000e+00    0.000000000e+00    0.000000000e+00
      294250000    1.356927752e-01    6.377284527e-01   -4.463443111e-05   -3.632773223e-05    0.000000000e+00    0.000000000e+00    0.000000000e+00    0.000000000e+00
      295875000    1.526356488e-01    6.307485700e-01   -2.524818956e-05    1.159384046e-04    0.000000000e+00    0.000000000e+00    0.000000000e+00    0.000000000e+00
      297500000    1.704062819e-01    6.237660050e-01   -8.059917309e-05   -4.545620686e-05    0.000000000e+00    0.000000000e+00    0.000000000e+00    0.000000000e+00
      299125000    1.879455596e-01    6.149955988e-01   -7.277675468e-05   -9.179218614e-05    0.000000000e+00    0.000000000e+00    0.000000000e+00    0.000000000e+00
      300750000    2.048587948e-01    6.072908640e-01   -2.736447786e-04   -6.760972610e-05    0.000000000e+00    0.000000000e+00    0.000000000e+00    0.000000000e+00
      302375000    2.211199850e-01    5.979850888e-01    3.115185245e-05   -5.356045949e-05    0.000000000e+00    0.000000000e+00    0.000000000e+00    0.000000000e+00
      304000000    2.374723703e-01    5.888446569e-01    7.295283285e-05   -8.503822755e-05    0.000000000e+00    0.000000000e+00    0.000000000e+00    0.000000000e+00
      305625000    2.537718117e-01    5.796625018e-01   -3.457210187e-05    6.795661466e-05    0.000000000e+00    0.000000000e+00    0.000000000e+00    0.000000000e+00
      307250000    2.663451731e-01    5.689509511e-01   -7.704662130e-05    4.166520375e-05    0.000000000e+00    0.000000000e+00    0.000000000e+00    0.000000000e+00
      308875000    2.845540345e-01    5.595871210e-01   -6.585428491e-05    1.715606777e-04    0.000000000e+00    0.000000000e+00    0.000000000e+00    0.000000000e+00
      310500000    2.987923324e-01    5.488197207e-01    9.378496179e-05    1.050064093e-04    0.000000000e+00    0.000000000e+00    0.000000000e+00    0.000000000e+00
      312125000    3.133329451e-01    5.373305678e-01   -6.319778913e-05    7.247873873e-05    0.000000000e+00    0.000000000e+00    0.000000000e+00    0.000000000e+00
      313750000    3.270821571e-01    5.263485312e-01   -3.924806879e-05    5.652628170e-05    0.000000000e+00    0.000000000e+00    0.000000000e+00    0.000000000e+00
      315375000    3.412444592e-01    5.149018764e-01   -1.954281324e-04    6.247447163e-05    0.000000000e+00    0.000000000e+00    0.000000000e+00    0.000000000e+00
      317000000    3.550214171e-01    5.033147931e-01   -8.250438987e-05    9.072199464e-05    0.000000000e+00    0.000000000e+00    0.000000000e+00    0.000000000e+00
      318625000    3.672845960e-01    4.909466505e-01   -2.733268593e-05   -5.021280958e-05    0.000000000e+00    0.000000000e+00    0.000000000e+00    0.000000000e+00
      320250000    3.798808455e-01    4.784939885e-01   -1.442527082e-05    5.078648246e-05    0.000000000e+00    0.000000000e+00    0.000000000e+00    0.000000000e+00
      321875000    3.922642469e-01    4.660523236e-01    2.379088437e-05    4.925622852e-05    0.000000000e+00    0.000000000e+00    0.000000000e+00    0.000000000e+00
      323500000    4.037358761e-01    4.531507790e-01    7.662996359e-05    1.167391838e-05    0.000000000e+00    0.000000000e+00    0.000000000e+00    0.000000000e+00
      325125000    4.149113297e-01    4.400361478e-01   -1.536065793e-05    1.636632369e-04    0.000000000e+00    0.000000000e+00    0.000000000e+00    0.000000000e+00
      326750000    4.255802929e-01    4.269208014e-01   -2.486087578e-05    1.238185796e-04    0.000000000e+00    0.000000000e+00    0.000000000e+00    0.000000000e+00
      328375000    4.362843335e-01    4.136557579e-01   -8.854640328e-05   -7.925611862e-05    0.000000000e+00    0.000000000e+00    0.000000000e+00    0.000000000e+00
      330000000    4.464651346e-01    4.001299739e-01    3.313923662e-05   -2.147213672e-05    0.000000000e+00    0.000000000e+00    0.000000000e+00    0.000000000e+00
      331625000    4.558732510e-01    3.864019215e-01   -9.220208449e-05   -6.882859452e-06    0.000000000e+00    0.000000000e+00    0.000000000e+00    0.000000000e+00
      333250000    4.655935168e-01    3.727002740e-01   -1.774759876e-04   -3.496804493e-05    0.000000000e+00    0.000000000e+00    0.000000000e+00    0.000000000e+00
      334875000    4.743917882e-01    3.583079875e-01   -1.282898593e-04   -7.863672363e-05    0.000000000e+00    0.000000000e+00    0.000000000e+00    0.000000000e+00
      336500000    4.827848673e-01    3.444315195e-01   -4.670747148e-05   -1.062083102e-04    0.000000000e+00    0.000000000e+00    0.000000000e+00    0.000000000e+00
      338125000    4.909809232e-01    3.303318918e-01   -6.786965241e-05   -1.077824563e-04    0.000000000e+00    0.000000000e+00    0.000000000e+00    0.000000000e+00
      339750000    4.989922047e-01    3.160194159e-01   -3.229631693e-05   -1.512181643e-05    0.000000000e+00    0.000000000e+00    0.000000000e+00    0.000000000e+00
      341375000    5.063704848e-01    3.014660776e-01   -6.032011152e-05   -9.484571638e-05    0.000000000e+00    0.000000000e+00    0.000000000e+00    0.000000000e+00
      343000000    5.134283304e-01    2.869063318e-01    4.120965968e-05    1.172212942e-04    0.000000000e+00    0.000000000e+00    0.000000000e+00    0.000000000e+00
      344625000    5.201002359e-01    2.722732723e-01   -6.811063940e-05    1.317841088e-04    0.000000000e+00    0.000000000e+00    0.000000000e+00    0.000000000e+00
      346250000    5.263721943e-01    2.577267885e-01   -5.581284859e-05   -3.011416629e-05    0.000000000e+00    0.000000000e+00    0.000000000e+00    0.000000000e+00
      347875000    5.322014093e-01    2.426931262e-01    2.113193659e-05   -5.451328434e-06    0.000000000e+00    0.000000000e+00    0.000000000e+00    0.000000000e+00
      349500000    5.380104184e-01    2.282586694e-01   -8.904883725e-05   -3.112074774e-05    0.000000000e+00    0.000000000e+00    0.000000000e+00    0.000000000e+00
      351125000    5.428855419e-01    2.134666890e-01   -3.482365719e-05   -5.210042946e-05    0.000000000e+00    0.000000000e+00    0.000000000e+00    0.000000000e+00
      352750000    5.479041338e-01    1.982792169e-01   -7.312039816e-05   -4.158067168e-05    0.000000000e+00    0.000000000e+00    0.000000000e+00    0.000000000e+00
      354375000    5.524016023e-01    1.836673915e-01   -1.431076089e-04   -3.363196811e-05    0.000000000e+00    0.000000000e+00    0.000000000e+00    0.000000000e+00
      356000000    5.565740466e-01    1.684750021e-01   -1.586373401e-04    2.513003710e-05    0.000000000e+00    0.000000000e+00    0.000000000e+00    0.000000000e+00
      357625000    5.603668094e-01    1.534715593e-01    9.534428500e-06   -1.167211230e-04    0.000000000e+00    0.000000000e+00    0.000000000e+00    0.000000000e+00
      359250000    5.638571978e-01    1.387460232e-01   -8.785960381e-05    8.284836804e-05    0.000000000e+00    0.000000000e+00    0.000000000e+00    0.000000000e+00
      360875000    5.670649409e-01    1.235629544e-01   -1.312990353e-04    1.152202276e-05    0.000000000e+00    0.000000000e+00    0.000000000e+00    0.000000000e+00
      362500000    5.698017478e-01    1.086079031e-01   -7.046481187e-05   -6.384188964e-06    0.000000000e+00    0.000000000e+00    0.000000000e+00    0.000000000e+00
      364125000    5.721240044e-01    9.351778030e-02   -1.231685164e-04    1.268422056e-04    0.000000000e+00    0.000000000e+00    0.000000000e+00    0.000000000e+00
      365750000    5.743751526e-01    7.889645547e-02   -1.522315724e-04   -1.549877561e-05    0.000000000e+00    0.000000000e+00    0.000000000e+00    0.000000000e+00
      367375000    5.763353705e-01    6.370887160e-02   -1.323126053e-04    5.312228677e-05    0.000000000e+00    0.000000000e+00    0.000000000e+00    0.000000000e+00
      369000000    5.779882669e-01    4.898005724e-02   -5.671491090e-05    7.106416160e-05    0.000000000e+00    0.000000000e+00    0.000000000e+00    0.000000000e+00
      370625000    5.788567066e-01    3.406575322e-02   -9.529823728e-05    1.202354251e-04    0.000000000e+00    0.000000000e+00    0.000000000e+00    0.000000000e+00
      372250000    5.797485113e-01    1.945053414e-02   -3.325282887e-05    3.792854477e-05    0.000000000e+00    0.000000000e+00    0.000000000e+00    0.000000000e+00
      373875000    5.805078745e-01    4.422124010e-03   -1.157444640e-04    4.729434659e-05    0.000000000e+00    0.000000000e+00    0.000000000e+00    0.000000000e+00
      375500000    5.805118680e-01   -1.008035336e-02   -1.424508082e-04    4.279149834e-06    0.000000000e+00    0.000000000e+00    0.000000000e+00    0.000000000e+00
      377125000    5.803382397e-01   -2.496680990e-02   -1.055382309e-04    5.662202511e-06    0.000000000e+00    0.000000000e+00    0.000000000e+00    0.000000000e+00
      378750000    5.799857378e-01   -3.962638229e-02   -1.370985556e-04    2.449462772e-05    0.000000000e+00    0.000000000e+00    0.000000000e+00    0.000000000e+00
      380375000    5.789903402e-01   -5.421620235e-02   -7.548204303e-05    3.908093640e-05    0.000000000e+00    0.000000000e+00    0.000000000e+00    0.000000000e+00
      382000000    5.780327320e-01   -6.892332435e-02   -1.074982065e-04    1.719029751e-05    0.000000000e+00    0.000000000e+00    0.000000000e+00    0.000000000e+00
      383625000    5.769016743e-01   -8.311591297e-02    5.086974852e-05   -6.405077147e-05    0.000000000e+00    0.000000000e+00    0.000000000e+00    0.000000000e+00
      385250000    5.752218366e-01   -9.784793854e-02   -1.394367864e-04    1.052455700e-04    0.000000000e+00    0.000000000e+00    0.000000000e+00    0.000000000e+00
      386875000    5.734144449e-01   -1.122279987e-01   -1.025550955e-04    3.422518785e-05    0.000000000e+00    0.000000000e+00    0.000000000e+00    0.000000000e+00
      388500000    5.709171295e-01   -1.263803244e-01   -7.327414642e-05    1.187527741e-04    0.000000000e+00    0.000000000e+00    0.000000000e+00    0.000000000e+00
