! NanoVNA-App
! Date: 2024-06-25 16:49:52
! Start: 200MHz Stop: 1.5GHz Points: 801
! S-Parameter data: F S11 S21 S12 S22
# Hz S RI R 50
!     Frequency           S11_Real           S11_Imag           S21_Real           S21_Imag           S12_Real           S12_Imag           S22_Real           S22_Imag
      200000000   -8.504722714e-01    1.427741349e-01    1.802788902e-04    5.251990660e-05    0.000000000e+00    0.000000000e+00    0.000000000e+00    0.000000000e+00
      201625000   -8.447464705e-01    1.695401818e-01    1.897392940e-04    5.247778245e-05    0.000000000e+00    0.000000000e+00    0.000000000e+00    0.000000000e+00
      203250000   -8.379397392e-01    1.958492547e-01    2.186271886e-04    3.504228152e-05    0.000000000e+00    0.000000000e+00    0.000000000e+00    0.000000000e+00
      204875000   -8.303845525e-01    2.219524235e-01    2.384078543e-04    7.740569708e-05    0.000000000e+00    0.000000000e+00    0.000000000e+00    0.000000000e+00
      206500000   -8.219920397e-01    2.475074828e-01    2.529826888e-04    7.822669431e-05    0.000000000e+00    0.000000000e+00    0.000000000e+00    0.000000000e+00
      208125000   -8.124901056e-01    2.729064524e-01    2.463301353e-04    6.298010703e-05    0.000000000e+00    0.000000000e+00    0.000000000e+00    0.000000000e+00
      209750000   -8.022169471e-01    2.976165116e-01    2.566359472e-04    9.290113667e-05    0.000000000e+00    0.000000000e+00    0.000000000e+00    0.000000000e+00
      211375000   -7.909379601e-01    3.218896091e-01    2.707353560e-04    9.094017878e-05    0.000000000e+00    0.000000000e+00    0.000000000e+00    0.000000000e+00
      213000000   -7.791572809e-01    3.458201885e-01    2.626923088e-04    1.176084334e-04    0.000000000e+00    0.000000000e+00    0.000000000e+00    0.000000000e+00
      214625000   -7.663233280e-01    3.689775169e-01    2.647603687e-04    1.074805768e-04    0.000000000e+00    0.000000000e+00    0.000000000e+00    0.000000000e+00
      216250000   -7.526422143e-01    3.917566240e-01    2.736803435e-04    1.144030903e-04    0.000000000e+00    0.000000000e+00    0.000000000e+00    0.000000000e+00
      217875000   -7.384408116e-01    4.140672684e-01    2.825629199e-04    1.115188206e-04    0.000000000e+00    0.000000000e+00    0.000000000e+00    0.000000000e+00
      219500000   -7.234460115e-01    4.355359375e-01    2.876296057e-04    1.302329765e-04    0.000000000e+00    0.000000000e+00    0.000000000e+00    0.000000000e+00
      221125000   -7.077138424e-01    4.564501643e-01    2.966929169e-04    1.047521582e-04    0.000000000e+00    0.000000000e+00    0.000000000e+00    0.000000000e+00
      222750000   -6.913559437e-01    4.767761230e-01    3.132497368e-04    1.374290732e-04    0.000000000e+00    0.000000000e+00    0.000000000e+00    0.000000000e+00
      224375000   -6.742500663e-01    4.962205589e-01    3.130658879e-04    1.412809652e-04    0.000000000e+00    0.000000000e+00    0.000000000e+00    0.000000000e+00
      226000000   -6.568427682e-01    5.152143836e-01    3.190686984e-04    1.311899687e-04    0.000000000e+00    0.000000000e+00    0.000000000e+00    0.000000000e+00
      227625000   -6.387990713e-01    5.334994197e-01    3.066930803e-04    1.757012215e-04    0.000000000e+00    0.000000000e+00    0.000000000e+00    0.000000000e+00
      229250000   -6.200905442e-01    5.509821177e-01    3.171336139e-04    1.560454548e-04    0.000000000e+00    0.000000000e+00    0.000000000e+00    0.000000000e+00
      230875000   -6.010325551e-01    5.677939653e-01    3.239384387e-04    1.383898489e-04    0.000000000e+00    0.000000000e+00    0.000000000e+00    0.000000000e+00
      232500000   -5.814176798e-01    5.840331316e-01    3.134499711e-04    1.369417296e-04    0.000000000e+00    0.000000000e+00    0.000000000e+00    0.000000000e+00
      234125000   -5.614393950e-01    5.992087722e-01    3.149689292e-04    1.336608257e-04    0.000000000e+00    0.000000000e+00    0.000000000e+00    0.000000000e+00
      235750000   -5.409862399e-01    6.139073968e-01    3.222021332e-04    1.434891892e-04    0.000000000e+00    0.000000000e+00    0.000000000e+00    0.000000000e+00
      237375000   -5.201040506e-01    6.273610592e-01    3.426737094e-04    1.421621273e-04    0.000000000e+00    0.000000000e+00    0.000000000e+00    0.000000000e+00
      239000000   -4.990964830e-01    6.404739618e-01    3.618765622e-04    1.462242653e-04    0.000000000e+00    0.000000000e+00    0.000000000e+00    0.000000000e+00
      240625000   -4.776686430e-01    6.529563069e-01    3.552916751e-04    1.615202636e-04    0.000000000e+00    0.000000000e+00    0.000000000e+00    0.000000000e+00
      242250000   -4.556691349e-01    6.644802690e-01    3.316382063e-04    1.267092739e-04    0.000000000e+00    0.000000000e+00    0.000000000e+00    0.000000000e+00
      243875000   -4.336504936e-01    6.751629710e-01    3.212656011e-04    1.178704697e-04    0.000000000e+00    0.000000000e+00    0.000000000e+00    0.000000000e+00
      245500000   -4.111168087e-01    6.856214404e-01    3.440367582e-04    1.426806266e-04    0.000000000e+00    0.000000000e+00    0.000000000e+00    0.000000000e+00
      247125000   -3.882433772e-01    6.948918104e-01    3.300198878e-04    1.461862703e-04    0.000000000e+00    0.000000000e+00    0.000000000e+00    0.000000000e+00
      248750000   -3.655833006e-01    7.035692334e-01    3.289394663e-04    1.401119662e-04    0.000000000e+00    0.000000000e+00    0.000000000e+00    0.000000000e+00
      250375000   -3.425637484e-01    7.115401626e-01    3.378178226e-04    1.402794587e-04    0.000000000e+00    0.000000000e+00    0.000000000e+00    0.000000000e+00
      252000000   -3.198540211e-01    7.186440825e-01    3.761191620e-04    1.526995475e-04    0.000000000e+00    0.000000000e+00    0.000000000e+00    0.000000000e+00
      253625000   -2.967204452e-01    7.248904705e-01    3.626217949e-04    1.432398130e-04    0.000000000e+00    0.000000000e+00    0.000000000e+00    0.000000000e+00
      255250000   -2.739092410e-01    7.303080559e-01    3.554206924e-04    1.561268291e-04    0.000000000e+00    0.000000000e+00    0.000000000e+00    0.000000000e+00
      256875000   -2.508795261e-01    7.350255847e-01    3.787191818e-04    1.504963002e-04    0.000000000e+00    0.000000000e+00    0.000000000e+00    0.000000000e+00
      258500000   -2.279595435e-01    7.391746044e-01    3.525248903e-04    1.499934879e-04    0.000000000e+00    0.000000000e+00    0.000000000e+00    0.000000000e+00
      260125000   -2.050262541e-01    7.424843311e-01    3.535085125e-04    1.441450440e-04    0.000000000e+00    0.000000000e+00    0.000000000e+00    0.000000000e+00
      261750000   -1.821684241e-01    7.453486323e-01    3.689031582e-04    1.401261979e-04    0.000000000e+00    0.000000000e+00    0.000000000e+00    0.000000000e+00
      263375000   -1.593493074e-01    7.469136119e-01    3.577061289e-04    1.290490909e-04    0.000000000e+00    0.000000000e+00    0.000000000e+00    0.000000000e+00
      265000000   -1.366098076e-01    7.480351925e-01    3.448862117e-04    1.441158529e-04    0.000000000e+00    0.000000000e+00    0.000000000e+00    0.000000000e+00
      266625000   -1.141015217e-01    7.484294176e-01    3.579561599e-04    1.578862866e-04    0.000000000e+00    0.000000000e+00    0.000000000e+00    0.000000000e+00
      268250000   -9.147526324e-02    7.483333945e-01    3.583866055e-04    1.441936329e-04    0.000000000e+00    0.000000000e+00    0.000000000e+00    0.000000000e+00
      269875000   -6.920579821e-02    7.473692298e-01    3.465487971e-04    1.346603967e-04    0.000000000e+00    0.000000000e+00    0.000000000e+00    0.000000000e+00
      271500000   -4.687482119e-02    7.460590601e-01    3.708088771e-04    1.308865758e-04    0.000000000e+00    0.000000000e+00    0.000000000e+00    0.000000000e+00
      273125000   -2.489259839e-02    7.439124584e-01    3.546828520e-04    1.568531152e-04    0.000000000e+00    0.000000000e+00    0.000000000e+00    0.000000000e+00
      274750000   -3.036366310e-03    7.410997152e-01    3.389037738e-04    1.362826879e-04    0.000000000e+00    0.000000000e+00    0.000000000e+00    0.000000000e+00
      276375000    1.863506623e-02    7.379130721e-01    3.577066527e-04    1.227974572e-04    0.000000000e+00    0.000000000e+00    0.000000000e+00    0.000000000e+00
      278000000    4.013475776e-02    7.338744998e-01    3.639997158e-04    1.478892227e-04    0.000000000e+00    0.000000000e+00    0.000000000e+00    0.000000000e+00
      279625000    6.133338809e-02    7.294050455e-01    3.522895277e-04    1.319529983e-04    0.000000000e+00    0.000000000e+00    0.000000000e+00    0.000000000e+00
      281250000    8.234128356e-02    7.243844271e-01    3.505471395e-04    1.400730252e-04    0.000000000e+00    0.000000000e+00    0.000000000e+00    0.000000000e+00
      282875000    1.029657945e-01    7.186407447e-01    3.407830955e-04    1.475395402e-04    0.000000000e+00    0.000000000e+00    0.000000000e+00    0.000000000e+00
      284500000    1.236866713e-01    7.126654387e-01    3.453697136e-04    1.192497075e-04    0.000000000e+00    0.000000000e+00    0.000000000e+00    0.000000000e+00
      286125000    1.438652277e-01    7.060291767e-01    3.457056009e-04    1.132216858e-04    0.000000000e+00    0.000000000e+00    0.000000000e+00    0.000000000e+00
      287750000    1.636217535e-01    6.989617348e-01    3.233515890e-04    1.085339391e-04    0.000000000e+00    0.000000000e+00    0.000000000e+00    0.000000000e+00
      289375000    1.832754761e-01    6.910262108e-01    3.164722584e-04    1.166041257e-04    0.000000000e+00    0.000000000e+00    0.000000000e+00    0.000000000e+00
      291000000    9.902206063e-02    6.504579186e-01    4.036211612e-05   -9.246190893e-05    0.000000000e+00    0.000000000e+00    0.000000000e+00    0.000000000e+00
      292625000    1.172395572e-01    6.444565654e-01    1.572892143e-05    6.832673535e-05    0.000000000e+00    0.000000000e+00    0.000000000e+00    0.000000000e+00
      294250000    1.352174431e-01    6.378040910e-01   -6.740362005e-05    1.106763593e-04    0.000000000e+00    0.000000000e+00    0.000000000e+00    0.000000000e+00
      295875000    1.527042240e-01    6.311087608e-01    6.424141611e-05   -4.473976787e-06    0.000000000e+00    0.000000000e+00    0.000000000e+00    0.000000000e+00
      297500000    1.706633866e-01    6.228278875e-01    4.877436368e-05    7.472879952e-05    0.000000000e+00    0.000000000e+00    0.000000000e+00    0.000000000e+00
      299125000    1.878480315e-01    6.156706810e-01   -1.640945266e-04    7.518190978e-05    0.000000000e+00    0.000000000e+00    0.000000000e+00    0.000000000e+00
      300750000    2.048718482e-01    6.064845324e-01   -1.683889568e-04    7.460867346e-05    0.000000000e+00    0.000000000e+00    0.000000000e+00    0.000000000e+00
      302375000    2.210068256e-01    5.979996920e-01   -1.435834274e-04    1.336716086e-04    0.000000000e+00    0.000000000e+00    0.000000000e+00    0.000000000e+00
      304000000    2.373329699e-01    5.889596939e-01   -4.015169907e-05   -8.435645577e-05    0.000000000e+00    0.000000000e+00    0.000000000e+00    0.000000000e+00
      305625000    2.535088658e-01    5.797324777e-01   -1.187618182e-04   -1.094897380e-04    0.000000000e+00    0.000000000e+00    0.000000000e+00    0.000000000e+00
      307250000    2.671382725e-01    5.713486671e-01    1.011798122e-05   -2.888159906e-05    0.000000000e+00    0.000000000e+00    0.000000000e+00    0.000000000e+00
      308875000    2.842906713e-01    5.590904355e-01    1.112044702e-04    1.669745543e-04    0.000000000e+00    0.000000000e+00    0.000000000e+00    0.000000000e+00
      310500000    2.992764115e-01    5.487186313e-01   -2.028406743e-04    1.255858806e-04    0.000000000e+00    0.000000000e+00    0.000000000e+00    0.000000000e+00
      312125000    3.136083484e-01    5.376225710e-01   -1.648164471e-04    3.279417797e-05    0.000000000e+00    0.000000000e+00    0.000000000e+00    0.000000000e+00
      313750000    3.273623884e-01    5.263304114e-01    2.083292748e-05    9.101026808e-05    0.000000000e+00    0.000000000e+00    0.000000000e+00    0.000000000e+00
      315375000    3.411809802e-01    5.147480965e-01   -1.718812273e-04    1.953837818e-05    0.000000000e+00    0.000000000e+00    0.000000000e+00    0.000000000e+00
      317000000    3.543914557e-01    5.029206276e-01   -2.709184191e-04    7.070553693e-05    0.000000000e+00    0.000000000e+00    0.000000000e+00    0.000000000e+00
      318625000    3.671466708e-01    4.907024503e-01   -5.255249198e-05   -8.642187458e-05    0.000000000e+00    0.000000000e+00    0.000000000e+00    0.000000000e+00
      320250000    3.794410527e-01    4.788105190e-01   -5.363638047e-05    6.516383291e-05    0.000000000e+00    0.000000000e+00    0.000000000e+00    0.000000000e+00
      321875000    3.919459879e-01    4.663384557e-01    1.854733910e-06    7.360507880e-05    0.000000000e+00    0.000000000e+00    0.000000000e+00    0.000000000e+00
      323500000    4.035901129e-01    4.530933499e-01    3.826417378e-05    1.350278353e-06    0.000000000e+00    0.000000000e+00    0.000000000e+00    0.000000000e+00
      325125000    4.151648581e-01    4.402490854e-01    1.521105514e-05    3.561556150e-05    0.000000000e+00    0.000000000e+00    0.000000000e+00    0.000000000e+00
      326750000    4.259976745e-01    4.269118309e-01    2.507153476e-05   -9.870637587e-05    0.000000000e+00    0.000000000e+00    0.000000000e+00    0.000000000e+00
      328375000    4.361917973e-01    4.135804772e-01    6.811017374e-05    2.361899715e-05    0.000000000e+00    0.000000000e+00    0.000000000e+00    0.000000000e+00
      330000000    4.460406899e-01    4.002786279e-01    4.770662144e-06    7.494017336e-05    0.000000000e+00    0.000000000e+00    0.000000000e+00    0.000000000e+00
      331625000    4.559418261e-01    3.864541054e-01    1.360242186e-05    2.139548451e-05    0.000000000e+00    0.000000000e+00    0.000000000e+00    0.000000000e+00
      333250000    4.656029344e-01    3.725481331e-01    2.057766869e-05    4.514881584e-05    0.000000000e+00    0.000000000e+00    0.000000000e+00    0.000000000e+00
      334875000    4.743274152e-01    3.585403264e-01    3.462642781e-05   -7.262411964e-05    0.000000000e+00    0.000000000e+00    0.000000000e+00    0.000000000e+00
      336500000    4.827787578e-01    3.445327878e-01   -1.578833180e-04   -1.626331505e-05    0.000000000e+00    0.000000000e+00    0.000000000e+00    0.000000000e+00
      338125000    4.910798371e-01    3.303076923e-01    2.103489351e-05   -1.199359685e-04    0.000000000e+00    0.000000000e+00    0.000000000e+00    0.000000000e+00
      339750000    4.986917078e-01    3.159498274e-01   -4.104887194e-05   -6.934972043e-05    0.000000000e+00    0.000000000e+00    0.000000000e+00    0.000000000e+00
      341375000    5.064946413e-01    3.015241921e-01    2.422146508e-06   -6.255620974e-05    0.000000000e+00    0.000000000e+00    0.000000000e+00    0.000000000e+00
      343000000    5.132021904e-01    2.869222164e-01    8.015242202e-05   -2.482408308e-04    0.000000000e+00    0.000000000e+00    0.000000000e+00    0.000000000e+00
      344625000    5.199812651e-01    2.724416852e-01   -1.136362262e-04    7.798238948e-05    0.000000000e+00    0.000000000e+00    0.000000000e+00    0.000000000e+00
      346250000    5.264080763e-01    2.575969994e-01   -1.836013325e-05   -5.737705578e-06    0.000000000e+00    0.000000000e+00    0.000000000e+00    0.000000000e+00
      347875000    5.323314667e-01    2.429195046e-01    8.855365195e-06    1.010985070e-04    0.000000000e+00    0.000000000e+00    0.000000000e+00    0.000000000e+00
      349500000    5.376389027e-01    2.280553430e-01   -9.451101505e-05   -9.952755499e-05    0.000000000e+00    0.000000000e+00    0.000000000e+00    0.000000000e+00
      351125000    5.431326628e-01    2.133739591e-01   -9.695866902e-05   -1.402455964e-04    0.000000000e+00    0.000000000e+00    0.000000000e+00    0.000000000e+00
      352750000    5.477986336e-01    1.983072013e-01   -3.306205690e-05   -4.065858229e-05    0.000000000e+00    0.000000000e+00    0.000000000e+00    0.000000000e+00
      354375000    5.524917841e-01    1.834591925e-01   -3.143439608e-05    1.189183822e-04    0.000000000e+00    0.000000000e+00    0.000000000e+00    0.000000000e+00
      356000000    5.566182137e-01    1.685715169e-01    8.550618418e-07   -2.023667184e-05    0.000000000e+00    0.000000000e+00    0.000000000e+00    0.000000000e+00
      357625000    5.604050756e-01    1.537171602e-01   -5.181794404e-05    1.452962442e-05    0.000000000e+00    0.000000000e+00    0.000000000e+00    0.000000000e+00
      359250000    5.638970733e-01    1.385730505e-01   -5.604665421e-05   -1.996515202e-04    0.000000000e+00    0.000000000e+00    0.000000000e+00    0.000000000e+00
      360875000    5.670883060e-01    1.238038912e-01   -5.068177416e-05   -8.114385128e-05    0.000000000e+00    0.000000000e+00    0.000000000e+00    0.000000000e+00
      362500000    5.699094534e-01    1.085281968e-01   -7.173539780e-05   -1.718336716e-05    0.000000000e+00    0.000000000e+00    0.000000000e+00    0.000000000e+00
      364125000    5.722733140e-01    9.371611476e-02   -1.563597652e-05   -1.656829045e-05    0.000000000e+00    0.000000000e+00    0.000000000e+00    0.000000000e+00
      365750000    5.744780898e-01    7.878541201e-02   -1.221596904e-04   -1.101974485e-04    0.000000000e+00    0.000000000e+00    0.000000000e+00    0.000000000e+00
      367375000    5.762052536e-01    6.371236593e-02   -8.888612501e-05    3.822244616e-05    0.000000000e+00    0.000000000e+00    0.000000000e+00    0.000000000e+00
      369000000    5.775088072e-01    4.905596748e-02   -1.632945496e-04   -7.224990259e-05    0.000000000e+00    0.000000000e+00    0.000000000e+00    0.000000000e+00
      370625000    5.789724588e-01    3.397635743e-02   -2.420377086e-06    3.516561992e-05    0.000000000e+00    0.000000000e+00    0.000000000e+00    0.000000000e+00
      372250000    5.799170732e-01    1.906204224e-02   -1.146994910e-04    4.435342998e-05    0.000000000e+00    0.000000000e+00    0.000000000e+00    0.000000000e+00
      373875000    5.803976059e-01    4.538723268e-03   -6.036194827e-05   -1.830219617e-06    0.000000000e+00    0.000000000e+00    0.000000000e+00    0.000000000e+00
      375500000    5.805627704e-01   -1.027205121e-02   -2.011264296e-04    9.611837595e-05    0.000000000e+00    0.000000000e+00    0.000000000e+00    0.000000000e+00
      377125000    5.804408789e-01   -2.472341806e-02   -7.125183038e-05   -6.135418516e-05    0.000000000e+00    0.000000000e+00    0.000000000e+00    0.000000000e+00
      378750000    5.800561309e-01   -3.956908733e-02   -7.134800398e-05    2.187262362e-05    0.000000000e+00    0.000000000e+00    0.000000000e+00    0.000000000e+00
      380375000    5.792381167e-01   -5.419424549e-02   -1.588716987e-04    1.007954270e-04    0.000000000e+00    0.000000000e+00    0.000000000e+00    0.000000000e+00
      382000000    5.781232715e-01   -6.894900650e-02   -1.357781293e-04    4.572334001e-05    0.000000000e+00    0.000000000e+00    0.000000000e+00    0.000000000e+00
      383625000    5.766968131e-01   -8.336570114e-02   -6.139979087e-05   -5.063146091e-05    0.000000000e+00    0.000000000e+00    0.000000000e+00    0.000000000e+00
      385250000    5.752379298e-01   -9.791911393e-02   -7.675310917e-05    2.752294677e-06    0.000000000e+00    0.000000000e+00    0.000000000e+00    0.000000000e+00
      386875000    5.730291009e-01   -1.120620817e-01   -6.115456199e-05   -2.958988443e-05    0.000000000e+00    0.000000000e+00    0.000000000e+00    0.000000000e+00
      388500000    5.709213614e-01   -1.264161766e-01   -3.736088547e-05    6.866545300e-05    0.000000000e+00    0.000000000e+00    0.000000000e+00    0.000000000e+00
