! NanoVNA-App
! Date: 2024-06-25 16:49:59
! Start: 200MHz Stop: 1.5GHz Points: 801
! S-Parameter data: F S11 S21 S12 S22
# Hz S RI R 50
!     Frequency           S11_Real           S11_Imag           S21_Real           S21_Imag           S12_Real           S12_Imag           S22_Real           S22_Imag
      200000000   -8.505716324e-01    1.427923292e-01    1.726999908e-04    5.862044418e-05    0.000000000e+00    0.000000000e+00    0.000000000e+00    0.000000000e+00
      201625000   -8.447566628e-01    1.695005745e-01    1.859051554e-04    4.934138633e-05    0.000000000e+00    0.000000000e+00    0.000000000e+00    0.000000000e+00
      203250000   -8.379392028e-01    1.958910227e-01    1.992676116e-04    6.280262460e-05    0.000000000e+00    0.000000000e+00    0.000000000e+00    0.000000000e+00
      204875000   -8.303529620e-01    2.218589038e-01    2.250169346e-04    5.424979099e-05    0.000000000e+00    0.000000000e+00    0.000000000e+00    0.000000000e+00
      206500000   -8.218525648e-01    2.475264966e-01    2.295406448e-04    5.376567424e-05    0.000000000e+00    0.000000000e+00    0.000000000e+00    0.000000000e+00
      208125000   -8.124344945e-01    2.727922499e-01    2.398966317e-04    8.541533316e-05    0.000000000e+00    0.000000000e+00    0.000000000e+00    0.000000000e+00
      209750000   -8.022510409e-01    2.976209223e-01    2.678261080e-04    8.371139847e-05    0.000000000e+00    0.000000000e+00    0.000000000e+00    0.000000000e+00
      211375000   -7.909562588e-01    3.219616711e-01    2.847448923e-04    9.933844558e-05    0.000000000e+00    0.000000000e+00    0.000000000e+00    0.000000000e+00
      213000000   -7.791006565e-01    3.456548452e-01    2.932509815e-04    7.767732313e-05    0.000000000e+00    0.000000000e+00    0.000000000e+00    0.000000000e+00
      214625000   -7.661877871e-01    3.690394163e-01    2.814485924e-04    1.064328899e-04    0.000000000e+00    0.000000000e+00    0.000000000e+00    0.000000000e+00
      216250000   -7.525768280e-01    3.918464482e-01    2.736133174e-04    1.066437981e-04    0.000000000e+00    0.000000000e+00    0.000000000e+00    0.000000000e+00
      217875000   -7.382389307e-01    4.139959812e-01    2.782142255e-04    1.192973868e-04    0.000000000e+00    0.000000000e+00    0.000000000e+00    0.000000000e+00
      219500000   -7.234642506e-01    4.355998337e-01    2.946275636e-04    1.095919069e-04    0.000000000e+00    0.000000000e+00    0.000000000e+00    0.000000000e+00
      221125000   -7.077659965e-01    4.565484524e-01    2.917722741e-04    1.096017077e-04    0.000000000e+00    0.000000000e+00    0.000000000e+00    0.000000000e+00
      222750000   -6.913016438e-01    4.768328071e-01    3.214436874e-04    1.464397792e-04    0.000000000e+00    0.000000000e+00    0.000000000e+00    0.000000000e+00
      224375000   -6.744763851e-01    4.964123666e-01    3.079448070e-04    1.313006360e-04    0.000000000e+00    0.000000000e+00    0.000000000e+00    0.000000000e+00
      226000000   -6.569312811e-01    5.152698755e-01    3.131129197e-04    1.432078425e-04    0.000000000e+00    0.000000000e+00    0.000000000e+00    0.000000000e+00
      227625000   -6.387522817e-01    5.333873630e-01    3.188417468e-04    1.323609758e-04    0.000000000e+00    0.000000000e+00    0.000000000e+00    0.000000000e+00
      229250000   -6.201915741e-01    5.510095954e-01    3.014687682e-04    1.397367305e-04    0.000000000e+00    0.000000000e+00    0.000000000e+00    0.000000000e+00
      230875000   -6.009770632e-01    5.679043531e-01    3.176963073e-04    1.474723540e-04    0.000000000e+00    0.000000000e+00    0.000000000e+00    0.000000000e+00
      232500000   -5.816119909e-01    5.841089487e-01    3.352831991e-04    1.340228482e-04    0.000000000e+00    0.000000000e+00    0.000000000e+00    0.000000000e+00
      234125000   -5.615820885e-01    5.991710424e-01    3.426170442e-04    1.576857758e-04    0.000000000e+00    0.000000000e+00    0.000000000e+00    0.000000000e+00
      235750000   -5.411829948e-01    6.139304042e-01    3.351032792e-04    1.265901519e-04    0.000000000e+00    0.000000000e+00    0.000000000e+00    0.000000000e+00
      237375000   -5.201372504e-01    6.276543140e-01    3.263347608e-04    1.453409204e-04    0.000000000e+00    0.000000000e+00    0.000000000e+00    0.000000000e+00
      239000000   -4.991054833e-01    6.405984163e-01    3.293701448e-04    1.370062382e-04    0.000000000e+00    0.000000000e+00    0.000000000e+00    0.000000000e+00
      240625000   -4.776219428e-01    6.529130936e-01    3.444584145e-04    1.374234998e-04    0.000000000e+00    0.000000000e+00    0.000000000e+00    0.000000000e+00
      242250000   -4.557659626e-01    6.645592451e-01    3.320349206e-04    1.346567733e-04    0.000000000e+00    0.000000000e+00    0.000000000e+00    0.000000000e+00
      243875000   -4.333432615e-01    6.753518581e-01    3.594986047e-04    1.437621104e-04    0.000000000e+00    0.000000000e+00    0.000000000e+00    0.000000000e+00
      245500000   -4.110875130e-01    6.854467988e-01    3.377060639e-04    1.503340463e-04    0.000000000e+00    0.000000000e+00    0.000000000e+00    0.000000000e+00
      247125000   -3.883870840e-01    6.949039698e-01    3.394509840e-04    1.309673244e-04    0.000000000e+00    0.000000000e+00    0.000000000e+00    0.000000000e+00
      248750000   -3.655057549e-01    7.035807967e-01    3.522918269e-04    1.366957586e-04    0.000000000e+00    0.000000000e+00    0.000000000e+00    0.000000000e+00
      250375000   -3.425254226e-01    7.114983201e-01    3.403464798e-04    1.263059385e-04    0.000000000e+00    0.000000000e+00    0.000000000e+00    0.000000000e+00
      252000000   -3.197825849e-01    7.185408473e-01    3.857791598e-04    1.221533748e-04    0.000000000e+00    0.000000000e+00    0.000000000e+00    0.000000000e+00
      253625000   -2.968353331e-01    7.248308659e-01    3.526753862e-04    1.315788395e-04    0.000000000e+00    0.000000000e+00    0.000000000e+00    0.000000000e+00
      255250000   -2.737752795e-01    7.304242253e-01    3.580842458e-04    1.347149519e-04    0.000000000e+00    0.000000000e+00    0.000000000e+00    0.000000000e+00
      256875000   -2.508843541e-01    7.350540161e-01    3.661414084e-04    1.528656721e-04    0.000000000e+00    0.000000000e+00    0.000000000e+00    0.000000000e+00
      258500000   -2.282370776e-01    7.392195463e-01    3.421753936e-04    1.584823622e-04    0.000000000e+00    0.000000000e+00    0.000000000e+00    0.000000000e+00
      260125000   -2.051138878e-01    7.425833344e-01    3.556640586e-04    1.399038592e-04    0.000000000e+00    0.000000000e+00    0.000000000e+00    0.000000000e+00
      261750000   -1.821373850e-01    7.453271747e-01    3.792545176e-04    1.428876858e-04    0.000000000e+00    0.000000000e+00    0.000000000e+00    0.000000000e+00
      263375000   -1.592739969e-01    7.470061183e-01    3.768649476e-04    1.329772203e-04    0.000000000e+00    0.000000000e+00    0.000000000e+00    0.000000000e+00
      265000000   -1.366958022e-01    7.481542826e-01    3.753291967e-04    1.265382016e-04    0.000000000e+00    0.000000000e+00    0.000000000e+00    0.000000000e+00
      266625000   -1.139716431e-01    7.484802604e-01    3.504606429e-04    1.429754047e-04    0.000000000e+00    0.000000000e+00    0.000000000e+00    0.000000000e+00
      268250000   -9.157118946e-02    7.485877275e-01    3.582397767e-04    1.313884277e-04    0.000000000e+00    0.000000000e+00    0.000000000e+00    0.000000000e+00
      269875000   -6.912487000e-02    7.473981977e-01    3.731721372e-04    1.426131930e-04    0.000000000e+00    0.000000000e+00    0.000000000e+00    0.000000000e+00
      271500000   -4.676310718e-02    7.460679412e-01    3.616769682e-04    1.197077727e-04    0.000000000e+00    0.000000000e+00    0.000000000e+00    0.000000000e+00
      273125000   -2.481516451e-02    7.439225912e-01    3.411355428e-04    1.258368429e-04    0.000000000e+00    0.000000000e+00    0.000000000e+00    0.000000000e+00
      274750000   -3.024539212e-03    7.411155105e-01    3.370581544e-04    1.347916550e-04    0.000000000e+00    0.000000000e+00    0.000000000e+00    0.000000000e+00
      276375000    1.867572218e-02    7.377212644e-01    3.453057725e-04    1.350449311e-04    0.000000000e+00    0.000000000e+00    0.000000000e+00    0.000000000e+00
      278000000    4.008573294e-02    7.338848710e-01    3.417115659e-04    1.110086523e-04    0.000000000e+00    0.000000000e+00    0.000000000e+00    0.000000000e+00
      279625000    6.131010130e-02    7.293646336e-01    3.763593268e-04    1.389588433e-04    0.000000000e+00    0.000000000e+00    0.000000000e+00    0.000000000e+00
      281250000    8.239188045e-02    7.242002487e-01    3.535964934e-04    1.120624802e-04    0.000000000e+00    0.000000000e+00    0.000000000e+00    0.000000000e+00
      282875000    1.031213328e-01    7.187882662e-01    3.459689906e-04    1.261934231e-04    0.000000000e+00    0.000000000e+00    0.000000000e+00    0.000000000e+00
      284500000    1.234947219e-01    7.124124169e-01    3.363846627e-04    1.488250855e-04    0.000000000e+00    0.000000000e+00    0.000000000e+00    0.000000000e+00
      286125000    1.437682509e-01    7.058496475e-01    3.230319999e-04    1.261725556e-04    0.000000000e+00    0.000000000e+00    0.000000000e+00    0.000000000e+00
      287750000    1.637897640e-01    6.989233494e-01    3.174995363e-04    1.069894206e-04    0.000000000e+00    0.000000000e+00    0.000000000e+00    0.000000000e+00
      289375000    1.830792278e-01    6.909336448e-01    3.433832026e-04    1.128683725e-04    0.000000000e+00    0.000000000e+00    0.000000000e+00    0.000000000e+00
      291000000    9.875622392e-02    6.508569717e-01   -3.575658047e-05    1.272117515e-04    0.000000000e+00    0.000000000e+00    0.000000000e+00    0.000000000e+00
      292625000    1.171361059e-01    6.452061534e-01   -7.057378389e-05    2.419955708e-04    0.000000000e+00    0.000000000e+00    0.000000000e+00    0.000000000e+00
      294250000    1.354143471e-01    6.378912330e-01   -4.612264092e-05    5.880392200e-05    0.000000000e+00    0.000000000e+00    0.000000000e+00    0.000000000e+00
      295875000    1.530753970e-01    6.303993464e-01   -1.169038806e-04    1.127190699e-04    0.000000000e+00    0.000000000e+00    0.000000000e+00    0.000000000e+00
      297500000    1.705476344e-01    6.231933236e-01   -7.526736590e-05    1.108863071e-04    0.000000000e+00    0.000000000e+00    0.000000000e+00    0.000000000e+00
      299125000    1.881084591e-01    6.152089238e-01   -3.176772225e-05   -3.420106077e-05    0.000000000e+00    0.000000000e+00    0.000000000e+00    0.000000000e+00
      300750000    2.045404315e-01    6.069583893e-01    2.103615770e-05    1.557340438e-04    0.000000000e+00    0.000000000e+00    0.000000000e+00    0.000000000e+00
      302375000    2.212831676e-01    5.978243947e-01   -9.211972792e-05    9.030178626e-05    0.000000000e+00    0.000000000e+00    0.000000000e+00    0.000000000e+00
      304000000    2.381272018e-01    5.892314911e-01   -3.941029354e-05    5.698097812e-05    0.000000000e+00    0.000000000e+00    0.000000000e+00    0.000000000e+00
      305625000    2.535899282e-01    5.796393156e-01   -7.983510295e-05   -2.202688302e-05    0.000000000e+00    0.000000000e+00    0.000000000e+00    0.000000000e+00
      307250000    2.668329477e-01    5.714510083e-01   -1.389108365e-04   -4.058513241e-06    0.000000000e+00    0.000000000e+00    0.000000000e+00    0.000000000e+00
      308875000    2.842952311e-01    5.592651963e-01   -1.536842756e-04    5.890966713e-05    0.000000000e+00    0.000000000e+00    0.000000000e+00    0.000000000e+00
      310500000    2.988758683e-01    5.486137271e-01   -7.771621313e-05   -2.833845610e-05    0.000000000e+00    0.000000000e+00    0.000000000e+00    0.000000000e+00
      312125000    3.133303225e-01    5.376037359e-01   -9.398813563e-05   -4.058857996e-07    0.000000000e+00    0.000000000e+00    0.000000000e+00    0.000000000e+00
      313750000    3.275307119e-01    5.266786814e-01   -6.569435209e-05    1.412154088e-04    0.000000000e+00    0.000000000e+00    0.000000000e+00    0.000000000e+00
      315375000    3.414178193e-01    5.148884058e-01    1.389115205e-04    4.352970791e-06    0.000000000e+00    0.000000000e+00    0.000000000e+00    0.000000000e+00
      317000000    3.542454243e-01    5.027549267e-01   -7.098934293e-05    2.007696457e-04    0.000000000e+00    0.000000000e+00    0.000000000e+00    0.000000000e+00
      318625000    3.670491576e-01    4.904792905e-01   -2.570996003e-05   -4.851525591e-05    0.000000000e+00    0.000000000e+00    0.000000000e+00    0.000000000e+00
      320250000    3.797248006e-01    4.785668254e-01    5.424201663e-05   -3.174868834e-05    0.000000000e+00    0.000000000e+00    0.000000000e+00    0.000000000e+00
      321875000    3.916961253e-01    4.663181603e-01   -7.178036867e-06    3.748579957e-06    0.000000000e+00    0.000000000e+00    0.000000000e+00    0.000000000e+00
      323500000    4.036823809e-01    4.532445967e-01    6.731701433e-05    6.395440869e-05    0.000000000e+00    0.000000000e+00    0.000000000e+00    0.000000000e+00
      325125000    4.151549935e-01    4.402721822e-01   -2.989511413e-04    1.551479545e-05    0.000000000e+00    0.000000000e+00    0.000000000e+00    0.000000000e+00
      326750000    4.256666005e-01    4.269043803e-01   -3.370999184e-05    9.619167395e-05    0.000000000e+00    0.000000000e+00    0.000000000e+00    0.000000000e+00
      328375000    4.363953769e-01    4.139309227e-01   -5.351915024e-05    3.381981151e-05    0.000000000e+00    0.000000000e+00    0.000000000e+00    0.000000000e+00
      330000000    4.460195303e-01    4.000340998e-01    1.149447417e-05   -1.199948929e-05    0.000000000e+00    0.000000000e+00    0.000000000e+00    0.000000000e+00
      331625000    4.558926225e-01    3.864113390e-01   -5.398547387e-07    8.235954738e-05    0.000000000e+00    0.000000000e+00    0.000000000e+00    0.000000000e+00
      333250000    4.656142294e-01    3.727594018e-01   -9.013978706e-05   -4.953014650e-05    0.000000000e+00    0.000000000e+00    0.000000000e+00    0.000000000e+00
      334875000    4.742350876e-01    3.587218225e-01    8.294121653e-05   -9.598095494e-05    0.000000000e+00    0.000000000e+00    0.000000000e+00    0.000000000e+00
      336500000    4.826829135e-01    3.443336189e-01   -1.058864218e-04   -5.877784861e-05    0.000000000e+00    0.000000000e+00    0.000000000e+00    0.000000000e+00
      338125000    4.908543825e-01    3.301877677e-01   -1.421438792e-04   -1.471824944e-04    0.000000000e+00    0.000000000e+00    0.000000000e+00    0.000000000e+00
      339750000    4.988861680e-01    3.160648346e-01   -6.362125714e-05   -1.296690461e-04    0.000000000e+00    0.000000000e+00    0.000000000e+00    0.000000000e+00
      341375000    5.063773990e-01    3.015849888e-01   -2.351586591e-04   -3.018585994e-05    0.000000000e+00    0.000000000e+00    0.000000000e+00    0.000000000e+00
      343000000    5.136356354e-01    2.868950665e-01    1.020910568e-04   -2.669586866e-05    0.000000000e+00    0.000000000e+00    0.000000000e+00    0.000000000e+00
      344625000    5.202089548e-01    2.722182274e-01    4.636830909e-06    6.423793820e-05    0.000000000e+00    0.000000000e+00    0.000000000e+00    0.000000000e+00
      346250000    5.262542963e-01    2.578350306e-01   -2.146265251e-05    9.254520410e-05    0.000000000e+00    0.000000000e+00    0.000000000e+00    0.000000000e+00
      347875000    5.321140885e-01    2.430186868e-01   -1.910770661e-04   -3.559913603e-05    0.000000000e+00    0.000000000e+00    0.000000000e+00    0.000000000e+00
      349500000    5.377295017e-01    2.282190025e-01   -3.752676275e-05   -1.335874549e-04    0.000000000e+00    0.000000000e+00    0.000000000e+00    0.000000000e+00
      351125000    5.429524779e-01    2.132077664e-01   -3.416522304e-05    5.892016634e-05    0.000000000e+00    0.000000000e+00    0.000000000e+00    0.000000000e+00
      352750000    5.476893783e-01    1.985622197e-01   -2.388535540e-05   -1.961128692e-05    0.000000000e+00    0.000000000e+00    0.000000000e+00    0.000000000e+00
      354375000    5.523964167e-01    1.836119443e-01   -7.978092617e-05    9.295447853e-06    0.000000000e+00    0.000000000e+00    0.000000000e+00    0.000000000e+00
      356000000    5.565119386e-01    1.685507894e-01    5.872968177e-05   -1.947875899e-05    0.000000000e+00    0.000000000e+00    0.000000000e+00    0.000000000e+00
      357625000    5.602538586e-01    1.537741274e-01   -1.647152094e-04    1.181483312e-04    0.000000000e+00    0.000000000e+00    0.000000000e+00    0.000000000e+00
      359250000    5.636094809e-01    1.386698782e-01   -4.143291153e-05   -3.245152766e-05    0.000000000e+00    0.000000000e+00    0.000000000e+00    0.000000000e+00
      360875000    5.668643713e-01    1.236502379e-01   -5.259470072e-06   -1.583143021e-04    0.000000000e+00    0.000000000e+00    0.000000000e+00    0.000000000e+00
      362500000    5.697118640e-01    1.086017936e-01   -5.787414466e-06   -1.143321879e-05    0.000000000e+00    0.000000000e+00    0.000000000e+00    0.000000000e+00
      364125000    5.722625256e-01    9.366891533e-02   -1.786787907e-04    1.383895724e-04    0.000000000e+00    0.000000000e+00    0.000000000e+00    0.000000000e+00
      365750000    5.743829012e-01    7.878351957e-02   -5.576969124e-05    5.270463953e-05    0.000000000e+00    0.000000000e+00    0.000000000e+00    0.000000000e+00
      367375000    5.761895180e-01    6.372460723e-02   -2.227368823e-04   -1.346677309e-04    0.000000000e+00    0.000000000e+00    0.000000000e+00    0.000000000e+00
      369000000    5.776789784e-01    4.871895537e-02   -1.475375175e-04    1.156865619e-04    0.000000000e+00    0.000000000e+00    0.000000000e+00    0.000000000e+00
      370625000    5.789842010e-01    3.414545208e-02    6.746378494e-05   -4.973186515e-05    0.000000000e+00    0.000000000e+00    0.000000000e+00    0.000000000e+00
      372250000    5.794236064e-01    1.934509538e-02   -1.062561205e-04   -3.083360207e-05    0.000000000e+00    0.000000000e+00    0.000000000e+00    0.000000000e+00
      373875000    5.802639127e-01    4.536681343e-03   -1.094610125e-04    8.333573351e-05    0.000000000e+00    0.000000000e+00    0.000000000e+00    0.000000000e+00
      375500000    5.804549456e-01   -1.022949349e-02   -1.603714190e-04   -1.181876287e-04    0.000000000e+00    0.000000000e+00    0.000000000e+00    0.000000000e+00
      377125000    5.802745223e-01   -2.498100325e-02   -2.207869547e-04    9.968117956e-05    0.000000000e+00    0.000000000e+00    0.000000000e+00    0.000000000e+00
      378750000    5.798969865e-01   -3.944523633e-02   -2.180378942e-04    3.346940139e-05    0.000000000e+00    0.000000000e+00    0.000000000e+00    0.000000000e+00
      380375000    5.791701078e-01   -5.431780592e-02   -1.796958713e-05    8.726162378e-06    0.000000000e+00    0.000000000e+00    0.000000000e+00    0.000000000e+00
      382000000    5.780413747e-01   -6.882966310e-02   -1.248144254e-04    8.104053995e-05    0.000000000e+00    0.000000000e+00    0.000000000e+00    0.000000000e+00
      383625000    5.768344998e-01   -8.320438862e-02   -2.029166644e-04    8.114836237e-05    0.000000000e+00    0.000000000e+00    0.000000000e+00    0.000000000e+00
      385250000    5.750377178e-01   -9.770442545e-02   -1.009634288e-04    1.890275485e-06    0.000000000e+00    0.000000000e+00    0.000000000e+00    0.000000000e+00
      386875000    5.732341409e-01   -1.118869558e-01   -1.106377458e-04    4.815174179e-05    0.000000000e+00    0.000000000e+00    0.000000000e+00    0.000000000e+00
      388500000    5.709156990e-01   -1.264314950e-01   -1.031756838e-04    3.987007949e-05    0.000000000e+00    0.000000000e+00    0.000000000e+00    0.000000000e+00
