! NanoVNA-App
! Date: 2024-06-25 16:50:02
! Start: 200MHz Stop: 1.5GHz Points: 801
! S-Parameter data: F S11 S21 S12 S22
# Hz S RI R 50
!     Frequency           S11_Real           S11_Imag           S21_Real           S21_Imag           S12_Real           S12_Imag           S22_Real           S22_Imag
      200000000   -8.504566550e-01    1.429220587e-01    1.798204466e-04    5.254921416e-05    0.000000000e+00    0.000000000e+00    0.000000000e+00    0.000000000e+00
      201625000   -8.447144032e-01    1.694264710e-01    2.060924890e-04    5.537795005e-05    0.000000000e+00    0.000000000e+00    0.000000000e+00    0.000000000e+00
      203250000   -8.379366994e-01    1.958450079e-01    2.272084384e-04    7.169855235e-05    0.000000000e+00    0.000000000e+00    0.000000000e+00    0.000000000e+00
      204875000   -8.303778172e-01    2.218210250e-01    2.186110360e-04    5.727556709e-05    0.000000000e+00    0.000000000e+00    0.000000000e+00    0.000000000e+00
      206500000   -8.219296336e-01    2.476022989e-01    2.435722126e-04    7.983837713e-05    0.000000000e+00    0.000000000e+00    0.000000000e+00    0.000000000e+00
      208125000   -8.125241399e-01    2.727500796e-01    2.714877774e-04    7.821421605e-05    0.000000000e+00    0.000000000e+00    0.000000000e+00    0.000000000e+00
      209750000   -8.022672534e-01    2.976350486e-01    2.633851836e-04    9.672763554e-05    0.000000000e+00    0.000000000e+00    0.000000000e+00    0.000000000e+00
      211375000   -7.909666300e-01    3.219459057e-01    2.580925648e-04    8.797162445e-05    0.000000000e+00    0.000000000e+00    0.000000000e+00    0.000000000e+00
      213000000   -7.789692879e-01    3.457013965e-01    2.798476780e-04    9.615055023e-05    0.000000000e+00    0.000000000e+00    0.000000000e+00    0.000000000e+00
      214625000   -7.663220763e-01    3.689443469e-01    2.659281890e-04    1.202003477e-04    0.000000000e+00    0.000000000e+00    0.000000000e+00    0.000000000e+00
      216250000   -7.527629137e-01    3.917820156e-01    2.916325757e-04    1.024453013e-04    0.000000000e+00    0.000000000e+00    0.000000000e+00    0.000000000e+00
      217875000   -7.383462191e-01    4.138405323e-01    2.778113994e-04    1.120746747e-04    0.000000000e+00    0.000000000e+00    0.000000000e+00    0.000000000e+00
      219500000   -7.233079076e-01    4.355451167e-01    3.005395702e-04    1.098084103e-04    0.000000000e+00    0.000000000e+00    0.000000000e+00    0.000000000e+00
      221125000   -7.076904774e-01    4.563204646e-01    2.972886723e-04    1.304727484e-04    0.000000000e+00    0.000000000e+00    0.000000000e+00    0.000000000e+00
      222750000   -6.913095713e-01    4.768139720e-01    3.096548025e-04    1.505194668e-04    0.000000000e+00    0.000000000e+00    0.000000000e+00    0.000000000e+00
      224375000   -6.744053364e-01    4.962951243e-01    2.912499767e-04    1.477335609e-04    0.000000000e+00    0.000000000e+00    0.000000000e+00    0.000000000e+00
      226000000   -6.568282247e-01    5.152696967e-01    3.147805692e-04    1.277077827e-04    0.000000000e+00    0.000000000e+00    0.000000000e+00    0.000000000e+00
      227625000   -6.386978626e-01    5.333985686e-01    3.186945396e-04    1.347531070e-04    0.000000000e+00    0.000000000e+00    0.000000000e+00    0.000000000e+00
      229250000   -6.201527119e-01    5.509855747e-01    3.157627652e-04    1.478906779e-04    0.000000000e+00    0.000000000e+00    0.000000000e+00    0.000000000e+00
      230875000   -6.009951234e-01    5.675467849e-01    3.089569800e-04    1.604003337e-04    0.000000000e+00    0.000000000e+00    0.000000000e+00    0.000000000e+00
      232500000   -5.814282894e-01    5.839051008e-01    3.430619254e-04    1.014560621e-04    0.000000000e+00    0.000000000e+00    0.000000000e+00    0.000000000e+00
      234125000   -5.615185499e-01    5.991584063e-01    3.185535898e-04    1.384633651e-04    0.000000000e+00    0.000000000e+00    0.000000000e+00    0.000000000e+00
      235750000   -5.410947204e-01    6.139252782e-01    3.320350079e-04    1.530021109e-04    0.000000000e+00    0.000000000e+00    0.000000000e+00    0.000000000e+00
      237375000   -5.201104879e-01    6.274283528e-01    3.285996791e-04    1.307703496e-04    0.000000000e+00    0.000000000e+00    0.000000000e+00    0.000000000e+00
      239000000   -4.991545379e-01    6.404766440e-01    3.314920759e-04    1.453613950e-04    0.000000000e+00    0.000000000e+00    0.000000000e+00    0.000000000e+00
      240625000   -4.777137935e-01    6.527610421e-01    3.551219124e-04    1.417774329e-04    0.000000000e+00    0.000000000e+00    0.000000000e+00    0.000000000e+00
      242250000   -4.557214081e-01    6.643906236e-01    3.329215979e-04    1.352973050e-04    0.000000000e+00    0.000000000e+00    0.000000000e+00    0.000000000e+00
      243875000   -4.335291982e-01    6.753799319e-01    3.354276996e-04    1.348998048e-04    0.000000000e+00    0.000000000e+00    0.000000000e+00    0.000000000e+00
      245500000   -4.111890197e-01    6.853184104e-01    3.671131271e-04    1.238831319e-04    0.000000000e+00    0.000000000e+00    0.000000000e+00    0.000000000e+00
      247125000   -3.884137273e-01    6.951397061e-01    3.452689562e-04    1.220229096e-04    0.000000000e+00    0.000000000e+00    0.000000000e+00    0.000000000e+00
      248750000   -3.655042350e-01    7.036132812e-01    3.446226183e-04    1.405609801e-04    0.000000000e+00    0.000000000e+00    0.000000000e+00    0.000000000e+00
      250375000   -3.426790237e-01    7.112264633e-01    3.393970837e-04    1.190912953e-04    0.000000000e+00    0.000000000e+00    0.000000000e+00    0.000000000e+00
      252000000   -3.196147084e-01    7.184966207e-01    3.436529369e-04    1.283489983e-04    0.000000000e+00    0.000000000e+00    0.000000000e+00    0.000000000e+00
      253625000   -2.970188856e-01    7.248482108e-01    3.707991855e-04    1.524239779e-04    0.000000000e+00    0.000000000e+00    0.000000000e+00    0.000000000e+00
      255250000   -2.739674747e-01    7.301916480e-01    3.625150712e-04    1.346803037e-04    0.000000000e+00    0.000000000e+00    0.000000000e+00    0.000000000e+00
      256875000   -2.508125901e-01    7.351016998e-01    3.666913544e-04    1.430521661e-04    0.000000000e+00    0.000000000e+00    0.000000000e+00    0.000000000e+00
      258500000   -2.279815972e-01    7.390900254e-01    3.535970172e-04    1.416008308e-04    0.000000000e+00    0.000000000e+00    0.000000000e+00    0.000000000e+00
      260125000   -2.050862461e-01    7.426004410e-01    3.667027631e-04    1.539743535e-04    0.000000000e+00    0.000000000e+00    0.000000000e+00    0.000000000e+00
      261750000   -1.821482331e-01    7.452976704e-01    3.568170650e-04    1.129002194e-04    0.000000000e+00    0.000000000e+00    0.000000000e+00    0.000000000e+00
      263375000   -1.592990607e-01    7.468372583e-01    3.585935920e-04    1.511870796e-04    0.000000000e+00    0.000000000e+00    0.000000000e+00    0.000000000e+00
      265000000   -1.367335767e-01    7.481928468e-01    3.737131774e-04    1.372445404e-04    0.000000000e+00    0.000000000e+00    0.000000000e+00    0.000000000e+00
      266625000   -1.140057370e-01    7.484346032e-01    3.482246248e-04    1.375990832e-04    0.000000000e+00    0.000000000e+00    0.000000000e+00    0.000000000e+00
      268250000   -9.146916866e-02    7.485182881e-01    3.606179380e-04    1.308399369e-04    0.000000000e+00    0.000000000e+00    0.000000000e+00    0.000000000e+00
      269875000   -6.928150356e-02    7.473282814e-01    3.730831377e-04    1.476362377e-04    0.000000000e+00    0.000000000e+00    0.000000000e+00    0.000000000e+00
      271500000   -4.688280448e-02    7.460685372e-01    3.863818129e-04    1.352725230e-04    0.000000000e+00    0.000000000e+00    0.000000000e+00    0.000000000e+00
      273125000   -2.485896461e-02    7.437914014e-01    3.757074592e-04    1.404200884e-04    0.000000000e+00    0.000000000e+00    0.000000000e+00    0.000000000e+00
      274750000   -3.007144202e-03    7.413969040e-01    3.563796636e-04    1.325960038e-04    0.000000000e+00    0.000000000e+00    0.000000000e+00    0.000000000e+00
      276375000    1.878465526e-02    7.378677130e-01    3.507044166e-04    1.263623562e-04    0.000000000e+00    0.000000000e+00    0.000000000e+00    0.000000000e+00
      278000000    4.011137038e-02    7.340142727e-01    3.627368715e-04    1.386530930e-04    0.000000000e+00    0.000000000e+00    0.000000000e+00    0.000000000e+00
      279625000    6.144101173e-02    7.294855714e-01    3.626302059e-04    1.056846086e-04    0.000000000e+00    0.000000000e+00    0.000000000e+00    0.000000000e+00
      281250000    8.245369792e-02    7.242614627e-01    3.516331199e-04    1.167135342e-04    0.000000000e+00    0.000000000e+00    0.000000000e+00    0.000000000e+00
      282875000    1.029952392e-01    7.186277509e-01    3.444480535e-04    1.323215838e-04    0.000000000e+00    0.000000000e+00    0.000000000e+00    0.000000000e+00
      284500000    1.234142110e-01    7.124817371e-01    3.401367867e-04    1.230826310e-04    0.000000000e+00    0.000000000e+00    0.000000000e+00    0.000000000e+00
      286125000    1.437828094e-01    7.058489323e-01    3.486471251e-04    1.090385558e-04    0.000000000e+00    0.000000000e+00    0.000000000e+00    0.000000000e+00
      287750000    1.638078690e-01    6.990374923e-01    3.054929839e-04    1.156620710e-04    0.000000000e+00    0.000000000e+00    0.000000000e+00    0.000000000e+00
      289375000    1.831836849e-01    6.907359362e-01    3.147628449e-04    9.420573770e-05    0.000000000e+00    0.000000000e+00    0.000000000e+00    0.000000000e+00
      291000000    9.861472994e-02    6.506431699e-01    1.268035412e-04   -1.414791768e-04    0.000000000e+00    0.000000000e+00    0.000000000e+00    0.000000000e+00
      292625000    1.173990294e-01    6.446376443e-01   -1.459622581e-04   -1.141391185e-04    0.000000000e+00    0.000000000e+00    0.000000000e+00    0.000000000e+00
      294250000    1.354347169e-01    6.373937130e-01    5.535209493e-05    3.220299732e-06    0.000000000e+00    0.000000000e+00    0.000000000e+00    0.000000000e+00
      295875000    1.526851207e-01    6.308860183e-01   -5.858571603e-05    6.806256715e-05    0.000000000e+00    0.000000000e+00    0.000000000e+00    0.000000000e+00
      297500000    1.710935384e-01    6.230813265e-01    1.869157131e-06   -2.902481174e-05    0.000000000e+00    0.000000000e+00    0.000000000e+00    0.000000000e+00
      299125000    1.875472516e-01    6.149750352e-01   -6.926502829e-05   -7.625886610e-06    0.000000000e+00    0.000000000e+00    0.000000000e+00    0.000000000e+00
      300750000    2.047143281e-01    6.070412993e-01   -3.382117211e-05    3.234752148e-05    0.000000000e+00    0.000000000e+00    0.000000000e+00    0.000000000e+00
      302375000    2.213918269e-01    5.984812975e-01   -9.657986811e-05   -1.119960580e-04    0.000000000e+00    0.000000000e+00    0.000000000e+00    0.000000000e+00
      304000000    2.374571264e-01    5.890827775e-01   -8.313259605e-05   -2.444727443e-06    0.000000000e+00    0.000000000e+00    0.000000000e+00    0.000000000e+00
      305625000    2.536123097e-01    5.793989897e-01   -1.546546264e-04    4.839272879e-05    0.000000000e+00    0.000000000e+00    0.000000000e+00    0.000000000e+00
      307250000    2.661040127e-01    5.694746971e-01    6.903550820e-05    7.256003300e-05    0.000000000e+00    0.000000000e+00    0.000000000e+00    0.000000000e+00
      308875000    2.843689322e-01    5.595086217e-01   -1.655791493e-05   -3.583657963e-05    0.000000000e+00    0.000000000e+00    0.000000000e+00    0.000000000e+00
      310500000    2.992257178e-01    5.489645600e-01   -5.842195606e-06    3.506025314e-05    0.000000000e+00    0.000000000e+00    0.000000000e+00    0.000000000e+00
      312125000    3.132842481e-01    5.373439193e-01   -6.222242519e-05    1.630283123e-06    0.000000000e+00    0.000000000e+00    0.000000000e+00    0.000000000e+00
      313750000    3.272334039e-01    5.264428854e-01   -6.667412526e-05    1.803191662e-05    0.000000000e+00    0.000000000e+00    0.000000000e+00    0.000000000e+00
      315375000    3.413387537e-01    5.148229599e-01   -1.165631475e-04    3.639341230e-06    0.000000000e+00    0.000000000e+00    0.000000000e+00    0.000000000e+00
      317000000    3.540265560e-01    5.026082993e-01   -2.935823795e-05    1.812809933e-04    0.000000000e+00    0.000000000e+00    0.000000000e+00    0.000000000e+00
      318625000    3.673492670e-01    4.908210933e-01   -8.957203681e-05    6.553056301e-05    0.000000000e+00    0.000000000e+00    0.000000000e+00    0.000000000e+00
      320250000    3.796725869e-01    4.785234630e-01    8.235392306e-05    5.551431514e-06    0.000000000e+00    0.000000000e+00    0.000000000e+00    0.000000000e+00
      321875000    3.920480609e-01    4.655698836e-01   -9.280016093e-05    8.249912753e-07    0.000000000e+00    0.000000000e+00    0.000000000e+00    0.000000000e+00
      323500000    4.035642743e-01    4.532381594e-01   -1.497303747e-04    2.976723044e-05    0.000000000e+00    0.000000000e+00    0.000000000e+00    0.000000000e+00
      325125000    4.146057367e-01    4.400410354e-01    1.898781375e-05    4.301619992e-05    0.000000000e+00    0.000000000e+00    0.000000000e+00    0.000000000e+00
      326750000    4.258576632e-01    4.272061288e-01    2.460844917e-05   -1.709787102e-05    0.000000000e+00    0.000000000e+00    0.000000000e+00    0.000000000e+00
      328375000    4.363279939e-01    4.139344394e-01   -7.211556658e-05    7.702755283e-06    0.000000000e+00    0.000000000e+00    0.000000000e+00    0.000000000e+00
      330000000    4.463242292e-01    4.003776014e-01   -3.138424290e-05    1.303863974e-05    0.000000000e+00    0.000000000e+00    0.000000000e+00    0.000000000e+00
      331625000    4.563911259e-01    3.863938153e-01   -2.580161090e-04    6.951378600e-05    0.000000000e+00    0.000000000e+00    0.000000000e+00    0.000000000e+00
      333250000    4.652995765e-01    3.723368347e-01   -1.398118475e-04   -1.224666339e-04    0.000000000e+00    0.000000000e+00    0.000000000e+00    0.000000000e+00
      334875000    4.744558632e-01    3.589233458e-01   -1.791743671e-05    6.938767183e-05    0.000000000e+00    0.000000000e+00    0.000000000e+00    0.000000000e+00
      336500000    4.829711020e-01    3.441165090e-01    8.945451555e-05   -8.798133786e-05    0.000000000e+00    0.000000000e+00    0.000000000e+00    0.000000000e+00
      338125000    4.909996986e-01    3.303856850e-01   -1.038804839e-04    8.840465307e-05    0.000000000e+00    0.000000000e+00    0.000000000e+00    0.000000000e+00
      339750000    4.987549186e-01    3.160580099e-01   -8.054621867e-05   -3.269228910e-05    0.000000000e+00    0.000000000e+00    0.000000000e+00    0.000000000e+00
      341375000    5.062014461e-01    3.014149070e-01   -2.711836350e-05    6.299769302e-05    0.000000000e+00    0.000000000e+00    0.000000000e+00    0.000000000e+00
      343000000    5.131347179e-01    2.867289186e-01   -1.041830183e-04    3.409458805e-05    0.000000000e+00    0.000000000e+00    0.000000000e+00    0.000000000e+00
      344625000    5.199683905e-01    2.724589407e-01   -1.239521080e-04   -6.421413855e-05    0.000000000e+00    0.000000000e+00    0.000000000e+00    0.000000000e+00
      346250000    5.260011554e-01    2.578187585e-01   -7.790713425e-05    4.223489304e-05    0.000000000e+00    0.000000000e+00    0.000000000e+00    0.000000000e+00
      347875000    5.321592093e-01    2.429385185e-01   -4.614933277e-05   -4.874543447e-05    0.000000000e+00    0.000000000e+00    0.000000000e+00    0.000000000e+00
      349500000    5.377388597e-01    2.280269861e-01   -5.506751768e-05    1.134901031e-04    0.000000000e+00    0.000000000e+00    0.000000000e+00    0.000000000e+00
      351125000    5.429879427e-01    2.133964449e-01   -9.879691788e-05    1.133050682e-05    0.000000000e+00    0.000000000e+00    0.000000000e+00    0.000000000e+00
      352750000    5.478694439e-01    1.985651255e-01    1.149057134e-04   -1.458891202e-04    0.000000000e+00    0.000000000e+00    0.000000000e+00    0.000000000e+00
      354375000    5.523027182e-01    1.833707243e-01   -1.472963340e-04    1.780278399e-05    0.000000000e+00    0.000000000e+00    0.000000000e+00    0.000000000e+00
      356000000    5.564504266e-01    1.686236262e-01    7.533954340e-05   -7.824328350e-05    0.000000000e+00    0.000000000e+00    0.000000000e+00    0.000000000e+00
      357625000    5.599737763e-01    1.534111351e-01   -8.772325236e-05   -1.302670134e-04    0.000000000e+00    0.000000000e+00    0.000000000e+00    0.000000000e+00
      359250000    5.637248158e-01    1.386854649e-01   -1.095928837e-05    6.243691314e-05    0.000000000e+00    0.000000000e+00    0.000000000e+00    0.000000000e+00
      360875000    5.668285489e-01    1.234928221e-01    1.578666524e-05    2.466432670e-05    0.000000000e+00    0.000000000e+00    0.000000000e+00    0.000000000e+00
      362500000    5.696509480e-01    1.086051390e-01   -8.441825048e-05   -1.803705163e-05    0.000000000e+00    0.000000000e+00    0.000000000e+00    0.000000000e+00
      364125000    5.721163154e-01    9.363940358e-02   -1.413434657e-04    7.093205932e-05    0.000000000e+00    0.000000000e+00    0.000000000e+00    0.000000000e+00
      365750000    5.742744803e-01    7.883803546e-02   -1.569955784e-04   -6.695756747e-05    0.000000000e+00    0.000000000e+00    0.000000000e+00    0.000000000e+00
      367375000    5.761529207e-01    6.375765800e-02   -2.478181159e-05   -4.455059025e-05    0.000000000e+00    0.000000000e+00    0.000000000e+00    0.000000000e+00
      369000000    5.777181387e-01    4.901814833e-02   -1.437053870e-04    4.609857206e-05    0.000000000e+00    0.000000000e+00    0.000000000e+00    0.000000000e+00
      370625000    5.789518356e-01    3.420296684e-02   -7.884982915e-05    1.579551849e-07    0.000000000e+00    0.000000000e+00    0.000000000e+00    0.000000000e+00
      372250000    5.798780322e-01    1.913757436e-02   -1.502379309e-04   -3.251047701e-06    0.000000000e+00    0.000000000e+00    0.000000000e+00    0.000000000e+00
      373875000    5.802028179e-01    4.335913807e-03   -1.328186499e-05   -4.844811883e-06    0.000000000e+00    0.000000000e+00    0.000000000e+00    0.000000000e+00
      375500000    5.803712606e-01   -1.008908823e-02   -8.101448475e-05    4.307323252e-05    0.000000000e+00    0.000000000e+00    0.000000000e+00    0.000000000e+00
      377125000    5.803598166e-01   -2.503368631e-02   -3.836663018e-05    4.692967923e-05    0.000000000e+00    0.000000000e+00    0.000000000e+00    0.000000000e+00
      378750000    5.798029304e-01   -3.965011239e-02   -9.184663213e-05    2.427559230e-05    0.000000000e+00    0.000000000e+00    0.000000000e+00    0.000000000e+00
      380375000    5.791062713e-01   -5.419117957e-02   -2.020263928e-04    2.042267733e-04    0.000000000e+00    0.000000000e+00    0.000000000e+00    0.000000000e+00
      382000000    5.781238079e-01   -6.880542636e-02   -1.821677870e-04    6.384283188e-05    0.000000000e+00    0.000000000e+00    0.000000000e+00    0.000000000e+00
      383625000    5.766730309e-01   -8.343687654e-02   -9.928557120e-05    2.004686830e-04    0.000000000e+00    0.000000000e+00    0.000000000e+00    0.000000000e+00
      385250000    5.749682784e-01   -9.775511175e-02    4.408923633e-05    1.791714749e-04    0.000000000e+00    0.000000000e+00    0.000000000e+00    0.000000000e+00
      386875000    5.734205246e-01   -1.120481938e-01   -9.746708383e-05   -8.236450230e-05    0.000000000e+00    0.000000000e+00    0.000000000e+00    0.000000000e+00
      388500000    5.707191825e-01   -1.264213324e-01   -3.834056770e-05    1.487726986e-04    0.000000000e+00    0.000000000e+00    0.000000000e+00    0.000000000e+00
