! NanoVNA-App by OneOfEleven et al v1.1.209 (+OD15) 
! Date: 2024-07-30 15:17:34
! Start: 200MHz Stop: 6GHz Points: 801
! S-Parameter data: F S11 S21 S12 S22
# Hz S RI R 50
!     Frequency           S11_Real           S11_Imag           S21_Real           S21_Imag           S12_Real           S12_Imag           S22_Real           S22_Imag
      200000000   -9.992783666e-01   -1.162303612e-01   -4.003383219e-05    2.445466816e-05    0.000000000e+00    0.000000000e+00    0.000000000e+00    0.000000000e+00
      207250000   -1.010394096e+00   -1.718182862e-02    2.344883978e-05   -6.983056664e-06    0.000000000e+00    0.000000000e+00    0.000000000e+00    0.000000000e+00
      214500000   -1.011837482e+00    8.431901038e-02    1.513306051e-05   -1.748651266e-05    0.000000000e+00    0.000000000e+00    0.000000000e+00    0.000000000e+00
      221750000   -1.002624154e+00    1.872754246e-01   -3.991648555e-06    1.575052738e-05    0.000000000e+00    0.000000000e+00    0.000000000e+00    0.000000000e+00
      229000000   -9.819876552e-01    2.900933325e-01   -1.350417733e-05    2.676621079e-06    0.000000000e+00    0.000000000e+00    0.000000000e+00    0.000000000e+00
      236250000   -9.502357244e-01    3.928698897e-01    1.372955739e-05   -1.505482942e-05    0.000000000e+00    0.000000000e+00    0.000000000e+00    0.000000000e+00
      243500000   -9.058664441e-01    4.929873943e-01    8.987262845e-06   -1.959409565e-05    0.000000000e+00    0.000000000e+00    0.000000000e+00    0.000000000e+00
      250750000   -8.498027921e-01    5.893301368e-01   -1.051090658e-05    3.983266652e-05    0.000000000e+00    0.000000000e+00    0.000000000e+00    0.000000000e+00
      258000000   -7.815054059e-01    6.803783178e-01   -2.875272185e-05    1.013558358e-05    0.000000000e+00    0.000000000e+00    0.000000000e+00    0.000000000e+00
      265250000   -7.011018395e-01    7.642735839e-01   -2.671033144e-05   -8.288770914e-06    0.000000000e+00    0.000000000e+00    0.000000000e+00    0.000000000e+00
      272500000   -6.095232964e-01    8.389696479e-01    2.444069833e-05    9.275972843e-07    0.000000000e+00    0.000000000e+00    0.000000000e+00    0.000000000e+00
      279750000   -5.087972283e-01    9.030418396e-01    1.451559365e-05    4.344619811e-06    0.000000000e+00    0.000000000e+00    0.000000000e+00    0.000000000e+00
      287000000   -3.986957669e-01    9.555434585e-01   -1.662876457e-05   -2.103857696e-06    0.000000000e+00    0.000000000e+00    0.000000000e+00    0.000000000e+00
      294250000   -2.815605700e-01    9.930761456e-01    1.020450145e-05    9.778887033e-08    0.000000000e+00    0.000000000e+00    0.000000000e+00    0.000000000e+00
      301500000   -1.587170511e-01    1.016242981e+00   -8.164905012e-06    7.837079465e-06    0.000000000e+00    0.000000000e+00    0.000000000e+00    0.000000000e+00
      308750000   -3.302210569e-02    1.022233844e+00    9.981915355e-06   -1.462642103e-05    0.000000000e+00    0.000000000e+00    0.000000000e+00    0.000000000e+00
      316000000    9.312372655e-02    1.013487101e+00    4.202127457e-06    2.564862370e-06    0.000000000e+00    0.000000000e+00    0.000000000e+00    0.000000000e+00
      323250000    2.170462459e-01    9.883085489e-01    2.135336399e-05   -2.134311944e-05    0.000000000e+00    0.000000000e+00    0.000000000e+00    0.000000000e+00
      330500000    3.374967575e-01    9.468398094e-01    3.755092621e-06   -1.610442996e-05    0.000000000e+00    0.000000000e+00    0.000000000e+00    0.000000000e+00
      337750000    4.506484866e-01    8.903992176e-01   -1.589767635e-06   -5.809590220e-06    0.000000000e+00    0.000000000e+00    0.000000000e+00    0.000000000e+00
      345000000    5.563206077e-01    8.204762936e-01   -5.406327546e-06   -7.196329534e-06    0.000000000e+00    0.000000000e+00    0.000000000e+00    0.000000000e+00
      352250000    6.510533690e-01    7.372765541e-01    5.812384188e-06    1.752469689e-05    0.000000000e+00    0.000000000e+00    0.000000000e+00    0.000000000e+00
      359500000    7.344163060e-01    6.446220875e-01    1.404155046e-05    2.690590918e-06    0.000000000e+00    0.000000000e+00    0.000000000e+00    0.000000000e+00
      366750000    8.048533797e-01    5.426378846e-01   -1.122523099e-05   -6.860122085e-06    0.000000000e+00    0.000000000e+00    0.000000000e+00    0.000000000e+00
      374000000    8.621216416e-01    4.354810417e-01   -7.442198694e-06   -1.727603376e-06    0.000000000e+00    0.000000000e+00    0.000000000e+00    0.000000000e+00
      381250000    9.053524733e-01    3.218001723e-01   -9.317882359e-06    1.423712820e-05    0.000000000e+00    0.000000000e+00    0.000000000e+00    0.000000000e+00
      388500000    9.344497323e-01    2.057098001e-01   -3.414601088e-05    2.929568291e-05    0.000000000e+00    0.000000000e+00    0.000000000e+00    0.000000000e+00
      395750000    9.504456520e-01    8.921967447e-02    1.841969788e-05    1.913867891e-05    0.000000000e+00    0.000000000e+00    0.000000000e+00    0.000000000e+00
      403000000    9.527432323e-01   -2.813898772e-02   -1.086853445e-05   -1.201312989e-05    0.000000000e+00    0.000000000e+00    0.000000000e+00    0.000000000e+00
      410250000    9.420763850e-01   -1.437420100e-01   -1.926813275e-05    1.951400191e-05    0.000000000e+00    0.000000000e+00    0.000000000e+00    0.000000000e+00
      417500000    9.196214080e-01   -2.557333708e-01   -1.460500062e-05   -1.922249794e-05    0.000000000e+00    0.000000000e+00    0.000000000e+00    0.000000000e+00
      424750000    8.849463463e-01   -3.630573750e-01    1.464225352e-05   -3.788620234e-06    0.000000000e+00    0.000000000e+00    0.000000000e+00    0.000000000e+00
      432000000    8.380595446e-01   -4.658099413e-01   -1.504831016e-05   -1.627579331e-05    0.000000000e+00    0.000000000e+00    0.000000000e+00    0.000000000e+00
      439250000    7.838162184e-01   -5.626649857e-01    1.369044185e-05    2.809055150e-05    0.000000000e+00    0.000000000e+00    0.000000000e+00    0.000000000e+00
      446500000    7.192022800e-01   -6.513927579e-01   -1.557357609e-05   -1.479871571e-06    0.000000000e+00    0.000000000e+00    0.000000000e+00    0.000000000e+00
      453750000    6.454616189e-01   -7.344073057e-01   -1.950562000e-05   -2.432987094e-05    0.000000000e+00    0.000000000e+00    0.000000000e+00    0.000000000e+00
      461000000    5.643931627e-01   -8.072899580e-01    1.782644540e-05   -1.772120595e-05    0.000000000e+00    0.000000000e+00    0.000000000e+00    0.000000000e+00
      468250000    4.762285650e-01   -8.713105917e-01   -1.600198448e-05    2.852268517e-05    0.000000000e+00    0.000000000e+00    0.000000000e+00    0.000000000e+00
      475500000    3.809222579e-01   -9.270737171e-01    1.501291990e-06    1.974124461e-05    0.000000000e+00    0.000000000e+00    0.000000000e+00    0.000000000e+00
      482750000    2.811660767e-01   -9.712774754e-01    1.225806773e-05    4.554167390e-07    0.000000000e+00    0.000000000e+00    0.000000000e+00    0.000000000e+00
      490000000    1.785105318e-01   -1.006011486e+00   -1.324061304e-05    2.925284207e-06    0.000000000e+00    0.000000000e+00    0.000000000e+00    0.000000000e+00
      497250000    6.994085759e-02   -1.028823972e+00    5.872920156e-06   -6.716698408e-06    0.000000000e+00    0.000000000e+00    0.000000000e+00    0.000000000e+00
      504500000   -3.992661834e-02   -1.040811896e+00   -3.335624933e-05    1.669675112e-05    0.000000000e+00    0.000000000e+00    0.000000000e+00    0.000000000e+00
      511750000   -1.504712254e-01   -1.041111708e+00    1.005083323e-05    4.166644067e-05    0.000000000e+00    0.000000000e+00    0.000000000e+00    0.000000000e+00
      519000000   -2.619637549e-01   -1.029100657e+00    2.666469663e-05    7.398426533e-06    0.000000000e+00    0.000000000e+00    0.000000000e+00    0.000000000e+00
      526250000   -3.722001314e-01   -1.004681587e+00    1.604203135e-05   -2.172309905e-05    0.000000000e+00    0.000000000e+00    0.000000000e+00    0.000000000e+00
      533500000   -4.792076945e-01   -9.684145451e-01    5.682930350e-06   -1.480802894e-06    0.000000000e+00    0.000000000e+00    0.000000000e+00    0.000000000e+00
      540750000   -5.823733211e-01   -9.195647836e-01   -1.452770084e-05   -3.216788173e-06    0.000000000e+00    0.000000000e+00    0.000000000e+00    0.000000000e+00
      548000000   -6.808105111e-01   -8.588168621e-01   -6.992369890e-06   -1.960247755e-05    0.000000000e+00    0.000000000e+00    0.000000000e+00    0.000000000e+00
      555250000   -7.716305256e-01   -7.864897847e-01   -1.375004649e-05    1.689977944e-05    0.000000000e+00    0.000000000e+00    0.000000000e+00    0.000000000e+00
      562500000   -8.542069197e-01   -7.043771744e-01    1.529790461e-05   -8.646398783e-06    0.000000000e+00    0.000000000e+00    0.000000000e+00    0.000000000e+00
      569750000   -9.270122051e-01   -6.110828519e-01   -1.695565879e-05   -4.223547876e-06    0.000000000e+00    0.000000000e+00    0.000000000e+00    0.000000000e+00
      577000000   -9.878836870e-01   -5.103405714e-01    2.105906606e-05    1.748465002e-05    0.000000000e+00    0.000000000e+00    0.000000000e+00    0.000000000e+00
      584250000   -1.036923647e+00   -4.008067846e-01   -6.030313671e-06   -3.753788769e-05    0.000000000e+00    0.000000000e+00    0.000000000e+00    0.000000000e+00
      591500000   -1.072798014e+00   -2.864985168e-01   -6.907619536e-06   -3.666523844e-05    0.000000000e+00    0.000000000e+00    0.000000000e+00    0.000000000e+00
      598750000   -1.094875932e+00   -1.688304991e-01    8.385628462e-06   -1.373421401e-05    0.000000000e+00    0.000000000e+00    0.000000000e+00    0.000000000e+00
      606000000   -1.101409197e+00   -4.896713048e-02    1.183710992e-06    1.842714846e-05    0.000000000e+00    0.000000000e+00    0.000000000e+00    0.000000000e+00
      613250000   -1.094199300e+00    7.055222988e-02   -2.605561167e-05    7.214955986e-06    0.000000000e+00    0.000000000e+00    0.000000000e+00    0.000000000e+00
      620500000   -1.072004318e+00    1.866580397e-01    2.667028457e-05    4.330649972e-06    0.000000000e+00    0.000000000e+00    0.000000000e+00    0.000000000e+00
      627750000   -1.035387278e+00    3.014559448e-01    1.248437911e-05    1.756288111e-05    0.000000000e+00    0.000000000e+00    0.000000000e+00    0.000000000e+00
      635000000   -9.858062267e-01    4.078855217e-01    1.668930054e-06   -6.195157766e-06    0.000000000e+00    0.000000000e+00    0.000000000e+00    0.000000000e+00
      642250000   -9.238777161e-01    5.091181993e-01    2.207234502e-07   -1.048576087e-05    0.000000000e+00    0.000000000e+00    0.000000000e+00    0.000000000e+00
      649500000   -8.524232507e-01    5.988252759e-01    1.030694693e-05   -6.506219506e-05    0.000000000e+00    0.000000000e+00    0.000000000e+00    0.000000000e+00
      656750000   -7.710369229e-01    6.791214347e-01   -7.778406143e-06    2.857670188e-05    0.000000000e+00    0.000000000e+00    0.000000000e+00    0.000000000e+00
      664000000   -6.812928915e-01    7.497277856e-01   -1.644529402e-05    2.244487405e-07    0.000000000e+00    0.000000000e+00    0.000000000e+00    0.000000000e+00
      671250000   -5.851685405e-01    8.090471029e-01   -6.519258022e-09   -2.237968147e-06    0.000000000e+00    0.000000000e+00    0.000000000e+00    0.000000000e+00
      678500000   -4.840157330e-01    8.550335765e-01    4.847813398e-05   -4.419125617e-06    0.000000000e+00    0.000000000e+00    0.000000000e+00    0.000000000e+00
      685750000   -3.795036077e-01    8.896719217e-01   -6.079860032e-05    2.874620259e-05    0.000000000e+00    0.000000000e+00    0.000000000e+00    0.000000000e+00
      693000000   -2.738483250e-01    9.127436280e-01    2.000760287e-05   -2.468563616e-05    0.000000000e+00    0.000000000e+00    0.000000000e+00    0.000000000e+00
      700250000   -1.663700193e-01    9.236574769e-01    4.469417036e-06    3.273133188e-05    0.000000000e+00    0.000000000e+00    0.000000000e+00    0.000000000e+00
      707500000   -5.951679125e-02    9.227377176e-01    1.161359251e-06    6.608664989e-06    0.000000000e+00    0.000000000e+00    0.000000000e+00    0.000000000e+00
      714750000    4.426490888e-02    9.107553959e-01    1.492816955e-05    7.951632142e-06    0.000000000e+00    0.000000000e+00    0.000000000e+00    0.000000000e+00
      722000000    1.469348669e-01    8.882610202e-01    3.952160478e-05   -5.603767931e-06    0.000000000e+00    0.000000000e+00    0.000000000e+00    0.000000000e+00
      729250000    2.433409393e-01    8.564288020e-01    4.336144775e-05   -4.233233631e-05    0.000000000e+00    0.000000000e+00    0.000000000e+00    0.000000000e+00
      736500000    3.372760713e-01    8.139440417e-01    1.879222691e-05    2.653151751e-05    0.000000000e+00    0.000000000e+00    0.000000000e+00    0.000000000e+00
      743750000    4.246433079e-01    7.633768916e-01   -1.623760909e-05    1.378264278e-05    0.000000000e+00    0.000000000e+00    0.000000000e+00    0.000000000e+00
      751000000    5.063921213e-01    7.046630979e-01    5.554407835e-06    9.725801647e-06    0.000000000e+00    0.000000000e+00    0.000000000e+00    0.000000000e+00
      758250000    5.819340944e-01    6.382593513e-01   -3.541167825e-05    1.308135688e-05    0.000000000e+00    0.000000000e+00    0.000000000e+00    0.000000000e+00
      765500000    6.495014429e-01    5.649105310e-01    3.258232027e-05    4.602596164e-06    0.000000000e+00    0.000000000e+00    0.000000000e+00    0.000000000e+00
      772750000    7.102619410e-01    4.855097532e-01   -4.594214261e-06   -2.707075328e-05    0.000000000e+00    0.000000000e+00    0.000000000e+00    0.000000000e+00
      780000000    7.619485259e-01    4.015241861e-01   -2.850405872e-05   -2.503022552e-05    0.000000000e+00    0.000000000e+00    0.000000000e+00    0.000000000e+00
      787250000    8.072292805e-01    3.096697927e-01    3.100465983e-05   -3.095436841e-05    0.000000000e+00    0.000000000e+00    0.000000000e+00    0.000000000e+00
      794500000    8.424363136e-01    2.152988315e-01   -4.267785698e-05   -1.005828381e-07    0.000000000e+00    0.000000000e+00    0.000000000e+00    0.000000000e+00
      801750000    8.676013350e-01    1.164793149e-01    1.107528806e-05   -9.580515325e-06    0.000000000e+00    0.000000000e+00    0.000000000e+00    0.000000000e+00
      809000000    8.832070827e-01    1.514917146e-02    3.292504698e-05    1.012440771e-05    0.000000000e+00    0.000000000e+00    0.000000000e+00    0.000000000e+00
      816250000    8.883830905e-01   -8.676829189e-02    4.304107279e-05    1.347810030e-05    0.000000000e+00    0.000000000e+00    0.000000000e+00    0.000000000e+00
      823500000    8.821266890e-01   -1.938859075e-01   -2.805609256e-05    3.535766155e-05    0.000000000e+00    0.000000000e+00    0.000000000e+00    0.000000000e+00
      830750000    8.662519455e-01   -2.965888977e-01   -2.083275467e-05    1.733191311e-06    0.000000000e+00    0.000000000e+00    0.000000000e+00    0.000000000e+00
      838000000    8.373414874e-01   -4.005227089e-01   -1.433212310e-05    1.654308289e-05    0.000000000e+00    0.000000000e+00    0.000000000e+00    0.000000000e+00
      845250000    7.967728972e-01   -5.031632185e-01   -9.801238775e-06    4.905462265e-05    0.000000000e+00    0.000000000e+00    0.000000000e+00    0.000000000e+00
      852500000    7.442170382e-01   -6.002373099e-01   -2.733152360e-05    5.625188351e-07    0.000000000e+00    0.000000000e+00    0.000000000e+00    0.000000000e+00
      859750000    6.806060076e-01   -6.920709610e-01    3.180094063e-05   -1.402385533e-05    0.000000000e+00    0.000000000e+00    0.000000000e+00    0.000000000e+00
      867000000    6.024990678e-01   -7.788447142e-01    1.408159733e-05   -1.637171954e-05    0.000000000e+00    0.000000000e+00    0.000000000e+00    0.000000000e+00
      874250000    5.176543593e-01   -8.552656174e-01   -1.470092684e-05    2.588424832e-05    0.000000000e+00    0.000000000e+00    0.000000000e+00    0.000000000e+00
      881500000    4.178310037e-01   -9.218274355e-01   -2.035312355e-05    3.451760858e-05    0.000000000e+00    0.000000000e+00    0.000000000e+00    0.000000000e+00
      888750000    3.118579686e-01   -9.751830101e-01   -5.987752229e-05    1.895241439e-06    0.000000000e+00    0.000000000e+00    0.000000000e+00    0.000000000e+00
      896000000    1.970590055e-01   -1.016318321e+00    9.965151548e-06    3.319513053e-05    0.000000000e+00    0.000000000e+00    0.000000000e+00    0.000000000e+00
      903250000    7.724080980e-02   -1.041763425e+00   -3.043096513e-05    1.387018710e-05    0.000000000e+00    0.000000000e+00    0.000000000e+00    0.000000000e+00
      910500000   -4.642466456e-02   -1.050346971e+00   -4.467554390e-06    2.649705857e-05    0.000000000e+00    0.000000000e+00    0.000000000e+00    0.000000000e+00
      917750000   -1.695576757e-01   -1.042803168e+00   -2.948846668e-05    1.658312976e-05    0.000000000e+00    0.000000000e+00    0.000000000e+00    0.000000000e+00
      925000000   -2.901968956e-01   -1.018376946e+00   -1.208763570e-05    4.389137030e-05    0.000000000e+00    0.000000000e+00    0.000000000e+00    0.000000000e+00
      932250000   -4.103670418e-01   -9.764282107e-01   -4.130695015e-05    1.679733396e-05    0.000000000e+00    0.000000000e+00    0.000000000e+00    0.000000000e+00
      939500000   -5.188331008e-01   -9.200026989e-01    1.019891351e-05    6.265938282e-06    0.000000000e+00    0.000000000e+00    0.000000000e+00    0.000000000e+00
      946750000   -6.187075377e-01   -8.513470888e-01    1.363456249e-06   -3.937631845e-06    0.000000000e+00    0.000000000e+00    0.000000000e+00    0.000000000e+00
      954000000   -7.082742453e-01   -7.669476867e-01    1.566857100e-05    1.295562834e-05    0.000000000e+00    0.000000000e+00    0.000000000e+00    0.000000000e+00
      961250000   -7.829909325e-01   -6.759869456e-01    1.631025225e-05   -3.006309271e-06    0.000000000e+00    0.000000000e+00    0.000000000e+00    0.000000000e+00
      968500000   -8.457037807e-01   -5.762569904e-01    4.479009658e-05    5.812942982e-05    0.000000000e+00    0.000000000e+00    0.000000000e+00    0.000000000e+00
      975750000   -8.940070271e-01   -4.698399305e-01    2.757739276e-05   -1.149345189e-05    0.000000000e+00    0.000000000e+00    0.000000000e+00    0.000000000e+00
      983000000   -9.257395267e-01   -3.634209633e-01   -3.241002560e-06    5.427747965e-06    0.000000000e+00    0.000000000e+00    0.000000000e+00    0.000000000e+00
      990250000   -9.441587329e-01   -2.550650239e-01   -9.590759873e-06    1.191906631e-05    0.000000000e+00    0.000000000e+00    0.000000000e+00    0.000000000e+00
      997500000   -9.500437379e-01   -1.466874927e-01    6.644055247e-06    1.686625183e-06    0.000000000e+00    0.000000000e+00    0.000000000e+00    0.000000000e+00
     1004750000   -9.428019524e-01   -4.133513197e-02   -1.467764378e-06    2.845190465e-06    0.000000000e+00    0.000000000e+00    0.000000000e+00    0.000000000e+00
     1012000000   -9.235160947e-01    5.817160010e-02   -4.402361810e-06   -3.076158464e-06    0.000000000e+00    0.000000000e+00    0.000000000e+00    0.000000000e+00
     1019250000   -8.936114907e-01    1.533183306e-01   -2.980139107e-05   -2.162624151e-05    0.000000000e+00    0.000000000e+00    0.000000000e+00    0.000000000e+00
     1026500000   -8.550388813e-01    2.420402914e-01   -4.237517715e-07    6.614252925e-06    0.000000000e+00    0.000000000e+00    0.000000000e+00    0.000000000e+00
     1033750000   -8.087707758e-01    3.242844939e-01    3.808178008e-06   -1.365225762e-05    0.000000000e+00    0.000000000e+00    0.000000000e+00    0.000000000e+00
     1041000000   -7.560033798e-01    3.976403773e-01    6.985850632e-06    3.923103213e-05    0.000000000e+00    0.000000000e+00    0.000000000e+00    0.000000000e+00
