! NanoVNA-App by OneOfEleven et al v1.1.209 (+OD15) 
! Date: 2024-07-30 15:17:36
! Start: 200MHz Stop: 6GHz Points: 801
! S-Parameter data: F S11 S21 S12 S22
# Hz S RI R 50
!     Frequency           S11_Real           S11_Imag           S21_Real           S21_Imag           S12_Real           S12_Imag           S22_Real           S22_Imag
      200000000   -9.983995557e-01   -1.158744916e-01    4.470348358e-08   -5.215406418e-08    0.000000000e+00    0.000000000e+00    0.000000000e+00    0.000000000e+00
      207250000   -1.010191917e+00   -1.711210422e-02   -2.391822636e-05    8.525326848e-06    0.000000000e+00    0.000000000e+00    0.000000000e+00    0.000000000e+00
      214500000   -1.011308432e+00    8.457548171e-02    1.725833863e-05   -9.382143617e-06    0.000000000e+00    0.000000000e+00    0.000000000e+00    0.000000000e+00
      221750000   -1.002809882e+00    1.873255223e-01    2.785678953e-05   -1.534633338e-05    0.000000000e+00    0.000000000e+00    0.000000000e+00    0.000000000e+00
      229000000   -9.820864201e-01    2.904924452e-01    1.381989568e-05   -4.110019654e-05    0.000000000e+00    0.000000000e+00    0.000000000e+00    0.000000000e+00
      236250000   -9.503085017e-01    3.931814432e-01    1.597218215e-05   -1.922622323e-05    0.000000000e+00    0.000000000e+00    0.000000000e+00    0.000000000e+00
      243500000   -9.057229161e-01    4.928327501e-01    1.323316246e-05    8.404254913e-06    0.000000000e+00    0.000000000e+00    0.000000000e+00    0.000000000e+00
      250750000   -8.494744897e-01    5.896524191e-01   -1.749023795e-06    8.596107364e-06    0.000000000e+00    0.000000000e+00    0.000000000e+00    0.000000000e+00
      258000000   -7.811554074e-01    6.803687215e-01    5.520880222e-06    3.410503268e-06    0.000000000e+00    0.000000000e+00    0.000000000e+00    0.000000000e+00
      265250000   -7.012169957e-01    7.644187212e-01    1.316331327e-05    3.825034946e-05    0.000000000e+00    0.000000000e+00    0.000000000e+00    0.000000000e+00
      272500000   -6.095524430e-01    8.388455510e-01    9.685754776e-08   -2.172961831e-05    0.000000000e+00    0.000000000e+00    0.000000000e+00    0.000000000e+00
      279750000   -5.090108514e-01    9.033082724e-01    2.062879503e-06   -2.324581146e-05    0.000000000e+00    0.000000000e+00    0.000000000e+00    0.000000000e+00
      287000000   -3.980498910e-01    9.552375674e-01   -2.075731754e-05    1.456402242e-05    0.000000000e+00    0.000000000e+00    0.000000000e+00    0.000000000e+00
      294250000   -2.810169756e-01    9.932010174e-01   -2.334546298e-05   -1.472700387e-05    0.000000000e+00    0.000000000e+00    0.000000000e+00    0.000000000e+00
      301500000   -1.585608572e-01    1.015550971e+00   -3.660190850e-05    3.555323929e-05    0.000000000e+00    0.000000000e+00    0.000000000e+00    0.000000000e+00
      308750000   -3.232086450e-02    1.022460938e+00    2.090167254e-05    2.338830382e-05    0.000000000e+00    0.000000000e+00    0.000000000e+00    0.000000000e+00
      316000000    9.361778200e-02    1.013587952e+00    1.240521669e-06    2.342276275e-06    0.000000000e+00    0.000000000e+00    0.000000000e+00    0.000000000e+00
      323250000    2.177510858e-01    9.879841805e-01    2.657715231e-05   -7.066875696e-06    0.000000000e+00    0.000000000e+00    0.000000000e+00    0.000000000e+00
      330500000    3.377903700e-01    9.464910030e-01    1.384411007e-05    1.522246748e-05    0.000000000e+00    0.000000000e+00    0.000000000e+00    0.000000000e+00
      337750000    4.515851140e-01    8.895362616e-01    2.034008503e-05   -6.528571248e-07    0.000000000e+00    0.000000000e+00    0.000000000e+00    0.000000000e+00
      345000000    5.565187931e-01    8.205540776e-01    4.188343883e-05    1.477636397e-05    0.000000000e+00    0.000000000e+00    0.000000000e+00    0.000000000e+00
      352250000    6.512852311e-01    7.370394468e-01    2.970453352e-05   -3.767572343e-05    0.000000000e+00    0.000000000e+00    0.000000000e+00    0.000000000e+00
      359500000    7.344958186e-01    6.439701319e-01   -5.037523806e-06    1.123175025e-06    0.000000000e+00    0.000000000e+00    0.000000000e+00    0.000000000e+00
      366750000    8.050776720e-01    5.427113771e-01   -5.923211575e-06    7.360242307e-06    0.000000000e+00    0.000000000e+00    0.000000000e+00    0.000000000e+00
      374000000    8.619784117e-01    4.352075160e-01   -1.316051930e-05    4.748813808e-06    0.000000000e+00    0.000000000e+00    0.000000000e+00    0.000000000e+00
      381250000    9.055315852e-01    3.207426071e-01   -2.757739276e-05    3.097113222e-05    0.000000000e+00    0.000000000e+00    0.000000000e+00    0.000000000e+00
      388500000    9.344127178e-01    2.054475993e-01    2.027489245e-05    4.557613283e-05    0.000000000e+00    0.000000000e+00    0.000000000e+00    0.000000000e+00
      395750000    9.499936700e-01    8.816668391e-02   -6.058253348e-06   -1.680292189e-05    0.000000000e+00    0.000000000e+00    0.000000000e+00    0.000000000e+00
      403000000    9.526140094e-01   -2.851508930e-02   -1.081824303e-05   -4.061497748e-06    0.000000000e+00    0.000000000e+00    0.000000000e+00    0.000000000e+00
      410250000    9.417889118e-01   -1.444412023e-01   -1.893658191e-05    4.777684808e-07    0.000000000e+00    0.000000000e+00    0.000000000e+00    0.000000000e+00
      417500000    9.190418124e-01   -2.559504807e-01    2.867542207e-06    3.955326974e-06    0.000000000e+00    0.000000000e+00    0.000000000e+00    0.000000000e+00
      424750000    8.840427995e-01   -3.641074896e-01   -1.884065568e-06   -1.847557724e-05    0.000000000e+00    0.000000000e+00    0.000000000e+00    0.000000000e+00
      432000000    8.388547897e-01   -4.662629068e-01    3.609806299e-05   -3.580935299e-06    0.000000000e+00    0.000000000e+00    0.000000000e+00    0.000000000e+00
      439250000    7.834598422e-01   -5.628485084e-01    1.745764166e-05    1.209322363e-05    0.000000000e+00    0.000000000e+00    0.000000000e+00    0.000000000e+00
      446500000    7.186644673e-01   -6.517469287e-01   -3.066100180e-05    4.554167390e-07    0.000000000e+00    0.000000000e+00    0.000000000e+00    0.000000000e+00
      453750000    6.450657248e-01   -7.345054746e-01    3.282912076e-06    4.276540130e-05    0.000000000e+00    0.000000000e+00    0.000000000e+00    0.000000000e+00
      461000000    5.632746816e-01   -8.069676757e-01    2.089329064e-05   -2.286955714e-05    0.000000000e+00    0.000000000e+00    0.000000000e+00    0.000000000e+00
      468250000    4.759431481e-01   -8.719714880e-01    3.747642040e-06   -1.923646778e-05    0.000000000e+00    0.000000000e+00    0.000000000e+00    0.000000000e+00
      475500000    3.807412982e-01   -9.266554713e-01    1.911073923e-06    2.474430948e-05    0.000000000e+00    0.000000000e+00    0.000000000e+00    0.000000000e+00
      482750000    2.820549607e-01   -9.717622995e-01   -4.267971963e-05   -1.098960638e-07    0.000000000e+00    0.000000000e+00    0.000000000e+00    0.000000000e+00
      490000000    1.777590811e-01   -1.006388664e+00   -1.947209239e-05    1.083035022e-05    0.000000000e+00    0.000000000e+00    0.000000000e+00    0.000000000e+00
      497250000    7.013823092e-02   -1.028769732e+00   -8.204951882e-06   -1.410767436e-05    0.000000000e+00    0.000000000e+00    0.000000000e+00    0.000000000e+00
      504500000   -3.974268958e-02   -1.040863156e+00   -1.274980605e-06   -6.766989827e-06    0.000000000e+00    0.000000000e+00    0.000000000e+00    0.000000000e+00
      511750000   -1.505005062e-01   -1.040639758e+00   -1.639407128e-05    4.540942609e-05    0.000000000e+00    0.000000000e+00    0.000000000e+00    0.000000000e+00
      519000000   -2.621929348e-01   -1.029412508e+00   -1.773610711e-05   -1.701898873e-05    0.000000000e+00    0.000000000e+00    0.000000000e+00    0.000000000e+00
      526250000   -3.720873892e-01   -1.004948378e+00   -1.483596861e-06    2.712011337e-05    0.000000000e+00    0.000000000e+00    0.000000000e+00    0.000000000e+00
      533500000   -4.792065918e-01   -9.683564305e-01    8.048489690e-06    2.727843821e-06    0.000000000e+00    0.000000000e+00    0.000000000e+00    0.000000000e+00
      540750000   -5.831384063e-01   -9.191970229e-01    8.316710591e-07   -3.094319254e-05    0.000000000e+00    0.000000000e+00    0.000000000e+00    0.000000000e+00
      548000000   -6.811403632e-01   -8.585931659e-01    2.804212272e-05    1.395586878e-05    0.000000000e+00    0.000000000e+00    0.000000000e+00    0.000000000e+00
      555250000   -7.718613744e-01   -7.862769365e-01    2.149492502e-06    8.366070688e-06    0.000000000e+00    0.000000000e+00    0.000000000e+00    0.000000000e+00
      562500000   -8.547185063e-01   -7.039940357e-01    1.222360879e-05   -1.094304025e-06    0.000000000e+00    0.000000000e+00    0.000000000e+00    0.000000000e+00
      569750000   -9.268977046e-01   -6.111160517e-01   -1.364573836e-05    2.006068826e-06    0.000000000e+00    0.000000000e+00    0.000000000e+00    0.000000000e+00
      577000000   -9.885216951e-01   -5.091599226e-01   -9.499490261e-08    3.730878234e-06    0.000000000e+00    0.000000000e+00    0.000000000e+00    0.000000000e+00
      584250000   -1.037721515e+00   -4.001413584e-01    1.758616418e-05   -2.550147474e-05    0.000000000e+00    0.000000000e+00    0.000000000e+00    0.000000000e+00
      591500000   -1.073100924e+00   -2.875202298e-01    2.162065357e-05   -4.148110747e-05    0.000000000e+00    0.000000000e+00    0.000000000e+00    0.000000000e+00
      598750000   -1.094480753e+00   -1.680319607e-01    2.028141171e-05    1.394189894e-05    0.000000000e+00    0.000000000e+00    0.000000000e+00    0.000000000e+00
      606000000   -1.101539493e+00   -4.857720062e-02    3.566406667e-05    9.021721780e-06    0.000000000e+00    0.000000000e+00    0.000000000e+00    0.000000000e+00
      613250000   -1.093720198e+00    7.020651549e-02    1.217424870e-05   -7.165595889e-06    0.000000000e+00    0.000000000e+00    0.000000000e+00    0.000000000e+00
      620500000   -1.071161628e+00    1.887710392e-01    9.985640645e-06    2.322718501e-06    0.000000000e+00    0.000000000e+00    0.000000000e+00    0.000000000e+00
      627750000   -1.034808874e+00    3.024638295e-01   -2.490356565e-06    1.568533480e-05    0.000000000e+00    0.000000000e+00    0.000000000e+00    0.000000000e+00
      635000000   -9.863309860e-01    4.087908566e-01    1.955218613e-05   -1.988932490e-05    0.000000000e+00    0.000000000e+00    0.000000000e+00    0.000000000e+00
      642250000   -9.238083959e-01    5.090050697e-01   -2.453103662e-06    1.158751547e-05    0.000000000e+00    0.000000000e+00    0.000000000e+00    0.000000000e+00
      649500000   -8.519291878e-01    5.989249349e-01   -2.054683864e-05   -4.355236888e-05    0.000000000e+00    0.000000000e+00    0.000000000e+00    0.000000000e+00
      656750000   -7.707427740e-01    6.795536876e-01   -6.696209311e-07    2.449192107e-05    0.000000000e+00    0.000000000e+00    0.000000000e+00    0.000000000e+00
      664000000   -6.805157065e-01    7.507197857e-01   -1.542270184e-06   -1.106411219e-05    0.000000000e+00    0.000000000e+00    0.000000000e+00    0.000000000e+00
      671250000   -5.848804712e-01    8.083126545e-01    2.683699131e-05   -3.364030272e-05    0.000000000e+00    0.000000000e+00    0.000000000e+00    0.000000000e+00
      678500000   -4.841778874e-01    8.550027013e-01    4.991330206e-05    1.596380025e-05    0.000000000e+00    0.000000000e+00    0.000000000e+00    0.000000000e+00
      685750000   -3.796309233e-01    8.900333047e-01   -6.030406803e-05   -4.578288645e-05    0.000000000e+00    0.000000000e+00    0.000000000e+00    0.000000000e+00
      693000000   -2.733793557e-01    9.117667079e-01    3.700610250e-05    4.514306784e-05    0.000000000e+00    0.000000000e+00    0.000000000e+00    0.000000000e+00
      700250000   -1.668761373e-01    9.234163761e-01    3.902241588e-07    2.389773726e-06    0.000000000e+00    0.000000000e+00    0.000000000e+00    0.000000000e+00
      707500000   -5.970268324e-02    9.223560095e-01    2.586655319e-05   -1.076702029e-05    0.000000000e+00    0.000000000e+00    0.000000000e+00    0.000000000e+00
      714750000    4.409274831e-02    9.109768867e-01   -1.047924161e-05   -1.608114690e-05    0.000000000e+00    0.000000000e+00    0.000000000e+00    0.000000000e+00
      722000000    1.471388340e-01    8.880463839e-01   -2.922117710e-05   -1.192092896e-06    0.000000000e+00    0.000000000e+00    0.000000000e+00    0.000000000e+00
      729250000    2.435238212e-01    8.560210466e-01   -2.473406494e-05   -3.139581531e-05    0.000000000e+00    0.000000000e+00    0.000000000e+00    0.000000000e+00
      736500000    3.369934857e-01    8.140416741e-01   -3.641471267e-06   -4.221685231e-06    0.000000000e+00    0.000000000e+00    0.000000000e+00    0.000000000e+00
      743750000    4.251922071e-01    7.630387545e-01   -1.146551222e-05    6.948597729e-06    0.000000000e+00    0.000000000e+00    0.000000000e+00    0.000000000e+00
      751000000    5.065795183e-01    7.046707273e-01    7.060356438e-06   -1.658685505e-05    0.000000000e+00    0.000000000e+00    0.000000000e+00    0.000000000e+00
      758250000    5.819087029e-01    6.382521987e-01    5.968846381e-06    2.302508801e-05    0.000000000e+00    0.000000000e+00    0.000000000e+00    0.000000000e+00
      765500000    6.497933865e-01    5.648261905e-01   -1.956894994e-05    2.084579319e-05    0.000000000e+00    0.000000000e+00    0.000000000e+00    0.000000000e+00
      772750000    7.106116414e-01    4.851828516e-01    1.117028296e-05    4.923250526e-05    0.000000000e+00    0.000000000e+00    0.000000000e+00    0.000000000e+00
      780000000    7.622564435e-01    4.011054039e-01    3.386288881e-05    3.032013774e-05    0.000000000e+00    0.000000000e+00    0.000000000e+00    0.000000000e+00
      787250000    8.070443273e-01    3.093103766e-01    2.424139529e-05   -1.774635166e-05    0.000000000e+00    0.000000000e+00    0.000000000e+00    0.000000000e+00
      794500000    8.423990607e-01    2.149799168e-01    3.846362233e-07   -3.668107092e-05    0.000000000e+00    0.000000000e+00    0.000000000e+00    0.000000000e+00
      801750000    8.672547340e-01    1.164334565e-01    2.638250589e-05   -4.393141717e-05    0.000000000e+00    0.000000000e+00    0.000000000e+00    0.000000000e+00
      809000000    8.832994699e-01    1.579153910e-02   -2.023950219e-05    5.243346095e-06    0.000000000e+00    0.000000000e+00    0.000000000e+00    0.000000000e+00
      816250000    8.883441687e-01   -8.731124550e-02   -1.256354153e-05   -2.687703818e-05    0.000000000e+00    0.000000000e+00    0.000000000e+00    0.000000000e+00
      823500000    8.824325800e-01   -1.937803924e-01   -3.682728857e-05   -4.070810974e-05    0.000000000e+00    0.000000000e+00    0.000000000e+00    0.000000000e+00
      830750000    8.654509783e-01   -2.982503474e-01   -1.672841609e-05   -1.306738704e-05    0.000000000e+00    0.000000000e+00    0.000000000e+00    0.000000000e+00
      838000000    8.365417123e-01   -4.016180634e-01   -6.173085421e-05   -1.920480281e-05    0.000000000e+00    0.000000000e+00    0.000000000e+00    0.000000000e+00
      845250000    7.958717346e-01   -5.026812553e-01    6.767921150e-06    8.467584848e-06    0.000000000e+00    0.000000000e+00    0.000000000e+00    0.000000000e+00
      852500000    7.432510257e-01   -6.006229520e-01    3.502611071e-05    8.176080883e-05    0.000000000e+00    0.000000000e+00    0.000000000e+00    0.000000000e+00
      859750000    6.800838709e-01   -6.919786930e-01   -2.783350646e-05   -2.242624760e-06    0.000000000e+00    0.000000000e+00    0.000000000e+00    0.000000000e+00
      867000000    6.020076275e-01   -7.788316011e-01   -4.229508340e-05    3.737397492e-06    0.000000000e+00    0.000000000e+00    0.000000000e+00    0.000000000e+00
      874250000    5.165233612e-01   -8.544508815e-01   -1.696310937e-05    3.009103239e-05    0.000000000e+00    0.000000000e+00    0.000000000e+00    0.000000000e+00
      881500000    4.171608388e-01   -9.222440720e-01    2.552010119e-05    6.850808859e-06    0.000000000e+00    0.000000000e+00    0.000000000e+00    0.000000000e+00
      888750000    3.123164177e-01   -9.755519032e-01    1.521594822e-05   -8.828938007e-07    0.000000000e+00    0.000000000e+00    0.000000000e+00    0.000000000e+00
      896000000    1.969688535e-01   -1.016145945e+00   -8.977949619e-07   -4.176422954e-05    0.000000000e+00    0.000000000e+00    0.000000000e+00    0.000000000e+00
      903250000    7.693117112e-02   -1.041790247e+00    3.488548100e-05    1.837499440e-06    0.000000000e+00    0.000000000e+00    0.000000000e+00    0.000000000e+00
      910500000   -4.622227326e-02   -1.050832987e+00   -1.326855272e-05    1.441687346e-06    0.000000000e+00    0.000000000e+00    0.000000000e+00    0.000000000e+00
      917750000   -1.696737409e-01   -1.042561889e+00   -5.552731454e-05   -2.198386937e-05    0.000000000e+00    0.000000000e+00    0.000000000e+00    0.000000000e+00
      925000000   -2.919981778e-01   -1.018251419e+00    5.040317774e-06   -3.073643893e-05    0.000000000e+00    0.000000000e+00    0.000000000e+00    0.000000000e+00
      932250000   -4.107648134e-01   -9.758075476e-01    2.081412822e-05   -1.020543277e-05    0.000000000e+00    0.000000000e+00    0.000000000e+00    0.000000000e+00
      939500000   -5.191464424e-01   -9.199889302e-01   -8.633360267e-07    2.174824476e-05    0.000000000e+00    0.000000000e+00    0.000000000e+00    0.000000000e+00
      946750000   -6.191098094e-01   -8.494885564e-01   -1.629535109e-05    8.399598300e-06    0.000000000e+00    0.000000000e+00    0.000000000e+00    0.000000000e+00
      954000000   -7.072280645e-01   -7.686678767e-01    5.414709449e-06    7.703248411e-05    0.000000000e+00    0.000000000e+00    0.000000000e+00    0.000000000e+00
      961250000   -7.831240296e-01   -6.761599779e-01   -3.866013139e-05    5.287770182e-05    0.000000000e+00    0.000000000e+00    0.000000000e+00    0.000000000e+00
      968500000   -8.463181257e-01   -5.749648213e-01   -1.106597483e-05    3.188848495e-05    0.000000000e+00    0.000000000e+00    0.000000000e+00    0.000000000e+00
      975750000   -8.927365541e-01   -4.714270532e-01   -8.738599718e-06    2.678018063e-05    0.000000000e+00    0.000000000e+00    0.000000000e+00    0.000000000e+00
      983000000   -9.257521033e-01   -3.632384837e-01   -4.116445780e-06   -1.483410597e-05    0.000000000e+00    0.000000000e+00    0.000000000e+00    0.000000000e+00
      990250000   -9.442462921e-01   -2.544808686e-01    9.768642485e-06    2.917088568e-05    0.000000000e+00    0.000000000e+00    0.000000000e+00    0.000000000e+00
      997500000   -9.500276446e-01   -1.463658661e-01   -9.670853615e-06    3.315508366e-07    0.000000000e+00    0.000000000e+00    0.000000000e+00    0.000000000e+00
     1004750000   -9.426913857e-01   -4.307464138e-02    1.701526344e-05    1.181848347e-05    0.000000000e+00    0.000000000e+00    0.000000000e+00    0.000000000e+00
     1012000000   -9.234336019e-01    5.735441670e-02   -8.549541235e-07   -2.892874181e-05    0.000000000e+00    0.000000000e+00    0.000000000e+00    0.000000000e+00
     1019250000   -8.936300278e-01    1.528090984e-01   -4.704110324e-06    1.360755414e-05    0.000000000e+00    0.000000000e+00    0.000000000e+00    0.000000000e+00
     1026500000   -8.554465771e-01    2.420381755e-01   -1.625623554e-05    1.635309309e-05    0.000000000e+00    0.000000000e+00    0.000000000e+00    0.000000000e+00
     1033750000   -8.090478182e-01    3.238555789e-01    2.683605999e-05   -8.340924978e-06    0.000000000e+00    0.000000000e+00    0.000000000e+00    0.000000000e+00
     1041000000   -7.548955679e-01    3.988312781e-01    3.031827509e-05   -1.527369022e-05    0.000000000e+00    0.000000000e+00    0.000000000e+00    0.000000000e+00
