! NanoVNA-App by OneOfEleven et al v1.1.209 (+OD15) 
! Date: 2024-07-30 15:18:00
! Start: 200MHz Stop: 6GHz Points: 801
! S-Parameter data: F S11 S21 S12 S22
# Hz S RI R 50
!     Frequency           S11_Real           S11_Imag           S21_Real           S21_Imag           S12_Real           S12_Imag           S22_Real           S22_Imag
      200000000   -9.987394810e-01   -1.157264337e-01    3.154389560e-05    1.224316657e-05    0.000000000e+00    0.000000000e+00    0.000000000e+00    0.000000000e+00
      207250000   -1.010313630e+00   -1.675202511e-02    1.193955541e-06   -1.208577305e-05    0.000000000e+00    0.000000000e+00    0.000000000e+00    0.000000000e+00
      214500000   -1.011491060e+00    8.474278450e-02    1.919735223e-05    1.020915806e-05    0.000000000e+00    0.000000000e+00    0.000000000e+00    0.000000000e+00
      221750000   -1.002652645e+00    1.872722208e-01    1.894216985e-05   -1.930631697e-06    0.000000000e+00    0.000000000e+00    0.000000000e+00    0.000000000e+00
      229000000   -9.826699495e-01    2.904393971e-01   -2.578832209e-06   -1.944880933e-05    0.000000000e+00    0.000000000e+00    0.000000000e+00    0.000000000e+00
      236250000   -9.492997527e-01    3.935318589e-01    3.347732127e-05   -2.159457654e-05    0.000000000e+00    0.000000000e+00    0.000000000e+00    0.000000000e+00
      243500000   -9.061143398e-01    4.935655892e-01   -6.656162441e-06    1.380499452e-05    0.000000000e+00    0.000000000e+00    0.000000000e+00    0.000000000e+00
      250750000   -8.490949273e-01    5.902753472e-01   -2.753920853e-05   -3.548059613e-05    0.000000000e+00    0.000000000e+00    0.000000000e+00    0.000000000e+00
      258000000   -7.810704708e-01    6.810330153e-01   -1.456029713e-05    1.398846507e-06    0.000000000e+00    0.000000000e+00    0.000000000e+00    0.000000000e+00
      265250000   -7.008674741e-01    7.646805048e-01   -8.972361684e-06   -1.749210060e-05    0.000000000e+00    0.000000000e+00    0.000000000e+00    0.000000000e+00
      272500000   -6.093932986e-01    8.390907049e-01    2.587493509e-05    2.358015627e-05    0.000000000e+00    0.000000000e+00    0.000000000e+00    0.000000000e+00
      279750000   -5.083795786e-01    9.033657908e-01    9.709969163e-06   -2.689007670e-05    0.000000000e+00    0.000000000e+00    0.000000000e+00    0.000000000e+00
      287000000   -3.974683583e-01    9.552605748e-01    3.181956708e-05    3.464333713e-05    0.000000000e+00    0.000000000e+00    0.000000000e+00    0.000000000e+00
      294250000   -2.807930112e-01    9.935525656e-01   -3.572925925e-05    6.848014891e-06    0.000000000e+00    0.000000000e+00    0.000000000e+00    0.000000000e+00
      301500000   -1.574968398e-01    1.015115738e+00    7.057562470e-06    5.939044058e-06    0.000000000e+00    0.000000000e+00    0.000000000e+00    0.000000000e+00
      308750000   -3.275224194e-02    1.023347616e+00    1.750793308e-05    7.115304470e-06    0.000000000e+00    0.000000000e+00    0.000000000e+00    0.000000000e+00
      316000000    9.412650764e-02    1.013617396e+00    2.211891115e-06   -2.538319677e-05    0.000000000e+00    0.000000000e+00    0.000000000e+00    0.000000000e+00
      323250000    2.183549553e-01    9.876974821e-01    9.507872164e-06    3.553368151e-05    0.000000000e+00    0.000000000e+00    0.000000000e+00    0.000000000e+00
      330500000    3.385124505e-01    9.461753964e-01    1.826137304e-05    1.437775791e-05    0.000000000e+00    0.000000000e+00    0.000000000e+00    0.000000000e+00
      337750000    4.522971213e-01    8.896939158e-01   -1.548789442e-06   -2.672523260e-05    0.000000000e+00    0.000000000e+00    0.000000000e+00    0.000000000e+00
      345000000    5.571802855e-01    8.197072744e-01   -1.622457057e-05    5.774199963e-06    0.000000000e+00    0.000000000e+00    0.000000000e+00    0.000000000e+00
      352250000    6.514822841e-01    7.369105220e-01   -2.289749682e-05    1.617055386e-05    0.000000000e+00    0.000000000e+00    0.000000000e+00    0.000000000e+00
      359500000    7.347087264e-01    6.440465450e-01    2.588424832e-05    5.680508912e-05    0.000000000e+00    0.000000000e+00    0.000000000e+00    0.000000000e+00
      366750000    8.051715493e-01    5.424713492e-01    1.722108573e-05    1.934543252e-05    0.000000000e+00    0.000000000e+00    0.000000000e+00    0.000000000e+00
      374000000    8.622568846e-01    4.348384142e-01   -8.682720363e-06   -1.548137516e-05    0.000000000e+00    0.000000000e+00    0.000000000e+00    0.000000000e+00
      381250000    9.049902558e-01    3.203513920e-01    2.061948180e-06   -1.907814294e-05    0.000000000e+00    0.000000000e+00    0.000000000e+00    0.000000000e+00
      388500000    9.347268939e-01    2.045019716e-01   -4.737079144e-05   -6.987713277e-06    0.000000000e+00    0.000000000e+00    0.000000000e+00    0.000000000e+00
      395750000    9.499951601e-01    8.679920435e-02   -4.865694791e-05   -1.807603985e-05    0.000000000e+00    0.000000000e+00    0.000000000e+00    0.000000000e+00
      403000000    9.523394108e-01   -2.868513018e-02   -1.759920269e-05   -2.301298082e-06    0.000000000e+00    0.000000000e+00    0.000000000e+00    0.000000000e+00
      410250000    9.412674904e-01   -1.449881941e-01   -1.103244722e-05   -4.818663001e-06    0.000000000e+00    0.000000000e+00    0.000000000e+00    0.000000000e+00
      417500000    9.191944599e-01   -2.558878064e-01   -1.096446067e-05   -4.209019244e-05    0.000000000e+00    0.000000000e+00    0.000000000e+00    0.000000000e+00
      424750000    8.840631843e-01   -3.646061122e-01   -8.180737495e-06   -2.497248352e-05    0.000000000e+00    0.000000000e+00    0.000000000e+00    0.000000000e+00
      432000000    8.384828568e-01   -4.664799869e-01   -1.649837941e-05   -2.715270966e-05    0.000000000e+00    0.000000000e+00    0.000000000e+00    0.000000000e+00
      439250000    7.831077576e-01   -5.637469292e-01    2.285931259e-05    7.316470146e-06    0.000000000e+00    0.000000000e+00    0.000000000e+00    0.000000000e+00
      446500000    7.185407877e-01   -6.518994570e-01    3.201887012e-05   -2.862513065e-05    0.000000000e+00    0.000000000e+00    0.000000000e+00    0.000000000e+00
      453750000    6.443527937e-01   -7.350537181e-01   -2.106186002e-05   -4.001893103e-06    0.000000000e+00    0.000000000e+00    0.000000000e+00    0.000000000e+00
      461000000    5.634025931e-01   -8.072085381e-01    1.788046211e-05   -1.171790063e-05    0.000000000e+00    0.000000000e+00    0.000000000e+00    0.000000000e+00
      468250000    4.758712053e-01   -8.718971610e-01    2.766773105e-05   -1.465622336e-05    0.000000000e+00    0.000000000e+00    0.000000000e+00    0.000000000e+00
      475500000    3.802689910e-01   -9.268582463e-01    8.818693459e-06   -5.840323865e-06    0.000000000e+00    0.000000000e+00    0.000000000e+00    0.000000000e+00
      482750000    2.804836333e-01   -9.718121886e-01    2.285651863e-05   -1.509953290e-05    0.000000000e+00    0.000000000e+00    0.000000000e+00    0.000000000e+00
      490000000    1.762061417e-01   -1.005787611e+00    2.574641258e-05    1.973286271e-05    0.000000000e+00    0.000000000e+00    0.000000000e+00    0.000000000e+00
      497250000    6.990223378e-02   -1.029210448e+00   -3.577210009e-06   -3.603566438e-05    0.000000000e+00    0.000000000e+00    0.000000000e+00    0.000000000e+00
      504500000   -4.025767371e-02   -1.040582299e+00    5.313195288e-06    6.031244993e-06    0.000000000e+00    0.000000000e+00    0.000000000e+00    0.000000000e+00
      511750000   -1.512874663e-01   -1.040782213e+00   -3.196951002e-05   -3.044400364e-05    0.000000000e+00    0.000000000e+00    0.000000000e+00    0.000000000e+00
      519000000   -2.623821497e-01   -1.028855443e+00   -1.323595643e-05    1.918990165e-05    0.000000000e+00    0.000000000e+00    0.000000000e+00    0.000000000e+00
      526250000   -3.724372387e-01   -1.004586816e+00   -4.916451871e-06    1.681409776e-05    0.000000000e+00    0.000000000e+00    0.000000000e+00    0.000000000e+00
      533500000   -4.803972840e-01   -9.677996039e-01   -1.318287104e-05    3.949180245e-05    0.000000000e+00    0.000000000e+00    0.000000000e+00    0.000000000e+00
      540750000   -5.832253695e-01   -9.185502529e-01   -7.811002433e-06    2.086628228e-05    0.000000000e+00    0.000000000e+00    0.000000000e+00    0.000000000e+00
      548000000   -6.811193824e-01   -8.585844636e-01    3.092736006e-05    1.198612154e-05    0.000000000e+00    0.000000000e+00    0.000000000e+00    0.000000000e+00
      555250000   -7.725912333e-01   -7.852010131e-01   -5.930662155e-06    2.232100815e-05    0.000000000e+00    0.000000000e+00    0.000000000e+00    0.000000000e+00
      562500000   -8.551021814e-01   -7.024887800e-01   -1.282989979e-05   -4.571117461e-05    0.000000000e+00    0.000000000e+00    0.000000000e+00    0.000000000e+00
      569750000   -9.272463322e-01   -6.096711159e-01   -2.594850957e-05   -3.210734576e-05    0.000000000e+00    0.000000000e+00    0.000000000e+00    0.000000000e+00
      577000000   -9.884311557e-01   -5.087670088e-01   -2.572219819e-05   -1.906417310e-05    0.000000000e+00    0.000000000e+00    0.000000000e+00    0.000000000e+00
      584250000   -1.036942720e+00   -3.994828165e-01    1.315120608e-05   -2.354104072e-05    0.000000000e+00    0.000000000e+00    0.000000000e+00    0.000000000e+00
      591500000   -1.072842836e+00   -2.853321135e-01   -1.668930054e-06    4.297122359e-06    0.000000000e+00    0.000000000e+00    0.000000000e+00    0.000000000e+00
      598750000   -1.093975663e+00   -1.668580323e-01   -4.327856004e-06   -4.210788757e-05    0.000000000e+00    0.000000000e+00    0.000000000e+00    0.000000000e+00
      606000000   -1.101242781e+00   -4.805447161e-02   -2.424325794e-05   -4.690419883e-05    0.000000000e+00    0.000000000e+00    0.000000000e+00    0.000000000e+00
      613250000   -1.093209624e+00    7.067501545e-02    2.761185169e-05   -5.872920156e-06    0.000000000e+00    0.000000000e+00    0.000000000e+00    0.000000000e+00
      620500000   -1.070921183e+00    1.892207712e-01   -1.098494977e-05   -5.297176540e-05    0.000000000e+00    0.000000000e+00    0.000000000e+00    0.000000000e+00
      627750000   -1.035577893e+00    3.024626374e-01    5.021225661e-05   -4.291441292e-05    0.000000000e+00    0.000000000e+00    0.000000000e+00    0.000000000e+00
      635000000   -9.851177335e-01    4.088062048e-01    2.162996680e-05   -3.609899431e-05    0.000000000e+00    0.000000000e+00    0.000000000e+00    0.000000000e+00
      642250000   -9.232881665e-01    5.093964934e-01   -2.358295023e-05   -3.769900650e-05    0.000000000e+00    0.000000000e+00    0.000000000e+00    0.000000000e+00
      649500000   -8.516606688e-01    5.997059941e-01    4.808325320e-05    4.804600030e-05    0.000000000e+00    0.000000000e+00    0.000000000e+00    0.000000000e+00
      656750000   -7.697708607e-01    6.802721620e-01   -3.642030060e-05   -1.924857497e-05    0.000000000e+00    0.000000000e+00    0.000000000e+00    0.000000000e+00
      664000000   -6.800677180e-01    7.496271729e-01   -2.606678754e-05   -3.244914114e-05    0.000000000e+00    0.000000000e+00    0.000000000e+00    0.000000000e+00
      671250000   -5.831932425e-01    8.081849813e-01    4.370696843e-06    2.181343734e-05    0.000000000e+00    0.000000000e+00    0.000000000e+00    0.000000000e+00
      678500000   -4.827091992e-01    8.546539545e-01    2.230238169e-05    1.076422632e-05    0.000000000e+00    0.000000000e+00    0.000000000e+00    0.000000000e+00
      685750000   -3.781815171e-01    8.896433115e-01    2.049282193e-05   -1.463852823e-05    0.000000000e+00    0.000000000e+00    0.000000000e+00    0.000000000e+00
      693000000   -2.721701860e-01    9.123471975e-01   -4.390440881e-05    1.474376768e-05    0.000000000e+00    0.000000000e+00    0.000000000e+00    0.000000000e+00
      700250000   -1.652962118e-01    9.227457047e-01    1.031253487e-05    4.958640784e-05    0.000000000e+00    0.000000000e+00    0.000000000e+00    0.000000000e+00
      707500000   -5.893065035e-02    9.221714735e-01    2.767704427e-05   -2.487562597e-06    0.000000000e+00    0.000000000e+00    0.000000000e+00    0.000000000e+00
      714750000    4.519987851e-02    9.105059505e-01    1.617427915e-05    4.190951586e-07    0.000000000e+00    0.000000000e+00    0.000000000e+00    0.000000000e+00
      722000000    1.481261700e-01    8.875406384e-01   -7.314607501e-06    1.572072506e-05    0.000000000e+00    0.000000000e+00    0.000000000e+00    0.000000000e+00
      729250000    2.448893934e-01    8.549338579e-01    2.644490451e-05   -1.786276698e-05    0.000000000e+00    0.000000000e+00    0.000000000e+00    0.000000000e+00
      736500000    3.378447592e-01    8.130019903e-01    5.940906703e-06    2.218224108e-05    0.000000000e+00    0.000000000e+00    0.000000000e+00    0.000000000e+00
      743750000    4.252276421e-01    7.626949549e-01    3.053247929e-05    3.863684833e-05    0.000000000e+00    0.000000000e+00    0.000000000e+00    0.000000000e+00
      751000000    5.063446760e-01    7.043541074e-01   -2.000667155e-05   -4.632677883e-05    0.000000000e+00    0.000000000e+00    0.000000000e+00    0.000000000e+00
      758250000    5.818077326e-01    6.371474266e-01    1.057330519e-05   -1.152977347e-05    0.000000000e+00    0.000000000e+00    0.000000000e+00    0.000000000e+00
      765500000    6.501019001e-01    5.641207099e-01   -1.951307058e-05    9.069219232e-06    0.000000000e+00    0.000000000e+00    0.000000000e+00    0.000000000e+00
      772750000    7.106669545e-01    4.847062230e-01   -1.531932503e-05    1.039076596e-05    0.000000000e+00    0.000000000e+00    0.000000000e+00    0.000000000e+00
      780000000    7.628006935e-01    4.006967247e-01   -7.678754628e-06    1.987162977e-05    0.000000000e+00    0.000000000e+00    0.000000000e+00    0.000000000e+00
      787250000    8.072823882e-01    3.081234694e-01   -6.453134120e-06   -9.393319488e-06    0.000000000e+00    0.000000000e+00    0.000000000e+00    0.000000000e+00
      794500000    8.417270780e-01    2.143439651e-01    4.343222827e-05   -1.711770892e-06    0.000000000e+00    0.000000000e+00    0.000000000e+00    0.000000000e+00
      801750000    8.669925928e-01    1.162361577e-01   -1.318473369e-05    9.131617844e-06    0.000000000e+00    0.000000000e+00    0.000000000e+00    0.000000000e+00
      809000000    8.828262091e-01    1.408630237e-02    3.213249147e-05    2.553686500e-06    0.000000000e+00    0.000000000e+00    0.000000000e+00    0.000000000e+00
      816250000    8.877391815e-01   -8.933302760e-02   -2.084206790e-05   -3.918074071e-06    0.000000000e+00    0.000000000e+00    0.000000000e+00    0.000000000e+00
      823500000    8.819031715e-01   -1.945283413e-01   -4.663132131e-06    2.230610698e-05    0.000000000e+00    0.000000000e+00    0.000000000e+00    0.000000000e+00
      830750000    8.642059565e-01   -2.995539010e-01   -4.903413355e-06   -5.596317351e-06    0.000000000e+00    0.000000000e+00    0.000000000e+00    0.000000000e+00
      838000000    8.360823393e-01   -4.022165239e-01    7.709488273e-06    1.760385931e-05    0.000000000e+00    0.000000000e+00    0.000000000e+00    0.000000000e+00
      845250000    7.962009311e-01   -5.021736622e-01    6.283633411e-06   -2.980977297e-05    0.000000000e+00    0.000000000e+00    0.000000000e+00    0.000000000e+00
      852500000    7.419471145e-01   -6.020399332e-01    1.280475408e-05   -5.510635674e-06    0.000000000e+00    0.000000000e+00    0.000000000e+00    0.000000000e+00
      859750000    6.795679927e-01   -6.923490763e-01    4.311371595e-05    4.757661372e-05    0.000000000e+00    0.000000000e+00    0.000000000e+00    0.000000000e+00
      867000000    6.002285480e-01   -7.798583508e-01   -1.159217209e-05    4.081986845e-06    0.000000000e+00    0.000000000e+00    0.000000000e+00    0.000000000e+00
      874250000    5.159075856e-01   -8.550661802e-01   -1.931004226e-05    1.605972648e-05    0.000000000e+00    0.000000000e+00    0.000000000e+00    0.000000000e+00
      881500000    4.168507159e-01   -9.217306376e-01    2.978276461e-05    3.562308848e-06    0.000000000e+00    0.000000000e+00    0.000000000e+00    0.000000000e+00
      888750000    3.099193871e-01   -9.751316309e-01    6.683170795e-06    2.333149314e-05    0.000000000e+00    0.000000000e+00    0.000000000e+00    0.000000000e+00
      896000000    1.960912794e-01   -1.016080856e+00    2.026092261e-05   -1.440569758e-05    0.000000000e+00    0.000000000e+00    0.000000000e+00    0.000000000e+00
      903250000    7.474967837e-02   -1.040665388e+00   -2.408679575e-05    3.433041275e-05    0.000000000e+00    0.000000000e+00    0.000000000e+00    0.000000000e+00
      910500000   -4.762040079e-02   -1.049315214e+00   -4.210881889e-05    3.363378346e-05    0.000000000e+00    0.000000000e+00    0.000000000e+00    0.000000000e+00
      917750000   -1.714528948e-01   -1.041810989e+00    1.854635775e-05    1.201592386e-05    0.000000000e+00    0.000000000e+00    0.000000000e+00    0.000000000e+00
      925000000   -2.925145030e-01   -1.017116070e+00    4.153791815e-05    4.691071808e-06    0.000000000e+00    0.000000000e+00    0.000000000e+00    0.000000000e+00
      932250000   -4.099767506e-01   -9.754558802e-01   -5.455594510e-05   -1.921132207e-05    0.000000000e+00    0.000000000e+00    0.000000000e+00    0.000000000e+00
      939500000   -5.199413300e-01   -9.189581275e-01    3.472901881e-06    1.009367406e-05    0.000000000e+00    0.000000000e+00    0.000000000e+00    0.000000000e+00
      946750000   -6.182745695e-01   -8.492403030e-01    2.090819180e-06    3.885384649e-05    0.000000000e+00    0.000000000e+00    0.000000000e+00    0.000000000e+00
      954000000   -7.100901008e-01   -7.648342848e-01    6.430782378e-06   -5.110073835e-05    0.000000000e+00    0.000000000e+00    0.000000000e+00    0.000000000e+00
      961250000   -7.838093638e-01   -6.747568846e-01   -6.217882037e-05    2.474244684e-05    0.000000000e+00    0.000000000e+00    0.000000000e+00    0.000000000e+00
      968500000   -8.458865881e-01   -5.738168955e-01   -3.343727440e-05    1.747719944e-05    0.000000000e+00    0.000000000e+00    0.000000000e+00    0.000000000e+00
      975750000   -8.925784230e-01   -4.695805907e-01   -6.425194442e-06    8.027069271e-06    0.000000000e+00    0.000000000e+00    0.000000000e+00    0.000000000e+00
      983000000   -9.257110953e-01   -3.611248136e-01   -1.417193562e-05    1.773238182e-05    0.000000000e+00    0.000000000e+00    0.000000000e+00    0.000000000e+00
      990250000   -9.443705082e-01   -2.525129616e-01    1.658685505e-05   -9.218230844e-06    0.000000000e+00    0.000000000e+00    0.000000000e+00    0.000000000e+00
      997500000   -9.492531419e-01   -1.453770697e-01    4.511326551e-06   -1.841224730e-05    0.000000000e+00    0.000000000e+00    0.000000000e+00    0.000000000e+00
     1004750000   -9.415393472e-01   -4.011289030e-02   -3.265589476e-05   -2.421438694e-06    0.000000000e+00    0.000000000e+00    0.000000000e+00    0.000000000e+00
     1012000000   -9.225309491e-01    5.916758627e-02    1.824554056e-05    7.042661309e-06    0.000000000e+00    0.000000000e+00    0.000000000e+00    0.000000000e+00
     1019250000   -8.928392529e-01    1.543993652e-01    3.672856838e-05    8.305627853e-05    0.000000000e+00    0.000000000e+00    0.000000000e+00    0.000000000e+00
     1026500000   -8.547566533e-01    2.427034527e-01    3.980472684e-06   -3.212131560e-06    0.000000000e+00    0.000000000e+00    0.000000000e+00    0.000000000e+00
     1033750000   -8.077012300e-01    3.246316016e-01   -8.583068848e-06   -4.458148032e-05    0.000000000e+00    0.000000000e+00    0.000000000e+00    0.000000000e+00
     1041000000   -7.540290952e-01    3.991909027e-01   -1.543201506e-05   -4.952773452e-06    0.000000000e+00    0.000000000e+00    0.000000000e+00    0.000000000e+00
