! NanoVNA-App by OneOfEleven et al v1.1.209 (+OD15) 
! Date: 2024-07-30 15:18:05
! Start: 200MHz Stop: 6GHz Points: 801
! S-Parameter data: F S11 S21 S12 S22
# Hz S RI R 50
!     Frequency           S11_Real           S11_Imag           S21_Real           S21_Imag           S12_Real           S12_Imag           S22_Real           S22_Imag
      200000000   -9.989621043e-01   -1.157993600e-01   -4.380196333e-05    4.290603101e-06    0.000000000e+00    0.000000000e+00    0.000000000e+00    0.000000000e+00
      207250000   -1.010190606e+00   -1.649790443e-02    1.166760921e-05   -1.699663699e-05    0.000000000e+00    0.000000000e+00    0.000000000e+00    0.000000000e+00
      214500000   -1.012130499e+00    8.458355069e-02   -4.347693175e-05    7.681548595e-06    0.000000000e+00    0.000000000e+00    0.000000000e+00    0.000000000e+00
      221750000   -1.002189636e+00    1.879202574e-01   -3.980472684e-06   -2.317968756e-05    0.000000000e+00    0.000000000e+00    0.000000000e+00    0.000000000e+00
      229000000   -9.825198054e-01    2.907010913e-01   -1.969374716e-05   -1.876894385e-05    0.000000000e+00    0.000000000e+00    0.000000000e+00    0.000000000e+00
      236250000   -9.493884444e-01    3.930020332e-01    2.020969987e-05   -1.445226371e-05    0.000000000e+00    0.000000000e+00    0.000000000e+00    0.000000000e+00
      243500000   -9.054807425e-01    4.936071336e-01   -2.024695277e-06    2.670381218e-05    0.000000000e+00    0.000000000e+00    0.000000000e+00    0.000000000e+00
      250750000   -8.491916060e-01    5.898944139e-01   -1.645646989e-05   -6.200745702e-06    0.000000000e+00    0.000000000e+00    0.000000000e+00    0.000000000e+00
      258000000   -7.809041142e-01    6.807387471e-01   -2.616364509e-05   -4.892703146e-05    0.000000000e+00    0.000000000e+00    0.000000000e+00    0.000000000e+00
      265250000   -7.010306120e-01    7.644501328e-01    1.893658191e-05    4.656612873e-06    0.000000000e+00    0.000000000e+00    0.000000000e+00    0.000000000e+00
      272500000   -6.091637015e-01    8.401384950e-01   -2.887099981e-07    1.642294228e-05    0.000000000e+00    0.000000000e+00    0.000000000e+00    0.000000000e+00
      279750000   -5.082798004e-01    9.035885334e-01   -3.650784492e-07    6.105750799e-06    0.000000000e+00    0.000000000e+00    0.000000000e+00    0.000000000e+00
      287000000   -3.982879519e-01    9.551296830e-01   -9.518116713e-06   -3.559794277e-05    0.000000000e+00    0.000000000e+00    0.000000000e+00    0.000000000e+00
      294250000   -2.806212604e-01    9.934649467e-01    3.317836672e-05   -4.312023520e-06    0.000000000e+00    0.000000000e+00    0.000000000e+00    0.000000000e+00
      301500000   -1.580512524e-01    1.015946984e+00   -3.493670374e-05   -1.459289342e-05    0.000000000e+00    0.000000000e+00    0.000000000e+00    0.000000000e+00
      308750000   -3.229665384e-02    1.022905707e+00    1.346785575e-05    2.861022949e-05    0.000000000e+00    0.000000000e+00    0.000000000e+00    0.000000000e+00
      316000000    9.397833049e-02    1.013606310e+00   -1.337751746e-05    1.973472536e-05    0.000000000e+00    0.000000000e+00    0.000000000e+00    0.000000000e+00
      323250000    2.186007500e-01    9.875137210e-01   -8.494593203e-06   -2.367421985e-06    0.000000000e+00    0.000000000e+00    0.000000000e+00    0.000000000e+00
      330500000    3.382567763e-01    9.462156892e-01   -4.364084452e-05   -9.580515325e-06    0.000000000e+00    0.000000000e+00    0.000000000e+00    0.000000000e+00
      337750000    4.516519904e-01    8.896306753e-01   -1.495052129e-05   -6.511807442e-06    0.000000000e+00    0.000000000e+00    0.000000000e+00    0.000000000e+00
      345000000    5.569175482e-01    8.197117448e-01   -2.488214523e-05    3.073085099e-05    0.000000000e+00    0.000000000e+00    0.000000000e+00    0.000000000e+00
      352250000    6.518012285e-01    7.371419072e-01    3.503635526e-06    3.834255040e-05    0.000000000e+00    0.000000000e+00    0.000000000e+00    0.000000000e+00
      359500000    7.348507643e-01    6.439870000e-01   -1.033023000e-05    4.119239748e-06    0.000000000e+00    0.000000000e+00    0.000000000e+00    0.000000000e+00
      366750000    8.048703074e-01    5.419710279e-01    3.343354911e-05    9.278766811e-06    0.000000000e+00    0.000000000e+00    0.000000000e+00    0.000000000e+00
      374000000    8.623849750e-01    4.344145954e-01   -2.035871148e-06   -6.171874702e-06    0.000000000e+00    0.000000000e+00    0.000000000e+00    0.000000000e+00
      381250000    9.056527615e-01    3.205817342e-01    1.819804311e-05    1.398380846e-05    0.000000000e+00    0.000000000e+00    0.000000000e+00    0.000000000e+00
      388500000    9.347598553e-01    2.045324296e-01    2.223532647e-05   -6.932765245e-06    0.000000000e+00    0.000000000e+00    0.000000000e+00    0.000000000e+00
      395750000    9.502804279e-01    8.739451319e-02    2.018176019e-05    4.446133971e-06    0.000000000e+00    0.000000000e+00    0.000000000e+00    0.000000000e+00
      403000000    9.526634216e-01   -2.895774692e-02   -4.128832370e-05    4.643201828e-05    0.000000000e+00    0.000000000e+00    0.000000000e+00    0.000000000e+00
      410250000    9.418597817e-01   -1.447157264e-01   -3.884173930e-05   -1.049414277e-05    0.000000000e+00    0.000000000e+00    0.000000000e+00    0.000000000e+00
      417500000    9.185554981e-01   -2.564142942e-01   -7.149763405e-06   -6.656162441e-06    0.000000000e+00    0.000000000e+00    0.000000000e+00    0.000000000e+00
      424750000    8.835879564e-01   -3.650468588e-01    5.744397640e-06    8.936971426e-06    0.000000000e+00    0.000000000e+00    0.000000000e+00    0.000000000e+00
      432000000    8.387638927e-01   -4.667257369e-01    3.659166396e-05    1.463014632e-05    0.000000000e+00    0.000000000e+00    0.000000000e+00    0.000000000e+00
      439250000    7.832237482e-01   -5.632323027e-01   -2.694595605e-05   -1.168157905e-05    0.000000000e+00    0.000000000e+00    0.000000000e+00    0.000000000e+00
      446500000    7.187281847e-01   -6.520348191e-01   -3.320816904e-05    2.340972424e-05    0.000000000e+00    0.000000000e+00    0.000000000e+00    0.000000000e+00
      453750000    6.443184018e-01   -7.345309258e-01    2.179574221e-05    1.753401011e-05    0.000000000e+00    0.000000000e+00    0.000000000e+00    0.000000000e+00
      461000000    5.634514689e-01   -8.077335954e-01    1.046247780e-05   -8.009374142e-07    0.000000000e+00    0.000000000e+00    0.000000000e+00    0.000000000e+00
      468250000    4.754637480e-01   -8.719127178e-01   -1.839268953e-05   -2.474337816e-05    0.000000000e+00    0.000000000e+00    0.000000000e+00    0.000000000e+00
      475500000    3.800025880e-01   -9.267567992e-01    3.127474338e-05    6.363727152e-06    0.000000000e+00    0.000000000e+00    0.000000000e+00    0.000000000e+00
      482750000    2.805425525e-01   -9.717087746e-01   -1.911167055e-05   -3.272760659e-05    0.000000000e+00    0.000000000e+00    0.000000000e+00    0.000000000e+00
      490000000    1.763148457e-01   -1.005630493e+00   -1.490768045e-05    2.373475581e-05    0.000000000e+00    0.000000000e+00    0.000000000e+00    0.000000000e+00
      497250000    6.916832179e-02   -1.028767109e+00    3.039836884e-06   -3.916583955e-05    0.000000000e+00    0.000000000e+00    0.000000000e+00    0.000000000e+00
      504500000   -4.067840800e-02   -1.041236997e+00   -3.331061453e-05   -2.652872354e-05    0.000000000e+00    0.000000000e+00    0.000000000e+00    0.000000000e+00
      511750000   -1.515914947e-01   -1.041207433e+00    2.730078995e-05   -2.942513674e-05    0.000000000e+00    0.000000000e+00    0.000000000e+00    0.000000000e+00
      519000000   -2.626457214e-01   -1.029013276e+00   -9.044073522e-06   -1.744553447e-05    0.000000000e+00    0.000000000e+00    0.000000000e+00    0.000000000e+00
      526250000   -3.717753291e-01   -1.004801989e+00    6.538815796e-06   -3.981404006e-06    0.000000000e+00    0.000000000e+00    0.000000000e+00    0.000000000e+00
      533500000   -4.797484577e-01   -9.677388072e-01    3.038905561e-06    2.750288695e-05    0.000000000e+00    0.000000000e+00    0.000000000e+00    0.000000000e+00
      540750000   -5.835262537e-01   -9.188532233e-01   -1.834891737e-05   -2.972781658e-06    0.000000000e+00    0.000000000e+00    0.000000000e+00    0.000000000e+00
      548000000   -6.817961335e-01   -8.584312797e-01    8.204020560e-06   -3.185681999e-05    0.000000000e+00    0.000000000e+00    0.000000000e+00    0.000000000e+00
      555250000   -7.722244263e-01   -7.860185504e-01   -7.067807019e-06    2.307072282e-05    0.000000000e+00    0.000000000e+00    0.000000000e+00    0.000000000e+00
      562500000   -8.549672365e-01   -7.032579184e-01   -1.922249794e-05   -5.275197327e-05    0.000000000e+00    0.000000000e+00    0.000000000e+00    0.000000000e+00
      569750000   -9.271124005e-01   -6.103771329e-01    1.533888280e-06    1.296401024e-06    0.000000000e+00    0.000000000e+00    0.000000000e+00    0.000000000e+00
      577000000   -9.889435172e-01   -5.086001158e-01   -1.794658601e-05    1.722946763e-07    0.000000000e+00    0.000000000e+00    0.000000000e+00    0.000000000e+00
      584250000   -1.037300467e+00   -4.003401399e-01    1.830141991e-05    1.600943506e-06    0.000000000e+00    0.000000000e+00    0.000000000e+00    0.000000000e+00
      591500000   -1.072468162e+00   -2.852696180e-01   -9.848736227e-06   -3.386288881e-05    0.000000000e+00    0.000000000e+00    0.000000000e+00    0.000000000e+00
      598750000   -1.094494820e+00   -1.671433151e-01    1.170765609e-05   -2.660043538e-05    0.000000000e+00    0.000000000e+00    0.000000000e+00    0.000000000e+00
      606000000   -1.100963235e+00   -4.747870564e-02    3.915280104e-06   -1.116655767e-05    0.000000000e+00    0.000000000e+00    0.000000000e+00    0.000000000e+00
      613250000   -1.093155146e+00    7.165826857e-02    8.841045201e-06    1.881830394e-05    0.000000000e+00    0.000000000e+00    0.000000000e+00    0.000000000e+00
      620500000   -1.071155429e+00    1.894023120e-01   -6.800517440e-06    2.296641469e-05    0.000000000e+00    0.000000000e+00    0.000000000e+00    0.000000000e+00
      627750000   -1.034336567e+00    3.019159138e-01   -4.389975220e-05   -3.269314766e-05    0.000000000e+00    0.000000000e+00    0.000000000e+00    0.000000000e+00
      635000000   -9.852195382e-01    4.087164998e-01   -2.272240818e-05   -1.461710781e-05    0.000000000e+00    0.000000000e+00    0.000000000e+00    0.000000000e+00
      642250000   -9.228584170e-01    5.095868111e-01    2.528168261e-05   -1.875683665e-06    0.000000000e+00    0.000000000e+00    0.000000000e+00    0.000000000e+00
      649500000   -8.514330983e-01    5.990055799e-01    2.324581146e-05   -3.672949970e-05    0.000000000e+00    0.000000000e+00    0.000000000e+00    0.000000000e+00
      656750000   -7.691513300e-01    6.806152463e-01    1.971423626e-05   -1.154281199e-05    0.000000000e+00    0.000000000e+00    0.000000000e+00    0.000000000e+00
      664000000   -6.802527308e-01    7.500413656e-01    8.255243301e-06    1.477263868e-05    0.000000000e+00    0.000000000e+00    0.000000000e+00    0.000000000e+00
      671250000   -5.835927129e-01    8.089260459e-01    8.732080460e-06   -1.336075366e-05    0.000000000e+00    0.000000000e+00    0.000000000e+00    0.000000000e+00
      678500000   -4.821056426e-01    8.553984165e-01   -1.001823694e-05   -1.333374530e-05    0.000000000e+00    0.000000000e+00    0.000000000e+00    0.000000000e+00
      685750000   -3.783544600e-01    8.895845413e-01   -2.674758434e-06    2.026930451e-05    0.000000000e+00    0.000000000e+00    0.000000000e+00    0.000000000e+00
      693000000   -2.734842002e-01    9.117631912e-01   -4.236865789e-05    3.844499588e-06    0.000000000e+00    0.000000000e+00    0.000000000e+00    0.000000000e+00
      700250000   -1.638701707e-01    9.226776958e-01   -3.071967512e-05   -2.325605601e-05    0.000000000e+00    0.000000000e+00    0.000000000e+00    0.000000000e+00
      707500000   -6.019715965e-02    9.216189384e-01   -1.289229840e-05    5.702488124e-06    0.000000000e+00    0.000000000e+00    0.000000000e+00    0.000000000e+00
      714750000    4.660505056e-02    9.103574753e-01    9.485520422e-06    7.563270628e-06    0.000000000e+00    0.000000000e+00    0.000000000e+00    0.000000000e+00
      722000000    1.454060674e-01    8.881025910e-01    2.887845039e-05    7.799826562e-06    0.000000000e+00    0.000000000e+00    0.000000000e+00    0.000000000e+00
      729250000    2.451331913e-01    8.547057509e-01    2.519600093e-05   -2.809148282e-05    0.000000000e+00    0.000000000e+00    0.000000000e+00    0.000000000e+00
      736500000    3.382460475e-01    8.130293489e-01    3.399886191e-05    8.950009942e-06    0.000000000e+00    0.000000000e+00    0.000000000e+00    0.000000000e+00
      743750000    4.249561131e-01    7.627872229e-01    1.896079630e-05    6.135553122e-06    0.000000000e+00    0.000000000e+00    0.000000000e+00    0.000000000e+00
      751000000    5.068324804e-01    7.041460872e-01   -1.892168075e-05   -5.678273737e-06    0.000000000e+00    0.000000000e+00    0.000000000e+00    0.000000000e+00
      758250000    5.821071267e-01    6.372500062e-01    9.811483324e-06   -8.242204785e-07    0.000000000e+00    0.000000000e+00    0.000000000e+00    0.000000000e+00
      765500000    6.495992541e-01    5.641111732e-01    6.094388664e-05   -3.117602319e-05    0.000000000e+00    0.000000000e+00    0.000000000e+00    0.000000000e+00
      772750000    7.108358741e-01    4.838269353e-01    3.529712558e-07    2.052634954e-05    0.000000000e+00    0.000000000e+00    0.000000000e+00    0.000000000e+00
      780000000    7.627701163e-01    3.994476199e-01    1.003593206e-05   -1.624226570e-06    0.000000000e+00    0.000000000e+00    0.000000000e+00    0.000000000e+00
      787250000    8.073190451e-01    3.084774911e-01    1.230370253e-05   -2.059154212e-06    0.000000000e+00    0.000000000e+00    0.000000000e+00    0.000000000e+00
      794500000    8.415697217e-01    2.143246084e-01   -3.679748625e-05   -3.844406456e-05    0.000000000e+00    0.000000000e+00    0.000000000e+00    0.000000000e+00
      801750000    8.673622608e-01    1.155017465e-01    5.308538675e-08    6.997957826e-06    0.000000000e+00    0.000000000e+00    0.000000000e+00    0.000000000e+00
      809000000    8.827412128e-01    1.448789239e-02    9.555369616e-06   -3.158859909e-05    0.000000000e+00    0.000000000e+00    0.000000000e+00    0.000000000e+00
      816250000    8.878034949e-01   -8.941923082e-02   -3.802590072e-06   -1.051463187e-05    0.000000000e+00    0.000000000e+00    0.000000000e+00    0.000000000e+00
      823500000    8.815343976e-01   -1.944030672e-01    8.905306458e-06    2.577900887e-05    0.000000000e+00    0.000000000e+00    0.000000000e+00    0.000000000e+00
      830750000    8.642858863e-01   -2.986355126e-01    3.992579877e-06    1.810491085e-06    0.000000000e+00    0.000000000e+00    0.000000000e+00    0.000000000e+00
      838000000    8.357883096e-01   -4.025747776e-01    1.706928015e-05   -6.712973118e-06    0.000000000e+00    0.000000000e+00    0.000000000e+00    0.000000000e+00
      845250000    7.951280475e-01   -5.038347840e-01   -8.936971426e-06   -4.167668521e-06    0.000000000e+00    0.000000000e+00    0.000000000e+00    0.000000000e+00
      852500000    7.422259450e-01   -6.015841365e-01   -1.403782517e-05    3.417022526e-05    0.000000000e+00    0.000000000e+00    0.000000000e+00    0.000000000e+00
      859750000    6.795735359e-01   -6.926784515e-01   -4.668533802e-05   -3.742054105e-05    0.000000000e+00    0.000000000e+00    0.000000000e+00    0.000000000e+00
      867000000    6.011654735e-01   -7.795179486e-01   -1.544877887e-05   -1.943949610e-05    0.000000000e+00    0.000000000e+00    0.000000000e+00    0.000000000e+00
      874250000    5.158012509e-01   -8.549017310e-01   -1.705903560e-05    2.312473953e-05    0.000000000e+00    0.000000000e+00    0.000000000e+00    0.000000000e+00
      881500000    4.158058465e-01   -9.216443896e-01    2.820976079e-06    3.796070814e-06    0.000000000e+00    0.000000000e+00    0.000000000e+00    0.000000000e+00
      888750000    3.102826476e-01   -9.755469561e-01   -4.153791815e-05    1.134071499e-05    0.000000000e+00    0.000000000e+00    0.000000000e+00    0.000000000e+00
      896000000    1.955339760e-01   -1.015790462e+00   -2.065207809e-05   -2.355780452e-05    0.000000000e+00    0.000000000e+00    0.000000000e+00    0.000000000e+00
      903250000    7.467515022e-02   -1.040670753e+00   -2.537947148e-05    2.050027251e-05    0.000000000e+00    0.000000000e+00    0.000000000e+00    0.000000000e+00
      910500000   -4.796032608e-02   -1.049060345e+00    2.105999738e-05    1.110788435e-05    0.000000000e+00    0.000000000e+00    0.000000000e+00    0.000000000e+00
      917750000   -1.713581234e-01   -1.041838050e+00   -1.856684685e-05   -5.500391126e-06    0.000000000e+00    0.000000000e+00    0.000000000e+00    0.000000000e+00
      925000000   -2.919478416e-01   -1.017051697e+00   -5.956739187e-06   -1.810118556e-05    0.000000000e+00    0.000000000e+00    0.000000000e+00    0.000000000e+00
      932250000   -4.116006792e-01   -9.750206470e-01    3.467872739e-05   -1.691747457e-05    0.000000000e+00    0.000000000e+00    0.000000000e+00    0.000000000e+00
      939500000   -5.191055536e-01   -9.192675352e-01   -2.182368189e-05   -3.986712545e-05    0.000000000e+00    0.000000000e+00    0.000000000e+00    0.000000000e+00
      946750000   -6.189650297e-01   -8.496463299e-01    2.406537533e-05   -8.477829397e-06    0.000000000e+00    0.000000000e+00    0.000000000e+00    0.000000000e+00
      954000000   -7.085665464e-01   -7.661173344e-01    1.505948603e-05   -1.191254705e-05    0.000000000e+00    0.000000000e+00    0.000000000e+00    0.000000000e+00
      961250000   -7.834818363e-01   -6.751730442e-01    1.123175025e-05    1.576263458e-05    0.000000000e+00    0.000000000e+00    0.000000000e+00    0.000000000e+00
      968500000   -8.453224301e-01   -5.744862556e-01    1.636985689e-05   -2.738367766e-05    0.000000000e+00    0.000000000e+00    0.000000000e+00    0.000000000e+00
      975750000   -8.929439187e-01   -4.688138366e-01    2.867076546e-05    2.025067806e-05    0.000000000e+00    0.000000000e+00    0.000000000e+00    0.000000000e+00
      983000000   -9.257878065e-01   -3.619897366e-01    1.884438097e-05   -5.145836622e-05    0.000000000e+00    0.000000000e+00    0.000000000e+00    0.000000000e+00
      990250000   -9.442777634e-01   -2.535045445e-01   -2.833083272e-06   -1.802667975e-05    0.000000000e+00    0.000000000e+00    0.000000000e+00    0.000000000e+00
      997500000   -9.491703510e-01   -1.460031867e-01    7.800757885e-06    7.452443242e-06    0.000000000e+00    0.000000000e+00    0.000000000e+00    0.000000000e+00
     1004750000   -9.417503476e-01   -4.185420275e-02    2.964027226e-05   -3.193039447e-05    0.000000000e+00    0.000000000e+00    0.000000000e+00    0.000000000e+00
     1012000000   -9.223545194e-01    5.938258395e-02    3.897678107e-05   -8.107163012e-06    0.000000000e+00    0.000000000e+00    0.000000000e+00    0.000000000e+00
     1019250000   -8.927592635e-01    1.546074003e-01   -3.124866635e-05    3.612600267e-05    0.000000000e+00    0.000000000e+00    0.000000000e+00    0.000000000e+00
     1026500000   -8.539718986e-01    2.435805947e-01   -4.031881690e-05    1.605972648e-05    0.000000000e+00    0.000000000e+00    0.000000000e+00    0.000000000e+00
     1033750000   -8.071426749e-01    3.249794543e-01    4.068948328e-06   -3.987923265e-06    0.000000000e+00    0.000000000e+00    0.000000000e+00    0.000000000e+00
     1041000000   -7.549572587e-01    3.990479708e-01    7.764436305e-06   -4.312954843e-06    0.000000000e+00    0.000000000e+00    0.000000000e+00    0.000000000e+00
