! NanoVNA-App by OneOfEleven et al v1.1.209 (+OD15) 
! Date: 2024-07-30 15:18:10
! Start: 200MHz Stop: 6GHz Points: 801
! S-Parameter data: F S11 S21 S12 S22
# Hz S RI R 50
!     Frequency           S11_Real           S11_Imag           S21_Real           S21_Imag           S12_Real           S12_Imag           S22_Real           S22_Imag
      200000000   -9.986537695e-01   -1.156397611e-01    7.146038115e-06   -1.419521868e-05    0.000000000e+00    0.000000000e+00    0.000000000e+00    0.000000000e+00
      207250000   -1.010243893e+00   -1.667480543e-02    1.440756023e-05   -6.772577763e-06    0.000000000e+00    0.000000000e+00    0.000000000e+00    0.000000000e+00
      214500000   -1.011442423e+00    8.460831642e-02    1.662410796e-06    1.932866871e-05    0.000000000e+00    0.000000000e+00    0.000000000e+00    0.000000000e+00
      221750000   -1.002344489e+00    1.876541525e-01    1.888908446e-05   -1.913867891e-05    0.000000000e+00    0.000000000e+00    0.000000000e+00    0.000000000e+00
      229000000   -9.823147058e-01    2.907967567e-01   -1.558102667e-05   -7.891096175e-06    0.000000000e+00    0.000000000e+00    0.000000000e+00    0.000000000e+00
      236250000   -9.502781630e-01    3.933106661e-01    3.825034946e-05   -9.721145034e-06    0.000000000e+00    0.000000000e+00    0.000000000e+00    0.000000000e+00
      243500000   -9.062116742e-01    4.932812750e-01   -4.112720490e-05   -2.275593579e-05    0.000000000e+00    0.000000000e+00    0.000000000e+00    0.000000000e+00
      250750000   -8.493523002e-01    5.899822712e-01   -7.646158338e-06    9.772367775e-06    0.000000000e+00    0.000000000e+00    0.000000000e+00    0.000000000e+00
      258000000   -7.814384699e-01    6.808311343e-01   -1.677311957e-05    7.579103112e-06    0.000000000e+00    0.000000000e+00    0.000000000e+00    0.000000000e+00
      265250000   -7.007227540e-01    7.643218040e-01   -1.781433821e-05   -3.143306822e-05    0.000000000e+00    0.000000000e+00    0.000000000e+00    0.000000000e+00
      272500000   -6.103067994e-01    8.398401737e-01    1.696031541e-05   -1.462083310e-05    0.000000000e+00    0.000000000e+00    0.000000000e+00    0.000000000e+00
      279750000   -5.089641809e-01    9.039282203e-01    3.039464355e-05   -2.166163176e-05    0.000000000e+00    0.000000000e+00    0.000000000e+00    0.000000000e+00
      287000000   -3.974932432e-01    9.551984668e-01    3.295019269e-06    1.858640462e-05    0.000000000e+00    0.000000000e+00    0.000000000e+00    0.000000000e+00
      294250000   -2.806934416e-01    9.931092858e-01   -1.620501280e-05    9.601935744e-07    0.000000000e+00    0.000000000e+00    0.000000000e+00    0.000000000e+00
      301500000   -1.583027393e-01    1.015729904e+00   -2.560578287e-05    1.091323793e-05    0.000000000e+00    0.000000000e+00    0.000000000e+00    0.000000000e+00
      308750000   -3.199422732e-02    1.022087336e+00   -1.322478056e-06   -1.402385533e-05    0.000000000e+00    0.000000000e+00    0.000000000e+00    0.000000000e+00
      316000000    9.410139918e-02    1.013938308e+00    2.849847078e-06   -2.411101013e-05    0.000000000e+00    0.000000000e+00    0.000000000e+00    0.000000000e+00
      323250000    2.181861252e-01    9.877710938e-01   -1.837313175e-05    1.140870154e-05    0.000000000e+00    0.000000000e+00    0.000000000e+00    0.000000000e+00
      330500000    3.385135829e-01    9.464523792e-01    1.452583820e-05   -1.884903759e-05    0.000000000e+00    0.000000000e+00    0.000000000e+00    0.000000000e+00
      337750000    4.516613185e-01    8.897185326e-01    8.381903172e-06   -4.554074258e-05    0.000000000e+00    0.000000000e+00    0.000000000e+00    0.000000000e+00
      345000000    5.573828816e-01    8.193516731e-01   -1.159962267e-05   -1.829583198e-05    0.000000000e+00    0.000000000e+00    0.000000000e+00    0.000000000e+00
      352250000    6.511935592e-01    7.369344831e-01    6.835907698e-06    1.772306859e-05    0.000000000e+00    0.000000000e+00    0.000000000e+00    0.000000000e+00
      359500000    7.346765399e-01    6.440350413e-01   -3.475416452e-05    5.827285349e-06    0.000000000e+00    0.000000000e+00    0.000000000e+00    0.000000000e+00
      366750000    8.051706553e-01    5.426943898e-01    4.249904305e-05   -1.013558358e-05    0.000000000e+00    0.000000000e+00    0.000000000e+00    0.000000000e+00
      374000000    8.621266484e-01    4.336552620e-01   -7.682479918e-06   -1.588463783e-05    0.000000000e+00    0.000000000e+00    0.000000000e+00    0.000000000e+00
      381250000    9.052029252e-01    3.197572827e-01   -4.116166383e-05   -9.706243873e-06    0.000000000e+00    0.000000000e+00    0.000000000e+00    0.000000000e+00
      388500000    9.346963763e-01    2.046768665e-01   -1.178309321e-05   -3.101304173e-06    0.000000000e+00    0.000000000e+00    0.000000000e+00    0.000000000e+00
      395750000    9.501051903e-01    8.733499795e-02    1.286156476e-05    1.851469278e-05    0.000000000e+00    0.000000000e+00    0.000000000e+00    0.000000000e+00
      403000000    9.525205493e-01   -2.926511690e-02    1.587346196e-05   -2.596527338e-06    0.000000000e+00    0.000000000e+00    0.000000000e+00    0.000000000e+00
      410250000    9.419283867e-01   -1.446582526e-01    3.050081432e-05    2.523791045e-05    0.000000000e+00    0.000000000e+00    0.000000000e+00    0.000000000e+00
      417500000    9.186306000e-01   -2.570218444e-01   -2.195127308e-05    2.344883978e-05    0.000000000e+00    0.000000000e+00    0.000000000e+00    0.000000000e+00
      424750000    8.844752908e-01   -3.645488620e-01   -2.581626177e-06    2.003181726e-05    0.000000000e+00    0.000000000e+00    0.000000000e+00    0.000000000e+00
      432000000    8.390077949e-01   -4.662003219e-01   -1.155771315e-06    3.521703184e-05    0.000000000e+00    0.000000000e+00    0.000000000e+00    0.000000000e+00
      439250000    7.828000188e-01   -5.636373758e-01   -3.747828305e-05    1.039728522e-05    0.000000000e+00    0.000000000e+00    0.000000000e+00    0.000000000e+00
      446500000    7.179097533e-01   -6.520014405e-01    8.811242878e-06    1.980364323e-05    0.000000000e+00    0.000000000e+00    0.000000000e+00    0.000000000e+00
      453750000    6.449807286e-01   -7.346581817e-01   -3.138743341e-05    3.425404429e-06    0.000000000e+00    0.000000000e+00    0.000000000e+00    0.000000000e+00
      461000000    5.632857680e-01   -8.074053526e-01   -2.225860953e-06    1.277774572e-05    0.000000000e+00    0.000000000e+00    0.000000000e+00    0.000000000e+00
      468250000    4.752511680e-01   -8.716833591e-01    1.368112862e-05   -4.489067942e-05    0.000000000e+00    0.000000000e+00    0.000000000e+00    0.000000000e+00
      475500000    3.800812066e-01   -9.270917177e-01    1.202803105e-05   -2.639740705e-05    0.000000000e+00    0.000000000e+00    0.000000000e+00    0.000000000e+00
      482750000    2.810546458e-01   -9.717345238e-01    3.118254244e-05   -9.756535292e-06    0.000000000e+00    0.000000000e+00    0.000000000e+00    0.000000000e+00
      490000000    1.768756658e-01   -1.006233811e+00    2.059806138e-05   -3.525055945e-06    0.000000000e+00    0.000000000e+00    0.000000000e+00    0.000000000e+00
      497250000    6.934648007e-02   -1.028494358e+00   -2.868566662e-05   -1.286063343e-05    0.000000000e+00    0.000000000e+00    0.000000000e+00    0.000000000e+00
      504500000   -4.056182504e-02   -1.041164041e+00   -1.150276512e-05    2.587772906e-05    0.000000000e+00    0.000000000e+00    0.000000000e+00    0.000000000e+00
      511750000   -1.512788981e-01   -1.041169405e+00   -1.499336213e-05   -5.541369319e-06    0.000000000e+00    0.000000000e+00    0.000000000e+00    0.000000000e+00
      519000000   -2.632808387e-01   -1.029128551e+00   -5.204230547e-06    1.148134470e-05    0.000000000e+00    0.000000000e+00    0.000000000e+00    0.000000000e+00
      526250000   -3.725844920e-01   -1.004379034e+00   -1.417845488e-05   -2.899207175e-05    0.000000000e+00    0.000000000e+00    0.000000000e+00    0.000000000e+00
      533500000   -4.796076119e-01   -9.684875607e-01    2.413708717e-05   -7.518567145e-06    0.000000000e+00    0.000000000e+00    0.000000000e+00    0.000000000e+00
      540750000   -5.834488273e-01   -9.185834527e-01   -5.027651787e-05   -1.699663699e-05    0.000000000e+00    0.000000000e+00    0.000000000e+00    0.000000000e+00
      548000000   -6.817402244e-01   -8.579173684e-01   -2.992991358e-05   -4.856847227e-06    0.000000000e+00    0.000000000e+00    0.000000000e+00    0.000000000e+00
      555250000   -7.724874616e-01   -7.863020897e-01    4.224479198e-06   -4.665926099e-07    0.000000000e+00    0.000000000e+00    0.000000000e+00    0.000000000e+00
      562500000   -8.551636934e-01   -7.018904090e-01    1.340638846e-05    1.603271812e-05    0.000000000e+00    0.000000000e+00    0.000000000e+00    0.000000000e+00
      569750000   -9.273319840e-01   -6.098247766e-01    3.604218364e-05    4.437379539e-05    0.000000000e+00    0.000000000e+00    0.000000000e+00    0.000000000e+00
      577000000   -9.881452322e-01   -5.095583200e-01    2.307072282e-05    8.809380233e-06    0.000000000e+00    0.000000000e+00    0.000000000e+00    0.000000000e+00
      584250000   -1.037585020e+00   -4.003699124e-01   -2.947263420e-05    1.548603177e-05    0.000000000e+00    0.000000000e+00    0.000000000e+00    0.000000000e+00
      591500000   -1.072408795e+00   -2.852284312e-01    3.366731107e-05   -1.138634980e-05    0.000000000e+00    0.000000000e+00    0.000000000e+00    0.000000000e+00
      598750000   -1.094072700e+00   -1.662413031e-01    2.368167043e-05    3.820285201e-05    0.000000000e+00    0.000000000e+00    0.000000000e+00    0.000000000e+00
      606000000   -1.100892186e+00   -4.772055894e-02    9.196810424e-06   -1.413747668e-06    0.000000000e+00    0.000000000e+00    0.000000000e+00    0.000000000e+00
      613250000   -1.092751503e+00    7.126665860e-02   -1.577008516e-05    3.018788993e-05    0.000000000e+00    0.000000000e+00    0.000000000e+00    0.000000000e+00
      620500000   -1.070851803e+00    1.894083470e-01   -1.966673881e-05    5.159527063e-06    0.000000000e+00    0.000000000e+00    0.000000000e+00    0.000000000e+00
      627750000   -1.034043193e+00    3.032151759e-01    1.268181950e-05    1.349020749e-05    0.000000000e+00    0.000000000e+00    0.000000000e+00    0.000000000e+00
      635000000   -9.862328172e-01    4.084054530e-01    8.754432201e-07   -2.102926373e-06    0.000000000e+00    0.000000000e+00    0.000000000e+00    0.000000000e+00
      642250000   -9.237189889e-01    5.082967877e-01   -4.416331649e-06   -2.133380622e-05    0.000000000e+00    0.000000000e+00    0.000000000e+00    0.000000000e+00
      649500000   -8.510938287e-01    6.000708342e-01    1.833960414e-05   -2.042204142e-05    0.000000000e+00    0.000000000e+00    0.000000000e+00    0.000000000e+00
      656750000   -7.694145441e-01    6.799184680e-01   -7.815659046e-06    1.046806574e-06    0.000000000e+00    0.000000000e+00    0.000000000e+00    0.000000000e+00
      664000000   -6.803836823e-01    7.499234080e-01    1.103337854e-05   -3.835465759e-05    0.000000000e+00    0.000000000e+00    0.000000000e+00    0.000000000e+00
      671250000   -5.830769539e-01    8.083173633e-01   -7.918104529e-06    1.439452171e-05    0.000000000e+00    0.000000000e+00    0.000000000e+00    0.000000000e+00
      678500000   -4.823799729e-01    8.542690873e-01    8.898787200e-06   -2.721324563e-06    0.000000000e+00    0.000000000e+00    0.000000000e+00    0.000000000e+00
      685750000   -3.783991933e-01    8.895282745e-01    1.100730151e-05   -2.059992403e-05    0.000000000e+00    0.000000000e+00    0.000000000e+00    0.000000000e+00
      693000000   -2.717711627e-01    9.123322964e-01    3.050081432e-06   -8.751638234e-06    0.000000000e+00    0.000000000e+00    0.000000000e+00    0.000000000e+00
      700250000   -1.645286381e-01    9.227192998e-01   -3.041792661e-05   -2.182461321e-05    0.000000000e+00    0.000000000e+00    0.000000000e+00    0.000000000e+00
      707500000   -5.984162912e-02    9.216701388e-01   -5.498342216e-05   -9.875744581e-06    0.000000000e+00    0.000000000e+00    0.000000000e+00    0.000000000e+00
      714750000    4.583986476e-02    9.106138945e-01    1.747254282e-05   -2.205371857e-05    0.000000000e+00    0.000000000e+00    0.000000000e+00    0.000000000e+00
      722000000    1.465812176e-01    8.875736594e-01   -3.803521395e-06   -5.150213838e-07    0.000000000e+00    0.000000000e+00    0.000000000e+00    0.000000000e+00
      729250000    2.449546903e-01    8.547911048e-01   -1.783762127e-05   -2.082437277e-06    0.000000000e+00    0.000000000e+00    0.000000000e+00    0.000000000e+00
      736500000    3.378705382e-01    8.128401041e-01    2.328306437e-06    4.216004163e-05    0.000000000e+00    0.000000000e+00    0.000000000e+00    0.000000000e+00
      743750000    4.254589081e-01    7.621881962e-01   -1.986231655e-05   -3.878585994e-05    0.000000000e+00    0.000000000e+00    0.000000000e+00    0.000000000e+00
      751000000    5.071792603e-01    7.038182020e-01   -1.860503107e-05   -4.614144564e-05    0.000000000e+00    0.000000000e+00    0.000000000e+00    0.000000000e+00
      758250000    5.816168189e-01    6.376604438e-01    4.372559488e-06   -1.588743180e-05    0.000000000e+00    0.000000000e+00    0.000000000e+00    0.000000000e+00
      765500000    6.497078538e-01    5.642067790e-01   -9.465962648e-06   -1.482199878e-05    0.000000000e+00    0.000000000e+00    0.000000000e+00    0.000000000e+00
      772750000    7.104571462e-01    4.843709171e-01    1.035351306e-05    3.357324749e-05    0.000000000e+00    0.000000000e+00    0.000000000e+00    0.000000000e+00
      780000000    7.620279789e-01    3.999639153e-01   -5.703978240e-05   -3.359280527e-06    0.000000000e+00    0.000000000e+00    0.000000000e+00    0.000000000e+00
      787250000    8.074119687e-01    3.082377911e-01    3.212131560e-06    3.387965262e-05    0.000000000e+00    0.000000000e+00    0.000000000e+00    0.000000000e+00
      794500000    8.424475789e-01    2.144042850e-01    6.714835763e-06   -1.989025623e-05    0.000000000e+00    0.000000000e+00    0.000000000e+00    0.000000000e+00
      801750000    8.676818013e-01    1.140846163e-01    2.649240196e-05    4.192534834e-05    0.000000000e+00    0.000000000e+00    0.000000000e+00    0.000000000e+00
      809000000    8.830518723e-01    1.476350799e-02    2.057198435e-05   -2.332031727e-06    0.000000000e+00    0.000000000e+00    0.000000000e+00    0.000000000e+00
      816250000    8.877161741e-01   -8.959317952e-02    6.423331797e-06   -3.658514470e-05    0.000000000e+00    0.000000000e+00    0.000000000e+00    0.000000000e+00
      823500000    8.814793825e-01   -1.942270249e-01   -1.151300967e-05    3.396254033e-05    0.000000000e+00    0.000000000e+00    0.000000000e+00    0.000000000e+00
      830750000    8.650711179e-01   -2.988524437e-01   -1.687556505e-06   -7.992610335e-06    0.000000000e+00    0.000000000e+00    0.000000000e+00    0.000000000e+00
      838000000    8.358227611e-01   -4.023811817e-01    2.126675099e-05    1.009926200e-05    0.000000000e+00    0.000000000e+00    0.000000000e+00    0.000000000e+00
      845250000    7.954161763e-01   -5.029929876e-01    3.245193511e-05    4.116259515e-05    0.000000000e+00    0.000000000e+00    0.000000000e+00    0.000000000e+00
      852500000    7.426883578e-01   -6.008200049e-01    1.689884812e-05    1.809373498e-05    0.000000000e+00    0.000000000e+00    0.000000000e+00    0.000000000e+00
      859750000    6.789828539e-01   -6.930155754e-01   -6.120651960e-06    4.065223038e-06    0.000000000e+00    0.000000000e+00    0.000000000e+00    0.000000000e+00
      867000000    6.009073257e-01   -7.788572311e-01   -6.696209311e-07    8.534640074e-06    0.000000000e+00    0.000000000e+00    0.000000000e+00    0.000000000e+00
      874250000    5.152041912e-01   -8.552610874e-01   -1.098867506e-05    2.840906382e-05    0.000000000e+00    0.000000000e+00    0.000000000e+00    0.000000000e+00
      881500000    4.152778983e-01   -9.221309423e-01    8.837319911e-06   -4.226341844e-06    0.000000000e+00    0.000000000e+00    0.000000000e+00    0.000000000e+00
      888750000    3.109693527e-01   -9.750430584e-01   -1.676846296e-05   -1.069623977e-05    0.000000000e+00    0.000000000e+00    0.000000000e+00    0.000000000e+00
      896000000    1.952262074e-01   -1.015943885e+00   -1.710467041e-05   -6.966292858e-07    0.000000000e+00    0.000000000e+00    0.000000000e+00    0.000000000e+00
      903250000    7.532928884e-02   -1.041307330e+00    1.673866063e-05    5.560647696e-05    0.000000000e+00    0.000000000e+00    0.000000000e+00    0.000000000e+00
      910500000   -4.814211279e-02   -1.049670935e+00   -5.226396024e-05   -1.410953701e-05    0.000000000e+00    0.000000000e+00    0.000000000e+00    0.000000000e+00
      917750000   -1.718699038e-01   -1.041774988e+00   -2.007465810e-05    2.841930836e-05    0.000000000e+00    0.000000000e+00    0.000000000e+00    0.000000000e+00
      925000000   -2.935405970e-01   -1.016559601e+00   -1.886859536e-05   -3.679469228e-05    0.000000000e+00    0.000000000e+00    0.000000000e+00    0.000000000e+00
      932250000   -4.096974730e-01   -9.760776758e-01   -2.838671207e-06    2.161879092e-05    0.000000000e+00    0.000000000e+00    0.000000000e+00    0.000000000e+00
      939500000   -5.199477077e-01   -9.182437658e-01   -6.373040378e-06    2.372171730e-05    0.000000000e+00    0.000000000e+00    0.000000000e+00    0.000000000e+00
      946750000   -6.202467680e-01   -8.484401703e-01   -1.451000571e-06   -6.771646440e-06    0.000000000e+00    0.000000000e+00    0.000000000e+00    0.000000000e+00
      954000000   -7.077249289e-01   -7.666416764e-01   -2.849660814e-05   -1.290813088e-06    0.000000000e+00    0.000000000e+00    0.000000000e+00    0.000000000e+00
      961250000   -7.834702134e-01   -6.750640869e-01   -8.695758879e-06   -1.327134669e-06    0.000000000e+00    0.000000000e+00    0.000000000e+00    0.000000000e+00
      968500000   -8.456277251e-01   -5.740006566e-01    3.095716238e-06   -2.197921276e-07    0.000000000e+00    0.000000000e+00    0.000000000e+00    0.000000000e+00
      975750000   -8.934000731e-01   -4.702708721e-01    1.185759902e-05   -2.972595394e-05    0.000000000e+00    0.000000000e+00    0.000000000e+00    0.000000000e+00
      983000000   -9.257225394e-01   -3.613436222e-01    6.334856153e-06    3.963708878e-06    0.000000000e+00    0.000000000e+00    0.000000000e+00    0.000000000e+00
      990250000   -9.442720413e-01   -2.532795966e-01    2.737529576e-05   -1.850537956e-05    0.000000000e+00    0.000000000e+00    0.000000000e+00    0.000000000e+00
      997500000   -9.492743611e-01   -1.451610625e-01    4.852097481e-05    1.953076571e-05    0.000000000e+00    0.000000000e+00    0.000000000e+00    0.000000000e+00
     1004750000   -9.410063624e-01   -4.091040790e-02   -3.229640424e-05   -4.482641816e-05    0.000000000e+00    0.000000000e+00    0.000000000e+00    0.000000000e+00
     1012000000   -9.225875735e-01    5.940898508e-02   -1.048669219e-06    3.404915333e-06    0.000000000e+00    0.000000000e+00    0.000000000e+00    0.000000000e+00
     1019250000   -8.927109838e-01    1.549118310e-01   -1.653376967e-05    2.343300730e-05    0.000000000e+00    0.000000000e+00    0.000000000e+00    0.000000000e+00
     1026500000   -8.538033962e-01    2.429626584e-01    2.125091851e-05    9.788200259e-06    0.000000000e+00    0.000000000e+00    0.000000000e+00    0.000000000e+00
     1033750000   -8.079478145e-01    3.240995109e-01    2.140179276e-06   -1.654122025e-05    0.000000000e+00    0.000000000e+00    0.000000000e+00    0.000000000e+00
     1041000000   -7.538152337e-01    3.993743658e-01    3.767386079e-05   -4.715286195e-06    0.000000000e+00    0.000000000e+00    0.000000000e+00    0.000000000e+00
