! NanoVNA-App by OneOfEleven et al v1.1.209 (+OD15) 
! Date: 2024-07-30 15:18:13
! Start: 200MHz Stop: 6GHz Points: 801
! S-Parameter data: F S11 S21 S12 S22
# Hz S RI R 50
!     Frequency           S11_Real           S11_Imag           S21_Real           S21_Imag           S12_Real           S12_Imag           S22_Real           S22_Imag
      200000000   -9.981882572e-01   -1.157313213e-01    1.171883196e-05   -2.207420766e-05    0.000000000e+00    0.000000000e+00    0.000000000e+00    0.000000000e+00
      207250000   -1.010023117e+00   -1.661844365e-02   -5.283392966e-06    1.707859337e-05    0.000000000e+00    0.000000000e+00    0.000000000e+00    0.000000000e+00
      214500000   -1.012034893e+00    8.449538052e-02   -1.847092062e-05    9.201467037e-06    0.000000000e+00    0.000000000e+00    0.000000000e+00    0.000000000e+00
      221750000   -1.002615690e+00    1.877987385e-01    2.971198410e-05    3.399327397e-07    0.000000000e+00    0.000000000e+00    0.000000000e+00    0.000000000e+00
      229000000   -9.823964834e-01    2.908593118e-01    3.432668746e-05   -1.282431185e-05    0.000000000e+00    0.000000000e+00    0.000000000e+00    0.000000000e+00
      236250000   -9.503712654e-01    3.931518197e-01   -3.189500421e-05    1.771654934e-05    0.000000000e+00    0.000000000e+00    0.000000000e+00    0.000000000e+00
      243500000   -9.062470198e-01    4.932743907e-01   -8.515082300e-06   -4.298333079e-05    0.000000000e+00    0.000000000e+00    0.000000000e+00    0.000000000e+00
      250750000   -8.495771289e-01    5.900102854e-01    3.999099135e-06    6.432645023e-06    0.000000000e+00    0.000000000e+00    0.000000000e+00    0.000000000e+00
      258000000   -7.812961936e-01    6.808919907e-01    3.175064921e-05    1.256633550e-05    0.000000000e+00    0.000000000e+00    0.000000000e+00    0.000000000e+00
      265250000   -7.006865740e-01    7.645894885e-01   -8.572824299e-06   -1.054070890e-05    0.000000000e+00    0.000000000e+00    0.000000000e+00    0.000000000e+00
      272500000   -6.095519066e-01    8.397955298e-01   -2.960301936e-05   -1.400895417e-05    0.000000000e+00    0.000000000e+00    0.000000000e+00    0.000000000e+00
      279750000   -5.089153051e-01    9.039253592e-01   -2.775900066e-05   -1.027248800e-06    0.000000000e+00    0.000000000e+00    0.000000000e+00    0.000000000e+00
      287000000   -3.972951770e-01    9.553613067e-01    3.781169653e-07    1.357030123e-05    0.000000000e+00    0.000000000e+00    0.000000000e+00    0.000000000e+00
      294250000   -2.805067301e-01    9.930968285e-01   -2.099666744e-05   -1.263152808e-05    0.000000000e+00    0.000000000e+00    0.000000000e+00    0.000000000e+00
      301500000   -1.579908878e-01    1.016228318e+00   -2.069212496e-05    1.424457878e-05    0.000000000e+00    0.000000000e+00    0.000000000e+00    0.000000000e+00
      308750000   -3.197709098e-02    1.023340583e+00    2.412591130e-05   -2.007093281e-05    0.000000000e+00    0.000000000e+00    0.000000000e+00    0.000000000e+00
      316000000    9.373708814e-02    1.013569951e+00   -1.736357808e-05    2.811849117e-05    0.000000000e+00    0.000000000e+00    0.000000000e+00    0.000000000e+00
      323250000    2.182841301e-01    9.880424142e-01   -4.794448614e-06   -1.555308700e-07    0.000000000e+00    0.000000000e+00    0.000000000e+00    0.000000000e+00
      330500000    3.386875987e-01    9.466521144e-01    8.965842426e-06    6.193295121e-06    0.000000000e+00    0.000000000e+00    0.000000000e+00    0.000000000e+00
      337750000    4.514503181e-01    8.900732994e-01    1.385901123e-05   -2.942886204e-05    0.000000000e+00    0.000000000e+00    0.000000000e+00    0.000000000e+00
      345000000    5.574088097e-01    8.196544051e-01   -2.930872142e-06    4.005338997e-05    0.000000000e+00    0.000000000e+00    0.000000000e+00    0.000000000e+00
      352250000    6.518334150e-01    7.366064787e-01    3.052875400e-06   -1.749861985e-05    0.000000000e+00    0.000000000e+00    0.000000000e+00    0.000000000e+00
      359500000    7.346786261e-01    6.440085173e-01    1.265481114e-05   -2.485141158e-05    0.000000000e+00    0.000000000e+00    0.000000000e+00    0.000000000e+00
      366750000    8.054044247e-01    5.417609215e-01   -8.766539395e-06    7.230788469e-06    0.000000000e+00    0.000000000e+00    0.000000000e+00    0.000000000e+00
      374000000    8.625322580e-01    4.342506230e-01   -1.441221684e-05   -4.784204066e-06    0.000000000e+00    0.000000000e+00    0.000000000e+00    0.000000000e+00
      381250000    9.052300453e-01    3.200638592e-01   -1.028180122e-06   -1.767929643e-05    0.000000000e+00    0.000000000e+00    0.000000000e+00    0.000000000e+00
      388500000    9.349492192e-01    2.042752802e-01   -4.445854574e-05    1.561176032e-05    0.000000000e+00    0.000000000e+00    0.000000000e+00    0.000000000e+00
      395750000    9.499959946e-01    8.781587332e-02    1.993775368e-05   -5.904585123e-06    0.000000000e+00    0.000000000e+00    0.000000000e+00    0.000000000e+00
      403000000    9.525043964e-01   -2.936406620e-02    3.450550139e-06   -3.020279109e-05    0.000000000e+00    0.000000000e+00    0.000000000e+00    0.000000000e+00
      410250000    9.415868521e-01   -1.448302567e-01   -2.673547715e-05    8.061528206e-06    0.000000000e+00    0.000000000e+00    0.000000000e+00    0.000000000e+00
      417500000    9.186519980e-01   -2.561371326e-01    4.192162305e-05    8.548609912e-06    0.000000000e+00    0.000000000e+00    0.000000000e+00    0.000000000e+00
      424750000    8.840567470e-01   -3.649713099e-01    4.157423973e-06    1.886393875e-05    0.000000000e+00    0.000000000e+00    0.000000000e+00    0.000000000e+00
      432000000    8.381077647e-01   -4.670498669e-01    8.831731975e-06   -1.552514732e-05    0.000000000e+00    0.000000000e+00    0.000000000e+00    0.000000000e+00
      439250000    7.830693722e-01   -5.632436275e-01   -2.531427890e-05   -2.918671817e-05    0.000000000e+00    0.000000000e+00    0.000000000e+00    0.000000000e+00
      446500000    7.187282443e-01   -6.520088315e-01   -2.588611096e-05   -6.762333214e-06    0.000000000e+00    0.000000000e+00    0.000000000e+00    0.000000000e+00
      453750000    6.447483897e-01   -7.348111272e-01    2.060364932e-05   -4.146061838e-05    0.000000000e+00    0.000000000e+00    0.000000000e+00    0.000000000e+00
      461000000    5.636872053e-01   -8.074426651e-01   -1.708976924e-06    2.469308674e-05    0.000000000e+00    0.000000000e+00    0.000000000e+00    0.000000000e+00
      468250000    4.755170941e-01   -8.720691800e-01    3.598630428e-06   -2.986937761e-05    0.000000000e+00    0.000000000e+00    0.000000000e+00    0.000000000e+00
      475500000    3.799757957e-01   -9.272148609e-01    5.118548870e-06    6.621703506e-07    0.000000000e+00    0.000000000e+00    0.000000000e+00    0.000000000e+00
      482750000    2.805344760e-01   -9.715533853e-01    2.288632095e-05    2.173334360e-05    0.000000000e+00    0.000000000e+00    0.000000000e+00    0.000000000e+00
      490000000    1.768390089e-01   -1.006266356e+00    9.568408132e-06    2.282671630e-06    0.000000000e+00    0.000000000e+00    0.000000000e+00    0.000000000e+00
      497250000    6.922577322e-02   -1.029098749e+00    4.476867616e-06    1.733843237e-05    0.000000000e+00    0.000000000e+00    0.000000000e+00    0.000000000e+00
      504500000   -4.001512378e-02   -1.040850282e+00   -9.856186807e-06   -4.880037159e-05    0.000000000e+00    0.000000000e+00    0.000000000e+00    0.000000000e+00
      511750000   -1.517876387e-01   -1.040944099e+00    2.288632095e-05    2.804584801e-05    0.000000000e+00    0.000000000e+00    0.000000000e+00    0.000000000e+00
      519000000   -2.629777789e-01   -1.028275967e+00   -2.890732139e-05    2.671126276e-05    0.000000000e+00    0.000000000e+00    0.000000000e+00    0.000000000e+00
      526250000   -3.724398315e-01   -1.004642606e+00    4.246365279e-05   -4.420056939e-05    0.000000000e+00    0.000000000e+00    0.000000000e+00    0.000000000e+00
      533500000   -4.801002145e-01   -9.676811099e-01   -6.089918315e-06    1.161266118e-05    0.000000000e+00    0.000000000e+00    0.000000000e+00    0.000000000e+00
      540750000   -5.837960839e-01   -9.193489552e-01    1.998711377e-05   -2.923700958e-05    0.000000000e+00    0.000000000e+00    0.000000000e+00    0.000000000e+00
      548000000   -6.815413237e-01   -8.582029343e-01    1.789815724e-05    1.330021769e-05    0.000000000e+00    0.000000000e+00    0.000000000e+00    0.000000000e+00
      555250000   -7.724738121e-01   -7.861140370e-01    1.225993037e-05    1.907721162e-05    0.000000000e+00    0.000000000e+00    0.000000000e+00    0.000000000e+00
      562500000   -8.547673821e-01   -7.021237612e-01    5.627516657e-05   -4.549790174e-05    0.000000000e+00    0.000000000e+00    0.000000000e+00    0.000000000e+00
      569750000   -9.272383451e-01   -6.103059053e-01    6.365589797e-06    1.222733408e-05    0.000000000e+00    0.000000000e+00    0.000000000e+00    0.000000000e+00
      577000000   -9.882327914e-01   -5.088847280e-01   -2.895575017e-05    4.754401743e-06    0.000000000e+00    0.000000000e+00    0.000000000e+00    0.000000000e+00
      584250000   -1.037598610e+00   -3.988895118e-01   -2.566445619e-05   -1.723691821e-05    0.000000000e+00    0.000000000e+00    0.000000000e+00    0.000000000e+00
      591500000   -1.072249532e+00   -2.861091495e-01   -1.908279955e-06   -2.463348210e-06    0.000000000e+00    0.000000000e+00    0.000000000e+00    0.000000000e+00
      598750000   -1.093844414e+00   -1.666340977e-01   -3.835186362e-06   -1.936219633e-06    0.000000000e+00    0.000000000e+00    0.000000000e+00    0.000000000e+00
      606000000   -1.101361990e+00   -4.796899483e-02   -7.387250662e-06    3.786757588e-06    0.000000000e+00    0.000000000e+00    0.000000000e+00    0.000000000e+00
      613250000   -1.093377113e+00    7.034489512e-02   -6.659887731e-06    2.833083272e-06    0.000000000e+00    0.000000000e+00    0.000000000e+00    0.000000000e+00
      620500000   -1.071242452e+00    1.888615787e-01    1.053791493e-05    1.319590956e-05    0.000000000e+00    0.000000000e+00    0.000000000e+00    0.000000000e+00
      627750000   -1.034001708e+00    3.026592433e-01    1.997221261e-05    1.934915781e-05    0.000000000e+00    0.000000000e+00    0.000000000e+00    0.000000000e+00
      635000000   -9.848613143e-01    4.093590975e-01    1.015141606e-05   -1.567788422e-05    0.000000000e+00    0.000000000e+00    0.000000000e+00    0.000000000e+00
      642250000   -9.239823818e-01    5.088799596e-01    1.047737896e-06   -9.572133422e-06    0.000000000e+00    0.000000000e+00    0.000000000e+00    0.000000000e+00
      649500000   -8.512008190e-01    5.998707414e-01   -6.873160601e-07    3.877095878e-05    0.000000000e+00    0.000000000e+00    0.000000000e+00    0.000000000e+00
      656750000   -7.688122988e-01    6.808748841e-01   -2.297386527e-05    4.561617970e-06    0.000000000e+00    0.000000000e+00    0.000000000e+00    0.000000000e+00
      664000000   -6.798607111e-01    7.509267330e-01    2.712663263e-05    1.257006079e-05    0.000000000e+00    0.000000000e+00    0.000000000e+00    0.000000000e+00
      671250000   -5.835669637e-01    8.084938526e-01    9.439885616e-06    8.522532880e-06    0.000000000e+00    0.000000000e+00    0.000000000e+00    0.000000000e+00
      678500000   -4.833463132e-01    8.547518849e-01    2.186372876e-05   -1.460406929e-05    0.000000000e+00    0.000000000e+00    0.000000000e+00    0.000000000e+00
      685750000   -3.779802620e-01    8.900322914e-01    2.658739686e-05   -4.050321877e-06    0.000000000e+00    0.000000000e+00    0.000000000e+00    0.000000000e+00
      693000000   -2.727981508e-01    9.120438695e-01    3.082677722e-07    1.262500882e-05    0.000000000e+00    0.000000000e+00    0.000000000e+00    0.000000000e+00
      700250000   -1.650561690e-01    9.235650301e-01   -2.098269761e-06   -3.166589886e-05    0.000000000e+00    0.000000000e+00    0.000000000e+00    0.000000000e+00
      707500000   -5.888007954e-02    9.223034382e-01    1.239683479e-05   -4.042871296e-06    0.000000000e+00    0.000000000e+00    0.000000000e+00    0.000000000e+00
      714750000    4.543013871e-02    9.102915525e-01   -4.045665264e-05    4.360266030e-05    0.000000000e+00    0.000000000e+00    0.000000000e+00    0.000000000e+00
      722000000    1.460820884e-01    8.881053925e-01    5.573034286e-06   -3.458280116e-05    0.000000000e+00    0.000000000e+00    0.000000000e+00    0.000000000e+00
      729250000    2.445581704e-01    8.549355268e-01    3.296881914e-07    2.340413630e-06    0.000000000e+00    0.000000000e+00    0.000000000e+00    0.000000000e+00
      736500000    3.376348913e-01    8.133231401e-01   -2.475641668e-05    3.682635725e-05    0.000000000e+00    0.000000000e+00    0.000000000e+00    0.000000000e+00
      743750000    4.251817763e-01    7.632466555e-01   -2.153590322e-05   -4.141312093e-05    0.000000000e+00    0.000000000e+00    0.000000000e+00    0.000000000e+00
      751000000    5.067948103e-01    7.035727501e-01    2.575758845e-05    5.775131285e-06    0.000000000e+00    0.000000000e+00    0.000000000e+00    0.000000000e+00
      758250000    5.815730095e-01    6.374997497e-01    3.053992987e-05   -2.486165613e-05    0.000000000e+00    0.000000000e+00    0.000000000e+00    0.000000000e+00
      765500000    6.504007578e-01    5.640534163e-01   -2.776272595e-05   -1.674983650e-05    0.000000000e+00    0.000000000e+00    0.000000000e+00    0.000000000e+00
      772750000    7.116343379e-01    4.835951924e-01    4.188343883e-05    1.696683466e-05    0.000000000e+00    0.000000000e+00    0.000000000e+00    0.000000000e+00
      780000000    7.628203630e-01    3.999137282e-01    3.021396697e-05   -3.449618816e-06    0.000000000e+00    0.000000000e+00    0.000000000e+00    0.000000000e+00
      787250000    8.071478009e-01    3.087883592e-01    8.115544915e-06    7.083639503e-06    0.000000000e+00    0.000000000e+00    0.000000000e+00    0.000000000e+00
      794500000    8.417804837e-01    2.136591822e-01   -9.430572391e-06   -1.778919250e-05    0.000000000e+00    0.000000000e+00    0.000000000e+00    0.000000000e+00
      801750000    8.671011925e-01    1.152968332e-01    2.893526107e-05   -4.900619388e-06    0.000000000e+00    0.000000000e+00    0.000000000e+00    0.000000000e+00
      809000000    8.824596405e-01    1.373293065e-02   -4.468020052e-05   -2.484582365e-05    0.000000000e+00    0.000000000e+00    0.000000000e+00    0.000000000e+00
      816250000    8.876373768e-01   -8.965764195e-02   -2.921558917e-06    3.602821380e-05    0.000000000e+00    0.000000000e+00    0.000000000e+00    0.000000000e+00
      823500000    8.812212944e-01   -1.950132251e-01    2.249423414e-05    1.231301576e-05    0.000000000e+00    0.000000000e+00    0.000000000e+00    0.000000000e+00
      830750000    8.645620346e-01   -2.993099093e-01   -3.352388740e-05   -1.392420381e-05    0.000000000e+00    0.000000000e+00    0.000000000e+00    0.000000000e+00
      838000000    8.362358809e-01   -4.013854265e-01   -6.758607924e-06   -1.367181540e-05    0.000000000e+00    0.000000000e+00    0.000000000e+00    0.000000000e+00
      845250000    7.956179380e-01   -5.036610961e-01   -1.014303416e-05    1.217145473e-05    0.000000000e+00    0.000000000e+00    0.000000000e+00    0.000000000e+00
      852500000    7.425640225e-01   -6.011235118e-01   -7.261522114e-06    2.041459084e-06    0.000000000e+00    0.000000000e+00    0.000000000e+00    0.000000000e+00
      859750000    6.786945462e-01   -6.925783157e-01   -3.462750465e-05    1.125689596e-05    0.000000000e+00    0.000000000e+00    0.000000000e+00    0.000000000e+00
      867000000    6.014280319e-01   -7.793459296e-01    3.162585199e-05    2.327561378e-05    0.000000000e+00    0.000000000e+00    0.000000000e+00    0.000000000e+00
      874250000    5.156898499e-01   -8.550438881e-01    2.958066761e-05    3.801751882e-05    0.000000000e+00    0.000000000e+00    0.000000000e+00    0.000000000e+00
      881500000    4.162301123e-01   -9.224090576e-01   -4.420056939e-06   -5.211308599e-05    0.000000000e+00    0.000000000e+00    0.000000000e+00    0.000000000e+00
      888750000    3.106096983e-01   -9.751242995e-01    1.731235534e-05    1.123361290e-05    0.000000000e+00    0.000000000e+00    0.000000000e+00    0.000000000e+00
      896000000    1.954852045e-01   -1.015912414e+00    1.265387982e-05   -2.357270569e-05    0.000000000e+00    0.000000000e+00    0.000000000e+00    0.000000000e+00
      903250000    7.587654144e-02   -1.040541530e+00   -1.841038465e-05   -3.694090992e-05    0.000000000e+00    0.000000000e+00    0.000000000e+00    0.000000000e+00
      910500000   -4.814973101e-02   -1.049387693e+00   -7.183291018e-06    2.528727055e-05    0.000000000e+00    0.000000000e+00    0.000000000e+00    0.000000000e+00
      917750000   -1.719134897e-01   -1.041526198e+00    4.010275006e-06   -3.288127482e-05    0.000000000e+00    0.000000000e+00    0.000000000e+00    0.000000000e+00
      925000000   -2.928394079e-01   -1.016046524e+00   -2.079363912e-05   -3.039836884e-06    0.000000000e+00    0.000000000e+00    0.000000000e+00    0.000000000e+00
      932250000   -4.112764895e-01   -9.753364325e-01   -3.214366734e-05    1.309532672e-05    0.000000000e+00    0.000000000e+00    0.000000000e+00    0.000000000e+00
      939500000   -5.198673010e-01   -9.184061289e-01    1.115724444e-05    1.357309520e-05    0.000000000e+00    0.000000000e+00    0.000000000e+00    0.000000000e+00
      946750000   -6.195650101e-01   -8.484874368e-01   -1.858081669e-05   -1.421105117e-05    0.000000000e+00    0.000000000e+00    0.000000000e+00    0.000000000e+00
      954000000   -7.088149786e-01   -7.638971210e-01    3.112386912e-05   -2.327933908e-05    0.000000000e+00    0.000000000e+00    0.000000000e+00    0.000000000e+00
      961250000   -7.834911942e-01   -6.744256616e-01   -3.999099135e-06   -1.205969602e-05    0.000000000e+00    0.000000000e+00    0.000000000e+00    0.000000000e+00
      968500000   -8.460768461e-01   -5.738075376e-01   -2.242624760e-06    1.154839993e-06    0.000000000e+00    0.000000000e+00    0.000000000e+00    0.000000000e+00
      975750000   -8.932070136e-01   -4.691480994e-01    1.467764378e-06   -8.964911103e-06    0.000000000e+00    0.000000000e+00    0.000000000e+00    0.000000000e+00
      983000000   -9.260033369e-01   -3.614913821e-01    9.370036423e-06    2.020131797e-05    0.000000000e+00    0.000000000e+00    0.000000000e+00    0.000000000e+00
      990250000   -9.438219666e-01   -2.532337308e-01   -3.083702177e-05    1.500546932e-05    0.000000000e+00    0.000000000e+00    0.000000000e+00    0.000000000e+00
      997500000   -9.491161108e-01   -1.450810581e-01   -2.909451723e-05   -1.162942499e-05    0.000000000e+00    0.000000000e+00    0.000000000e+00    0.000000000e+00
     1004750000   -9.418383241e-01   -4.140471667e-02   -7.434003055e-05    1.051276922e-05    0.000000000e+00    0.000000000e+00    0.000000000e+00    0.000000000e+00
     1012000000   -9.223421812e-01    5.925411731e-02   -3.580655903e-05   -1.116655767e-05    0.000000000e+00    0.000000000e+00    0.000000000e+00    0.000000000e+00
     1019250000   -8.929387927e-01    1.535650939e-01    1.242198050e-05   -1.227762550e-05    0.000000000e+00    0.000000000e+00    0.000000000e+00    0.000000000e+00
     1026500000   -8.541415930e-01    2.424549609e-01   -1.674052328e-05    2.086069435e-05    0.000000000e+00    0.000000000e+00    0.000000000e+00    0.000000000e+00
     1033750000   -8.075185418e-01    3.250805438e-01    9.494833648e-06    7.068738341e-06    0.000000000e+00    0.000000000e+00    0.000000000e+00    0.000000000e+00
     1041000000   -7.538289428e-01    4.000879824e-01    5.514360964e-06   -4.737637937e-06    0.000000000e+00    0.000000000e+00    0.000000000e+00    0.000000000e+00
