! NanoVNA-App by OneOfEleven et al v1.1.209 (+OD15) 
! Date: 2024-07-30 15:18:18
! Start: 200MHz Stop: 6GHz Points: 801
! S-Parameter data: F S11 S21 S12 S22
# Hz S RI R 50
!     Frequency           S11_Real           S11_Imag           S21_Real           S21_Imag           S12_Real           S12_Imag           S22_Real           S22_Imag
      200000000   -9.988058805e-01   -1.159644350e-01   -4.094094038e-06   -1.371465623e-05    0.000000000e+00    0.000000000e+00    0.000000000e+00    0.000000000e+00
      207250000   -1.010138750e+00   -1.652684249e-02   -4.812143743e-06    7.210299373e-06    0.000000000e+00    0.000000000e+00    0.000000000e+00    0.000000000e+00
      214500000   -1.011304975e+00    8.466967195e-02   -1.237448305e-05    4.033558071e-05    0.000000000e+00    0.000000000e+00    0.000000000e+00    0.000000000e+00
      221750000   -1.002644658e+00    1.876208633e-01   -8.966773748e-06   -9.040348232e-06    0.000000000e+00    0.000000000e+00    0.000000000e+00    0.000000000e+00
      229000000   -9.825848341e-01    2.907954156e-01    2.177059650e-05    2.278015018e-06    0.000000000e+00    0.000000000e+00    0.000000000e+00    0.000000000e+00
      236250000   -9.494740367e-01    3.934497833e-01   -2.715550363e-05   -3.345217556e-05    0.000000000e+00    0.000000000e+00    0.000000000e+00    0.000000000e+00
      243500000   -9.060318470e-01    4.936065078e-01   -2.164300531e-05    1.597963274e-05    0.000000000e+00    0.000000000e+00    0.000000000e+00    0.000000000e+00
      250750000   -8.492421508e-01    5.899761319e-01   -2.159457654e-05    9.807758033e-06    0.000000000e+00    0.000000000e+00    0.000000000e+00    0.000000000e+00
      258000000   -7.809128165e-01    6.808615327e-01   -1.648068428e-05   -1.992098987e-06    0.000000000e+00    0.000000000e+00    0.000000000e+00    0.000000000e+00
      265250000   -7.012682557e-01    7.648825645e-01    7.645227015e-06   -1.100637019e-05    0.000000000e+00    0.000000000e+00    0.000000000e+00    0.000000000e+00
      272500000   -6.098142862e-01    8.394771218e-01   -2.354383469e-05    3.135111183e-05    0.000000000e+00    0.000000000e+00    0.000000000e+00    0.000000000e+00
      279750000   -5.090508461e-01    9.038103819e-01   -1.074280590e-05   -1.071952283e-05    0.000000000e+00    0.000000000e+00    0.000000000e+00    0.000000000e+00
      287000000   -3.975407183e-01    9.551044703e-01   -2.964399755e-06    2.402439713e-05    0.000000000e+00    0.000000000e+00    0.000000000e+00    0.000000000e+00
      294250000   -2.801442444e-01    9.931209683e-01   -1.262035221e-05   -1.753680408e-06    0.000000000e+00    0.000000000e+00    0.000000000e+00    0.000000000e+00
      301500000   -1.576962769e-01    1.015560031e+00   -1.574028283e-05    2.896692604e-05    0.000000000e+00    0.000000000e+00    0.000000000e+00    0.000000000e+00
      308750000   -3.225794435e-02    1.021883965e+00    1.995824277e-06    1.103430986e-05    0.000000000e+00    0.000000000e+00    0.000000000e+00    0.000000000e+00
      316000000    9.367622435e-02    1.013635635e+00    1.105479896e-05   -2.072751522e-05    0.000000000e+00    0.000000000e+00    0.000000000e+00    0.000000000e+00
      323250000    2.187305540e-01    9.881065488e-01   -2.911966294e-05   -1.305900514e-05    0.000000000e+00    0.000000000e+00    0.000000000e+00    0.000000000e+00
      330500000    3.383540213e-01    9.464086890e-01   -1.941900700e-05    1.609418541e-05    0.000000000e+00    0.000000000e+00    0.000000000e+00    0.000000000e+00
      337750000    4.522821903e-01    8.893875480e-01   -2.917367965e-05   -4.154630005e-06    0.000000000e+00    0.000000000e+00    0.000000000e+00    0.000000000e+00
      345000000    5.571400523e-01    8.191329837e-01    1.905672252e-05   -1.555774361e-05    0.000000000e+00    0.000000000e+00    0.000000000e+00    0.000000000e+00
      352250000    6.519522667e-01    7.372715473e-01    6.316229701e-06   -3.316439688e-06    0.000000000e+00    0.000000000e+00    0.000000000e+00    0.000000000e+00
      359500000    7.351938486e-01    6.435402036e-01    3.401190042e-06   -9.340234101e-06    0.000000000e+00    0.000000000e+00    0.000000000e+00    0.000000000e+00
      366750000    8.050805330e-01    5.424000025e-01    2.915970981e-06   -2.322904766e-05    0.000000000e+00    0.000000000e+00    0.000000000e+00    0.000000000e+00
      374000000    8.617762923e-01    4.337631762e-01    2.909731120e-05    1.056026667e-05    0.000000000e+00    0.000000000e+00    0.000000000e+00    0.000000000e+00
      381250000    9.058107734e-01    3.203963637e-01    1.000985503e-05   -1.616869122e-05    0.000000000e+00    0.000000000e+00    0.000000000e+00    0.000000000e+00
      388500000    9.340691566e-01    2.045838684e-01   -1.100078225e-05   -4.861503839e-06    0.000000000e+00    0.000000000e+00    0.000000000e+00    0.000000000e+00
      395750000    9.502105117e-01    8.739878237e-02   -2.796016634e-05   -6.319954991e-06    0.000000000e+00    0.000000000e+00    0.000000000e+00    0.000000000e+00
      403000000    9.524593949e-01   -2.929802798e-02    1.827441156e-05   -1.761317253e-05    0.000000000e+00    0.000000000e+00    0.000000000e+00    0.000000000e+00
      410250000    9.415583014e-01   -1.447252482e-01    5.182996392e-05   -3.401935101e-05    0.000000000e+00    0.000000000e+00    0.000000000e+00    0.000000000e+00
      417500000    9.189004302e-01   -2.564053833e-01   -2.427212894e-05   -5.764886737e-07    0.000000000e+00    0.000000000e+00    0.000000000e+00    0.000000000e+00
      424750000    8.842667937e-01   -3.647018373e-01    1.053232700e-05   -5.476176739e-07    0.000000000e+00    0.000000000e+00    0.000000000e+00    0.000000000e+00
      432000000    8.386534452e-01   -4.669204652e-01    2.852827311e-05    1.021288335e-05    0.000000000e+00    0.000000000e+00    0.000000000e+00    0.000000000e+00
      439250000    7.831442952e-01   -5.634409189e-01   -2.069585025e-05    9.666197002e-06    0.000000000e+00    0.000000000e+00    0.000000000e+00    0.000000000e+00
      446500000    7.180528641e-01   -6.520057321e-01   -1.081451774e-05    5.496665835e-06    0.000000000e+00    0.000000000e+00    0.000000000e+00    0.000000000e+00
      453750000    6.444050670e-01   -7.350307107e-01   -3.863219172e-05    5.010049790e-05    0.000000000e+00    0.000000000e+00    0.000000000e+00    0.000000000e+00
      461000000    5.631918311e-01   -8.073118925e-01    1.197587699e-05   -2.851895988e-05    0.000000000e+00    0.000000000e+00    0.000000000e+00    0.000000000e+00
      468250000    4.755890965e-01   -8.720872402e-01    2.561230212e-05    1.707859337e-05    0.000000000e+00    0.000000000e+00    0.000000000e+00    0.000000000e+00
      475500000    3.801635206e-01   -9.269666672e-01    1.169741154e-05   -1.107063144e-05    0.000000000e+00    0.000000000e+00    0.000000000e+00    0.000000000e+00
      482750000    2.805716097e-01   -9.717381001e-01   -5.594454706e-06    9.695068002e-06    0.000000000e+00    0.000000000e+00    0.000000000e+00    0.000000000e+00
      490000000    1.761196852e-01   -1.005549073e+00   -3.047008067e-05   -2.706516534e-05    0.000000000e+00    0.000000000e+00    0.000000000e+00    0.000000000e+00
      497250000    6.938443333e-02   -1.029036522e+00    8.199363947e-06    1.550652087e-05    0.000000000e+00    0.000000000e+00    0.000000000e+00    0.000000000e+00
      504500000   -4.022150114e-02   -1.041494608e+00    3.488548100e-05    3.034062684e-05    0.000000000e+00    0.000000000e+00    0.000000000e+00    0.000000000e+00
      511750000   -1.513624191e-01   -1.040974379e+00    2.509169281e-05    9.560957551e-06    0.000000000e+00    0.000000000e+00    0.000000000e+00    0.000000000e+00
      519000000   -2.631728351e-01   -1.028766990e+00   -2.158153802e-05   -3.167334944e-05    0.000000000e+00    0.000000000e+00    0.000000000e+00    0.000000000e+00
      526250000   -3.727523386e-01   -1.004490495e+00    2.275593579e-05    3.262422979e-05    0.000000000e+00    0.000000000e+00    0.000000000e+00    0.000000000e+00
      533500000   -4.801238477e-01   -9.678567648e-01    9.965151548e-07    1.072604209e-05    0.000000000e+00    0.000000000e+00    0.000000000e+00    0.000000000e+00
      540750000   -5.837470889e-01   -9.188143015e-01    2.444721758e-06    1.495610923e-05    0.000000000e+00    0.000000000e+00    0.000000000e+00    0.000000000e+00
      548000000   -6.817094088e-01   -8.585739136e-01    4.865229130e-06   -3.662891686e-05    0.000000000e+00    0.000000000e+00    0.000000000e+00    0.000000000e+00
      555250000   -7.723593712e-01   -7.853796482e-01   -1.323316246e-05   -8.703209460e-06    0.000000000e+00    0.000000000e+00    0.000000000e+00    0.000000000e+00
      562500000   -8.551334143e-01   -7.024233937e-01    3.349594772e-05    2.456828952e-06    0.000000000e+00    0.000000000e+00    0.000000000e+00    0.000000000e+00
      569750000   -9.275122881e-01   -6.101630926e-01    1.937523484e-05    1.197680831e-06    0.000000000e+00    0.000000000e+00    0.000000000e+00    0.000000000e+00
      577000000   -9.882436395e-01   -5.092133284e-01   -1.737661660e-05   -1.876056194e-05    0.000000000e+00    0.000000000e+00    0.000000000e+00    0.000000000e+00
      584250000   -1.037557602e+00   -3.991081417e-01    1.315493137e-05   -1.652259380e-05    0.000000000e+00    0.000000000e+00    0.000000000e+00    0.000000000e+00
      591500000   -1.072921872e+00   -2.844305038e-01   -2.833083272e-05   -9.819865227e-06    0.000000000e+00    0.000000000e+00    0.000000000e+00    0.000000000e+00
      598750000   -1.094185829e+00   -1.677951366e-01    5.062669516e-06   -3.219582140e-06    0.000000000e+00    0.000000000e+00    0.000000000e+00    0.000000000e+00
      606000000   -1.101190209e+00   -4.753071070e-02   -8.085742593e-06   -1.514330506e-05    0.000000000e+00    0.000000000e+00    0.000000000e+00    0.000000000e+00
      613250000   -1.093805671e+00    7.133237273e-02   -1.478567719e-05    9.189359844e-06    0.000000000e+00    0.000000000e+00    0.000000000e+00    0.000000000e+00
      620500000   -1.071398139e+00    1.878813803e-01    9.488314390e-06   -1.948606223e-05    0.000000000e+00    0.000000000e+00    0.000000000e+00    0.000000000e+00
      627750000   -1.033846259e+00    3.032180369e-01   -3.874767572e-05   -9.626150131e-06    0.000000000e+00    0.000000000e+00    0.000000000e+00    0.000000000e+00
      635000000   -9.853268862e-01    4.081451893e-01   -2.169888467e-05   -7.386319339e-06    0.000000000e+00    0.000000000e+00    0.000000000e+00    0.000000000e+00
      642250000   -9.230543375e-01    5.096089840e-01    2.805888653e-05   -1.082848758e-05    0.000000000e+00    0.000000000e+00    0.000000000e+00    0.000000000e+00
      649500000   -8.508271575e-01    5.994791389e-01    1.543108374e-05   -1.507066190e-05    0.000000000e+00    0.000000000e+00    0.000000000e+00    0.000000000e+00
      656750000   -7.697364092e-01    6.802286506e-01    3.609154373e-05    4.320777953e-05    0.000000000e+00    0.000000000e+00    0.000000000e+00    0.000000000e+00
      664000000   -6.792325377e-01    7.503420711e-01    7.620081306e-06   -6.198696792e-05    0.000000000e+00    0.000000000e+00    0.000000000e+00    0.000000000e+00
      671250000   -5.835920572e-01    8.086619377e-01   -1.756381243e-05    6.717629731e-06    0.000000000e+00    0.000000000e+00    0.000000000e+00    0.000000000e+00
      678500000   -4.831103086e-01    8.548610806e-01   -9.651295841e-06    2.315081656e-05    0.000000000e+00    0.000000000e+00    0.000000000e+00    0.000000000e+00
      685750000   -3.790996373e-01    8.897174597e-01    9.937211871e-07    1.587811857e-05    0.000000000e+00    0.000000000e+00    0.000000000e+00    0.000000000e+00
      693000000   -2.723788619e-01    9.123695493e-01    7.041729987e-06    6.529130042e-05    0.000000000e+00    0.000000000e+00    0.000000000e+00    0.000000000e+00
      700250000   -1.635375768e-01    9.231936336e-01   -1.578126103e-05   -2.387911081e-05    0.000000000e+00    0.000000000e+00    0.000000000e+00    0.000000000e+00
      707500000   -6.013500690e-02    9.222202301e-01   -2.360623330e-05   -2.242904156e-05    0.000000000e+00    0.000000000e+00    0.000000000e+00    0.000000000e+00
      714750000    4.602180794e-02    9.098749757e-01   -1.643504947e-05   -2.535525709e-05    0.000000000e+00    0.000000000e+00    0.000000000e+00    0.000000000e+00
      722000000    1.458915919e-01    8.881312609e-01    2.580136061e-05   -2.693384886e-06    0.000000000e+00    0.000000000e+00    0.000000000e+00    0.000000000e+00
      729250000    2.450813949e-01    8.550669551e-01    9.810552001e-06   -2.440065145e-06    0.000000000e+00    0.000000000e+00    0.000000000e+00    0.000000000e+00
      736500000    3.370180428e-01    8.133133054e-01    1.637265086e-06    3.252550960e-05    0.000000000e+00    0.000000000e+00    0.000000000e+00    0.000000000e+00
      743750000    4.253289998e-01    7.627474666e-01   -3.083888441e-05    1.198984683e-05    0.000000000e+00    0.000000000e+00    0.000000000e+00    0.000000000e+00
      751000000    5.074320436e-01    7.034966946e-01    4.945043474e-05    5.019828677e-06    0.000000000e+00    0.000000000e+00    0.000000000e+00    0.000000000e+00
      758250000    5.823616982e-01    6.372960210e-01    4.677753896e-05   -2.259854227e-05    0.000000000e+00    0.000000000e+00    0.000000000e+00    0.000000000e+00
      765500000    6.496617198e-01    5.642071962e-01    2.031400800e-05   -1.212209463e-05    0.000000000e+00    0.000000000e+00    0.000000000e+00    0.000000000e+00
      772750000    7.112497687e-01    4.837000966e-01   -5.232915282e-05    3.382470459e-05    0.000000000e+00    0.000000000e+00    0.000000000e+00    0.000000000e+00
      780000000    7.625781894e-01    4.002822340e-01    5.198828876e-05    1.974403858e-07    0.000000000e+00    0.000000000e+00    0.000000000e+00    0.000000000e+00
      787250000    8.075845242e-01    3.076083064e-01   -1.111067832e-06    3.135763109e-06    0.000000000e+00    0.000000000e+00    0.000000000e+00    0.000000000e+00
      794500000    8.422675133e-01    2.136871219e-01   -3.458466381e-05   -4.277005792e-05    0.000000000e+00    0.000000000e+00    0.000000000e+00    0.000000000e+00
      801750000    8.671744466e-01    1.150791124e-01   -5.476176739e-07   -3.533717245e-05    0.000000000e+00    0.000000000e+00    0.000000000e+00    0.000000000e+00
      809000000    8.829301000e-01    1.454238873e-02   -1.222919673e-05   -2.647563815e-05    0.000000000e+00    0.000000000e+00    0.000000000e+00    0.000000000e+00
      816250000    8.878648281e-01   -8.867736906e-02   -7.170252502e-06    2.444908023e-05    0.000000000e+00    0.000000000e+00    0.000000000e+00    0.000000000e+00
      823500000    8.813050389e-01   -1.943423748e-01    1.508556306e-05   -3.078859299e-05    0.000000000e+00    0.000000000e+00    0.000000000e+00    0.000000000e+00
      830750000    8.652812243e-01   -2.986190915e-01    1.493375748e-05   -7.916241884e-06    0.000000000e+00    0.000000000e+00    0.000000000e+00    0.000000000e+00
      838000000    8.349412680e-01   -4.031754732e-01    8.288770914e-07    8.696690202e-06    0.000000000e+00    0.000000000e+00    0.000000000e+00    0.000000000e+00
      845250000    7.952947617e-01   -5.040514469e-01    1.560430974e-05    9.935349226e-06    0.000000000e+00    0.000000000e+00    0.000000000e+00    0.000000000e+00
      852500000    7.430099845e-01   -6.011303663e-01    2.970919013e-06   -3.341585398e-06    0.000000000e+00    0.000000000e+00    0.000000000e+00    0.000000000e+00
      859750000    6.787487268e-01   -6.925137043e-01    1.974869519e-05    2.815760672e-05    0.000000000e+00    0.000000000e+00    0.000000000e+00    0.000000000e+00
      867000000    6.013137698e-01   -7.792432308e-01    4.333443940e-06   -1.223478466e-05    0.000000000e+00    0.000000000e+00    0.000000000e+00    0.000000000e+00
      874250000    5.152086616e-01   -8.547189832e-01    2.916343510e-05   -5.960464478e-07    0.000000000e+00    0.000000000e+00    0.000000000e+00    0.000000000e+00
      881500000    4.159267545e-01   -9.222276807e-01   -2.073589712e-05    3.675371408e-05    0.000000000e+00    0.000000000e+00    0.000000000e+00    0.000000000e+00
      888750000    3.094819188e-01   -9.761239290e-01    4.511512816e-05    1.192186028e-05    0.000000000e+00    0.000000000e+00    0.000000000e+00    0.000000000e+00
      896000000    1.953997910e-01   -1.015603900e+00   -6.428919733e-06    2.545304596e-05    0.000000000e+00    0.000000000e+00    0.000000000e+00    0.000000000e+00
      903250000    7.718938589e-02   -1.041004777e+00    2.728775144e-07    1.434143633e-05    0.000000000e+00    0.000000000e+00    0.000000000e+00    0.000000000e+00
      910500000   -4.787053913e-02   -1.049508333e+00   -4.435889423e-06    2.709217370e-05    0.000000000e+00    0.000000000e+00    0.000000000e+00    0.000000000e+00
      917750000   -1.716954112e-01   -1.041107297e+00   -2.215430140e-05    1.259893179e-05    0.000000000e+00    0.000000000e+00    0.000000000e+00    0.000000000e+00
      925000000   -2.931541502e-01   -1.016747594e+00   -1.844950020e-06    4.587136209e-05    0.000000000e+00    0.000000000e+00    0.000000000e+00    0.000000000e+00
      932250000   -4.107053578e-01   -9.751992226e-01   -2.366676927e-05   -2.533849329e-05    0.000000000e+00    0.000000000e+00    0.000000000e+00    0.000000000e+00
      939500000   -5.198382139e-01   -9.195848107e-01   -3.737304360e-05   -3.252923489e-05    0.000000000e+00    0.000000000e+00    0.000000000e+00    0.000000000e+00
      946750000   -6.194244027e-01   -8.483396173e-01   -5.960464478e-08   -4.166737199e-06    0.000000000e+00    0.000000000e+00    0.000000000e+00    0.000000000e+00
      954000000   -7.086153626e-01   -7.658663988e-01    1.032091677e-05    7.629394531e-06    0.000000000e+00    0.000000000e+00    0.000000000e+00    0.000000000e+00
      961250000   -7.836464047e-01   -6.745028496e-01   -2.290308475e-05   -2.805981785e-05    0.000000000e+00    0.000000000e+00    0.000000000e+00    0.000000000e+00
      968500000   -8.462362885e-01   -5.733554363e-01   -1.671630889e-05   -9.233132005e-06    0.000000000e+00    0.000000000e+00    0.000000000e+00    0.000000000e+00
      975750000   -8.931964636e-01   -4.690785408e-01    9.611248970e-07   -2.744887024e-05    0.000000000e+00    0.000000000e+00    0.000000000e+00    0.000000000e+00
      983000000   -9.261077642e-01   -3.609764278e-01   -1.925136894e-05   -1.354981214e-05    0.000000000e+00    0.000000000e+00    0.000000000e+00    0.000000000e+00
      990250000   -9.443366528e-01   -2.536899447e-01   -2.440810204e-05   -2.222787589e-05    0.000000000e+00    0.000000000e+00    0.000000000e+00    0.000000000e+00
      997500000   -9.492226839e-01   -1.461137980e-01    1.942832023e-05   -6.986781955e-06    0.000000000e+00    0.000000000e+00    0.000000000e+00    0.000000000e+00
     1004750000   -9.419459105e-01   -4.091319442e-02    5.654338747e-05    1.293886453e-05    0.000000000e+00    0.000000000e+00    0.000000000e+00    0.000000000e+00
     1012000000   -9.224177599e-01    5.907594785e-02    2.129934728e-05   -1.545064151e-06    0.000000000e+00    0.000000000e+00    0.000000000e+00    0.000000000e+00
     1019250000   -8.930052519e-01    1.530224532e-01   -3.674067557e-05    5.012378097e-06    0.000000000e+00    0.000000000e+00    0.000000000e+00    0.000000000e+00
     1026500000   -8.548918962e-01    2.419664860e-01    4.053022712e-05    1.924484968e-05    0.000000000e+00    0.000000000e+00    0.000000000e+00    0.000000000e+00
     1033750000   -8.078585863e-01    3.251004815e-01   -3.174878657e-05   -3.454461694e-05    0.000000000e+00    0.000000000e+00    0.000000000e+00    0.000000000e+00
     1041000000   -7.540397644e-01    3.986003101e-01   -3.257766366e-06    2.000480890e-06    0.000000000e+00    0.000000000e+00    0.000000000e+00    0.000000000e+00
