! NanoVNA-App by OneOfEleven et al v1.1.209 (+OD15) 
! Date: 2024-07-30 15:17:41
! Start: 200MHz Stop: 6GHz Points: 801
! S-Parameter data: F S11 S21 S12 S22
# Hz S RI R 50
!     Frequency           S11_Real           S11_Imag           S21_Real           S21_Imag           S12_Real           S12_Imag           S22_Real           S22_Imag
      200000000   -9.986271262e-01   -1.157732755e-01   -1.471675932e-05    1.260079443e-05    0.000000000e+00    0.000000000e+00    0.000000000e+00    0.000000000e+00
      207250000   -1.010407448e+00   -1.703343540e-02    5.035661161e-06   -2.267863601e-05    0.000000000e+00    0.000000000e+00    0.000000000e+00    0.000000000e+00
      214500000   -1.011542916e+00    8.467965573e-02   -1.172348857e-05    3.257766366e-05    0.000000000e+00    0.000000000e+00    0.000000000e+00    0.000000000e+00
      221750000   -1.002671599e+00    1.874053329e-01   -1.892820001e-05    2.322718501e-06    0.000000000e+00    0.000000000e+00    0.000000000e+00    0.000000000e+00
      229000000   -9.819487929e-01    2.904833853e-01   -9.115785360e-06   -1.817941666e-05    0.000000000e+00    0.000000000e+00    0.000000000e+00    0.000000000e+00
      236250000   -9.499490857e-01    3.933066726e-01    3.305263817e-06   -4.279427230e-06    0.000000000e+00    0.000000000e+00    0.000000000e+00    0.000000000e+00
      243500000   -9.059100151e-01    4.929681420e-01    1.523643732e-06   -5.030073225e-06    0.000000000e+00    0.000000000e+00    0.000000000e+00    0.000000000e+00
      250750000   -8.493813872e-01    5.896154642e-01   -2.109725028e-05   -9.823590517e-06    0.000000000e+00    0.000000000e+00    0.000000000e+00    0.000000000e+00
      258000000   -7.815642357e-01    6.807239652e-01   -1.462176442e-06    4.664063454e-06    0.000000000e+00    0.000000000e+00    0.000000000e+00    0.000000000e+00
      265250000   -7.007400393e-01    7.644741535e-01   -2.173706889e-06    2.962816507e-05    0.000000000e+00    0.000000000e+00    0.000000000e+00    0.000000000e+00
      272500000   -6.104806662e-01    8.392857909e-01   -6.755813956e-06    3.674998879e-06    0.000000000e+00    0.000000000e+00    0.000000000e+00    0.000000000e+00
      279750000   -5.085456967e-01    9.032928348e-01    2.647563815e-05   -1.205503941e-05    0.000000000e+00    0.000000000e+00    0.000000000e+00    0.000000000e+00
      287000000   -3.982068300e-01    9.553663731e-01   -3.170222044e-06   -3.731716424e-05    0.000000000e+00    0.000000000e+00    0.000000000e+00    0.000000000e+00
      294250000   -2.810217142e-01    9.928768277e-01   -8.642673492e-07   -1.126155257e-05    0.000000000e+00    0.000000000e+00    0.000000000e+00    0.000000000e+00
      301500000   -1.580623388e-01    1.015789032e+00    2.463255078e-05   -2.215430140e-05    0.000000000e+00    0.000000000e+00    0.000000000e+00    0.000000000e+00
      308750000   -3.249372169e-02    1.023227334e+00   -1.660827547e-05   -1.590419561e-05    0.000000000e+00    0.000000000e+00    0.000000000e+00    0.000000000e+00
      316000000    9.365395457e-02    1.014161825e+00   -3.245659173e-05   -2.344883978e-05    0.000000000e+00    0.000000000e+00    0.000000000e+00    0.000000000e+00
      323250000    2.178157866e-01    9.881897569e-01   -5.851779133e-05    6.272457540e-06    0.000000000e+00    0.000000000e+00    0.000000000e+00    0.000000000e+00
      330500000    3.380890787e-01    9.467526078e-01   -3.902707249e-05    1.505203545e-05    0.000000000e+00    0.000000000e+00    0.000000000e+00    0.000000000e+00
      337750000    4.517912567e-01    8.906307220e-01   -2.773571759e-05    1.061707735e-07    0.000000000e+00    0.000000000e+00    0.000000000e+00    0.000000000e+00
      345000000    5.566940904e-01    8.198003173e-01    1.965742558e-05    3.234017640e-05    0.000000000e+00    0.000000000e+00    0.000000000e+00    0.000000000e+00
      352250000    6.515635848e-01    7.374466062e-01   -1.865439117e-06   -2.230703831e-05    0.000000000e+00    0.000000000e+00    0.000000000e+00    0.000000000e+00
      359500000    7.344601750e-01    6.439956427e-01    5.730427802e-06    1.454167068e-05    0.000000000e+00    0.000000000e+00    0.000000000e+00    0.000000000e+00
      366750000    8.050504923e-01    5.429230928e-01   -1.268275082e-05   -4.521291703e-05    0.000000000e+00    0.000000000e+00    0.000000000e+00    0.000000000e+00
      374000000    8.618112206e-01    4.343161285e-01    2.188794315e-05   -4.296191037e-06    0.000000000e+00    0.000000000e+00    0.000000000e+00    0.000000000e+00
      381250000    9.053128362e-01    3.205134869e-01    1.787487417e-05   -3.116950393e-05    0.000000000e+00    0.000000000e+00    0.000000000e+00    0.000000000e+00
      388500000    9.346864223e-01    2.053905278e-01   -3.206543624e-06   -1.607090235e-05    0.000000000e+00    0.000000000e+00    0.000000000e+00    0.000000000e+00
      395750000    9.505267143e-01    8.858595043e-02    3.012828529e-05    2.742744982e-06    0.000000000e+00    0.000000000e+00    0.000000000e+00    0.000000000e+00
      403000000    9.524897933e-01   -2.959337272e-02   -4.430301487e-06   -6.315298378e-06    0.000000000e+00    0.000000000e+00    0.000000000e+00    0.000000000e+00
      410250000    9.419277310e-01   -1.440042406e-01   -2.878252417e-05   -1.161359251e-06    0.000000000e+00    0.000000000e+00    0.000000000e+00    0.000000000e+00
      417500000    9.193739295e-01   -2.564585805e-01   -7.733702660e-06   -1.239031553e-05    0.000000000e+00    0.000000000e+00    0.000000000e+00    0.000000000e+00
      424750000    8.847055435e-01   -3.642272353e-01    4.182569683e-06    1.725181937e-05    0.000000000e+00    0.000000000e+00    0.000000000e+00    0.000000000e+00
      432000000    8.392239809e-01   -4.666108787e-01   -1.098215580e-05    2.346746624e-05    0.000000000e+00    0.000000000e+00    0.000000000e+00    0.000000000e+00
      439250000    7.833841443e-01   -5.631157756e-01    2.554710954e-05    1.581571996e-05    0.000000000e+00    0.000000000e+00    0.000000000e+00    0.000000000e+00
      446500000    7.190475464e-01   -6.519187689e-01    1.119449735e-06   -2.534780651e-05    0.000000000e+00    0.000000000e+00    0.000000000e+00    0.000000000e+00
      453750000    6.441825032e-01   -7.343237996e-01    2.788566053e-05   -3.489479423e-05    0.000000000e+00    0.000000000e+00    0.000000000e+00    0.000000000e+00
      461000000    5.637435317e-01   -8.075254560e-01   -2.039689571e-05    7.060356438e-06    0.000000000e+00    0.000000000e+00    0.000000000e+00    0.000000000e+00
      468250000    4.757434428e-01   -8.718795180e-01    1.085922122e-06    3.552995622e-06    0.000000000e+00    0.000000000e+00    0.000000000e+00    0.000000000e+00
      475500000    3.809459805e-01   -9.269471765e-01   -1.050718129e-05    2.982560545e-05    0.000000000e+00    0.000000000e+00    0.000000000e+00    0.000000000e+00
      482750000    2.811609507e-01   -9.717136621e-01   -1.943670213e-06   -1.963507384e-05    0.000000000e+00    0.000000000e+00    0.000000000e+00    0.000000000e+00
      490000000    1.772658676e-01   -1.006266713e+00    1.266598701e-07    1.581758261e-05    0.000000000e+00    0.000000000e+00    0.000000000e+00    0.000000000e+00
      497250000    6.989647448e-02   -1.029199958e+00   -1.435354352e-05   -9.092502296e-06    0.000000000e+00    0.000000000e+00    0.000000000e+00    0.000000000e+00
      504500000   -3.968031332e-02   -1.041383982e+00   -7.515773177e-07    2.551823854e-05    0.000000000e+00    0.000000000e+00    0.000000000e+00    0.000000000e+00
      511750000   -1.508143246e-01   -1.040858626e+00    9.405426681e-06   -7.523223758e-06    0.000000000e+00    0.000000000e+00    0.000000000e+00    0.000000000e+00
      519000000   -2.620657980e-01   -1.028920174e+00    8.575618267e-06   -1.842714846e-05    0.000000000e+00    0.000000000e+00    0.000000000e+00    0.000000000e+00
      526250000   -3.714710176e-01   -1.005188942e+00    1.469999552e-05    2.810265869e-05    0.000000000e+00    0.000000000e+00    0.000000000e+00    0.000000000e+00
      533500000   -4.795809090e-01   -9.682641625e-01   -4.956498742e-06   -4.851259291e-06    0.000000000e+00    0.000000000e+00    0.000000000e+00    0.000000000e+00
      540750000   -5.830134749e-01   -9.192996025e-01    1.205783337e-05    3.106798977e-05    0.000000000e+00    0.000000000e+00    0.000000000e+00    0.000000000e+00
      548000000   -6.809728146e-01   -8.592610359e-01    1.367088407e-05    1.253280789e-05    0.000000000e+00    0.000000000e+00    0.000000000e+00    0.000000000e+00
      555250000   -7.718384266e-01   -7.861676812e-01    1.915544271e-05    2.238992602e-05    0.000000000e+00    0.000000000e+00    0.000000000e+00    0.000000000e+00
      562500000   -8.548040390e-01   -7.027534246e-01   -3.278255463e-07   -8.745118976e-07    0.000000000e+00    0.000000000e+00    0.000000000e+00    0.000000000e+00
      569750000   -9.271377325e-01   -6.106297970e-01   -3.659259528e-05    2.196617424e-05    0.000000000e+00    0.000000000e+00    0.000000000e+00    0.000000000e+00
      577000000   -9.887953997e-01   -5.081099868e-01   -1.751910895e-05   -2.273358405e-05    0.000000000e+00    0.000000000e+00    0.000000000e+00    0.000000000e+00
      584250000   -1.036988735e+00   -4.003968835e-01    4.748813808e-05    8.178874850e-06    0.000000000e+00    0.000000000e+00    0.000000000e+00    0.000000000e+00
      591500000   -1.072529197e+00   -2.862605751e-01    1.948699355e-05   -1.471210271e-05    0.000000000e+00    0.000000000e+00    0.000000000e+00    0.000000000e+00
      598750000   -1.094024062e+00   -1.678783149e-01   -3.396533430e-06    1.773424447e-05    0.000000000e+00    0.000000000e+00    0.000000000e+00    0.000000000e+00
      606000000   -1.101131320e+00   -4.813604429e-02    8.700415492e-06    2.203509212e-06    0.000000000e+00    0.000000000e+00    0.000000000e+00    0.000000000e+00
      613250000   -1.093750358e+00    6.986053288e-02    4.104152322e-05   -2.586375922e-05    0.000000000e+00    0.000000000e+00    0.000000000e+00    0.000000000e+00
      620500000   -1.070963383e+00    1.887488365e-01    5.667097867e-06   -1.802109182e-05    0.000000000e+00    0.000000000e+00    0.000000000e+00    0.000000000e+00
      627750000   -1.035203815e+00    3.026366830e-01   -1.193955541e-06    5.026347935e-06    0.000000000e+00    0.000000000e+00    0.000000000e+00    0.000000000e+00
      635000000   -9.859857559e-01    4.083763957e-01    6.811693311e-06    1.920573413e-05    0.000000000e+00    0.000000000e+00    0.000000000e+00    0.000000000e+00
      642250000   -9.237768650e-01    5.089225769e-01   -2.948567271e-06    3.782194108e-05    0.000000000e+00    0.000000000e+00    0.000000000e+00    0.000000000e+00
      649500000   -8.520462513e-01    5.986940265e-01   -6.933696568e-06    1.308508217e-06    0.000000000e+00    0.000000000e+00    0.000000000e+00    0.000000000e+00
      656750000   -7.704677582e-01    6.797782183e-01    2.013891935e-05   -2.134032547e-05    0.000000000e+00    0.000000000e+00    0.000000000e+00    0.000000000e+00
      664000000   -6.807403564e-01    7.501212955e-01   -1.545436680e-05    9.452924132e-06    0.000000000e+00    0.000000000e+00    0.000000000e+00    0.000000000e+00
      671250000   -5.844364762e-01    8.088575602e-01   -1.765042543e-05    2.626329660e-06    0.000000000e+00    0.000000000e+00    0.000000000e+00    0.000000000e+00
      678500000   -4.837147295e-01    8.553449512e-01   -6.694346666e-06    5.050562322e-06    0.000000000e+00    0.000000000e+00    0.000000000e+00    0.000000000e+00
      685750000   -3.793729544e-01    8.899207711e-01   -6.054528058e-06   -4.924833775e-06    0.000000000e+00    0.000000000e+00    0.000000000e+00    0.000000000e+00
      693000000   -2.733633816e-01    9.126813412e-01   -5.669891834e-06   -1.201964915e-05    0.000000000e+00    0.000000000e+00    0.000000000e+00    0.000000000e+00
      700250000   -1.661246270e-01    9.234811068e-01    8.877366781e-06    4.436820745e-06    0.000000000e+00    0.000000000e+00    0.000000000e+00    0.000000000e+00
      707500000   -6.037420407e-02    9.224873781e-01    5.405396223e-06    1.748092473e-06    0.000000000e+00    0.000000000e+00    0.000000000e+00    0.000000000e+00
      714750000    4.547296837e-02    9.103809595e-01   -1.260917634e-05    3.070384264e-05    0.000000000e+00    0.000000000e+00    0.000000000e+00    0.000000000e+00
      722000000    1.460454315e-01    8.883519769e-01    6.569549441e-06   -1.622829586e-05    0.000000000e+00    0.000000000e+00    0.000000000e+00    0.000000000e+00
      729250000    2.433568388e-01    8.558148742e-01   -3.422051668e-05   -3.401376307e-05    0.000000000e+00    0.000000000e+00    0.000000000e+00    0.000000000e+00
      736500000    3.371777833e-01    8.139030933e-01   -1.040007919e-05    2.330634743e-05    0.000000000e+00    0.000000000e+00    0.000000000e+00    0.000000000e+00
      743750000    4.248899221e-01    7.632286549e-01   -2.078991383e-05    3.392901272e-05    0.000000000e+00    0.000000000e+00    0.000000000e+00    0.000000000e+00
      751000000    5.069042444e-01    7.041472197e-01   -1.652166247e-05    4.352070391e-06    0.000000000e+00    0.000000000e+00    0.000000000e+00    0.000000000e+00
      758250000    5.820000172e-01    6.377881765e-01   -1.588277519e-05    9.429641068e-06    0.000000000e+00    0.000000000e+00    0.000000000e+00    0.000000000e+00
      765500000    6.499432921e-01    5.649790764e-01    1.719128340e-05   -1.004710793e-05    0.000000000e+00    0.000000000e+00    0.000000000e+00    0.000000000e+00
      772750000    7.104048133e-01    4.846914709e-01   -5.510635674e-06    5.360692739e-06    0.000000000e+00    0.000000000e+00    0.000000000e+00    0.000000000e+00
      780000000    7.618295550e-01    4.008535147e-01   -1.545343548e-05   -1.196656376e-05    0.000000000e+00    0.000000000e+00    0.000000000e+00    0.000000000e+00
      787250000    8.075888753e-01    3.086189032e-01    2.118665725e-05    1.717731357e-05    0.000000000e+00    0.000000000e+00    0.000000000e+00    0.000000000e+00
      794500000    8.417838812e-01    2.142648995e-01    1.114699990e-05    7.714144886e-06    0.000000000e+00    0.000000000e+00    0.000000000e+00    0.000000000e+00
      801750000    8.676549196e-01    1.162201837e-01   -5.476176739e-07    1.457147300e-05    0.000000000e+00    0.000000000e+00    0.000000000e+00    0.000000000e+00
      809000000    8.831638098e-01    1.506210212e-02   -2.770312130e-05   -2.424512058e-05    0.000000000e+00    0.000000000e+00    0.000000000e+00    0.000000000e+00
      816250000    8.881782889e-01   -8.942694217e-02   -1.733191311e-06   -2.717971802e-05    0.000000000e+00    0.000000000e+00    0.000000000e+00    0.000000000e+00
      823500000    8.820189834e-01   -1.929347962e-01   -1.567322761e-05   -6.302259862e-06    0.000000000e+00    0.000000000e+00    0.000000000e+00    0.000000000e+00
      830750000    8.647332788e-01   -2.987302542e-01   -1.115817577e-05   -3.114528954e-05    0.000000000e+00    0.000000000e+00    0.000000000e+00    0.000000000e+00
      838000000    8.363663554e-01   -4.019851983e-01    1.190416515e-05   -7.229857147e-06    0.000000000e+00    0.000000000e+00    0.000000000e+00    0.000000000e+00
      845250000    7.963529825e-01   -5.031284094e-01   -4.226621240e-05    1.077912748e-05    0.000000000e+00    0.000000000e+00    0.000000000e+00    0.000000000e+00
      852500000    7.435464859e-01   -6.005393863e-01   -1.680571586e-05    2.159364522e-05    0.000000000e+00    0.000000000e+00    0.000000000e+00    0.000000000e+00
      859750000    6.798073649e-01   -6.927848458e-01    2.389028668e-05   -1.383293420e-05    0.000000000e+00    0.000000000e+00    0.000000000e+00    0.000000000e+00
      867000000    6.027089357e-01   -7.782408595e-01   -1.463573426e-05   -1.772865653e-05    0.000000000e+00    0.000000000e+00    0.000000000e+00    0.000000000e+00
      874250000    5.161416531e-01   -8.550902009e-01   -3.676954657e-05   -2.831313759e-05    0.000000000e+00    0.000000000e+00    0.000000000e+00    0.000000000e+00
      881500000    4.168255627e-01   -9.222521782e-01   -1.142174006e-05    2.009235322e-05    0.000000000e+00    0.000000000e+00    0.000000000e+00    0.000000000e+00
      888750000    3.107445538e-01   -9.752521515e-01   -4.131346941e-05    9.277835488e-06    0.000000000e+00    0.000000000e+00    0.000000000e+00    0.000000000e+00
      896000000    1.970884651e-01   -1.016023040e+00    1.405365765e-05   -2.299621701e-05    0.000000000e+00    0.000000000e+00    0.000000000e+00    0.000000000e+00
      903250000    7.686374336e-02   -1.041863918e+00    1.518242061e-05    9.078532457e-06    0.000000000e+00    0.000000000e+00    0.000000000e+00    0.000000000e+00
      910500000   -4.635744914e-02   -1.049771667e+00    2.826284617e-05    1.398194581e-05    0.000000000e+00    0.000000000e+00    0.000000000e+00    0.000000000e+00
      917750000   -1.716812700e-01   -1.041846395e+00    1.549161971e-05   -1.224130392e-05    0.000000000e+00    0.000000000e+00    0.000000000e+00    0.000000000e+00
      925000000   -2.922574580e-01   -1.017445803e+00   -8.374452591e-06    4.561245441e-05    0.000000000e+00    0.000000000e+00    0.000000000e+00    0.000000000e+00
      932250000   -4.100181758e-01   -9.756629467e-01    6.010755897e-06   -4.529114813e-05    0.000000000e+00    0.000000000e+00    0.000000000e+00    0.000000000e+00
      939500000   -5.196750760e-01   -9.193855524e-01   -3.777723759e-05    2.889893949e-05    0.000000000e+00    0.000000000e+00    0.000000000e+00    0.000000000e+00
      946750000   -6.189845800e-01   -8.492160439e-01    6.034038961e-06    2.796389163e-05    0.000000000e+00    0.000000000e+00    0.000000000e+00    0.000000000e+00
      954000000   -7.083145976e-01   -7.669208646e-01   -2.070702612e-05   -1.875311136e-05    0.000000000e+00    0.000000000e+00    0.000000000e+00    0.000000000e+00
      961250000   -7.832576036e-01   -6.757258773e-01   -6.115436554e-05    9.480863810e-06    0.000000000e+00    0.000000000e+00    0.000000000e+00    0.000000000e+00
      968500000   -8.464217186e-01   -5.746472478e-01    1.467950642e-05   -1.363363117e-05    0.000000000e+00    0.000000000e+00    0.000000000e+00    0.000000000e+00
      975750000   -8.929843307e-01   -4.708255827e-01   -2.265442163e-05   -8.479692042e-06    0.000000000e+00    0.000000000e+00    0.000000000e+00    0.000000000e+00
      983000000   -9.259108901e-01   -3.626666665e-01    7.082521915e-05    3.647338599e-05    0.000000000e+00    0.000000000e+00    0.000000000e+00    0.000000000e+00
      990250000   -9.441190362e-01   -2.552101016e-01   -2.585817128e-05   -5.484558642e-06    0.000000000e+00    0.000000000e+00    0.000000000e+00    0.000000000e+00
      997500000   -9.493418932e-01   -1.463194638e-01   -1.438893378e-06   -6.343238056e-06    0.000000000e+00    0.000000000e+00    0.000000000e+00    0.000000000e+00
     1004750000   -9.420923591e-01   -4.265907779e-02   -2.137105912e-05    2.595596015e-06    0.000000000e+00    0.000000000e+00    0.000000000e+00    0.000000000e+00
     1012000000   -9.226370454e-01    5.908792466e-02   -2.574175596e-06    3.727525473e-05    0.000000000e+00    0.000000000e+00    0.000000000e+00    0.000000000e+00
     1019250000   -8.937110305e-01    1.531637311e-01    3.059580922e-05   -1.371186227e-05    0.000000000e+00    0.000000000e+00    0.000000000e+00    0.000000000e+00
     1026500000   -8.549301624e-01    2.425542176e-01    1.396890730e-05    3.391876817e-06    0.000000000e+00    0.000000000e+00    0.000000000e+00    0.000000000e+00
     1033750000   -8.083094954e-01    3.240455389e-01   -2.508983016e-06    1.941341907e-05    0.000000000e+00    0.000000000e+00    0.000000000e+00    0.000000000e+00
     1041000000   -7.550462484e-01    3.986230493e-01   -1.029856503e-05   -2.795364708e-05    0.000000000e+00    0.000000000e+00    0.000000000e+00    0.000000000e+00
