! NanoVNA-App by OneOfEleven et al v1.1.209 (+OD15) 
! Date: 2024-07-30 15:17:55
! Start: 200MHz Stop: 6GHz Points: 801
! S-Parameter data: F S11 S21 S12 S22
# Hz S RI R 50
!     Frequency           S11_Real           S11_Imag           S21_Real           S21_Imag           S12_Real           S12_Imag           S22_Real           S22_Imag
      200000000   -9.985150099e-01   -1.156572104e-01   -3.036111593e-06    1.164432615e-05    0.000000000e+00    0.000000000e+00    0.000000000e+00    0.000000000e+00
      207250000   -1.010361195e+00   -1.675329544e-02    2.197176218e-05   -3.398209810e-05    0.000000000e+00    0.000000000e+00    0.000000000e+00    0.000000000e+00
      214500000   -1.011487246e+00    8.465950936e-02    2.097431570e-05   -1.643318683e-05    0.000000000e+00    0.000000000e+00    0.000000000e+00    0.000000000e+00
      221750000   -1.002742171e+00    1.876031160e-01   -2.523139119e-05   -9.427778423e-06    0.000000000e+00    0.000000000e+00    0.000000000e+00    0.000000000e+00
      229000000   -9.827951789e-01    2.905899286e-01    3.349874169e-05    1.394562423e-05    0.000000000e+00    0.000000000e+00    0.000000000e+00    0.000000000e+00
      236250000   -9.499973655e-01    3.934891522e-01   -5.848705769e-07   -2.908892930e-05    0.000000000e+00    0.000000000e+00    0.000000000e+00    0.000000000e+00
      243500000   -9.061447382e-01    4.933488071e-01   -1.547019929e-05    1.658499241e-05    0.000000000e+00    0.000000000e+00    0.000000000e+00    0.000000000e+00
      250750000   -8.493320942e-01    5.903117061e-01    2.023298293e-05   -8.911825716e-06    0.000000000e+00    0.000000000e+00    0.000000000e+00    0.000000000e+00
      258000000   -7.808846235e-01    6.808349490e-01   -9.872019291e-06   -1.789070666e-06    0.000000000e+00    0.000000000e+00    0.000000000e+00    0.000000000e+00
      265250000   -7.018468380e-01    7.646598220e-01   -3.416091204e-06   -8.544884622e-06    0.000000000e+00    0.000000000e+00    0.000000000e+00    0.000000000e+00
      272500000   -6.097314358e-01    8.395193219e-01   -2.917367965e-05   -3.685243428e-06    0.000000000e+00    0.000000000e+00    0.000000000e+00    0.000000000e+00
      279750000   -5.084565878e-01    9.039402008e-01    8.536502719e-06   -5.029141903e-06    0.000000000e+00    0.000000000e+00    0.000000000e+00    0.000000000e+00
      287000000   -3.979106247e-01    9.553372264e-01    3.512948751e-06    5.836598575e-06    0.000000000e+00    0.000000000e+00    0.000000000e+00    0.000000000e+00
      294250000   -2.810181975e-01    9.928457141e-01    3.048218787e-06    9.853392839e-06    0.000000000e+00    0.000000000e+00    0.000000000e+00    0.000000000e+00
      301500000   -1.584184170e-01    1.015708208e+00   -1.341663301e-05   -3.907829523e-06    0.000000000e+00    0.000000000e+00    0.000000000e+00    0.000000000e+00
      308750000   -3.216268867e-02    1.022084355e+00    8.931383491e-07    4.818663001e-06    0.000000000e+00    0.000000000e+00    0.000000000e+00    0.000000000e+00
      316000000    9.414616972e-02    1.013252497e+00    1.267064363e-05   -3.793183714e-05    0.000000000e+00    0.000000000e+00    0.000000000e+00    0.000000000e+00
      323250000    2.184349597e-01    9.877789617e-01   -2.078339458e-05    7.302500308e-06    0.000000000e+00    0.000000000e+00    0.000000000e+00    0.000000000e+00
      330500000    3.379756212e-01    9.463717341e-01   -4.528556019e-05    5.713012069e-05    0.000000000e+00    0.000000000e+00    0.000000000e+00    0.000000000e+00
      337750000    4.510924220e-01    8.903536797e-01    2.822559327e-05   -1.388601959e-06    0.000000000e+00    0.000000000e+00    0.000000000e+00    0.000000000e+00
      345000000    5.570844412e-01    8.187412620e-01    1.200847328e-05    2.551823854e-05    0.000000000e+00    0.000000000e+00    0.000000000e+00    0.000000000e+00
      352250000    6.518739462e-01    7.369790673e-01    1.080241054e-05   -1.066736877e-05    0.000000000e+00    0.000000000e+00    0.000000000e+00    0.000000000e+00
      359500000    7.349007726e-01    6.438679099e-01    5.848705769e-07    2.163369209e-05    0.000000000e+00    0.000000000e+00    0.000000000e+00    0.000000000e+00
      366750000    8.052741885e-01    5.420718789e-01    2.772267908e-05    3.093015403e-05    0.000000000e+00    0.000000000e+00    0.000000000e+00    0.000000000e+00
      374000000    8.620695472e-01    4.341188073e-01   -3.170128912e-05   -1.491140574e-05    0.000000000e+00    0.000000000e+00    0.000000000e+00    0.000000000e+00
      381250000    9.052248001e-01    3.202729821e-01   -1.471396536e-05    4.023406655e-05    0.000000000e+00    0.000000000e+00    0.000000000e+00    0.000000000e+00
      388500000    9.348015189e-01    2.049421966e-01   -1.458916813e-05    6.687827408e-06    0.000000000e+00    0.000000000e+00    0.000000000e+00    0.000000000e+00
      395750000    9.503817558e-01    8.757790923e-02    9.441748261e-06    1.883693039e-05    0.000000000e+00    0.000000000e+00    0.000000000e+00    0.000000000e+00
      403000000    9.524549842e-01   -2.891800366e-02   -3.788620234e-06   -3.126449883e-06    0.000000000e+00    0.000000000e+00    0.000000000e+00    0.000000000e+00
      410250000    9.416141510e-01   -1.442395151e-01    3.746431321e-05   -1.467205584e-05    0.000000000e+00    0.000000000e+00    0.000000000e+00    0.000000000e+00
      417500000    9.185056686e-01   -2.567236423e-01   -2.574548125e-05    4.777684808e-06    0.000000000e+00    0.000000000e+00    0.000000000e+00    0.000000000e+00
      424750000    8.844649792e-01   -3.646262288e-01    2.923980355e-05    2.013612539e-05    0.000000000e+00    0.000000000e+00    0.000000000e+00    0.000000000e+00
      432000000    8.393743634e-01   -4.667412937e-01    1.072697341e-05    5.885027349e-05    0.000000000e+00    0.000000000e+00    0.000000000e+00    0.000000000e+00
      439250000    7.833112478e-01   -5.631625652e-01    5.477108061e-06    3.184191883e-05    0.000000000e+00    0.000000000e+00    0.000000000e+00    0.000000000e+00
      446500000    7.180572748e-01   -6.520461440e-01   -2.425815910e-05    9.176321328e-06    0.000000000e+00    0.000000000e+00    0.000000000e+00    0.000000000e+00
      453750000    6.442858577e-01   -7.347965240e-01   -1.576729119e-06   -8.381903172e-06    0.000000000e+00    0.000000000e+00    0.000000000e+00    0.000000000e+00
      461000000    5.636712909e-01   -8.075185418e-01    1.408252865e-05   -9.712763131e-06    0.000000000e+00    0.000000000e+00    0.000000000e+00    0.000000000e+00
      468250000    4.750403166e-01   -8.718174696e-01    1.761410385e-05    1.540128142e-05    0.000000000e+00    0.000000000e+00    0.000000000e+00    0.000000000e+00
      475500000    3.800291717e-01   -9.268543124e-01   -4.215352237e-05   -1.838058233e-05    0.000000000e+00    0.000000000e+00    0.000000000e+00    0.000000000e+00
      482750000    2.812896371e-01   -9.719545245e-01   -4.600081593e-05   -2.553686500e-05    0.000000000e+00    0.000000000e+00    0.000000000e+00    0.000000000e+00
      490000000    1.761993021e-01   -1.005660653e+00   -6.959773600e-06   -1.087132841e-05    0.000000000e+00    0.000000000e+00    0.000000000e+00    0.000000000e+00
      497250000    6.973415613e-02   -1.029216051e+00    2.301391214e-05    4.538707435e-05    0.000000000e+00    0.000000000e+00    0.000000000e+00    0.000000000e+00
      504500000   -4.040827230e-02   -1.040639877e+00   -1.907441765e-05   -8.997507393e-06    0.000000000e+00    0.000000000e+00    0.000000000e+00    0.000000000e+00
      511750000   -1.514471620e-01   -1.040833473e+00    1.883972436e-05    1.777522266e-05    0.000000000e+00    0.000000000e+00    0.000000000e+00    0.000000000e+00
      519000000   -2.623713315e-01   -1.029190540e+00   -3.518443555e-05   -3.128685057e-05    0.000000000e+00    0.000000000e+00    0.000000000e+00    0.000000000e+00
      526250000   -3.724519610e-01   -1.004808307e+00   -3.619119525e-06   -6.929039955e-06    0.000000000e+00    0.000000000e+00    0.000000000e+00    0.000000000e+00
      533500000   -4.799523652e-01   -9.677766562e-01    3.826804459e-06   -1.215375960e-05    0.000000000e+00    0.000000000e+00    0.000000000e+00    0.000000000e+00
      540750000   -5.829404593e-01   -9.191440940e-01   -8.850358427e-06    9.202398360e-06    0.000000000e+00    0.000000000e+00    0.000000000e+00    0.000000000e+00
      548000000   -6.818246245e-01   -8.578667045e-01   -8.643604815e-06   -8.810311556e-06    0.000000000e+00    0.000000000e+00    0.000000000e+00    0.000000000e+00
      555250000   -7.727252841e-01   -7.854251266e-01    1.842435449e-05    2.444162965e-05    0.000000000e+00    0.000000000e+00    0.000000000e+00    0.000000000e+00
      562500000   -8.546061516e-01   -7.021188736e-01    3.173854202e-05   -1.968257129e-05    0.000000000e+00    0.000000000e+00    0.000000000e+00    0.000000000e+00
      569750000   -9.272024035e-01   -6.105133295e-01   -8.825212717e-06   -2.114102244e-06    0.000000000e+00    0.000000000e+00    0.000000000e+00    0.000000000e+00
      577000000   -9.887136817e-01   -5.074434876e-01   -4.424899817e-05    9.811483324e-06    0.000000000e+00    0.000000000e+00    0.000000000e+00    0.000000000e+00
      584250000   -1.037165761e+00   -4.009695351e-01    4.893168807e-06    3.448128700e-05    0.000000000e+00    0.000000000e+00    0.000000000e+00    0.000000000e+00
      591500000   -1.072565317e+00   -2.855172455e-01    7.755123079e-06    9.710900486e-06    0.000000000e+00    0.000000000e+00    0.000000000e+00    0.000000000e+00
      598750000   -1.094168425e+00   -1.669907570e-01   -1.620501280e-05    1.026317477e-05    0.000000000e+00    0.000000000e+00    0.000000000e+00    0.000000000e+00
      606000000   -1.100895882e+00   -4.763117805e-02    1.160614192e-05   -1.434236765e-05    0.000000000e+00    0.000000000e+00    0.000000000e+00    0.000000000e+00
      613250000   -1.093493342e+00    7.152258605e-02    2.077315003e-05    4.387740046e-05    0.000000000e+00    0.000000000e+00    0.000000000e+00    0.000000000e+00
      620500000   -1.070918322e+00    1.883915663e-01   -2.287328243e-06   -4.258938134e-06    0.000000000e+00    0.000000000e+00    0.000000000e+00    0.000000000e+00
      627750000   -1.034328580e+00    3.027926683e-01    1.920387149e-05    2.554617822e-06    0.000000000e+00    0.000000000e+00    0.000000000e+00    0.000000000e+00
      635000000   -9.853218198e-01    4.083553255e-01   -9.612180293e-06    2.516433597e-06    0.000000000e+00    0.000000000e+00    0.000000000e+00    0.000000000e+00
      642250000   -9.230412841e-01    5.093119740e-01    8.633360267e-07    1.693610102e-05    0.000000000e+00    0.000000000e+00    0.000000000e+00    0.000000000e+00
      649500000   -8.521776199e-01    5.995891690e-01   -2.046395093e-05   -5.702115595e-05    0.000000000e+00    0.000000000e+00    0.000000000e+00    0.000000000e+00
      656750000   -7.700252533e-01    6.801971793e-01   -1.267343760e-05    2.288259566e-06    0.000000000e+00    0.000000000e+00    0.000000000e+00    0.000000000e+00
      664000000   -6.794012785e-01    7.498330474e-01   -8.448027074e-06   -1.857522875e-05    0.000000000e+00    0.000000000e+00    0.000000000e+00    0.000000000e+00
      671250000   -5.841654539e-01    8.081778288e-01   -7.975846529e-06   -3.072153777e-05    0.000000000e+00    0.000000000e+00    0.000000000e+00    0.000000000e+00
      678500000   -4.831644893e-01    8.554485440e-01    1.825671643e-05   -2.480112016e-06    0.000000000e+00    0.000000000e+00    0.000000000e+00    0.000000000e+00
      685750000   -3.785072267e-01    8.897631764e-01   -3.434717655e-05   -1.542456448e-05    0.000000000e+00    0.000000000e+00    0.000000000e+00    0.000000000e+00
      693000000   -2.735387683e-01    9.123134613e-01   -2.097245306e-05    1.107994467e-05    0.000000000e+00    0.000000000e+00    0.000000000e+00    0.000000000e+00
      700250000   -1.657531261e-01    9.225348830e-01    9.486451745e-06    3.449618816e-05    0.000000000e+00    0.000000000e+00    0.000000000e+00    0.000000000e+00
      707500000   -5.884642154e-02    9.225094914e-01   -2.264138311e-05   -3.366917372e-05    0.000000000e+00    0.000000000e+00    0.000000000e+00    0.000000000e+00
      714750000    4.538421333e-02    9.100119472e-01    1.033023000e-05   -2.758484334e-05    0.000000000e+00    0.000000000e+00    0.000000000e+00    0.000000000e+00
      722000000    1.466058642e-01    8.882314563e-01   -2.954155207e-05   -1.201964915e-05    0.000000000e+00    0.000000000e+00    0.000000000e+00    0.000000000e+00
      729250000    2.453187853e-01    8.549089432e-01    7.071346045e-05   -9.778887033e-07    0.000000000e+00    0.000000000e+00    0.000000000e+00    0.000000000e+00
      736500000    3.373314738e-01    8.135624528e-01    1.114699990e-05   -2.203322947e-05    0.000000000e+00    0.000000000e+00    0.000000000e+00    0.000000000e+00
      743750000    4.253793061e-01    7.625963092e-01   -7.599592209e-06   -1.793354750e-05    0.000000000e+00    0.000000000e+00    0.000000000e+00    0.000000000e+00
      751000000    5.071148872e-01    7.030714750e-01    1.910142601e-05   -2.175569534e-06    0.000000000e+00    0.000000000e+00    0.000000000e+00    0.000000000e+00
      758250000    5.824528933e-01    6.374002099e-01   -1.178868115e-05    7.663853467e-06    0.000000000e+00    0.000000000e+00    0.000000000e+00    0.000000000e+00
      765500000    6.499862671e-01    5.641312599e-01    2.868846059e-05    5.678273737e-06    0.000000000e+00    0.000000000e+00    0.000000000e+00    0.000000000e+00
      772750000    7.107114792e-01    4.846243560e-01    1.227203757e-05    3.264471889e-05    0.000000000e+00    0.000000000e+00    0.000000000e+00    0.000000000e+00
      780000000    7.626738548e-01    3.997020721e-01   -1.150835305e-05   -3.118906170e-05    0.000000000e+00    0.000000000e+00    0.000000000e+00    0.000000000e+00
      787250000    8.069707155e-01    3.084844351e-01   -1.832377166e-05    5.963258445e-06    0.000000000e+00    0.000000000e+00    0.000000000e+00    0.000000000e+00
      794500000    8.420406580e-01    2.143622935e-01   -6.077811122e-06   -3.618467599e-05    0.000000000e+00    0.000000000e+00    0.000000000e+00    0.000000000e+00
      801750000    8.677418232e-01    1.152590960e-01   -4.440825433e-05   -1.601036638e-05    0.000000000e+00    0.000000000e+00    0.000000000e+00    0.000000000e+00
      809000000    8.829153776e-01    1.433043741e-02   -2.631638199e-05    3.270804882e-06    0.000000000e+00    0.000000000e+00    0.000000000e+00    0.000000000e+00
      816250000    8.879159689e-01   -8.904733509e-02    6.249174476e-06    1.808535308e-05    0.000000000e+00    0.000000000e+00    0.000000000e+00    0.000000000e+00
      823500000    8.814074397e-01   -1.947441995e-01    3.280956298e-05    1.792795956e-05    0.000000000e+00    0.000000000e+00    0.000000000e+00    0.000000000e+00
      830750000    8.641307354e-01   -2.985373735e-01    4.109926522e-05   -1.878757030e-05    0.000000000e+00    0.000000000e+00    0.000000000e+00    0.000000000e+00
      838000000    8.358113170e-01   -4.021967947e-01   -3.204215318e-05   -4.127342254e-05    0.000000000e+00    0.000000000e+00    0.000000000e+00    0.000000000e+00
      845250000    7.958693504e-01   -5.025237203e-01    1.507159323e-05   -2.799648792e-05    0.000000000e+00    0.000000000e+00    0.000000000e+00    0.000000000e+00
      852500000    7.423754334e-01   -6.017910838e-01    6.677582860e-06    3.878213465e-05    0.000000000e+00    0.000000000e+00    0.000000000e+00    0.000000000e+00
      859750000    6.789516807e-01   -6.924064159e-01   -1.157168299e-05   -1.192651689e-05    0.000000000e+00    0.000000000e+00    0.000000000e+00    0.000000000e+00
      867000000    6.023722887e-01   -7.786715031e-01   -5.287118256e-06    7.575377822e-06    0.000000000e+00    0.000000000e+00    0.000000000e+00    0.000000000e+00
      874250000    5.153651834e-01   -8.547475338e-01   -2.877134830e-05    5.762092769e-06    0.000000000e+00    0.000000000e+00    0.000000000e+00    0.000000000e+00
      881500000    4.159552455e-01   -9.217026234e-01    2.868473530e-07    3.132876009e-05    0.000000000e+00    0.000000000e+00    0.000000000e+00    0.000000000e+00
      888750000    3.109733462e-01   -9.751206636e-01    1.881830394e-05    1.753214747e-05    0.000000000e+00    0.000000000e+00    0.000000000e+00    0.000000000e+00
      896000000    1.951071918e-01   -1.015954733e+00   -2.180505544e-05   -4.463177174e-05    0.000000000e+00    0.000000000e+00    0.000000000e+00    0.000000000e+00
      903250000    7.605214417e-02   -1.040548801e+00   -1.658499241e-05   -6.312504411e-06    0.000000000e+00    0.000000000e+00    0.000000000e+00    0.000000000e+00
      910500000   -4.719913378e-02   -1.050360441e+00    2.183485776e-05    2.091191709e-05    0.000000000e+00    0.000000000e+00    0.000000000e+00    0.000000000e+00
      917750000   -1.712789387e-01   -1.041013360e+00   -1.029111445e-06    9.921379387e-06    0.000000000e+00    0.000000000e+00    0.000000000e+00    0.000000000e+00
      925000000   -2.917846143e-01   -1.017323375e+00    4.833657295e-05   -4.044082016e-05    0.000000000e+00    0.000000000e+00    0.000000000e+00    0.000000000e+00
      932250000   -4.106926024e-01   -9.755886793e-01   -2.974458039e-05    4.200264812e-05    0.000000000e+00    0.000000000e+00    0.000000000e+00    0.000000000e+00
      939500000   -5.199577808e-01   -9.194122553e-01   -3.362540156e-05    1.018121839e-05    0.000000000e+00    0.000000000e+00    0.000000000e+00    0.000000000e+00
      946750000   -6.186339855e-01   -8.494023085e-01   -2.553686500e-05   -6.609596312e-06    0.000000000e+00    0.000000000e+00    0.000000000e+00    0.000000000e+00
      954000000   -7.088235021e-01   -7.665059566e-01   -4.151836038e-06    2.544745803e-05    0.000000000e+00    0.000000000e+00    0.000000000e+00    0.000000000e+00
      961250000   -7.830645442e-01   -6.757144928e-01   -9.524635971e-06   -6.793998182e-06    0.000000000e+00    0.000000000e+00    0.000000000e+00    0.000000000e+00
      968500000   -8.462033272e-01   -5.738375187e-01   -1.511909068e-05   -1.618638635e-05    0.000000000e+00    0.000000000e+00    0.000000000e+00    0.000000000e+00
      975750000   -8.930814862e-01   -4.695705771e-01    2.527516335e-05    7.573515177e-06    0.000000000e+00    0.000000000e+00    0.000000000e+00    0.000000000e+00
      983000000   -9.262883663e-01   -3.613793254e-01   -1.123826951e-05    2.683140337e-06    0.000000000e+00    0.000000000e+00    0.000000000e+00    0.000000000e+00
      990250000   -9.438390136e-01   -2.533512414e-01    4.561990499e-05    1.905579120e-05    0.000000000e+00    0.000000000e+00    0.000000000e+00    0.000000000e+00
      997500000   -9.493440986e-01   -1.456622183e-01   -6.995256990e-05   -2.575106919e-05    0.000000000e+00    0.000000000e+00    0.000000000e+00    0.000000000e+00
     1004750000   -9.418721795e-01   -4.148529097e-02   -3.969296813e-05    3.943219781e-05    0.000000000e+00    0.000000000e+00    0.000000000e+00    0.000000000e+00
     1012000000   -9.223776460e-01    5.952508003e-02   -1.292303205e-05    9.229406714e-06    0.000000000e+00    0.000000000e+00    0.000000000e+00    0.000000000e+00
     1019250000   -8.926666379e-01    1.538136005e-01   -1.610629261e-05   -2.184510231e-05    0.000000000e+00    0.000000000e+00    0.000000000e+00    0.000000000e+00
     1026500000   -8.547316790e-01    2.421527952e-01    2.950429916e-06   -2.262182534e-06    0.000000000e+00    0.000000000e+00    0.000000000e+00    0.000000000e+00
     1033750000   -8.076578975e-01    3.248323798e-01   -9.424053133e-06   -1.805089414e-05    0.000000000e+00    0.000000000e+00    0.000000000e+00    0.000000000e+00
     1041000000   -7.546173930e-01    3.997176290e-01    3.661587834e-05   -6.933696568e-06    0.000000000e+00    0.000000000e+00    0.000000000e+00    0.000000000e+00
