! NanoVNA-App by OneOfEleven et al v1.1.209 (+OD15) 
! Date: 2024-07-30 15:08:44
! Start: 200MHz Stop: 6GHz Points: 801
! S-Parameter data: F S11 S21 S12 S22
# Hz S RI R 50
!     Frequency           S11_Real           S11_Imag           S21_Real           S21_Imag           S12_Real           S12_Imag           S22_Real           S22_Imag
      200000000    1.001091123e+00   -9.153813589e-04    1.951987906e-05   -1.873462497e-05    0.000000000e+00    0.000000000e+00    0.000000000e+00    0.000000000e+00
      207250000    9.982360005e-01    1.516430522e-03    4.505395282e-06    5.370425697e-06    0.000000000e+00    0.000000000e+00    0.000000000e+00    0.000000000e+00
      214500000    1.004078984e+00   -4.647275433e-03   -1.895521018e-05   -3.342603668e-05    0.000000000e+00    0.000000000e+00    0.000000000e+00    0.000000000e+00
      221750000    9.996590018e-01    7.014495204e-04   -7.957673915e-06   -8.036386134e-07    0.000000000e+00    0.000000000e+00    0.000000000e+00    0.000000000e+00
      229000000    1.001921177e+00    1.238905359e-03    1.032507225e-05   -1.022509241e-05    0.000000000e+00    0.000000000e+00    0.000000000e+00    0.000000000e+00
      236250000    1.003573895e+00   -1.617042115e-03    1.642802999e-05    2.945003689e-05    0.000000000e+00    0.000000000e+00    0.000000000e+00    0.000000000e+00
      243500000    1.000567555e+00   -6.054259371e-03    2.750851854e-05    2.265865805e-05    0.000000000e+00    0.000000000e+00    0.000000000e+00    0.000000000e+00
      250750000    9.977647662e-01    7.440589252e-05    1.623367098e-06   -1.058153248e-05    0.000000000e+00    0.000000000e+00    0.000000000e+00    0.000000000e+00
      258000000    1.003231645e+00    3.308923682e-03   -2.728517575e-05    3.111961632e-05    0.000000000e+00    0.000000000e+00    0.000000000e+00    0.000000000e+00
      265250000    9.991530776e-01   -7.958182250e-04   -1.777715079e-05    2.146673614e-05    0.000000000e+00    0.000000000e+00    0.000000000e+00    0.000000000e+00
      272500000    9.988433719e-01    3.222203813e-03   -2.181760283e-05    3.545732170e-06    0.000000000e+00    0.000000000e+00    0.000000000e+00    0.000000000e+00
      279750000    9.985437393e-01   -3.319469746e-03    2.583867172e-06   -7.812193871e-06    0.000000000e+00    0.000000000e+00    0.000000000e+00    0.000000000e+00
      287000000    1.003276825e+00   -1.439602813e-03    9.658318959e-06    6.898848710e-07    0.000000000e+00    0.000000000e+00    0.000000000e+00    0.000000000e+00
      294250000    1.001419663e+00    2.137780190e-03    4.158278534e-05    1.883759751e-06    0.000000000e+00    0.000000000e+00    0.000000000e+00    0.000000000e+00
      301500000    9.990863204e-01   -1.711224904e-03   -5.947922546e-05    1.400050337e-06    0.000000000e+00    0.000000000e+00    0.000000000e+00    0.000000000e+00
      308750000    1.000845790e+00    8.062366978e-04   -7.835504221e-06   -2.364162174e-05    0.000000000e+00    0.000000000e+00    0.000000000e+00    0.000000000e+00
      316000000    9.999490976e-01    2.627994632e-03    6.151891284e-06    5.383164898e-05    0.000000000e+00    0.000000000e+00    0.000000000e+00    0.000000000e+00
      323250000    1.000989676e+00   -2.668863162e-03   -4.198687748e-05   -3.966249642e-05    0.000000000e+00    0.000000000e+00    0.000000000e+00    0.000000000e+00
      330500000    1.000249386e+00   -1.816411270e-03    2.263060742e-05    1.976148997e-05    0.000000000e+00    0.000000000e+00    0.000000000e+00    0.000000000e+00
      337750000    1.001624703e+00   -1.197774778e-03    2.450760439e-05   -1.134220292e-05    0.000000000e+00    0.000000000e+00    0.000000000e+00    0.000000000e+00
      345000000    9.980717301e-01   -4.561529786e-04   -1.329060615e-05    3.885521437e-06    0.000000000e+00    0.000000000e+00    0.000000000e+00    0.000000000e+00
      352250000    1.001608133e+00    5.420792149e-04    1.083045208e-05   -2.049757313e-05    0.000000000e+00    0.000000000e+00    0.000000000e+00    0.000000000e+00
      359500000    9.996390343e-01    3.559372562e-04    4.531909781e-06   -5.933427474e-06    0.000000000e+00    0.000000000e+00    0.000000000e+00    0.000000000e+00
      366750000    1.002836823e+00   -1.403162489e-03    5.822029721e-07   -5.293517916e-06    0.000000000e+00    0.000000000e+00    0.000000000e+00    0.000000000e+00
      374000000    1.002196550e+00   -4.160201177e-03   -9.285511624e-06    4.078610073e-05    0.000000000e+00    0.000000000e+00    0.000000000e+00    0.000000000e+00
      381250000    9.994384050e-01    2.832444734e-04   -1.885634993e-05   -4.185416765e-05    0.000000000e+00    0.000000000e+00    0.000000000e+00    0.000000000e+00
      388500000    9.992185831e-01    1.032306114e-03   -7.147998076e-06    4.443136731e-06    0.000000000e+00    0.000000000e+00    0.000000000e+00    0.000000000e+00
      395750000    1.001100063e+00   -1.226408407e-03   -1.606618525e-06    8.040858120e-06    0.000000000e+00    0.000000000e+00    0.000000000e+00    0.000000000e+00
      403000000    1.002074838e+00   -6.351112970e-04    1.007201445e-05   -1.383920880e-05    0.000000000e+00    0.000000000e+00    0.000000000e+00    0.000000000e+00
      410250000    9.995561838e-01    1.511097886e-03   -1.844695419e-07   -5.201773547e-06    0.000000000e+00    0.000000000e+00    0.000000000e+00    0.000000000e+00
      417500000    9.987841249e-01    2.357611666e-04    7.733812708e-06    6.024049071e-06    0.000000000e+00    0.000000000e+00    0.000000000e+00    0.000000000e+00
      424750000    1.000710487e+00    3.336351365e-04   -1.480379433e-05    2.108525950e-05    0.000000000e+00    0.000000000e+00    0.000000000e+00    0.000000000e+00
      432000000    1.001812696e+00   -3.351117484e-04   -2.994545684e-05    4.556476051e-05    0.000000000e+00    0.000000000e+00    0.000000000e+00    0.000000000e+00
      439250000    9.980354905e-01   -1.444603782e-03   -5.483703717e-06    2.235026477e-05    0.000000000e+00    0.000000000e+00    0.000000000e+00    0.000000000e+00
      446500000    9.973996282e-01    3.261240432e-03   -1.805917236e-05   -3.550570545e-05    0.000000000e+00    0.000000000e+00    0.000000000e+00    0.000000000e+00
      453750000    1.000815868e+00    4.188142484e-04   -7.281921626e-06   -5.391398008e-05    0.000000000e+00    0.000000000e+00    0.000000000e+00    0.000000000e+00
      461000000    1.000251770e+00    7.423567004e-04    2.968833178e-05    3.029092795e-06    0.000000000e+00    0.000000000e+00    0.000000000e+00    0.000000000e+00
      468250000    1.000942230e+00   -7.085556281e-04   -3.912605735e-06    3.627383194e-06    0.000000000e+00    0.000000000e+00    0.000000000e+00    0.000000000e+00
      475500000    1.001260042e+00    2.332633157e-04   -4.677958259e-06   -1.580695061e-05    0.000000000e+00    0.000000000e+00    0.000000000e+00    0.000000000e+00
      482750000    1.001879454e+00    3.714049235e-04   -8.709189387e-06   -2.939251999e-06    0.000000000e+00    0.000000000e+00    0.000000000e+00    0.000000000e+00
      490000000    1.001959682e+00   -9.300845559e-04    3.355694571e-05   -1.125404015e-05    0.000000000e+00    0.000000000e+00    0.000000000e+00    0.000000000e+00
      497250000    9.981133938e-01    2.092084149e-03    2.342013977e-05    2.527103970e-05    0.000000000e+00    0.000000000e+00    0.000000000e+00    0.000000000e+00
      504500000    1.002036572e+00   -1.003229292e-03   -2.095932359e-05   -2.667420631e-05    0.000000000e+00    0.000000000e+00    0.000000000e+00    0.000000000e+00
      511750000    1.001893997e+00   -3.658702772e-04    1.241871450e-05   -2.940347986e-05    0.000000000e+00    0.000000000e+00    0.000000000e+00    0.000000000e+00
      519000000    9.982015491e-01    1.604771940e-03   -1.489750230e-05    3.014859431e-05    0.000000000e+00    0.000000000e+00    0.000000000e+00    0.000000000e+00
      526250000    1.000719070e+00   -1.449263655e-03    2.192473221e-05    3.772553100e-05    0.000000000e+00    0.000000000e+00    0.000000000e+00    0.000000000e+00
      533500000    9.979938269e-01    1.445652917e-03   -7.438388366e-06   -1.404084287e-05    0.000000000e+00    0.000000000e+00    0.000000000e+00    0.000000000e+00
      540750000    9.993218780e-01    4.399226746e-04    1.915034591e-05   -2.389665497e-05    0.000000000e+00    0.000000000e+00    0.000000000e+00    0.000000000e+00
      548000000    9.997490644e-01    1.363702468e-03   -2.065755143e-05   -8.099997899e-07    0.000000000e+00    0.000000000e+00    0.000000000e+00    0.000000000e+00
      555250000    1.001662135e+00   -1.568830572e-03    7.000609003e-06   -7.592256225e-06    0.000000000e+00    0.000000000e+00    0.000000000e+00    0.000000000e+00
      562500000    9.999081492e-01    1.837856602e-03   -5.266162771e-05    2.204373050e-05    0.000000000e+00    0.000000000e+00    0.000000000e+00    0.000000000e+00
      569750000    9.990214705e-01   -1.057407120e-03    2.221974501e-05   -3.192078293e-05    0.000000000e+00    0.000000000e+00    0.000000000e+00    0.000000000e+00
      577000000    9.996051192e-01   -7.141504902e-04   -3.508130612e-05   -1.489067927e-05    0.000000000e+00    0.000000000e+00    0.000000000e+00    0.000000000e+00
      584250000    1.000700355e+00    4.436665404e-05    2.415077688e-05   -3.480839587e-05    0.000000000e+00    0.000000000e+00    0.000000000e+00    0.000000000e+00
      591500000    1.000896335e+00    5.483637215e-04    4.327295028e-05    3.647896392e-06    0.000000000e+00    0.000000000e+00    0.000000000e+00    0.000000000e+00
      598750000    9.996706247e-01    2.690397960e-04   -1.071507631e-05    2.069487164e-05    0.000000000e+00    0.000000000e+00    0.000000000e+00    0.000000000e+00
      606000000    9.986091852e-01    1.688505290e-03    1.732201235e-05   -3.264030966e-05    0.000000000e+00    0.000000000e+00    0.000000000e+00    0.000000000e+00
      613250000    1.000547290e+00    3.321604745e-04    3.146853714e-06    5.495349615e-05    0.000000000e+00    0.000000000e+00    0.000000000e+00    0.000000000e+00
      620500000    9.976956844e-01    1.833595685e-03    1.847806743e-05   -2.582912657e-06    0.000000000e+00    0.000000000e+00    0.000000000e+00    0.000000000e+00
      627750000    1.000378132e+00   -3.318835283e-03    1.043776410e-05   -3.633256347e-05    0.000000000e+00    0.000000000e+00    0.000000000e+00    0.000000000e+00
      635000000    9.983482957e-01    4.421201593e-04   -1.573723057e-05    1.135120601e-05    0.000000000e+00    0.000000000e+00    0.000000000e+00    0.000000000e+00
      642250000    9.987953305e-01   -1.806574874e-04    2.025595131e-05    5.386767043e-06    0.000000000e+00    0.000000000e+00    0.000000000e+00    0.000000000e+00
      649500000    1.000366688e+00   -7.573724724e-04    1.003895522e-05    3.384954834e-05    0.000000000e+00    0.000000000e+00    0.000000000e+00    0.000000000e+00
      656750000    9.993882179e-01    1.108388882e-03    1.036109916e-05   -7.278262274e-06    0.000000000e+00    0.000000000e+00    0.000000000e+00    0.000000000e+00
      664000000    9.992145300e-01   -1.735766709e-04   -4.296789484e-05    3.586179082e-05    0.000000000e+00    0.000000000e+00    0.000000000e+00    0.000000000e+00
      671250000    9.993873239e-01   -1.516904100e-03    1.437452374e-05    1.449860292e-06    0.000000000e+00    0.000000000e+00    0.000000000e+00    0.000000000e+00
      678500000    9.987463951e-01    5.656002322e-04   -1.468773098e-05    4.802897092e-05    0.000000000e+00    0.000000000e+00    0.000000000e+00    0.000000000e+00
      685750000    1.001240849e+00    6.638150080e-04   -2.487407073e-05   -3.567945168e-05    0.000000000e+00    0.000000000e+00    0.000000000e+00    0.000000000e+00
      693000000    1.002248049e+00   -5.586499465e-04   -5.763854460e-06   -2.996397779e-05    0.000000000e+00    0.000000000e+00    0.000000000e+00    0.000000000e+00
      700250000    1.001640677e+00    7.934290916e-04    3.746487664e-06    8.141481885e-06    0.000000000e+00    0.000000000e+00    0.000000000e+00    0.000000000e+00
      707500000    9.988728166e-01   -1.448251889e-03   -1.451510161e-05   -3.761548942e-05    0.000000000e+00    0.000000000e+00    0.000000000e+00    0.000000000e+00
      714750000    1.000384808e+00    1.331866253e-03   -1.590695683e-05    2.253783896e-05    0.000000000e+00    0.000000000e+00    0.000000000e+00    0.000000000e+00
      722000000    9.968547225e-01    9.342461708e-04   -2.854882041e-06   -2.453138586e-05    0.000000000e+00    0.000000000e+00    0.000000000e+00    0.000000000e+00
      729250000    1.001295686e+00    2.131197834e-04   -2.935973498e-05   -5.738052641e-05    0.000000000e+00    0.000000000e+00    0.000000000e+00    0.000000000e+00
      736500000    1.001155734e+00   -2.012028126e-03   -1.636911475e-05   -7.177139196e-06    0.000000000e+00    0.000000000e+00    0.000000000e+00    0.000000000e+00
      743750000    1.001876593e+00   -2.305155940e-04    5.503331522e-06    9.153523024e-06    0.000000000e+00    0.000000000e+00    0.000000000e+00    0.000000000e+00
      751000000    9.998639226e-01    2.010344615e-04   -2.240874664e-06    1.111628649e-06    0.000000000e+00    0.000000000e+00    0.000000000e+00    0.000000000e+00
      758250000    9.976521134e-01    7.947551203e-04    4.090703442e-05    1.056803740e-05    0.000000000e+00    0.000000000e+00    0.000000000e+00    0.000000000e+00
      765500000    1.002245903e+00   -1.593432680e-04    2.136070361e-05   -5.888007308e-06    0.000000000e+00    0.000000000e+00    0.000000000e+00    0.000000000e+00
      772750000    1.001391530e+00    6.944103516e-04    9.058380783e-06   -2.087521125e-06    0.000000000e+00    0.000000000e+00    0.000000000e+00    0.000000000e+00
      780000000    9.952735901e-01   -4.862745409e-04   -1.251524827e-05    6.864134775e-06    0.000000000e+00    0.000000000e+00    0.000000000e+00    0.000000000e+00
      787250000    1.000674605e+00    1.511210925e-03    3.286605352e-05   -1.603961755e-05    0.000000000e+00    0.000000000e+00    0.000000000e+00    0.000000000e+00
      794500000    1.000746965e+00   -1.656092703e-03   -2.777165355e-05    2.298599611e-05    0.000000000e+00    0.000000000e+00    0.000000000e+00    0.000000000e+00
      801750000    1.001785994e+00    5.090410705e-04   -3.516798824e-05   -3.060053859e-05    0.000000000e+00    0.000000000e+00    0.000000000e+00    0.000000000e+00
      809000000    9.993852973e-01    1.234995725e-04    2.385175321e-05    9.849394701e-06    0.000000000e+00    0.000000000e+00    0.000000000e+00    0.000000000e+00
      816250000    1.001042485e+00    5.314510199e-04   -2.854354534e-05    2.202620999e-05    0.000000000e+00    0.000000000e+00    0.000000000e+00    0.000000000e+00
      823500000    9.962888956e-01    8.220059681e-05   -4.597859515e-06    1.140726908e-05    0.000000000e+00    0.000000000e+00    0.000000000e+00    0.000000000e+00
      830750000    9.994434118e-01   -5.918335519e-04    3.565625957e-05    5.021812103e-05    0.000000000e+00    0.000000000e+00    0.000000000e+00    0.000000000e+00
      838000000    9.995414615e-01   -3.398263070e-04    2.350709110e-05   -2.928373760e-05    0.000000000e+00    0.000000000e+00    0.000000000e+00    0.000000000e+00
      845250000    9.977404475e-01    1.456086058e-03   -2.116942596e-05    2.029277675e-05    0.000000000e+00    0.000000000e+00    0.000000000e+00    0.000000000e+00
      852500000    1.000839353e+00   -6.097029545e-04   -1.392089143e-05    5.851647074e-05    0.000000000e+00    0.000000000e+00    0.000000000e+00    0.000000000e+00
      859750000    9.992389083e-01    4.054208111e-04    3.800714921e-06   -4.674929187e-06    0.000000000e+00    0.000000000e+00    0.000000000e+00    0.000000000e+00
      867000000    1.002123475e+00    1.709277858e-04    1.601695772e-06    1.701602923e-05    0.000000000e+00    0.000000000e+00    0.000000000e+00    0.000000000e+00
      874250000    1.002562523e+00    7.840170292e-04    1.425476057e-05    2.576081442e-06    0.000000000e+00    0.000000000e+00    0.000000000e+00    0.000000000e+00
      881500000    1.000860572e+00    5.537070319e-05    2.846331881e-05   -2.398274410e-05    0.000000000e+00    0.000000000e+00    0.000000000e+00    0.000000000e+00
      888750000    9.990750551e-01    4.891641438e-04   -3.163899964e-05   -1.830627116e-05    0.000000000e+00    0.000000000e+00    0.000000000e+00    0.000000000e+00
      896000000    9.999729991e-01    7.206166629e-04    3.725448551e-05   -2.940122613e-05    0.000000000e+00    0.000000000e+00    0.000000000e+00    0.000000000e+00
      903250000    9.975789189e-01    6.474853144e-04   -3.832757284e-05    2.899597712e-05    0.000000000e+00    0.000000000e+00    0.000000000e+00    0.000000000e+00
      910500000    1.004593611e+00    6.556962617e-04    4.836196604e-05   -3.334321036e-06    0.000000000e+00    0.000000000e+00    0.000000000e+00    0.000000000e+00
      917750000    1.000895739e+00   -8.280057809e-04    5.786670499e-06   -2.714046559e-06    0.000000000e+00    0.000000000e+00    0.000000000e+00    0.000000000e+00
      925000000    9.979237914e-01    3.647474223e-04   -1.576349678e-05   -3.793591895e-05    0.000000000e+00    0.000000000e+00    0.000000000e+00    0.000000000e+00
      932250000    1.001085877e+00   -1.124310307e-03    3.007166015e-05    3.076854046e-05    0.000000000e+00    0.000000000e+00    0.000000000e+00    0.000000000e+00
      939500000    9.993782640e-01   -4.994427436e-04    2.646486064e-05   -6.153564755e-06    0.000000000e+00    0.000000000e+00    0.000000000e+00    0.000000000e+00
      946750000    1.001483202e+00   -2.512130595e-04   -1.805656029e-05   -1.529331598e-06    0.000000000e+00    0.000000000e+00    0.000000000e+00    0.000000000e+00
      954000000    9.997590780e-01    1.237552380e-03   -5.302269528e-06    1.262642309e-05    0.000000000e+00    0.000000000e+00    0.000000000e+00    0.000000000e+00
      961250000    9.985437989e-01    9.297192446e-05   -9.880335710e-06   -5.091695584e-06    0.000000000e+00    0.000000000e+00    0.000000000e+00    0.000000000e+00
      968500000    1.000140905e+00   -6.043151952e-04    7.435411135e-06   -1.471771066e-05    0.000000000e+00    0.000000000e+00    0.000000000e+00    0.000000000e+00
      975750000    1.002533555e+00    5.344304373e-04   -1.338474976e-05   -3.893932501e-07    0.000000000e+00    0.000000000e+00    0.000000000e+00    0.000000000e+00
      983000000    9.986348748e-01    7.252154319e-05   -4.873686976e-06   -1.367552500e-06    0.000000000e+00    0.000000000e+00    0.000000000e+00    0.000000000e+00
      990250000    9.994862080e-01    5.057288799e-04   -9.172860700e-06    4.297926353e-05    0.000000000e+00    0.000000000e+00    0.000000000e+00    0.000000000e+00
      997500000    9.985225797e-01   -9.662397497e-05   -1.137718209e-05   -3.764063149e-05    0.000000000e+00    0.000000000e+00    0.000000000e+00    0.000000000e+00
     1004750000    1.000620008e+00    2.938601392e-05    2.615189987e-05   -3.481483145e-05    0.000000000e+00    0.000000000e+00    0.000000000e+00    0.000000000e+00
     1012000000    1.001839757e+00   -4.781116149e-04    9.494175174e-06   -2.950802264e-05    0.000000000e+00    0.000000000e+00    0.000000000e+00    0.000000000e+00
     1019250000    1.000680923e+00   -2.808370045e-04   -4.312039437e-06   -3.709253360e-05    0.000000000e+00    0.000000000e+00    0.000000000e+00    0.000000000e+00
     1026500000    9.986460805e-01   -2.478254028e-04    4.085804176e-05    2.345249641e-06    0.000000000e+00    0.000000000e+00    0.000000000e+00    0.000000000e+00
     1033750000    1.000092149e+00   -1.027530598e-04   -1.819977297e-05    3.497887155e-05    0.000000000e+00    0.000000000e+00    0.000000000e+00    0.000000000e+00
     1041000000    9.995796680e-01   -1.074691754e-04    4.514444754e-06   -2.371389201e-06    0.000000000e+00    0.000000000e+00    0.000000000e+00    0.000000000e+00
