! NanoVNA-App by OneOfEleven et al v1.1.209 (+OD15) 
! Date: 2024-07-30 15:25:13
! Start: 200MHz Stop: 6GHz Points: 801
! S-Parameter data: F S11 S21 S12 S22
# Hz S RI R 50
!     Frequency           S11_Real           S11_Imag           S21_Real           S21_Imag           S12_Real           S12_Imag           S22_Real           S22_Imag
      200000000   -9.139771760e-02    2.748356760e-01    4.227493264e-06   -1.584591701e-06    0.000000000e+00    0.000000000e+00    0.000000000e+00    0.000000000e+00
      207250000   -8.642066270e-02    2.662894428e-01   -5.129039437e-06    1.669157973e-05    0.000000000e+00    0.000000000e+00    0.000000000e+00    0.000000000e+00
      214500000   -8.203121275e-02    2.591347396e-01    1.427542975e-05    7.722363989e-06    0.000000000e+00    0.000000000e+00    0.000000000e+00    0.000000000e+00
      221750000   -7.455228269e-02    2.515234351e-01    1.579636046e-05   -1.986710049e-05    0.000000000e+00    0.000000000e+00    0.000000000e+00    0.000000000e+00
      229000000   -7.033206522e-02    2.458267212e-01    1.165125377e-05   -2.908153510e-05    0.000000000e+00    0.000000000e+00    0.000000000e+00    0.000000000e+00
      236250000   -6.848438829e-02    2.402946353e-01    1.886074824e-05    8.651072676e-06    0.000000000e+00    0.000000000e+00    0.000000000e+00    0.000000000e+00
      243500000   -6.406438351e-02    2.329699546e-01   -5.605658316e-06    2.295121703e-06    0.000000000e+00    0.000000000e+00    0.000000000e+00    0.000000000e+00
      250750000   -6.048534065e-02    2.275349200e-01   -1.170787164e-05   -1.695666697e-06    0.000000000e+00    0.000000000e+00    0.000000000e+00    0.000000000e+00
      258000000   -5.809907988e-02    2.213947326e-01   -7.032836038e-06   -5.258011515e-05    0.000000000e+00    0.000000000e+00    0.000000000e+00    0.000000000e+00
      265250000   -5.480326712e-02    2.157890350e-01    8.887903277e-06   -2.116622272e-05    0.000000000e+00    0.000000000e+00    0.000000000e+00    0.000000000e+00
      272500000   -5.318529531e-02    2.113309205e-01   -2.318282532e-05    3.189797280e-05    0.000000000e+00    0.000000000e+00    0.000000000e+00    0.000000000e+00
      279750000   -4.968258739e-02    2.071416378e-01    4.112108400e-06    2.080654303e-05    0.000000000e+00    0.000000000e+00    0.000000000e+00    0.000000000e+00
      287000000   -4.825807363e-02    2.012362331e-01    9.854867130e-06   -2.337857268e-06    0.000000000e+00    0.000000000e+00    0.000000000e+00    0.000000000e+00
      294250000   -4.496044666e-02    1.967781037e-01    3.252378156e-05   -8.258282833e-06    0.000000000e+00    0.000000000e+00    0.000000000e+00    0.000000000e+00
      301500000   -4.424532503e-02    1.928649247e-01   -1.304954276e-05    2.694774412e-05    0.000000000e+00    0.000000000e+00    0.000000000e+00    0.000000000e+00
      308750000   -4.183223099e-02    1.887922883e-01    3.529974492e-05    1.797353070e-05    0.000000000e+00    0.000000000e+00    0.000000000e+00    0.000000000e+00
      316000000   -3.902068734e-02    1.843262315e-01   -7.291418115e-06    7.987050594e-06    0.000000000e+00    0.000000000e+00    0.000000000e+00    0.000000000e+00
      323250000   -3.698313236e-02    1.806296259e-01    3.180329259e-06    6.166443654e-06    0.000000000e+00    0.000000000e+00    0.000000000e+00    0.000000000e+00
      330500000   -3.680170327e-02    1.772120893e-01    2.770164247e-05    2.440040407e-05    0.000000000e+00    0.000000000e+00    0.000000000e+00    0.000000000e+00
      337750000   -3.459562361e-02    1.735891402e-01    4.183662440e-06   -3.137955719e-05    0.000000000e+00    0.000000000e+00    0.000000000e+00    0.000000000e+00
      345000000   -3.291736543e-02    1.699009538e-01    3.113272396e-05   -7.446949894e-06    0.000000000e+00    0.000000000e+00    0.000000000e+00    0.000000000e+00
      352250000   -3.222478181e-02    1.668656021e-01   -4.438705218e-05    1.638538492e-06    0.000000000e+00    0.000000000e+00    0.000000000e+00    0.000000000e+00
      359500000   -3.121796437e-02    1.641152650e-01    5.205252819e-06    6.770678738e-07    0.000000000e+00    0.000000000e+00    0.000000000e+00    0.000000000e+00
      366750000   -3.050806187e-02    1.607056260e-01    5.900032193e-06    5.488409897e-06    0.000000000e+00    0.000000000e+00    0.000000000e+00    0.000000000e+00
      374000000   -2.907976508e-02    1.586932838e-01   -3.029714389e-05   -3.376570476e-06    0.000000000e+00    0.000000000e+00    0.000000000e+00    0.000000000e+00
      381250000   -2.776429243e-02    1.564322263e-01    1.280349807e-05   -3.986813795e-07    0.000000000e+00    0.000000000e+00    0.000000000e+00    0.000000000e+00
      388500000   -2.743945830e-02    1.536120772e-01   -1.475582394e-05    4.011654528e-05    0.000000000e+00    0.000000000e+00    0.000000000e+00    0.000000000e+00
      395750000   -2.617829107e-02    1.509961784e-01   -1.770951894e-05   -7.408593319e-06    0.000000000e+00    0.000000000e+00    0.000000000e+00    0.000000000e+00
      403000000   -2.602579817e-02    1.477619410e-01    3.986748197e-05    1.417892145e-05    0.000000000e+00    0.000000000e+00    0.000000000e+00    0.000000000e+00
      410250000   -2.416009828e-02    1.456948966e-01   -8.277370966e-07    1.583677113e-05    0.000000000e+00    0.000000000e+00    0.000000000e+00    0.000000000e+00
      417500000   -2.298457362e-02    1.434489936e-01   -1.053231608e-05    4.467020335e-05    0.000000000e+00    0.000000000e+00    0.000000000e+00    0.000000000e+00
      424750000   -2.299881354e-02    1.413452774e-01   -4.781053940e-05    2.546883297e-05    0.000000000e+00    0.000000000e+00    0.000000000e+00    0.000000000e+00
      432000000   -2.241649665e-02    1.384163350e-01   -8.352265468e-06   -1.381554921e-05    0.000000000e+00    0.000000000e+00    0.000000000e+00    0.000000000e+00
      439250000   -2.166735195e-02    1.362442821e-01   -1.685977622e-05    2.154648973e-05    0.000000000e+00    0.000000000e+00    0.000000000e+00    0.000000000e+00
      446500000   -2.096983418e-02    1.349408031e-01    8.356864214e-07    1.523897299e-05    0.000000000e+00    0.000000000e+00    0.000000000e+00    0.000000000e+00
      453750000   -2.000201494e-02    1.329142600e-01   -2.737725845e-05    4.433427989e-07    0.000000000e+00    0.000000000e+00    0.000000000e+00    0.000000000e+00
      461000000   -2.026158758e-02    1.309297979e-01   -5.083243764e-07    1.356851681e-05    0.000000000e+00    0.000000000e+00    0.000000000e+00    0.000000000e+00
      468250000   -1.962436549e-02    1.295149177e-01   -2.560494249e-05   -4.578116932e-05    0.000000000e+00    0.000000000e+00    0.000000000e+00    0.000000000e+00
      475500000   -1.862240769e-02    1.272736341e-01   -1.018770763e-05   -1.106932814e-05    0.000000000e+00    0.000000000e+00    0.000000000e+00    0.000000000e+00
      482750000   -1.793976873e-02    1.250134856e-01   -1.426826930e-05    1.579554009e-06    0.000000000e+00    0.000000000e+00    0.000000000e+00    0.000000000e+00
      490000000   -1.814050041e-02    1.237081587e-01   -1.965766569e-05    1.021288540e-06    0.000000000e+00    0.000000000e+00    0.000000000e+00    0.000000000e+00
      497250000   -1.759276353e-02    1.213688329e-01    6.254053005e-06   -1.038550181e-05    0.000000000e+00    0.000000000e+00    0.000000000e+00    0.000000000e+00
      504500000   -1.656248420e-02    1.191693842e-01    3.573920549e-05   -3.226966510e-05    0.000000000e+00    0.000000000e+00    0.000000000e+00    0.000000000e+00
      511750000   -1.613601670e-02    1.177346483e-01   -2.689973144e-06    1.071959196e-05    0.000000000e+00    0.000000000e+00    0.000000000e+00    0.000000000e+00
      519000000   -1.623854041e-02    1.171083897e-01   -3.766811278e-05   -2.985964329e-06    0.000000000e+00    0.000000000e+00    0.000000000e+00    0.000000000e+00
      526250000   -1.558057498e-02    1.154268011e-01   -8.931898265e-06    2.428600419e-05    0.000000000e+00    0.000000000e+00    0.000000000e+00    0.000000000e+00
      533500000   -1.487190090e-02    1.135878116e-01    3.780439147e-05   -1.664096999e-06    0.000000000e+00    0.000000000e+00    0.000000000e+00    0.000000000e+00
      540750000   -1.472213119e-02    1.121394187e-01   -3.486309424e-06    1.092682851e-05    0.000000000e+00    0.000000000e+00    0.000000000e+00    0.000000000e+00
      548000000   -1.462494768e-02    1.105063185e-01    8.679382518e-06    1.594531932e-05    0.000000000e+00    0.000000000e+00    0.000000000e+00    0.000000000e+00
      555250000   -1.450971141e-02    1.092329323e-01    1.766981768e-05   -7.852874660e-06    0.000000000e+00    0.000000000e+00    0.000000000e+00    0.000000000e+00
      562500000   -1.345086377e-02    1.079022586e-01   -5.804016837e-05    8.051353689e-06    0.000000000e+00    0.000000000e+00    0.000000000e+00    0.000000000e+00
      569750000   -1.303674746e-02    1.063442528e-01    4.038960833e-05   -1.888877705e-05    0.000000000e+00    0.000000000e+00    0.000000000e+00    0.000000000e+00
      577000000   -1.222933084e-02    1.054900587e-01   -2.792496161e-05    1.214289478e-05    0.000000000e+00    0.000000000e+00    0.000000000e+00    0.000000000e+00
      584250000   -1.282301731e-02    1.044474021e-01    6.673746248e-05   -1.021401658e-05    0.000000000e+00    0.000000000e+00    0.000000000e+00    0.000000000e+00
      591500000   -1.208680589e-02    1.031654179e-01    2.882840636e-05    1.779655395e-05    0.000000000e+00    0.000000000e+00    0.000000000e+00    0.000000000e+00
      598750000   -1.160671096e-02    1.011061221e-01   -2.114930248e-05   -3.693769395e-05    0.000000000e+00    0.000000000e+00    0.000000000e+00    0.000000000e+00
      606000000   -1.184792724e-02    1.000985876e-01   -6.426923210e-05   -4.372371404e-05    0.000000000e+00    0.000000000e+00    0.000000000e+00    0.000000000e+00
      613250000   -1.189181209e-02    9.860974550e-02    1.377858098e-05    8.138744306e-06    0.000000000e+00    0.000000000e+00    0.000000000e+00    0.000000000e+00
      620500000   -9.964205325e-03    9.800592810e-02    1.389605586e-05   -2.269793549e-05    0.000000000e+00    0.000000000e+00    0.000000000e+00    0.000000000e+00
      627750000   -1.110569108e-02    9.690380841e-02   -8.134005043e-07   -9.014304851e-06    0.000000000e+00    0.000000000e+00    0.000000000e+00    0.000000000e+00
      635000000   -1.057832595e-02    9.573129565e-02   -3.867273790e-06   -1.375554803e-05    0.000000000e+00    0.000000000e+00    0.000000000e+00    0.000000000e+00
      642250000   -1.005031914e-02    9.474492818e-02   -2.273422797e-05   -1.104738021e-05    0.000000000e+00    0.000000000e+00    0.000000000e+00    0.000000000e+00
      649500000   -9.543104097e-03    9.438621253e-02    1.315496957e-05    2.200778908e-05    0.000000000e+00    0.000000000e+00    0.000000000e+00    0.000000000e+00
      656750000   -1.015775651e-02    9.311427176e-02    1.529320616e-05    6.604269583e-05    0.000000000e+00    0.000000000e+00    0.000000000e+00    0.000000000e+00
      664000000   -9.554085322e-03    9.155683219e-02   -1.656958557e-05   -3.491486723e-06    0.000000000e+00    0.000000000e+00    0.000000000e+00    0.000000000e+00
      671250000   -9.251755662e-03    9.117057920e-02   -4.174332571e-05   -1.997068284e-05    0.000000000e+00    0.000000000e+00    0.000000000e+00    0.000000000e+00
      678500000   -8.842539974e-03    9.009966999e-02    3.182603177e-05   -1.858918779e-07    0.000000000e+00    0.000000000e+00    0.000000000e+00    0.000000000e+00
      685750000   -9.035054594e-03    8.892794698e-02   -4.245126547e-05   -3.042873504e-05    0.000000000e+00    0.000000000e+00    0.000000000e+00    0.000000000e+00
      693000000   -9.865180589e-03    8.872558922e-02    3.953563646e-05    1.248585932e-06    0.000000000e+00    0.000000000e+00    0.000000000e+00    0.000000000e+00
      700250000   -9.173787199e-03    8.757687360e-02    1.307633647e-05    6.510687854e-06    0.000000000e+00    0.000000000e+00    0.000000000e+00    0.000000000e+00
      707500000   -7.152791135e-03    8.744322509e-02    2.575307553e-05   -2.920262159e-05    0.000000000e+00    0.000000000e+00    0.000000000e+00    0.000000000e+00
      714750000   -9.163048118e-03    8.615347743e-02   -5.308888649e-05    2.907976886e-05    0.000000000e+00    0.000000000e+00    0.000000000e+00    0.000000000e+00
      722000000   -7.975339890e-03    8.517727256e-02   -1.897584298e-06    1.581151992e-06    0.000000000e+00    0.000000000e+00    0.000000000e+00    0.000000000e+00
      729250000   -8.167235181e-03    8.460114151e-02    5.130855061e-05    1.379670630e-05    0.000000000e+00    0.000000000e+00    0.000000000e+00    0.000000000e+00
      736500000   -7.685158402e-03    8.372790366e-02   -2.640266939e-05    2.316014252e-05    0.000000000e+00    0.000000000e+00    0.000000000e+00    0.000000000e+00
      743750000   -7.275376003e-03    8.292531967e-02    5.554813015e-06    4.563412949e-05    0.000000000e+00    0.000000000e+00    0.000000000e+00    0.000000000e+00
      751000000   -7.710015867e-03    8.236419410e-02    2.344683708e-05   -1.392245667e-05    0.000000000e+00    0.000000000e+00    0.000000000e+00    0.000000000e+00
      758250000   -7.250105496e-03    8.157719672e-02    2.741799835e-05    2.179472176e-06    0.000000000e+00    0.000000000e+00    0.000000000e+00    0.000000000e+00
      765500000   -6.636460312e-03    8.077319711e-02    5.136648542e-05   -1.628442988e-05    0.000000000e+00    0.000000000e+00    0.000000000e+00    0.000000000e+00
      772750000   -7.481378969e-03    8.002734929e-02   -1.141719963e-06    1.714123755e-05    0.000000000e+00    0.000000000e+00    0.000000000e+00    0.000000000e+00
      780000000   -7.726897020e-03    7.900942117e-02   -1.928887468e-05    3.441632725e-05    0.000000000e+00    0.000000000e+00    0.000000000e+00    0.000000000e+00
      787250000   -6.931165699e-03    7.863349468e-02   -2.810811748e-05   -6.564544947e-06    0.000000000e+00    0.000000000e+00    0.000000000e+00    0.000000000e+00
      794500000   -6.498440169e-03    7.796280086e-02    2.394617468e-06   -4.451311725e-06    0.000000000e+00    0.000000000e+00    0.000000000e+00    0.000000000e+00
      801750000   -6.682124455e-03    7.689739764e-02   -3.914738409e-05    1.424091079e-05    0.000000000e+00    0.000000000e+00    0.000000000e+00    0.000000000e+00
      809000000   -6.053433754e-03    7.667570561e-02    3.198705599e-05    2.705083170e-05    0.000000000e+00    0.000000000e+00    0.000000000e+00    0.000000000e+00
      816250000   -6.173057482e-03    7.604312897e-02   -2.395660704e-05   -7.849813301e-06    0.000000000e+00    0.000000000e+00    0.000000000e+00    0.000000000e+00
      823500000   -5.992989056e-03    7.524485141e-02   -5.175102615e-06   -8.747704669e-06    0.000000000e+00    0.000000000e+00    0.000000000e+00    0.000000000e+00
      830750000   -6.487817504e-03    7.489296049e-02   -1.503430849e-05    3.470540469e-05    0.000000000e+00    0.000000000e+00    0.000000000e+00    0.000000000e+00
      838000000   -6.015602499e-03    7.450605184e-02   -3.227152547e-06   -3.701704554e-05    0.000000000e+00    0.000000000e+00    0.000000000e+00    0.000000000e+00
      845250000   -6.561425049e-03    7.350999117e-02   -9.180481356e-06    2.493819920e-05    0.000000000e+00    0.000000000e+00    0.000000000e+00    0.000000000e+00
      852500000   -6.192012690e-03    7.281521708e-02   -2.134158603e-05    3.283627302e-05    0.000000000e+00    0.000000000e+00    0.000000000e+00    0.000000000e+00
      859750000   -5.955357105e-03    7.243724167e-02    3.693205144e-05   -1.361064824e-05    0.000000000e+00    0.000000000e+00    0.000000000e+00    0.000000000e+00
      867000000   -5.395588465e-03    7.191085815e-02    1.029785835e-06   -1.027742292e-05    0.000000000e+00    0.000000000e+00    0.000000000e+00    0.000000000e+00
      874250000   -5.416078493e-03    7.092358917e-02    4.268321874e-08    1.821115802e-05    0.000000000e+00    0.000000000e+00    0.000000000e+00    0.000000000e+00
      881500000   -5.988087971e-03    7.090436667e-02    3.405000461e-05    2.424243576e-05    0.000000000e+00    0.000000000e+00    0.000000000e+00    0.000000000e+00
      888750000   -5.178718828e-03    6.991425902e-02    2.936882629e-05   -8.286414186e-07    0.000000000e+00    0.000000000e+00    0.000000000e+00    0.000000000e+00
      896000000   -5.196804181e-03    6.916813552e-02   -2.565585419e-05   -5.807545222e-06    0.000000000e+00    0.000000000e+00    0.000000000e+00    0.000000000e+00
      903250000   -4.688891117e-03    6.873261184e-02   -2.098982077e-05    2.858236257e-05    0.000000000e+00    0.000000000e+00    0.000000000e+00    0.000000000e+00
      910500000   -5.055521615e-03    6.831034273e-02    3.915678826e-05   -5.668123777e-06    0.000000000e+00    0.000000000e+00    0.000000000e+00    0.000000000e+00
      917750000   -5.132502411e-03    6.817804277e-02    1.135486218e-05    1.575130227e-05    0.000000000e+00    0.000000000e+00    0.000000000e+00    0.000000000e+00
      925000000   -4.829430021e-03    6.682598591e-02    2.402192877e-05   -1.425563732e-05    0.000000000e+00    0.000000000e+00    0.000000000e+00    0.000000000e+00
      932250000   -4.540360998e-03    6.654340029e-02    5.393753963e-05    2.628878428e-05    0.000000000e+00    0.000000000e+00    0.000000000e+00    0.000000000e+00
      939500000   -4.199392628e-03    6.651008874e-02   -5.325462189e-05    1.135321963e-05    0.000000000e+00    0.000000000e+00    0.000000000e+00    0.000000000e+00
      946750000   -5.411526188e-03    6.547469646e-02   -1.505368255e-05   -5.596258779e-05    0.000000000e+00    0.000000000e+00    0.000000000e+00    0.000000000e+00
      954000000   -3.435496241e-03    6.463734061e-02    1.846838131e-05    3.213704986e-06    0.000000000e+00    0.000000000e+00    0.000000000e+00    0.000000000e+00
      961250000   -4.220414441e-03    6.485771388e-02   -4.795764471e-05    4.176263246e-06    0.000000000e+00    0.000000000e+00    0.000000000e+00    0.000000000e+00
      968500000   -4.781065974e-03    6.436685473e-02    6.287219549e-06    3.771762204e-05    0.000000000e+00    0.000000000e+00    0.000000000e+00    0.000000000e+00
      975750000   -5.312855821e-03    6.395308673e-02   -1.788768895e-05    8.831647392e-06    0.000000000e+00    0.000000000e+00    0.000000000e+00    0.000000000e+00
      983000000   -3.998839762e-03    6.385169923e-02   -8.279616850e-07    4.068138878e-05    0.000000000e+00    0.000000000e+00    0.000000000e+00    0.000000000e+00
      990250000   -3.376282286e-03    6.339185685e-02    2.494166256e-05    2.080635204e-05    0.000000000e+00    0.000000000e+00    0.000000000e+00    0.000000000e+00
      997500000   -4.760938231e-03    6.292955577e-02   -7.264278338e-06    3.517521327e-05    0.000000000e+00    0.000000000e+00    0.000000000e+00    0.000000000e+00
     1004750000   -4.076925572e-03    6.221577898e-02    7.544325626e-07    7.595553598e-06    0.000000000e+00    0.000000000e+00    0.000000000e+00    0.000000000e+00
     1012000000   -4.364310764e-03    6.164640561e-02   -2.399562800e-05   -1.779878039e-05    0.000000000e+00    0.000000000e+00    0.000000000e+00    0.000000000e+00
     1019250000   -4.423244856e-03    6.146395952e-02   -4.228306352e-06   -1.272057671e-05    0.000000000e+00    0.000000000e+00    0.000000000e+00    0.000000000e+00
     1026500000   -4.195255693e-03    6.068062410e-02    7.990245763e-07   -5.050915206e-06    0.000000000e+00    0.000000000e+00    0.000000000e+00    0.000000000e+00
     1033750000   -4.377920181e-03    6.020577997e-02   -6.857229437e-06   -2.329307972e-05    0.000000000e+00    0.000000000e+00    0.000000000e+00    0.000000000e+00
     1041000000   -4.144037608e-03    6.048848107e-02   -2.105210478e-05    5.003826573e-06    0.000000000e+00    0.000000000e+00    0.000000000e+00    0.000000000e+00
