! NanoVNA-App by OneOfEleven et al v1.1.209 (+OD15) 
! Date: 2024-07-30 15:20:35
! Start: 200MHz Stop: 6GHz Points: 801
! S-Parameter data: F S11 S21 S12 S22
# Hz S RI R 50
!     Frequency           S11_Real           S11_Imag           S21_Real           S21_Imag           S12_Real           S12_Imag           S22_Real           S22_Imag
      200000000   -9.989721775e-01   -1.090566516e-01    9.959563613e-06   -3.105029464e-06    0.000000000e+00    0.000000000e+00    0.000000000e+00    0.000000000e+00
      207250000   -1.009398103e+00   -9.490509517e-03   -2.930872142e-06   -4.778616130e-06    0.000000000e+00    0.000000000e+00    0.000000000e+00    0.000000000e+00
      214500000   -1.009645462e+00    9.239007533e-02    1.362711191e-05   -2.757646143e-06    0.000000000e+00    0.000000000e+00    0.000000000e+00    0.000000000e+00
      221750000   -9.995220900e-01    1.949885488e-01   -2.614501864e-05   -1.984927803e-05    0.000000000e+00    0.000000000e+00    0.000000000e+00    0.000000000e+00
      229000000   -9.782308340e-01    2.980761826e-01    1.088809222e-05    8.041970432e-06    0.000000000e+00    0.000000000e+00    0.000000000e+00    0.000000000e+00
      236250000   -9.446954727e-01    4.007301927e-01   -1.405738294e-05    2.931337804e-05    0.000000000e+00    0.000000000e+00    0.000000000e+00    0.000000000e+00
      243500000   -9.003226757e-01    5.002151728e-01    3.280490637e-05    6.273388863e-06    0.000000000e+00    0.000000000e+00    0.000000000e+00    0.000000000e+00
      250750000   -8.425872326e-01    5.965752602e-01    2.322345972e-05   -1.140870154e-06    0.000000000e+00    0.000000000e+00    0.000000000e+00    0.000000000e+00
      258000000   -7.735615969e-01    6.869715452e-01    4.583969712e-06   -8.011236787e-06    0.000000000e+00    0.000000000e+00    0.000000000e+00    0.000000000e+00
      265250000   -6.916971207e-01    7.698376775e-01    1.589767635e-06    1.522712409e-06    0.000000000e+00    0.000000000e+00    0.000000000e+00    0.000000000e+00
      272500000   -5.994081497e-01    8.435667753e-01    2.504140139e-05   -3.287009895e-05    0.000000000e+00    0.000000000e+00    0.000000000e+00    0.000000000e+00
      279750000   -4.981745780e-01    9.067354798e-01    3.952905536e-05   -4.789792001e-06    0.000000000e+00    0.000000000e+00    0.000000000e+00    0.000000000e+00
      287000000   -3.864853382e-01    9.573641419e-01   -8.769333363e-06   -1.453794539e-05    0.000000000e+00    0.000000000e+00    0.000000000e+00    0.000000000e+00
      294250000   -2.687795162e-01    9.938247204e-01   -4.743412137e-05    8.018687367e-07    0.000000000e+00    0.000000000e+00    0.000000000e+00    0.000000000e+00
      301500000   -1.458420306e-01    1.014726043e+00    2.623628825e-05   -8.266419172e-06    0.000000000e+00    0.000000000e+00    0.000000000e+00    0.000000000e+00
      308750000   -2.009407431e-02    1.019796610e+00   -1.028180122e-06    1.562759280e-05    0.000000000e+00    0.000000000e+00    0.000000000e+00    0.000000000e+00
      316000000    1.058449596e-01    1.009502172e+00    7.390975952e-06    1.939944923e-06    0.000000000e+00    0.000000000e+00    0.000000000e+00    0.000000000e+00
      323250000    2.298520654e-01    9.812288284e-01    4.245899618e-06   -1.073256135e-05    0.000000000e+00    0.000000000e+00    0.000000000e+00    0.000000000e+00
      330500000    3.492220044e-01    9.385197163e-01    2.391729504e-05    7.988885045e-06    0.000000000e+00    0.000000000e+00    0.000000000e+00    0.000000000e+00
      337750000    4.617924392e-01    8.803571463e-01    2.125278115e-06   -1.900549978e-05    0.000000000e+00    0.000000000e+00    0.000000000e+00    0.000000000e+00
      345000000    5.659561157e-01    8.089357615e-01   -1.322478056e-06   -2.643093467e-06    0.000000000e+00    0.000000000e+00    0.000000000e+00    0.000000000e+00
      352250000    6.591858864e-01    7.253102064e-01    2.542510629e-05    3.029219806e-05    0.000000000e+00    0.000000000e+00    0.000000000e+00    0.000000000e+00
      359500000    7.405713201e-01    6.311216354e-01   -3.483332694e-05   -1.164153218e-05    0.000000000e+00    0.000000000e+00    0.000000000e+00    0.000000000e+00
      366750000    8.091692328e-01    5.283305645e-01    5.209632218e-05   -1.229066402e-05    0.000000000e+00    0.000000000e+00    0.000000000e+00    0.000000000e+00
      374000000    8.646627665e-01    4.203037322e-01   -1.041032374e-05   -2.038385719e-05    0.000000000e+00    0.000000000e+00    0.000000000e+00    0.000000000e+00
      381250000    9.062719345e-01    3.051881790e-01    2.221204340e-06    1.205038279e-05    0.000000000e+00    0.000000000e+00    0.000000000e+00    0.000000000e+00
      388500000    9.339271784e-01    1.900589019e-01    1.526251435e-05    7.953494787e-06    0.000000000e+00    0.000000000e+00    0.000000000e+00    0.000000000e+00
      395750000    9.474394917e-01    7.342797518e-02   -1.203920692e-05   -1.044757664e-05    0.000000000e+00    0.000000000e+00    0.000000000e+00    0.000000000e+00
      403000000    9.476993680e-01   -4.375593737e-02    2.679415047e-06   -2.150330693e-05    0.000000000e+00    0.000000000e+00    0.000000000e+00    0.000000000e+00
      410250000    9.353595972e-01   -1.586672515e-01    1.443456858e-05    5.146488547e-06    0.000000000e+00    0.000000000e+00    0.000000000e+00    0.000000000e+00
      417500000    9.107984304e-01   -2.691327929e-01   -4.626810551e-06    1.625902951e-05    0.000000000e+00    0.000000000e+00    0.000000000e+00    0.000000000e+00
      424750000    8.746513128e-01   -3.764760494e-01   -5.380250514e-06   -2.175569534e-05    0.000000000e+00    0.000000000e+00    0.000000000e+00    0.000000000e+00
      432000000    8.278878927e-01   -4.778631032e-01    2.669356763e-05   -1.756474376e-06    0.000000000e+00    0.000000000e+00    0.000000000e+00    0.000000000e+00
      439250000    7.712939382e-01   -5.729646087e-01    9.202398360e-06    1.958850771e-05    0.000000000e+00    0.000000000e+00    0.000000000e+00    0.000000000e+00
      446500000    7.051572800e-01   -6.607720852e-01   -3.033876419e-05   -3.899168223e-05    0.000000000e+00    0.000000000e+00    0.000000000e+00    0.000000000e+00
      453750000    6.305226088e-01   -7.414529920e-01   -1.256354153e-06    5.221925676e-06    0.000000000e+00    0.000000000e+00    0.000000000e+00    0.000000000e+00
      461000000    5.479749441e-01   -8.133900166e-01    3.089196980e-06    3.756396472e-05    0.000000000e+00    0.000000000e+00    0.000000000e+00    0.000000000e+00
      468250000    4.597198665e-01   -8.755682707e-01    2.692453563e-06   -1.124851406e-05    0.000000000e+00    0.000000000e+00    0.000000000e+00    0.000000000e+00
      475500000    3.639478683e-01   -9.290862083e-01    4.701316357e-06    4.068948328e-06    0.000000000e+00    0.000000000e+00    0.000000000e+00    0.000000000e+00
      482750000    2.640756965e-01   -9.718810916e-01   -3.104098141e-05    4.875194281e-05    0.000000000e+00    0.000000000e+00    0.000000000e+00    0.000000000e+00
      490000000    1.602126509e-01   -1.004040837e+00   -7.878988981e-06   -5.568377674e-06    0.000000000e+00    0.000000000e+00    0.000000000e+00    0.000000000e+00
      497250000    5.290328339e-02   -1.025385141e+00   -7.721595466e-06    5.765818059e-06    0.000000000e+00    0.000000000e+00    0.000000000e+00    0.000000000e+00
      504500000   -5.663530156e-02   -1.035529017e+00    5.015172064e-06   -1.964811236e-05    0.000000000e+00    0.000000000e+00    0.000000000e+00    0.000000000e+00
      511750000   -1.672268212e-01   -1.034144640e+00   -3.230478615e-05   -5.153007805e-06    0.000000000e+00    0.000000000e+00    0.000000000e+00    0.000000000e+00
      519000000   -2.780176997e-01   -1.019586325e+00   -9.864568710e-06    2.104509622e-05    0.000000000e+00    0.000000000e+00    0.000000000e+00    0.000000000e+00
      526250000   -3.872864842e-01   -9.936686158e-01    2.394709736e-05   -1.961365342e-06    0.000000000e+00    0.000000000e+00    0.000000000e+00    0.000000000e+00
      533500000   -4.927912951e-01   -9.556796551e-01   -4.982016981e-05   -3.685243428e-06    0.000000000e+00    0.000000000e+00    0.000000000e+00    0.000000000e+00
      540750000   -5.957244635e-01   -9.047498703e-01    8.082948625e-06   -4.841014743e-06    0.000000000e+00    0.000000000e+00    0.000000000e+00    0.000000000e+00
      548000000   -6.923066378e-01   -8.423627615e-01    3.386661410e-05    2.443790436e-06    0.000000000e+00    0.000000000e+00    0.000000000e+00    0.000000000e+00
      555250000   -7.804183960e-01   -7.676936388e-01    3.684870899e-05    7.431954145e-07    0.000000000e+00    0.000000000e+00    0.000000000e+00    0.000000000e+00
      562500000   -8.611989617e-01   -6.834695339e-01    3.810040653e-06    2.085790038e-05    0.000000000e+00    0.000000000e+00    0.000000000e+00    0.000000000e+00
      569750000   -9.312319160e-01   -5.907066464e-01    8.382834494e-06   -4.604924470e-05    0.000000000e+00    0.000000000e+00    0.000000000e+00    0.000000000e+00
      577000000   -9.905829430e-01   -4.885140061e-01   -7.224269211e-06   -4.482176155e-05    0.000000000e+00    0.000000000e+00    0.000000000e+00    0.000000000e+00
      584250000   -1.037254095e+00   -3.789469898e-01    1.913867891e-05    2.187956125e-05    0.000000000e+00    0.000000000e+00    0.000000000e+00    0.000000000e+00
      591500000   -1.069180608e+00   -2.656744123e-01   -1.305434853e-05    2.803280950e-07    0.000000000e+00    0.000000000e+00    0.000000000e+00    0.000000000e+00
      598750000   -1.088293672e+00   -1.472579539e-01    2.701114863e-05   -3.672018647e-05    0.000000000e+00    0.000000000e+00    0.000000000e+00    0.000000000e+00
      606000000   -1.092783809e+00   -2.933775447e-02    2.429354936e-05    2.531055361e-05    0.000000000e+00    0.000000000e+00    0.000000000e+00    0.000000000e+00
      613250000   -1.082174420e+00    9.009365737e-02   -6.361771375e-05    4.114490002e-05    0.000000000e+00    0.000000000e+00    0.000000000e+00    0.000000000e+00
      620500000   -1.058022380e+00    2.048584223e-01    9.127892554e-06   -1.434981823e-05    0.000000000e+00    0.000000000e+00    0.000000000e+00    0.000000000e+00
      627750000   -1.019378066e+00    3.171341717e-01   -1.844018698e-07   -9.061768651e-07    0.000000000e+00    0.000000000e+00    0.000000000e+00    0.000000000e+00
      635000000   -9.691573977e-01    4.212129712e-01    2.820044756e-06   -2.067815512e-05    0.000000000e+00    0.000000000e+00    0.000000000e+00    0.000000000e+00
      642250000   -9.057671428e-01    5.194951296e-01    2.055522054e-05   -9.390525520e-06    0.000000000e+00    0.000000000e+00    0.000000000e+00    0.000000000e+00
      649500000   -8.321648836e-01    6.081109047e-01   -9.307637811e-06    2.657994628e-05    0.000000000e+00    0.000000000e+00    0.000000000e+00    0.000000000e+00
      656750000   -7.500873804e-01    6.860796809e-01    1.441687346e-06   -2.619251609e-05    0.000000000e+00    0.000000000e+00    0.000000000e+00    0.000000000e+00
      664000000   -6.594371200e-01    7.545686364e-01    5.660578609e-06   -6.314367056e-07    0.000000000e+00    0.000000000e+00    0.000000000e+00    0.000000000e+00
      671250000   -5.636380315e-01    8.097259402e-01    3.068707883e-05   -1.761224121e-05    0.000000000e+00    0.000000000e+00    0.000000000e+00    0.000000000e+00
      678500000   -4.626608789e-01    8.539959788e-01    1.052208245e-05   -2.123415470e-06    0.000000000e+00    0.000000000e+00    0.000000000e+00    0.000000000e+00
      685750000   -3.583123684e-01    8.865507841e-01    7.846392691e-06   -1.877266914e-05    0.000000000e+00    0.000000000e+00    0.000000000e+00    0.000000000e+00
      693000000   -2.528070509e-01    9.067261219e-01   -4.294514656e-05   -3.651157022e-05    0.000000000e+00    0.000000000e+00    0.000000000e+00    0.000000000e+00
      700250000   -1.459474117e-01    9.153042436e-01   -2.199690789e-05   -1.624785364e-05    0.000000000e+00    0.000000000e+00    0.000000000e+00    0.000000000e+00
      707500000   -4.106977582e-02    9.123152494e-01    4.649814218e-05   -6.975606084e-06    0.000000000e+00    0.000000000e+00    0.000000000e+00    0.000000000e+00
      714750000    6.199695542e-02    8.988597393e-01    1.408811659e-05    1.023244113e-05    0.000000000e+00    0.000000000e+00    0.000000000e+00    0.000000000e+00
      722000000    1.619093418e-01    8.745584488e-01    3.647059202e-06    4.654657096e-05    0.000000000e+00    0.000000000e+00    0.000000000e+00    0.000000000e+00
      729250000    2.582579851e-01    8.403538465e-01    2.899859101e-05   -3.810506314e-05    0.000000000e+00    0.000000000e+00    0.000000000e+00    0.000000000e+00
      736500000    3.501832485e-01    7.968338728e-01    1.118797809e-05    1.046434045e-05    0.000000000e+00    0.000000000e+00    0.000000000e+00    0.000000000e+00
      743750000    4.359837770e-01    7.446452975e-01    7.910653949e-06   -1.268927008e-05    0.000000000e+00    0.000000000e+00    0.000000000e+00    0.000000000e+00
      751000000    5.158179998e-01    6.846399307e-01   -4.108436406e-05   -4.518777132e-06    0.000000000e+00    0.000000000e+00    0.000000000e+00    0.000000000e+00
      758250000    5.877900124e-01    6.181760430e-01   -4.104617983e-05    3.781728446e-05    0.000000000e+00    0.000000000e+00    0.000000000e+00    0.000000000e+00
      765500000    6.545693874e-01    5.431450009e-01    7.756054401e-06    9.103678167e-06    0.000000000e+00    0.000000000e+00    0.000000000e+00    0.000000000e+00
      772750000    7.132826447e-01    4.631490707e-01   -2.214126289e-05    1.186504960e-06    0.000000000e+00    0.000000000e+00    0.000000000e+00    0.000000000e+00
      780000000    7.621668577e-01    3.780046701e-01    1.117587090e-07   -4.439614713e-06    0.000000000e+00    0.000000000e+00    0.000000000e+00    0.000000000e+00
      787250000    8.054309487e-01    2.870632112e-01   -3.468245268e-06   -2.764444798e-05    0.000000000e+00    0.000000000e+00    0.000000000e+00    0.000000000e+00
      794500000    8.381516933e-01    1.930209249e-01    7.770024240e-06    1.356936991e-06    0.000000000e+00    0.000000000e+00    0.000000000e+00    0.000000000e+00
      801750000    8.605673909e-01    9.420719743e-02   -3.395974636e-05    1.467671245e-05    0.000000000e+00    0.000000000e+00    0.000000000e+00    0.000000000e+00
      809000000    8.738793135e-01   -6.351213902e-03    1.584272832e-05    1.350138336e-05    0.000000000e+00    0.000000000e+00    0.000000000e+00    0.000000000e+00
      816250000    8.768568635e-01   -1.088159606e-01   -3.634020686e-05   -9.193085134e-06    0.000000000e+00    0.000000000e+00    0.000000000e+00    0.000000000e+00
      823500000    8.681772947e-01   -2.130002230e-01    2.821907401e-07   -1.346785575e-05    0.000000000e+00    0.000000000e+00    0.000000000e+00    0.000000000e+00
      830750000    8.485499620e-01   -3.166871369e-01    1.761410385e-05   -2.218037844e-05    0.000000000e+00    0.000000000e+00    0.000000000e+00    0.000000000e+00
      838000000    8.177236319e-01   -4.182213247e-01    3.615394235e-06    1.947768033e-05    0.000000000e+00    0.000000000e+00    0.000000000e+00    0.000000000e+00
      845250000    7.753053308e-01   -5.177987218e-01    2.939160913e-05    5.774199963e-07    0.000000000e+00    0.000000000e+00    0.000000000e+00    0.000000000e+00
      852500000    7.201648951e-01   -6.123140454e-01   -2.138130367e-05   -2.801418304e-05    0.000000000e+00    0.000000000e+00    0.000000000e+00    0.000000000e+00
      859750000    6.552308798e-01   -7.019673586e-01   -1.950189471e-06   -5.650799721e-05    0.000000000e+00    0.000000000e+00    0.000000000e+00    0.000000000e+00
      867000000    5.755216479e-01   -7.859008908e-01    1.239776611e-05   -5.123205483e-06    0.000000000e+00    0.000000000e+00    0.000000000e+00    0.000000000e+00
      874250000    4.891257286e-01   -8.573116064e-01    1.000240445e-05   -7.620081306e-06    0.000000000e+00    0.000000000e+00    0.000000000e+00    0.000000000e+00
      881500000    3.876708746e-01   -9.218217731e-01    7.453840226e-05   -8.307397366e-07    0.000000000e+00    0.000000000e+00    0.000000000e+00    0.000000000e+00
      888750000    2.844543755e-01   -9.708120227e-01    4.326738417e-05   -6.755813956e-06    0.000000000e+00    0.000000000e+00    0.000000000e+00    0.000000000e+00
      896000000    1.685454100e-01   -1.008090019e+00   -2.471357584e-05    1.711398363e-05    0.000000000e+00    0.000000000e+00    0.000000000e+00    0.000000000e+00
      903250000    5.051981658e-02   -1.029814720e+00   -4.132278264e-05   -5.515292287e-06    0.000000000e+00    0.000000000e+00    0.000000000e+00    0.000000000e+00
      910500000   -7.307443768e-02   -1.034998059e+00   -8.480623364e-06    1.402758062e-05    0.000000000e+00    0.000000000e+00    0.000000000e+00    0.000000000e+00
      917750000   -1.925513744e-01   -1.023920774e+00    3.585591912e-07    2.299249172e-05    0.000000000e+00    0.000000000e+00    0.000000000e+00    0.000000000e+00
      925000000   -3.113425374e-01   -9.962660670e-01    1.280661672e-05   -1.461151987e-05    0.000000000e+00    0.000000000e+00    0.000000000e+00    0.000000000e+00
      932250000   -4.267323017e-01   -9.515844584e-01   -2.196338028e-05   -1.519918442e-05    0.000000000e+00    0.000000000e+00    0.000000000e+00    0.000000000e+00
      939500000   -5.324993730e-01   -8.939485550e-01   -3.098044544e-05    4.308205098e-05    0.000000000e+00    0.000000000e+00    0.000000000e+00    0.000000000e+00
      946750000   -6.277906299e-01   -8.222167492e-01    8.985400200e-06    9.875744581e-06    0.000000000e+00    0.000000000e+00    0.000000000e+00    0.000000000e+00
      954000000   -7.139507532e-01   -7.366753817e-01   -5.405396223e-06    2.682954073e-05    0.000000000e+00    0.000000000e+00    0.000000000e+00    0.000000000e+00
      961250000   -7.859074473e-01   -6.459876299e-01   -2.371147275e-05   -3.495253623e-06    0.000000000e+00    0.000000000e+00    0.000000000e+00    0.000000000e+00
      968500000   -8.441336155e-01   -5.467568040e-01    1.352466643e-05   -3.729667515e-05    0.000000000e+00    0.000000000e+00    0.000000000e+00    0.000000000e+00
      975750000   -8.872562051e-01   -4.431351721e-01   -4.000030458e-05   -1.343898475e-06    0.000000000e+00    0.000000000e+00    0.000000000e+00    0.000000000e+00
      983000000   -9.176405072e-01   -3.367697001e-01   -2.654269338e-07    4.312302917e-05    0.000000000e+00    0.000000000e+00    0.000000000e+00    0.000000000e+00
      990250000   -9.324108958e-01   -2.316609919e-01   -8.278526366e-06   -2.323649824e-05    0.000000000e+00    0.000000000e+00    0.000000000e+00    0.000000000e+00
      997500000   -9.353916049e-01   -1.238095239e-01    3.835652024e-05   -4.247296602e-05    0.000000000e+00    0.000000000e+00    0.000000000e+00    0.000000000e+00
     1004750000   -9.256356359e-01   -2.184181288e-02    1.437682658e-05    2.741627395e-05    0.000000000e+00    0.000000000e+00    0.000000000e+00    0.000000000e+00
     1012000000   -9.047825933e-01    7.524633408e-02    7.584691048e-06    5.671940744e-05    0.000000000e+00    0.000000000e+00    0.000000000e+00    0.000000000e+00
     1019250000   -8.739138842e-01    1.676644385e-01    4.754401743e-06    4.148203880e-05    0.000000000e+00    0.000000000e+00    0.000000000e+00    0.000000000e+00
     1026500000   -8.344709873e-01    2.543170750e-01    1.725926995e-05    2.418365330e-05    0.000000000e+00    0.000000000e+00    0.000000000e+00    0.000000000e+00
     1033750000   -7.869711518e-01    3.347658813e-01    1.476239413e-05   -3.332644701e-05    0.000000000e+00    0.000000000e+00    0.000000000e+00    0.000000000e+00
     1041000000   -7.336758375e-01    4.059940577e-01    5.951151252e-07   -1.271720976e-05    0.000000000e+00    0.000000000e+00    0.000000000e+00    0.000000000e+00
