! NanoVNA-App by OneOfEleven et al v1.1.209 (+OD15) 
! Date: 2024-07-30 15:20:38
! Start: 200MHz Stop: 6GHz Points: 801
! S-Parameter data: F S11 S21 S12 S22
# Hz S RI R 50
!     Frequency           S11_Real           S11_Imag           S21_Real           S21_Imag           S12_Real           S12_Imag           S22_Real           S22_Imag
      200000000   -9.987478256e-01   -1.090731546e-01    1.616030931e-05    5.293637514e-06    0.000000000e+00    0.000000000e+00    0.000000000e+00    0.000000000e+00
      207250000   -1.009536147e+00   -9.710098617e-03    6.476417184e-06    3.428198397e-06    0.000000000e+00    0.000000000e+00    0.000000000e+00    0.000000000e+00
      214500000   -1.010186315e+00    9.170185775e-02    2.452079207e-05   -1.052021980e-05    0.000000000e+00    0.000000000e+00    0.000000000e+00    0.000000000e+00
      221750000   -9.999334216e-01    1.953440607e-01    1.499988139e-05    3.292597830e-05    0.000000000e+00    0.000000000e+00    0.000000000e+00    0.000000000e+00
      229000000   -9.780685902e-01    2.979980111e-01   -3.917142749e-06    6.859190762e-06    0.000000000e+00    0.000000000e+00    0.000000000e+00    0.000000000e+00
      236250000   -9.454556704e-01    4.006520212e-01    3.574416041e-06   -3.730505705e-05    0.000000000e+00    0.000000000e+00    0.000000000e+00    0.000000000e+00
      243500000   -9.000364542e-01    5.005273223e-01    1.932401210e-05    3.666896373e-05    0.000000000e+00    0.000000000e+00    0.000000000e+00    0.000000000e+00
      250750000   -8.425964117e-01    5.963590145e-01    3.669504076e-05   -1.858547330e-05    0.000000000e+00    0.000000000e+00    0.000000000e+00    0.000000000e+00
      258000000   -7.730150223e-01    6.868739724e-01   -9.091570973e-06    5.907379091e-06    0.000000000e+00    0.000000000e+00    0.000000000e+00    0.000000000e+00
      265250000   -6.924667954e-01    7.700108290e-01   -1.628976315e-05    2.377573401e-05    0.000000000e+00    0.000000000e+00    0.000000000e+00    0.000000000e+00
      272500000   -5.992751718e-01    8.441693783e-01    8.706003428e-06   -1.339893788e-05    0.000000000e+00    0.000000000e+00    0.000000000e+00    0.000000000e+00
      279750000   -4.980773628e-01    9.067856669e-01   -7.887370884e-06    2.627167851e-05    0.000000000e+00    0.000000000e+00    0.000000000e+00    0.000000000e+00
      287000000   -3.861082792e-01    9.570115209e-01   -6.274320185e-06   -5.552638322e-05    0.000000000e+00    0.000000000e+00    0.000000000e+00    0.000000000e+00
      294250000   -2.686822116e-01    9.935940504e-01   -4.882924259e-06    1.263432205e-05    0.000000000e+00    0.000000000e+00    0.000000000e+00    0.000000000e+00
      301500000   -1.462024897e-01    1.014954090e+00    5.835667253e-06    1.520756632e-05    0.000000000e+00    0.000000000e+00    0.000000000e+00    0.000000000e+00
      308750000   -1.971255057e-02    1.020567417e+00    1.263804734e-05   -2.621859312e-05    0.000000000e+00    0.000000000e+00    0.000000000e+00    0.000000000e+00
      316000000    1.059821546e-01    1.008658528e+00   -1.808349043e-05   -1.233257353e-05    0.000000000e+00    0.000000000e+00    0.000000000e+00    0.000000000e+00
      323250000    2.305320799e-01    9.816950560e-01   -1.640617847e-05   -1.047458500e-05    0.000000000e+00    0.000000000e+00    0.000000000e+00    0.000000000e+00
      330500000    3.489047885e-01    9.385214448e-01    3.312807530e-05   -4.065688699e-05    0.000000000e+00    0.000000000e+00    0.000000000e+00    0.000000000e+00
      337750000    4.617395699e-01    8.800193667e-01    1.097563654e-05   -1.782551408e-06    0.000000000e+00    0.000000000e+00    0.000000000e+00    0.000000000e+00
      345000000    5.658874512e-01    8.077093959e-01   -1.030974090e-05    6.495043635e-06    0.000000000e+00    0.000000000e+00    0.000000000e+00    0.000000000e+00
      352250000    6.589789987e-01    7.254469395e-01    2.223439515e-05   -5.390960723e-05    0.000000000e+00    0.000000000e+00    0.000000000e+00    0.000000000e+00
      359500000    7.407585382e-01    6.308377385e-01    1.970771700e-05    2.468191087e-05    0.000000000e+00    0.000000000e+00    0.000000000e+00    0.000000000e+00
      366750000    8.095161319e-01    5.284295678e-01    7.973052561e-06   -9.998679161e-06    0.000000000e+00    0.000000000e+00    0.000000000e+00    0.000000000e+00
      374000000    8.639993668e-01    4.200704694e-01    1.901015639e-05    5.688518286e-06    0.000000000e+00    0.000000000e+00    0.000000000e+00    0.000000000e+00
      381250000    9.058225751e-01    3.054412901e-01    1.402571797e-05    1.615844667e-06    0.000000000e+00    0.000000000e+00    0.000000000e+00    0.000000000e+00
      388500000    9.334239364e-01    1.899685264e-01   -3.559608012e-05   -5.384907126e-06    0.000000000e+00    0.000000000e+00    0.000000000e+00    0.000000000e+00
      395750000    9.475627542e-01    7.320088893e-02    8.230097592e-06   -4.063360393e-06    0.000000000e+00    0.000000000e+00    0.000000000e+00    0.000000000e+00
      403000000    9.482831955e-01   -4.313471541e-02   -6.480980664e-05   -3.390200436e-05    0.000000000e+00    0.000000000e+00    0.000000000e+00    0.000000000e+00
      410250000    9.352272749e-01   -1.575539708e-01    9.170733392e-06   -1.125503331e-05    0.000000000e+00    0.000000000e+00    0.000000000e+00    0.000000000e+00
      417500000    9.106109142e-01   -2.693429887e-01   -3.513135016e-05    2.081319690e-05    0.000000000e+00    0.000000000e+00    0.000000000e+00    0.000000000e+00
      424750000    8.746454716e-01   -3.768742085e-01    9.340234101e-06   -2.931524068e-05    0.000000000e+00    0.000000000e+00    0.000000000e+00    0.000000000e+00
      432000000    8.280904293e-01   -4.779874384e-01   -1.173745841e-05    4.243291914e-05    0.000000000e+00    0.000000000e+00    0.000000000e+00    0.000000000e+00
      439250000    7.710450888e-01   -5.733388066e-01   -3.248639405e-05   -7.005408406e-06    0.000000000e+00    0.000000000e+00    0.000000000e+00    0.000000000e+00
      446500000    7.050586343e-01   -6.608754992e-01    1.034606248e-05   -1.263059676e-05    0.000000000e+00    0.000000000e+00    0.000000000e+00    0.000000000e+00
      453750000    6.304825544e-01   -7.415128350e-01    1.803040504e-06    2.428144217e-05    0.000000000e+00    0.000000000e+00    0.000000000e+00    0.000000000e+00
      461000000    5.482267141e-01   -8.129582405e-01    2.518296242e-06   -5.949009210e-05    0.000000000e+00    0.000000000e+00    0.000000000e+00    0.000000000e+00
      468250000    4.602847695e-01   -8.757212162e-01    1.834426075e-05   -5.212239921e-05    0.000000000e+00    0.000000000e+00    0.000000000e+00    0.000000000e+00
      475500000    3.635310531e-01   -9.292477369e-01    4.718638957e-05    2.367421985e-06    0.000000000e+00    0.000000000e+00    0.000000000e+00    0.000000000e+00
      482750000    2.645305693e-01   -9.716458321e-01   -9.434297681e-06    8.342787623e-06    0.000000000e+00    0.000000000e+00    0.000000000e+00    0.000000000e+00
      490000000    1.607658714e-01   -1.004660249e+00   -2.642348409e-05    1.636892557e-05    0.000000000e+00    0.000000000e+00    0.000000000e+00    0.000000000e+00
      497250000    5.289407074e-02   -1.025664091e+00    9.354203939e-06    6.459653378e-06    0.000000000e+00    0.000000000e+00    0.000000000e+00    0.000000000e+00
      504500000   -5.632071197e-02   -1.035920143e+00   -1.344736665e-05    2.824980766e-05    0.000000000e+00    0.000000000e+00    0.000000000e+00    0.000000000e+00
      511750000   -1.671732962e-01   -1.033601046e+00   -1.695845276e-05    4.837289453e-06    0.000000000e+00    0.000000000e+00    0.000000000e+00    0.000000000e+00
      519000000   -2.779068649e-01   -1.019528747e+00   -2.263672650e-05    2.159178257e-05    0.000000000e+00    0.000000000e+00    0.000000000e+00    0.000000000e+00
      526250000   -3.865887523e-01   -9.937662482e-01    6.286427379e-06   -4.607252777e-05    0.000000000e+00    0.000000000e+00    0.000000000e+00    0.000000000e+00
      533500000   -4.930050075e-01   -9.555414319e-01   -1.818686724e-05    1.911073923e-05    0.000000000e+00    0.000000000e+00    0.000000000e+00    0.000000000e+00
      540750000   -5.958274007e-01   -9.050010443e-01    2.793595195e-05   -3.977492452e-05    0.000000000e+00    0.000000000e+00    0.000000000e+00    0.000000000e+00
      548000000   -6.919875145e-01   -8.418114781e-01   -6.951391697e-06    2.628285438e-05    0.000000000e+00    0.000000000e+00    0.000000000e+00    0.000000000e+00
      555250000   -7.807471156e-01   -7.684999704e-01    1.083314419e-05   -2.860184759e-05    0.000000000e+00    0.000000000e+00    0.000000000e+00    0.000000000e+00
      562500000   -8.611096144e-01   -6.840048432e-01    1.975614578e-05    1.382082701e-05    0.000000000e+00    0.000000000e+00    0.000000000e+00    0.000000000e+00
      569750000   -9.315640926e-01   -5.903471112e-01   -8.246861398e-06    1.153908670e-05    0.000000000e+00    0.000000000e+00    0.000000000e+00    0.000000000e+00
      577000000   -9.896097779e-01   -4.891982973e-01   -1.113489270e-05    1.432467252e-05    0.000000000e+00    0.000000000e+00    0.000000000e+00    0.000000000e+00
      584250000   -1.037179232e+00   -3.797149658e-01   -2.999417484e-05   -4.539545625e-05    0.000000000e+00    0.000000000e+00    0.000000000e+00    0.000000000e+00
      591500000   -1.070142746e+00   -2.657773793e-01   -3.777164966e-05   -2.396851778e-05    0.000000000e+00    0.000000000e+00    0.000000000e+00    0.000000000e+00
      598750000   -1.088639259e+00   -1.471371204e-01    4.196912050e-05   -5.966052413e-06    0.000000000e+00    0.000000000e+00    0.000000000e+00    0.000000000e+00
      606000000   -1.092666149e+00   -2.835804410e-02    2.463161945e-05   -4.718918353e-05    0.000000000e+00    0.000000000e+00    0.000000000e+00    0.000000000e+00
      613250000   -1.082362771e+00    8.893005550e-02    2.053566277e-06   -1.230183989e-05    0.000000000e+00    0.000000000e+00    0.000000000e+00    0.000000000e+00
      620500000   -1.058521032e+00    2.044477314e-01    1.197773963e-05    3.370735794e-05    0.000000000e+00    0.000000000e+00    0.000000000e+00    0.000000000e+00
      627750000   -1.018744230e+00    3.177659512e-01    8.462928236e-06   -1.993961632e-06    0.000000000e+00    0.000000000e+00    0.000000000e+00    0.000000000e+00
      635000000   -9.691132307e-01    4.211724401e-01    4.677847028e-05    7.889792323e-05    0.000000000e+00    0.000000000e+00    0.000000000e+00    0.000000000e+00
      642250000   -9.058235884e-01    5.192794800e-01   -2.221018076e-05    8.559785783e-06    0.000000000e+00    0.000000000e+00    0.000000000e+00    0.000000000e+00
      649500000   -8.319554925e-01    6.083291173e-01   -3.775861114e-05   -6.740912795e-06    0.000000000e+00    0.000000000e+00    0.000000000e+00    0.000000000e+00
      656750000   -7.499144077e-01    6.856752634e-01   -9.772367775e-06    1.921691000e-05    0.000000000e+00    0.000000000e+00    0.000000000e+00    0.000000000e+00
      664000000   -6.592952013e-01    7.538529634e-01   -2.660416067e-05    2.505257726e-07    0.000000000e+00    0.000000000e+00    0.000000000e+00    0.000000000e+00
      671250000   -5.629115105e-01    8.106809855e-01   -4.837289453e-06   -1.627020538e-05    0.000000000e+00    0.000000000e+00    0.000000000e+00    0.000000000e+00
      678500000   -4.616934061e-01    8.542447090e-01   -1.535471529e-05    3.266148269e-06    0.000000000e+00    0.000000000e+00    0.000000000e+00    0.000000000e+00
      685750000   -3.578378856e-01    8.867428899e-01    1.638848335e-05    1.884438097e-05    0.000000000e+00    0.000000000e+00    0.000000000e+00    0.000000000e+00
      693000000   -2.525900304e-01    9.066591859e-01   -1.045409590e-05    2.883374691e-06    0.000000000e+00    0.000000000e+00    0.000000000e+00    0.000000000e+00
      700250000   -1.450669616e-01    9.156166315e-01    5.511566997e-06   -3.448128700e-05    0.000000000e+00    0.000000000e+00    0.000000000e+00    0.000000000e+00
      707500000   -4.050729796e-02    9.120652080e-01   -1.879315823e-05    4.003755748e-06    0.000000000e+00    0.000000000e+00    0.000000000e+00    0.000000000e+00
      714750000    6.452628970e-02    8.983779550e-01   -1.408066601e-05    4.941597581e-06    0.000000000e+00    0.000000000e+00    0.000000000e+00    0.000000000e+00
      722000000    1.610745192e-01    8.745337725e-01    1.083500683e-05    2.702325583e-05    0.000000000e+00    0.000000000e+00    0.000000000e+00    0.000000000e+00
      729250000    2.589160204e-01    8.402298093e-01   -2.785585821e-05   -2.762582153e-05    0.000000000e+00    0.000000000e+00    0.000000000e+00    0.000000000e+00
      736500000    3.498892188e-01    7.968833447e-01   -1.172162592e-05    1.834705472e-07    0.000000000e+00    0.000000000e+00    0.000000000e+00    0.000000000e+00
      743750000    4.361783564e-01    7.450637221e-01    1.562573016e-05   -6.141141057e-06    0.000000000e+00    0.000000000e+00    0.000000000e+00    0.000000000e+00
      751000000    5.160235167e-01    6.845738888e-01   -1.629348844e-05    3.973022103e-06    0.000000000e+00    0.000000000e+00    0.000000000e+00    0.000000000e+00
      758250000    5.890099406e-01    6.172535419e-01   -1.159962267e-05    1.668930054e-06    0.000000000e+00    0.000000000e+00    0.000000000e+00    0.000000000e+00
      765500000    6.548805833e-01    5.436200500e-01   -4.079658538e-05   -7.501803339e-06    0.000000000e+00    0.000000000e+00    0.000000000e+00    0.000000000e+00
      772750000    7.131661177e-01    4.637363255e-01    1.994147897e-05   -1.111626625e-05    0.000000000e+00    0.000000000e+00    0.000000000e+00    0.000000000e+00
      780000000    7.626586556e-01    3.787138164e-01   -2.165511250e-05   -2.651009709e-05    0.000000000e+00    0.000000000e+00    0.000000000e+00    0.000000000e+00
      787250000    8.052523732e-01    2.870182097e-01    1.613423228e-05   -1.476518810e-05    0.000000000e+00    0.000000000e+00    0.000000000e+00    0.000000000e+00
      794500000    8.373315930e-01    1.932013780e-01   -3.072991967e-05   -1.508742571e-07    0.000000000e+00    0.000000000e+00    0.000000000e+00    0.000000000e+00
      801750000    8.605899215e-01    9.427419305e-02    1.438241452e-05   -6.088986993e-06    0.000000000e+00    0.000000000e+00    0.000000000e+00    0.000000000e+00
      809000000    8.739139438e-01   -6.640185602e-03    1.120381057e-05   -2.738088369e-05    0.000000000e+00    0.000000000e+00    0.000000000e+00    0.000000000e+00
      816250000    8.770183325e-01   -1.089320779e-01   -1.754891127e-05    4.190951586e-08    0.000000000e+00    0.000000000e+00    0.000000000e+00    0.000000000e+00
      823500000    8.684059381e-01   -2.127586752e-01   -1.491978765e-05   -7.609836757e-06    0.000000000e+00    0.000000000e+00    0.000000000e+00    0.000000000e+00
      830750000    8.483056426e-01   -3.165279329e-01    2.158991992e-05   -9.630806744e-06    0.000000000e+00    0.000000000e+00    0.000000000e+00    0.000000000e+00
      838000000    8.175593615e-01   -4.176647365e-01   -9.445473552e-06   -1.690536737e-05    0.000000000e+00    0.000000000e+00    0.000000000e+00    0.000000000e+00
      845250000    7.756557465e-01   -5.169372559e-01   -3.207474947e-05    1.043640077e-05    0.000000000e+00    0.000000000e+00    0.000000000e+00    0.000000000e+00
      852500000    7.202250361e-01   -6.130519509e-01   -9.025447071e-06   -9.006820619e-06    0.000000000e+00    0.000000000e+00    0.000000000e+00    0.000000000e+00
      859750000    6.548769474e-01   -7.016857862e-01    1.063756645e-05    3.250036389e-05    0.000000000e+00    0.000000000e+00    0.000000000e+00    0.000000000e+00
      867000000    5.758186579e-01   -7.853385210e-01    2.058036625e-05    2.424325794e-05    0.000000000e+00    0.000000000e+00    0.000000000e+00    0.000000000e+00
      874250000    4.874508083e-01   -8.584001064e-01   -5.970336497e-05   -4.207715392e-06    0.000000000e+00    0.000000000e+00    0.000000000e+00    0.000000000e+00
      881500000    3.888350725e-01   -9.217071533e-01    2.040527761e-06    3.319885582e-05    0.000000000e+00    0.000000000e+00    0.000000000e+00    0.000000000e+00
      888750000    2.838983238e-01   -9.709558487e-01   -3.349967301e-05   -2.412591130e-05    0.000000000e+00    0.000000000e+00    0.000000000e+00    0.000000000e+00
      896000000    1.688653380e-01   -1.007882237e+00    2.499110997e-05   -2.966262400e-06    0.000000000e+00    0.000000000e+00    0.000000000e+00    0.000000000e+00
      903250000    4.963369668e-02   -1.028947115e+00    1.985393465e-05    1.943856478e-05    0.000000000e+00    0.000000000e+00    0.000000000e+00    0.000000000e+00
      910500000   -7.282330096e-02   -1.034892201e+00    3.380421549e-05   -4.347413778e-06    0.000000000e+00    0.000000000e+00    0.000000000e+00    0.000000000e+00
      917750000   -1.926650107e-01   -1.023997307e+00    1.563224941e-05   -1.399312168e-05    0.000000000e+00    0.000000000e+00    0.000000000e+00    0.000000000e+00
      925000000   -3.120122850e-01   -9.959862232e-01   -8.052214980e-05   -2.129469067e-05    0.000000000e+00    0.000000000e+00    0.000000000e+00    0.000000000e+00
      932250000   -4.265114069e-01   -9.525262713e-01   -1.558382064e-05   -4.814378917e-05    0.000000000e+00    0.000000000e+00    0.000000000e+00    0.000000000e+00
      939500000   -5.323914289e-01   -8.941522241e-01    7.729977369e-08   -4.622153938e-06    0.000000000e+00    0.000000000e+00    0.000000000e+00    0.000000000e+00
      946750000   -6.283777952e-01   -8.219588995e-01    1.159776002e-05    1.259241253e-05    0.000000000e+00    0.000000000e+00    0.000000000e+00    0.000000000e+00
      954000000   -7.146689892e-01   -7.378841639e-01   -1.232232898e-05    1.866556704e-05    0.000000000e+00    0.000000000e+00    0.000000000e+00    0.000000000e+00
      961250000   -7.854772806e-01   -6.470147967e-01   -2.629123628e-05    2.387259156e-05    0.000000000e+00    0.000000000e+00    0.000000000e+00    0.000000000e+00
      968500000   -8.445497751e-01   -5.458559990e-01    1.876708120e-05   -1.076236367e-05    0.000000000e+00    0.000000000e+00    0.000000000e+00    0.000000000e+00
      975750000   -8.865891099e-01   -4.443134964e-01    8.302740753e-06   -2.422090620e-05    0.000000000e+00    0.000000000e+00    0.000000000e+00    0.000000000e+00
      983000000   -9.168744683e-01   -3.371346295e-01    1.863576472e-06    1.619942486e-05    0.000000000e+00    0.000000000e+00    0.000000000e+00    0.000000000e+00
      990250000   -9.326914549e-01   -2.292164713e-01   -1.838989556e-05   -1.541338861e-06    0.000000000e+00    0.000000000e+00    0.000000000e+00    0.000000000e+00
      997500000   -9.353339076e-01   -1.248887256e-01    8.652918041e-06   -4.620291293e-06    0.000000000e+00    0.000000000e+00    0.000000000e+00    0.000000000e+00
     1004750000   -9.254458547e-01   -2.208771743e-02    6.409361959e-06   -2.159737051e-05    0.000000000e+00    0.000000000e+00    0.000000000e+00    0.000000000e+00
     1012000000   -9.052458405e-01    7.580800354e-02   -1.083035022e-05   -4.831701517e-06    0.000000000e+00    0.000000000e+00    0.000000000e+00    0.000000000e+00
     1019250000   -8.738993406e-01    1.680223197e-01   -1.074559987e-05    4.853121936e-06    0.000000000e+00    0.000000000e+00    0.000000000e+00    0.000000000e+00
     1026500000   -8.341468573e-01    2.555712163e-01    8.923932910e-06   -3.452412784e-05    0.000000000e+00    0.000000000e+00    0.000000000e+00    0.000000000e+00
     1033750000   -7.872743607e-01    3.339549005e-01   -4.214793444e-05   -1.883041114e-05    0.000000000e+00    0.000000000e+00    0.000000000e+00    0.000000000e+00
     1041000000   -7.328264117e-01    4.060616791e-01   -2.204999328e-05   -4.287157208e-05    0.000000000e+00    0.000000000e+00    0.000000000e+00    0.000000000e+00
