! NanoVNA-App by OneOfEleven et al v1.1.209 (+OD15) 
! Date: 2024-07-30 15:20:40
! Start: 200MHz Stop: 6GHz Points: 801
! S-Parameter data: F S11 S21 S12 S22
# Hz S RI R 50
!     Frequency           S11_Real           S11_Imag           S21_Real           S21_Imag           S12_Real           S12_Imag           S22_Real           S22_Imag
      200000000   -9.988338947e-01   -1.091500372e-01   -1.127272844e-05   -1.349300146e-05    0.000000000e+00    0.000000000e+00    0.000000000e+00    0.000000000e+00
      207250000   -1.009590268e+00   -9.698048234e-03    7.666647434e-06    1.389905810e-05    0.000000000e+00    0.000000000e+00    0.000000000e+00    0.000000000e+00
      214500000   -1.009619832e+00    9.200286120e-02   -2.254731953e-06    4.014652222e-05    0.000000000e+00    0.000000000e+00    0.000000000e+00    0.000000000e+00
      221750000   -9.996882081e-01    1.952721328e-01   -5.630776286e-06   -4.553887993e-05    0.000000000e+00    0.000000000e+00    0.000000000e+00    0.000000000e+00
      229000000   -9.785159230e-01    2.983666956e-01   -3.126636147e-05   -2.391636372e-06    0.000000000e+00    0.000000000e+00    0.000000000e+00    0.000000000e+00
      236250000   -9.457764626e-01    4.006099105e-01    2.247467637e-05   -9.122304618e-06    0.000000000e+00    0.000000000e+00    0.000000000e+00    0.000000000e+00
      243500000   -9.004478455e-01    5.001258254e-01   -3.481283784e-06    1.148600131e-05    0.000000000e+00    0.000000000e+00    0.000000000e+00    0.000000000e+00
      250750000   -8.424683213e-01    5.967823267e-01   -6.639398634e-06   -2.218782902e-05    0.000000000e+00    0.000000000e+00    0.000000000e+00    0.000000000e+00
      258000000   -7.731400728e-01    6.867718697e-01    2.287421376e-05   -3.090966493e-05    0.000000000e+00    0.000000000e+00    0.000000000e+00    0.000000000e+00
      265250000   -6.916095614e-01    7.699939013e-01   -1.138076186e-06    3.898516297e-06    0.000000000e+00    0.000000000e+00    0.000000000e+00    0.000000000e+00
      272500000   -6.003456116e-01    8.438888788e-01   -2.326536924e-05    1.549720764e-05    0.000000000e+00    0.000000000e+00    0.000000000e+00    0.000000000e+00
      279750000   -4.977390766e-01    9.069586396e-01   -1.387763768e-05   -4.959106445e-05    0.000000000e+00    0.000000000e+00    0.000000000e+00    0.000000000e+00
      287000000   -3.862490356e-01    9.571490884e-01    3.089196980e-06   -2.822093666e-05    0.000000000e+00    0.000000000e+00    0.000000000e+00    0.000000000e+00
      294250000   -2.686032653e-01    9.932283163e-01   -3.296043724e-05   -3.758817911e-06    0.000000000e+00    0.000000000e+00    0.000000000e+00    0.000000000e+00
      301500000   -1.455523521e-01    1.014546990e+00   -8.730217814e-06    1.553632319e-05    0.000000000e+00    0.000000000e+00    0.000000000e+00    0.000000000e+00
      308750000   -2.028533816e-02    1.019478202e+00    1.816451550e-05   -3.430806100e-05    0.000000000e+00    0.000000000e+00    0.000000000e+00    0.000000000e+00
      316000000    1.061565503e-01    1.009514332e+00    1.468602568e-05   -1.287087798e-05    0.000000000e+00    0.000000000e+00    0.000000000e+00    0.000000000e+00
      323250000    2.301350981e-01    9.812776446e-01   -1.784507185e-05   -3.693811595e-05    0.000000000e+00    0.000000000e+00    0.000000000e+00    0.000000000e+00
      330500000    3.498727977e-01    9.384876490e-01    1.778081059e-05    1.996662468e-05    0.000000000e+00    0.000000000e+00    0.000000000e+00    0.000000000e+00
      337750000    4.620194435e-01    8.810779452e-01   -1.628790051e-05    9.890645742e-06    0.000000000e+00    0.000000000e+00    0.000000000e+00    0.000000000e+00
      345000000    5.659536123e-01    8.086446524e-01   -3.016088158e-05    1.951586455e-05    0.000000000e+00    0.000000000e+00    0.000000000e+00    0.000000000e+00
      352250000    6.591483355e-01    7.246141434e-01    9.517185390e-06    8.396804333e-06    0.000000000e+00    0.000000000e+00    0.000000000e+00    0.000000000e+00
      359500000    7.403752804e-01    6.311174631e-01    4.879757762e-05   -6.270594895e-06    0.000000000e+00    0.000000000e+00    0.000000000e+00    0.000000000e+00
      366750000    8.094707727e-01    5.284859538e-01    7.404014468e-07   -9.521842003e-06    0.000000000e+00    0.000000000e+00    0.000000000e+00    0.000000000e+00
      374000000    8.648775816e-01    4.203251898e-01    1.824926585e-05    5.514360964e-06    0.000000000e+00    0.000000000e+00    0.000000000e+00    0.000000000e+00
      381250000    9.065573215e-01    3.059160709e-01   -2.555549145e-05   -5.304720253e-05    0.000000000e+00    0.000000000e+00    0.000000000e+00    0.000000000e+00
      388500000    9.330589771e-01    1.898408830e-01    1.093000174e-05    4.000961781e-06    0.000000000e+00    0.000000000e+00    0.000000000e+00    0.000000000e+00
      395750000    9.473575950e-01    7.324155420e-02   -2.882163972e-05   -6.545800716e-05    0.000000000e+00    0.000000000e+00    0.000000000e+00    0.000000000e+00
      403000000    9.478767514e-01   -4.343505204e-02   -3.226101398e-06   -6.361864507e-06    0.000000000e+00    0.000000000e+00    0.000000000e+00    0.000000000e+00
      410250000    9.355471730e-01   -1.581962258e-01    1.825857908e-05   -2.157222480e-05    0.000000000e+00    0.000000000e+00    0.000000000e+00    0.000000000e+00
      417500000    9.109517932e-01   -2.695172131e-01   -5.504116416e-07   -2.338923514e-05    0.000000000e+00    0.000000000e+00    0.000000000e+00    0.000000000e+00
      424750000    8.749153018e-01   -3.766097426e-01   -3.205239773e-05    3.134366125e-05    0.000000000e+00    0.000000000e+00    0.000000000e+00    0.000000000e+00
      432000000    8.286538720e-01   -4.778658450e-01    3.991648555e-06   -5.735084414e-06    0.000000000e+00    0.000000000e+00    0.000000000e+00    0.000000000e+00
      439250000    7.711113095e-01   -5.731393695e-01   -2.457015216e-05   -1.836288720e-05    0.000000000e+00    0.000000000e+00    0.000000000e+00    0.000000000e+00
      446500000    7.053962946e-01   -6.602135301e-01   -6.621703506e-06   -2.576783299e-05    0.000000000e+00    0.000000000e+00    0.000000000e+00    0.000000000e+00
      453750000    6.299772859e-01   -7.414693236e-01    2.782884985e-05   -2.160668373e-06    0.000000000e+00    0.000000000e+00    0.000000000e+00    0.000000000e+00
      461000000    5.483230352e-01   -8.131184578e-01   -2.719275653e-05    6.420537829e-06    0.000000000e+00    0.000000000e+00    0.000000000e+00    0.000000000e+00
      468250000    4.593213797e-01   -8.758342862e-01   -1.500360668e-06    3.653764725e-05    0.000000000e+00    0.000000000e+00    0.000000000e+00    0.000000000e+00
      475500000    3.633659184e-01   -9.288111329e-01   -8.266419172e-06   -1.304410398e-05    0.000000000e+00    0.000000000e+00    0.000000000e+00    0.000000000e+00
      482750000    2.641776502e-01   -9.719374180e-01    1.972913742e-05   -1.519266516e-05    0.000000000e+00    0.000000000e+00    0.000000000e+00    0.000000000e+00
      490000000    1.601261348e-01   -1.004475951e+00    4.437752068e-06    3.095809370e-05    0.000000000e+00    0.000000000e+00    0.000000000e+00    0.000000000e+00
      497250000    5.314446986e-02   -1.025685191e+00   -3.436580300e-05   -2.515502274e-06    0.000000000e+00    0.000000000e+00    0.000000000e+00    0.000000000e+00
      504500000   -5.620285496e-02   -1.035204291e+00    3.187544644e-05   -2.495758235e-05    0.000000000e+00    0.000000000e+00    0.000000000e+00    0.000000000e+00
      511750000   -1.672286242e-01   -1.033640623e+00   -1.582223922e-05    1.687277108e-05    0.000000000e+00    0.000000000e+00    0.000000000e+00    0.000000000e+00
      519000000   -2.778232694e-01   -1.020189047e+00   -3.659445792e-05   -2.630241215e-05    0.000000000e+00    0.000000000e+00    0.000000000e+00    0.000000000e+00
      526250000   -3.869783282e-01   -9.936788082e-01    1.727323979e-05   -2.144742757e-05    0.000000000e+00    0.000000000e+00    0.000000000e+00    0.000000000e+00
      533500000   -4.932490587e-01   -9.553893805e-01   -2.066884190e-05    9.163282812e-06    0.000000000e+00    0.000000000e+00    0.000000000e+00    0.000000000e+00
      540750000   -5.951448679e-01   -9.048383832e-01   -4.547648132e-06   -4.698708653e-05    0.000000000e+00    0.000000000e+00    0.000000000e+00    0.000000000e+00
      548000000   -6.919422150e-01   -8.430097103e-01    2.129189670e-05    2.351589501e-06    0.000000000e+00    0.000000000e+00    0.000000000e+00    0.000000000e+00
      555250000   -7.805318236e-01   -7.689382434e-01    7.773749530e-06   -6.812624633e-06    0.000000000e+00    0.000000000e+00    0.000000000e+00    0.000000000e+00
      562500000   -8.613009453e-01   -6.846721172e-01   -4.349276423e-05    3.734603524e-06    0.000000000e+00    0.000000000e+00    0.000000000e+00    0.000000000e+00
      569750000   -9.311504364e-01   -5.907304883e-01   -3.227032721e-05    4.252418876e-06    0.000000000e+00    0.000000000e+00    0.000000000e+00    0.000000000e+00
      577000000   -9.907034039e-01   -4.885269105e-01    9.066425264e-06    1.638289541e-05    0.000000000e+00    0.000000000e+00    0.000000000e+00    0.000000000e+00
      584250000   -1.036325693e+00   -3.800458014e-01   -7.536262274e-06    2.038944513e-05    0.000000000e+00    0.000000000e+00    0.000000000e+00    0.000000000e+00
      591500000   -1.069885135e+00   -2.653969824e-01   -9.816139936e-06    2.930685878e-05    0.000000000e+00    0.000000000e+00    0.000000000e+00    0.000000000e+00
      598750000   -1.088721275e+00   -1.478801966e-01   -4.204921424e-06    1.265667379e-05    0.000000000e+00    0.000000000e+00    0.000000000e+00    0.000000000e+00
      606000000   -1.092578530e+00   -2.900278382e-02    3.262516111e-05   -2.205837518e-05    0.000000000e+00    0.000000000e+00    0.000000000e+00    0.000000000e+00
      613250000   -1.082594991e+00    8.986195922e-02    1.230929047e-05   -1.939013600e-05    0.000000000e+00    0.000000000e+00    0.000000000e+00    0.000000000e+00
      620500000   -1.057753801e+00    2.048783749e-01   -3.019347787e-06   -3.179535270e-06    0.000000000e+00    0.000000000e+00    0.000000000e+00    0.000000000e+00
      627750000   -1.019441605e+00    3.174791336e-01   -9.525567293e-06    2.027489245e-05    0.000000000e+00    0.000000000e+00    0.000000000e+00    0.000000000e+00
      635000000   -9.695357680e-01    4.217098057e-01    9.101815522e-06    3.571156412e-05    0.000000000e+00    0.000000000e+00    0.000000000e+00    0.000000000e+00
      642250000   -9.057896733e-01    5.197231174e-01   -1.925975084e-06   -4.509370774e-05    0.000000000e+00    0.000000000e+00    0.000000000e+00    0.000000000e+00
      649500000   -8.320615888e-01    6.080803275e-01   -2.269912511e-05    3.376137465e-05    0.000000000e+00    0.000000000e+00    0.000000000e+00    0.000000000e+00
      656750000   -7.490913868e-01    6.865538359e-01   -9.026378393e-06    1.267809421e-05    0.000000000e+00    0.000000000e+00    0.000000000e+00    0.000000000e+00
      664000000   -6.595049500e-01    7.547934055e-01    9.961426258e-06   -5.008373410e-05    0.000000000e+00    0.000000000e+00    0.000000000e+00    0.000000000e+00
      671250000   -5.624830723e-01    8.097010851e-01   -1.743435860e-06   -6.163492799e-05    0.000000000e+00    0.000000000e+00    0.000000000e+00    0.000000000e+00
      678500000   -4.621464014e-01    8.544718623e-01    1.009460539e-05   -1.355540007e-05    0.000000000e+00    0.000000000e+00    0.000000000e+00    0.000000000e+00
      685750000   -3.587730527e-01    8.861995339e-01    9.500421584e-06    5.211681128e-06    0.000000000e+00    0.000000000e+00    0.000000000e+00    0.000000000e+00
      693000000   -2.527986169e-01    9.067894220e-01   -4.633516073e-05   -1.514796168e-05    0.000000000e+00    0.000000000e+00    0.000000000e+00    0.000000000e+00
      700250000   -1.469176710e-01    9.155411124e-01   -8.116476238e-06    5.397014320e-06    0.000000000e+00    0.000000000e+00    0.000000000e+00    0.000000000e+00
      707500000   -4.058877006e-02    9.121466279e-01    4.168227315e-05    5.303230137e-05    0.000000000e+00    0.000000000e+00    0.000000000e+00    0.000000000e+00
      714750000    6.236911938e-02    8.984316587e-01    3.483705223e-05    1.556146890e-05    0.000000000e+00    0.000000000e+00    0.000000000e+00    0.000000000e+00
      722000000    1.627649665e-01    8.744444847e-01   -6.728805602e-06   -2.844072878e-05    0.000000000e+00    0.000000000e+00    0.000000000e+00    0.000000000e+00
      729250000    2.582925856e-01    8.402691483e-01   -2.919510007e-05    2.348795533e-06    0.000000000e+00    0.000000000e+00    0.000000000e+00    0.000000000e+00
      736500000    3.504670858e-01    7.967604399e-01   -1.031812280e-05    2.657063305e-06    0.000000000e+00    0.000000000e+00    0.000000000e+00    0.000000000e+00
      743750000    4.356870949e-01    7.451345325e-01    1.184083521e-05   -3.247521818e-06    0.000000000e+00    0.000000000e+00    0.000000000e+00    0.000000000e+00
      751000000    5.155819058e-01    6.848516464e-01   -7.096678019e-06   -5.038455129e-07    0.000000000e+00    0.000000000e+00    0.000000000e+00    0.000000000e+00
      758250000    5.890732408e-01    6.176313162e-01    4.959292710e-06    2.353824675e-05    0.000000000e+00    0.000000000e+00    0.000000000e+00    0.000000000e+00
      765500000    6.542907953e-01    5.437176824e-01    7.794238627e-06    2.856552601e-05    0.000000000e+00    0.000000000e+00    0.000000000e+00    0.000000000e+00
      772750000    7.135181427e-01    4.627768695e-01   -1.825857908e-05   -4.184711725e-05    0.000000000e+00    0.000000000e+00    0.000000000e+00    0.000000000e+00
      780000000    7.618302107e-01    3.785648346e-01   -3.721565008e-05    3.086403012e-06    0.000000000e+00    0.000000000e+00    0.000000000e+00    0.000000000e+00
      787250000    8.054900765e-01    2.865915895e-01    1.539755613e-05   -8.500181139e-06    0.000000000e+00    0.000000000e+00    0.000000000e+00    0.000000000e+00
      794500000    8.378514647e-01    1.930047572e-01   -2.829264849e-05   -1.303851604e-06    0.000000000e+00    0.000000000e+00    0.000000000e+00    0.000000000e+00
      801750000    8.606291413e-01    9.443130344e-02    1.100264490e-05    1.081265509e-05    0.000000000e+00    0.000000000e+00    0.000000000e+00    0.000000000e+00
      809000000    8.738577366e-01   -6.372461095e-03    3.523007035e-05    1.941341907e-05    0.000000000e+00    0.000000000e+00    0.000000000e+00    0.000000000e+00
      816250000    8.766869903e-01   -1.078369170e-01   -3.250036389e-05   -5.806796253e-06    0.000000000e+00    0.000000000e+00    0.000000000e+00    0.000000000e+00
      823500000    8.680297732e-01   -2.138066739e-01    2.536270767e-05    2.457760274e-06    0.000000000e+00    0.000000000e+00    0.000000000e+00    0.000000000e+00
      830750000    8.485950828e-01   -3.164892197e-01   -6.078742445e-06    7.336027920e-06    0.000000000e+00    0.000000000e+00    0.000000000e+00    0.000000000e+00
      838000000    8.173174262e-01   -4.187293649e-01   -4.841294140e-05    4.550162703e-05    0.000000000e+00    0.000000000e+00    0.000000000e+00    0.000000000e+00
      845250000    7.748570442e-01   -5.168331861e-01    2.236291766e-05   -4.971399903e-06    0.000000000e+00    0.000000000e+00    0.000000000e+00    0.000000000e+00
      852500000    7.206178308e-01   -6.125572324e-01   -2.027023584e-05    2.539716661e-05    0.000000000e+00    0.000000000e+00    0.000000000e+00    0.000000000e+00
      859750000    6.555600166e-01   -7.015209198e-01   -2.025626600e-05   -2.698786557e-05    0.000000000e+00    0.000000000e+00    0.000000000e+00    0.000000000e+00
      867000000    5.753299594e-01   -7.849914432e-01    1.997128129e-05   -9.937211871e-07    0.000000000e+00    0.000000000e+00    0.000000000e+00    0.000000000e+00
      874250000    4.881635308e-01   -8.585379124e-01   -4.466529936e-05   -1.119170338e-05    0.000000000e+00    0.000000000e+00    0.000000000e+00    0.000000000e+00
      881500000    3.881355524e-01   -9.218502045e-01    3.767292947e-05   -1.716054976e-05    0.000000000e+00    0.000000000e+00    0.000000000e+00    0.000000000e+00
      888750000    2.838988900e-01   -9.707884789e-01   -4.103407264e-06    2.240668982e-05    0.000000000e+00    0.000000000e+00    0.000000000e+00    0.000000000e+00
      896000000    1.685858220e-01   -1.007738590e+00   -2.729147673e-05   -1.903623343e-06    0.000000000e+00    0.000000000e+00    0.000000000e+00    0.000000000e+00
      903250000    4.986268282e-02   -1.029796004e+00    1.074839383e-05   -3.924779594e-05    0.000000000e+00    0.000000000e+00    0.000000000e+00    0.000000000e+00
      910500000   -7.170382142e-02   -1.034696817e+00    2.961233258e-05    2.207234502e-07    0.000000000e+00    0.000000000e+00    0.000000000e+00    0.000000000e+00
      917750000   -1.927923411e-01   -1.023846984e+00   -5.096662790e-05    2.526864409e-05    0.000000000e+00    0.000000000e+00    0.000000000e+00    0.000000000e+00
      925000000   -3.130223155e-01   -9.957262278e-01   -4.914216697e-05    2.445466816e-05    0.000000000e+00    0.000000000e+00    0.000000000e+00    0.000000000e+00
      932250000   -4.265048802e-01   -9.519742727e-01   -1.535750926e-06   -3.742054105e-05    0.000000000e+00    0.000000000e+00    0.000000000e+00    0.000000000e+00
      939500000   -5.327512622e-01   -8.940958381e-01    1.313071698e-05   -1.578312367e-05    0.000000000e+00    0.000000000e+00    0.000000000e+00    0.000000000e+00
      946750000   -6.287060976e-01   -8.224555254e-01   -1.334305853e-05   -6.264541298e-05    0.000000000e+00    0.000000000e+00    0.000000000e+00    0.000000000e+00
      954000000   -7.142968774e-01   -7.384064198e-01    2.946704626e-06    2.215523273e-05    0.000000000e+00    0.000000000e+00    0.000000000e+00    0.000000000e+00
      961250000   -7.855499983e-01   -6.465765834e-01    3.424473107e-06   -1.395773143e-05    0.000000000e+00    0.000000000e+00    0.000000000e+00    0.000000000e+00
      968500000   -8.436353207e-01   -5.473839045e-01    7.352791727e-06    2.931244671e-05    0.000000000e+00    0.000000000e+00    0.000000000e+00    0.000000000e+00
      975750000   -8.873685598e-01   -4.426710606e-01   -4.200264812e-07    2.883374691e-06    0.000000000e+00    0.000000000e+00    0.000000000e+00    0.000000000e+00
      983000000   -9.175004959e-01   -3.363859355e-01   -1.642014831e-05   -2.366490662e-06    0.000000000e+00    0.000000000e+00    0.000000000e+00    0.000000000e+00
      990250000   -9.331277013e-01   -2.294645607e-01   -8.337199688e-06    1.937057823e-05    0.000000000e+00    0.000000000e+00    0.000000000e+00    0.000000000e+00
      997500000   -9.351921082e-01   -1.241771504e-01    7.483176887e-06    3.778561950e-05    0.000000000e+00    0.000000000e+00    0.000000000e+00    0.000000000e+00
     1004750000   -9.257946610e-01   -2.222857438e-02    4.790630192e-05    1.523178071e-05    0.000000000e+00    0.000000000e+00    0.000000000e+00    0.000000000e+00
     1012000000   -9.046792984e-01    7.572530210e-02   -9.473413229e-06    3.302097321e-05    0.000000000e+00    0.000000000e+00    0.000000000e+00    0.000000000e+00
     1019250000   -8.738051653e-01    1.677061170e-01   -1.371838152e-06    1.356843859e-05    0.000000000e+00    0.000000000e+00    0.000000000e+00    0.000000000e+00
     1026500000   -8.347696066e-01    2.540304661e-01    1.064501703e-05    1.786276698e-06    0.000000000e+00    0.000000000e+00    0.000000000e+00    0.000000000e+00
     1033750000   -7.868532538e-01    3.343953788e-01    1.946184784e-05   -2.624373883e-05    0.000000000e+00    0.000000000e+00    0.000000000e+00    0.000000000e+00
     1041000000   -7.333437204e-01    4.055366218e-01    9.347684681e-06   -3.178324550e-05    0.000000000e+00    0.000000000e+00    0.000000000e+00    0.000000000e+00
