! NanoVNA-App by OneOfEleven et al v1.1.209 (+OD15) 
! Date: 2024-07-30 15:20:43
! Start: 200MHz Stop: 6GHz Points: 801
! S-Parameter data: F S11 S21 S12 S22
# Hz S RI R 50
!     Frequency           S11_Real           S11_Imag           S21_Real           S21_Imag           S12_Real           S12_Imag           S22_Real           S22_Imag
      200000000   -9.991117120e-01   -1.090272292e-01    1.117866486e-05    2.512708306e-06    0.000000000e+00    0.000000000e+00    0.000000000e+00    0.000000000e+00
      207250000   -1.009101868e+00   -9.314646013e-03   -5.815178156e-06   -2.173706889e-05    0.000000000e+00    0.000000000e+00    0.000000000e+00    0.000000000e+00
      214500000   -1.010287285e+00    9.164308757e-02   -1.410488039e-05   -9.106472135e-06    0.000000000e+00    0.000000000e+00    0.000000000e+00    0.000000000e+00
      221750000   -9.996980429e-01    1.949622929e-01   -1.770909876e-05   -1.964904368e-05    0.000000000e+00    0.000000000e+00    0.000000000e+00    0.000000000e+00
      229000000   -9.789874554e-01    2.981250882e-01    2.868287265e-05    1.238938421e-05    0.000000000e+00    0.000000000e+00    0.000000000e+00    0.000000000e+00
      236250000   -9.453773499e-01    4.008925259e-01    1.474469900e-05   -3.238581121e-05    0.000000000e+00    0.000000000e+00    0.000000000e+00    0.000000000e+00
      243500000   -9.006636739e-01    5.006708503e-01    1.500174403e-05   -1.571327448e-05    0.000000000e+00    0.000000000e+00    0.000000000e+00    0.000000000e+00
      250750000   -8.425516486e-01    5.968523026e-01   -4.188157618e-06   -6.874091923e-06    0.000000000e+00    0.000000000e+00    0.000000000e+00    0.000000000e+00
      258000000   -7.731553316e-01    6.869580150e-01   -2.491474152e-05   -3.563798964e-05    0.000000000e+00    0.000000000e+00    0.000000000e+00    0.000000000e+00
      265250000   -6.916975975e-01    7.695491910e-01   -6.059184670e-06    1.251976937e-05    0.000000000e+00    0.000000000e+00    0.000000000e+00    0.000000000e+00
      272500000   -5.999897122e-01    8.441547155e-01    2.667773515e-05    1.547858119e-06    0.000000000e+00    0.000000000e+00    0.000000000e+00    0.000000000e+00
      279750000   -4.983699024e-01    9.070476890e-01   -1.215469092e-05    2.936739475e-05    0.000000000e+00    0.000000000e+00    0.000000000e+00    0.000000000e+00
      287000000   -3.857598305e-01    9.569818974e-01   -1.690536737e-05   -9.567476809e-06    0.000000000e+00    0.000000000e+00    0.000000000e+00    0.000000000e+00
      294250000   -2.691984177e-01    9.934242964e-01    1.529604197e-05   -4.488974810e-06    0.000000000e+00    0.000000000e+00    0.000000000e+00    0.000000000e+00
      301500000   -1.458628029e-01    1.014974117e+00    3.112480044e-05    6.279069930e-05    0.000000000e+00    0.000000000e+00    0.000000000e+00    0.000000000e+00
      308750000   -1.912375353e-02    1.019436479e+00    2.543441951e-06   -2.282764763e-05    0.000000000e+00    0.000000000e+00    0.000000000e+00    0.000000000e+00
      316000000    1.060522348e-01    1.009011984e+00    1.569744200e-05   -2.349354327e-05    0.000000000e+00    0.000000000e+00    0.000000000e+00    0.000000000e+00
      323250000    2.304121107e-01    9.813297391e-01    9.030103683e-06    1.811422408e-05    0.000000000e+00    0.000000000e+00    0.000000000e+00    0.000000000e+00
      330500000    3.496741056e-01    9.385216832e-01    5.619600415e-06   -1.059472561e-05    0.000000000e+00    0.000000000e+00    0.000000000e+00    0.000000000e+00
      337750000    4.617515802e-01    8.800942898e-01   -1.638196409e-05   -1.959130168e-05    0.000000000e+00    0.000000000e+00    0.000000000e+00    0.000000000e+00
      345000000    5.658869147e-01    8.084200025e-01    2.849288285e-05   -1.208856702e-05    0.000000000e+00    0.000000000e+00    0.000000000e+00    0.000000000e+00
      352250000    6.591969132e-01    7.250967622e-01   -3.745779395e-06   -3.322958946e-06    0.000000000e+00    0.000000000e+00    0.000000000e+00    0.000000000e+00
      359500000    7.406423688e-01    6.307533383e-01    3.087613732e-05   -4.084780812e-06    0.000000000e+00    0.000000000e+00    0.000000000e+00    0.000000000e+00
      366750000    8.092488647e-01    5.287289619e-01   -1.225899905e-05    4.172325134e-07    0.000000000e+00    0.000000000e+00    0.000000000e+00    0.000000000e+00
      374000000    8.646267653e-01    4.203002453e-01    9.471550584e-07   -3.579538316e-05    0.000000000e+00    0.000000000e+00    0.000000000e+00    0.000000000e+00
      381250000    9.059371352e-01    3.053046465e-01    7.764436305e-06   -2.611428499e-05    0.000000000e+00    0.000000000e+00    0.000000000e+00    0.000000000e+00
      388500000    9.336339235e-01    1.900817752e-01    2.665258944e-05   -2.344045788e-05    0.000000000e+00    0.000000000e+00    0.000000000e+00    0.000000000e+00
      395750000    9.472557902e-01    7.270742208e-02   -1.235306263e-05   -6.110407412e-06    0.000000000e+00    0.000000000e+00    0.000000000e+00    0.000000000e+00
      403000000    9.477133751e-01   -4.335013404e-02    4.516914487e-07    9.233132005e-06    0.000000000e+00    0.000000000e+00    0.000000000e+00    0.000000000e+00
      410250000    9.356023669e-01   -1.578634828e-01    1.372862607e-05    2.655293792e-05    0.000000000e+00    0.000000000e+00    0.000000000e+00    0.000000000e+00
      417500000    9.110159278e-01   -2.693233192e-01   -1.591164619e-05   -1.194328070e-05    0.000000000e+00    0.000000000e+00    0.000000000e+00    0.000000000e+00
      424750000    8.744980693e-01   -3.767961562e-01    4.460103810e-06   -4.675239325e-06    0.000000000e+00    0.000000000e+00    0.000000000e+00    0.000000000e+00
      432000000    8.278754950e-01   -4.776467383e-01    5.960837007e-05    6.738118827e-06    0.000000000e+00    0.000000000e+00    0.000000000e+00    0.000000000e+00
      439250000    7.714561820e-01   -5.732444525e-01    3.122724593e-06   -9.017065167e-06    0.000000000e+00    0.000000000e+00    0.000000000e+00    0.000000000e+00
      446500000    7.055501938e-01   -6.605481505e-01    2.783257514e-05   -8.238479495e-06    0.000000000e+00    0.000000000e+00    0.000000000e+00    0.000000000e+00
      453750000    6.301502585e-01   -7.409218550e-01    1.543853432e-05    2.818182111e-06    0.000000000e+00    0.000000000e+00    0.000000000e+00    0.000000000e+00
      461000000    5.482838750e-01   -8.133158088e-01    1.198519021e-05    4.367902875e-07    0.000000000e+00    0.000000000e+00    0.000000000e+00    0.000000000e+00
      468250000    4.598169327e-01   -8.754430413e-01    2.114940435e-05    1.388043165e-05    0.000000000e+00    0.000000000e+00    0.000000000e+00    0.000000000e+00
      475500000    3.642338812e-01   -9.287522435e-01    4.437752068e-06    3.810506314e-05    0.000000000e+00    0.000000000e+00    0.000000000e+00    0.000000000e+00
      482750000    2.648951709e-01   -9.719455838e-01   -3.512948751e-05   -2.768263221e-05    0.000000000e+00    0.000000000e+00    0.000000000e+00    0.000000000e+00
      490000000    1.605639756e-01   -1.004312992e+00   -1.615099609e-05   -2.092868090e-05    0.000000000e+00    0.000000000e+00    0.000000000e+00    0.000000000e+00
      497250000    5.240323395e-02   -1.025262356e+00    1.349952072e-05    1.742690802e-05    0.000000000e+00    0.000000000e+00    0.000000000e+00    0.000000000e+00
      504500000   -5.710498989e-02   -1.035611868e+00    2.544373274e-06    6.183981895e-07    0.000000000e+00    0.000000000e+00    0.000000000e+00    0.000000000e+00
      511750000   -1.672189683e-01   -1.033892393e+00   -3.513880074e-06   -1.511629671e-05    0.000000000e+00    0.000000000e+00    0.000000000e+00    0.000000000e+00
      519000000   -2.785263360e-01   -1.019650221e+00    7.431954145e-07    2.883374691e-06    0.000000000e+00    0.000000000e+00    0.000000000e+00    0.000000000e+00
      526250000   -3.868331611e-01   -9.939945340e-01    2.456828952e-06   -2.418644726e-05    0.000000000e+00    0.000000000e+00    0.000000000e+00    0.000000000e+00
      533500000   -4.930669665e-01   -9.552507997e-01    7.241033018e-06    2.873782068e-05    0.000000000e+00    0.000000000e+00    0.000000000e+00    0.000000000e+00
      540750000   -5.954304338e-01   -9.044812918e-01    3.628153354e-05   -2.315081656e-05    0.000000000e+00    0.000000000e+00    0.000000000e+00    0.000000000e+00
      548000000   -6.920359135e-01   -8.419741392e-01   -2.123508602e-05    1.670978963e-05    0.000000000e+00    0.000000000e+00    0.000000000e+00    0.000000000e+00
      555250000   -7.807255983e-01   -7.682514191e-01   -1.248996705e-05   -1.407787204e-05    0.000000000e+00    0.000000000e+00    0.000000000e+00    0.000000000e+00
      562500000   -8.611274362e-01   -6.846644878e-01    4.004687071e-08    5.101785064e-06    0.000000000e+00    0.000000000e+00    0.000000000e+00    0.000000000e+00
      569750000   -9.313289523e-01   -5.904946327e-01   -1.830607653e-05    1.212302595e-05    0.000000000e+00    0.000000000e+00    0.000000000e+00    0.000000000e+00
      577000000   -9.898825288e-01   -4.888412356e-01   -4.656519741e-05   -6.547197700e-07    0.000000000e+00    0.000000000e+00    0.000000000e+00    0.000000000e+00
      584250000   -1.036167741e+00   -3.791459799e-01    2.628285438e-05   -3.045424819e-07    0.000000000e+00    0.000000000e+00    0.000000000e+00    0.000000000e+00
      591500000   -1.069558024e+00   -2.661313713e-01    2.842489630e-05   -2.336688340e-05    0.000000000e+00    0.000000000e+00    0.000000000e+00    0.000000000e+00
      598750000   -1.088117480e+00   -1.465763003e-01   -6.088055670e-06   -2.080667764e-05    0.000000000e+00    0.000000000e+00    0.000000000e+00    0.000000000e+00
      606000000   -1.092839479e+00   -2.862313017e-02    1.009553671e-05    1.062918454e-05    0.000000000e+00    0.000000000e+00    0.000000000e+00    0.000000000e+00
      613250000   -1.082567811e+00    8.953694254e-02    1.189205796e-05    5.826354027e-06    0.000000000e+00    0.000000000e+00    0.000000000e+00    0.000000000e+00
      620500000   -1.057797432e+00    2.044277042e-01   -1.243874431e-05   -1.846998930e-05    0.000000000e+00    0.000000000e+00    0.000000000e+00    0.000000000e+00
      627750000   -1.019186854e+00    3.178640306e-01   -2.775061876e-05    4.287809134e-06    0.000000000e+00    0.000000000e+00    0.000000000e+00    0.000000000e+00
      635000000   -9.695702791e-01    4.213897586e-01   -3.618746996e-05    2.773478627e-06    0.000000000e+00    0.000000000e+00    0.000000000e+00    0.000000000e+00
      642250000   -9.052845836e-01    5.202699304e-01   -1.050066203e-05   -2.273730934e-05    0.000000000e+00    0.000000000e+00    0.000000000e+00    0.000000000e+00
      649500000   -8.327480555e-01    6.078221202e-01    1.205690205e-05    5.569308996e-06    0.000000000e+00    0.000000000e+00    0.000000000e+00    0.000000000e+00
      656750000   -7.501668930e-01    6.861389875e-01    1.921132207e-05    1.301802695e-05    0.000000000e+00    0.000000000e+00    0.000000000e+00    0.000000000e+00
      664000000   -6.587898731e-01    7.538476586e-01   -4.131067544e-05    1.143477857e-05    0.000000000e+00    0.000000000e+00    0.000000000e+00    0.000000000e+00
      671250000   -5.633662343e-01    8.103742003e-01   -3.334879875e-05    2.841465175e-05    0.000000000e+00    0.000000000e+00    0.000000000e+00    0.000000000e+00
      678500000   -4.612776339e-01    8.542234302e-01   -1.454260200e-05   -1.565739512e-05    0.000000000e+00    0.000000000e+00    0.000000000e+00    0.000000000e+00
      685750000   -3.579540253e-01    8.865388632e-01   -2.048909664e-07   -9.187497199e-06    0.000000000e+00    0.000000000e+00    0.000000000e+00    0.000000000e+00
      693000000   -2.522290647e-01    9.066252708e-01   -5.481299013e-05   -2.149026841e-05    0.000000000e+00    0.000000000e+00    0.000000000e+00    0.000000000e+00
      700250000   -1.466954052e-01    9.154544473e-01   -2.393499017e-07   -9.229406714e-07    0.000000000e+00    0.000000000e+00    0.000000000e+00    0.000000000e+00
      707500000   -4.014543071e-02    9.118015766e-01   -3.256835043e-05   -2.671871334e-05    0.000000000e+00    0.000000000e+00    0.000000000e+00    0.000000000e+00
      714750000    6.260205060e-02    8.989247084e-01    2.190563828e-05    3.571342677e-05    0.000000000e+00    0.000000000e+00    0.000000000e+00    0.000000000e+00
      722000000    1.619825363e-01    8.747054935e-01    4.979781806e-06   -7.673166692e-06    0.000000000e+00    0.000000000e+00    0.000000000e+00    0.000000000e+00
      729250000    2.588682175e-01    8.400110602e-01    1.386832446e-05   -1.101102680e-05    0.000000000e+00    0.000000000e+00    0.000000000e+00    0.000000000e+00
      736500000    3.499591351e-01    7.964530587e-01   -6.218440831e-06   -5.424488336e-05    0.000000000e+00    0.000000000e+00    0.000000000e+00    0.000000000e+00
      743750000    4.357197881e-01    7.448797226e-01    1.511164010e-05    6.323680282e-07    0.000000000e+00    0.000000000e+00    0.000000000e+00    0.000000000e+00
      751000000    5.159732103e-01    6.840611696e-01   -3.121793270e-05    2.521928400e-05    0.000000000e+00    0.000000000e+00    0.000000000e+00    0.000000000e+00
      758250000    5.889875889e-01    6.176910400e-01    2.270750701e-05   -3.956258297e-06    0.000000000e+00    0.000000000e+00    0.000000000e+00    0.000000000e+00
      765500000    6.548209786e-01    5.428668261e-01   -1.459009945e-05   -4.934240133e-05    0.000000000e+00    0.000000000e+00    0.000000000e+00    0.000000000e+00
      772750000    7.133738995e-01    4.634240568e-01   -2.044159919e-05   -4.148576409e-05    0.000000000e+00    0.000000000e+00    0.000000000e+00    0.000000000e+00
      780000000    7.626399398e-01    3.792403042e-01   -1.891329885e-05    2.477318048e-07    0.000000000e+00    0.000000000e+00    0.000000000e+00    0.000000000e+00
      787250000    8.057245612e-01    2.864766717e-01    3.292225301e-06    3.613531590e-06    0.000000000e+00    0.000000000e+00    0.000000000e+00    0.000000000e+00
      794500000    8.378442526e-01    1.925330311e-01   -1.822318882e-05    5.502253771e-05    0.000000000e+00    0.000000000e+00    0.000000000e+00    0.000000000e+00
      801750000    8.603454828e-01    9.401046485e-02   -2.773292363e-05   -2.167280763e-05    0.000000000e+00    0.000000000e+00    0.000000000e+00    0.000000000e+00
      809000000    8.738315105e-01   -6.601097062e-03    1.741666347e-05   -3.945082426e-06    0.000000000e+00    0.000000000e+00    0.000000000e+00    0.000000000e+00
      816250000    8.764901757e-01   -1.082678437e-01   -4.665646702e-05   -1.159962267e-05    0.000000000e+00    0.000000000e+00    0.000000000e+00    0.000000000e+00
      823500000    8.678800464e-01   -2.136577219e-01   -9.809620678e-06   -1.066084951e-05    0.000000000e+00    0.000000000e+00    0.000000000e+00    0.000000000e+00
      830750000    8.484802246e-01   -3.156062067e-01   -1.968815923e-05   -6.267800927e-06    0.000000000e+00    0.000000000e+00    0.000000000e+00    0.000000000e+00
      838000000    8.173412085e-01   -4.180456400e-01    3.882683814e-06    5.063973367e-05    0.000000000e+00    0.000000000e+00    0.000000000e+00    0.000000000e+00
      845250000    7.749431133e-01   -5.171743035e-01    4.913657904e-06   -3.019347787e-06    0.000000000e+00    0.000000000e+00    0.000000000e+00    0.000000000e+00
      852500000    7.206513882e-01   -6.124245524e-01   -6.344169378e-06    5.764886737e-07    0.000000000e+00    0.000000000e+00    0.000000000e+00    0.000000000e+00
      859750000    6.548352242e-01   -7.012830377e-01   -7.396563888e-06    9.126961231e-07    0.000000000e+00    0.000000000e+00    0.000000000e+00    0.000000000e+00
      867000000    5.755935907e-01   -7.848119140e-01    3.454089165e-05    1.238938421e-05    0.000000000e+00    0.000000000e+00    0.000000000e+00    0.000000000e+00
      874250000    4.882915318e-01   -8.575169444e-01   -3.726314753e-05    2.420693636e-05    0.000000000e+00    0.000000000e+00    0.000000000e+00    0.000000000e+00
      881500000    3.888888955e-01   -9.213638306e-01   -4.543922842e-06    2.190656960e-05    0.000000000e+00    0.000000000e+00    0.000000000e+00    0.000000000e+00
      888750000    2.833316624e-01   -9.710406065e-01   -2.943258733e-05   -4.482269287e-05    0.000000000e+00    0.000000000e+00    0.000000000e+00    0.000000000e+00
      896000000    1.698478460e-01   -1.008024693e+00   -9.158626199e-06   -4.579313099e-06    0.000000000e+00    0.000000000e+00    0.000000000e+00    0.000000000e+00
      903250000    5.027021095e-02   -1.028913856e+00   -8.018687367e-07   -1.421105117e-05    0.000000000e+00    0.000000000e+00    0.000000000e+00    0.000000000e+00
      910500000   -7.264026254e-02   -1.034771800e+00   -2.405606210e-06    3.411620855e-05    0.000000000e+00    0.000000000e+00    0.000000000e+00    0.000000000e+00
      917750000   -1.928117424e-01   -1.023016095e+00   -1.218263060e-05    6.727315485e-05    0.000000000e+00    0.000000000e+00    0.000000000e+00    0.000000000e+00
      925000000   -3.116878271e-01   -9.962839484e-01    7.514841855e-06    4.380010068e-05    0.000000000e+00    0.000000000e+00    0.000000000e+00    0.000000000e+00
      932250000   -4.279527068e-01   -9.512017369e-01    2.948194742e-05    1.014862210e-05    0.000000000e+00    0.000000000e+00    0.000000000e+00    0.000000000e+00
      939500000   -5.331186056e-01   -8.930730224e-01    3.432855010e-05    8.894130588e-06    0.000000000e+00    0.000000000e+00    0.000000000e+00    0.000000000e+00
      946750000   -6.285028458e-01   -8.225052357e-01   -2.708472311e-05   -2.169888467e-05    0.000000000e+00    0.000000000e+00    0.000000000e+00    0.000000000e+00
      954000000   -7.139450312e-01   -7.385655642e-01    2.063438296e-05   -1.382082701e-06    0.000000000e+00    0.000000000e+00    0.000000000e+00    0.000000000e+00
      961250000   -7.857776880e-01   -6.458936334e-01    2.535246313e-05    2.430565655e-05    0.000000000e+00    0.000000000e+00    0.000000000e+00    0.000000000e+00
      968500000   -8.442261815e-01   -5.464311838e-01    5.447212607e-05   -2.072192729e-05    0.000000000e+00    0.000000000e+00    0.000000000e+00    0.000000000e+00
      975750000   -8.877560496e-01   -4.429239929e-01    2.139713615e-05   -1.384969801e-05    0.000000000e+00    0.000000000e+00    0.000000000e+00    0.000000000e+00
      983000000   -9.170244336e-01   -3.368702233e-01    3.868341446e-05    3.779586405e-05    0.000000000e+00    0.000000000e+00    0.000000000e+00    0.000000000e+00
      990250000   -9.325670600e-01   -2.300655991e-01    3.069918603e-05    2.948287874e-05    0.000000000e+00    0.000000000e+00    0.000000000e+00    0.000000000e+00
      997500000   -9.350765347e-01   -1.241054535e-01   -2.044811845e-05    1.769792289e-05    0.000000000e+00    0.000000000e+00    0.000000000e+00    0.000000000e+00
     1004750000   -9.253152609e-01   -2.251767181e-02    5.924142897e-06   -1.280196011e-05    0.000000000e+00    0.000000000e+00    0.000000000e+00    0.000000000e+00
     1012000000   -9.051809311e-01    7.546100765e-02    8.190050721e-06   -2.258084714e-05    0.000000000e+00    0.000000000e+00    0.000000000e+00    0.000000000e+00
     1019250000   -8.742107749e-01    1.674901843e-01    6.764382124e-05   -1.449696720e-05    0.000000000e+00    0.000000000e+00    0.000000000e+00    0.000000000e+00
     1026500000   -8.344244361e-01    2.538053393e-01    2.166256309e-06    3.075692803e-05    0.000000000e+00    0.000000000e+00    0.000000000e+00    0.000000000e+00
     1033750000   -7.863785625e-01    3.346099854e-01   -5.829147995e-06   -2.259481698e-05    0.000000000e+00    0.000000000e+00    0.000000000e+00    0.000000000e+00
     1041000000   -7.335087657e-01    4.055974185e-01   -6.425194442e-05   -1.527275890e-05    0.000000000e+00    0.000000000e+00    0.000000000e+00    0.000000000e+00
