! NanoVNA-App by OneOfEleven et al v1.1.209 (+OD15) 
! Date: 2024-07-30 15:20:46
! Start: 200MHz Stop: 6GHz Points: 801
! S-Parameter data: F S11 S21 S12 S22
# Hz S RI R 50
!     Frequency           S11_Real           S11_Imag           S21_Real           S21_Imag           S12_Real           S12_Imag           S22_Real           S22_Imag
      200000000   -9.985160232e-01   -1.090359688e-01    1.045223325e-05    7.580034435e-06    0.000000000e+00    0.000000000e+00    0.000000000e+00    0.000000000e+00
      207250000   -1.009528399e+00   -9.303066880e-03   -1.939665526e-05   -2.974644303e-06    0.000000000e+00    0.000000000e+00    0.000000000e+00    0.000000000e+00
      214500000   -1.010166883e+00    9.196717292e-02   -2.220645547e-05   -6.857328117e-06    0.000000000e+00    0.000000000e+00    0.000000000e+00    0.000000000e+00
      221750000   -9.997159839e-01    1.950808913e-01   -3.585591912e-06    1.392606646e-05    0.000000000e+00    0.000000000e+00    0.000000000e+00    0.000000000e+00
      229000000   -9.783439636e-01    2.982968092e-01   -1.008342952e-05    1.304969192e-05    0.000000000e+00    0.000000000e+00    0.000000000e+00    0.000000000e+00
      236250000   -9.453316331e-01    4.011321366e-01   -5.325581878e-05   -1.315586269e-05    0.000000000e+00    0.000000000e+00    0.000000000e+00    0.000000000e+00
      243500000   -9.001473188e-01    5.004549026e-01    8.275732398e-06    3.157183528e-07    0.000000000e+00    0.000000000e+00    0.000000000e+00    0.000000000e+00
      250750000   -8.424567580e-01    5.967262387e-01    1.192092896e-05    4.014279693e-05    0.000000000e+00    0.000000000e+00    0.000000000e+00    0.000000000e+00
      258000000   -7.735671997e-01    6.868155599e-01   -1.152046025e-06    7.993541658e-06    0.000000000e+00    0.000000000e+00    0.000000000e+00    0.000000000e+00
      265250000   -6.929841638e-01    7.700070739e-01   -3.132596612e-05    2.291053534e-07    0.000000000e+00    0.000000000e+00    0.000000000e+00    0.000000000e+00
      272500000   -5.994489789e-01    8.440594077e-01   -1.254118979e-05    1.869164407e-05    0.000000000e+00    0.000000000e+00    0.000000000e+00    0.000000000e+00
      279750000   -4.977190495e-01    9.069687128e-01    1.857429743e-05    6.854534149e-07    0.000000000e+00    0.000000000e+00    0.000000000e+00    0.000000000e+00
      287000000   -3.863180876e-01    9.572188854e-01    3.139860928e-05    5.968846381e-06    0.000000000e+00    0.000000000e+00    0.000000000e+00    0.000000000e+00
      294250000   -2.689089179e-01    9.934508204e-01   -2.418924123e-05    4.560686648e-06    0.000000000e+00    0.000000000e+00    0.000000000e+00    0.000000000e+00
      301500000   -1.450567693e-01    1.014214754e+00   -2.091750503e-05    1.292116940e-05    0.000000000e+00    0.000000000e+00    0.000000000e+00    0.000000000e+00
      308750000   -1.962386817e-02    1.019299626e+00    5.546957254e-06    9.583309293e-06    0.000000000e+00    0.000000000e+00    0.000000000e+00    0.000000000e+00
      316000000    1.060236990e-01    1.009506941e+00    1.664459705e-05   -3.271736205e-05    0.000000000e+00    0.000000000e+00    0.000000000e+00    0.000000000e+00
      323250000    2.299360037e-01    9.810986519e-01    1.185946167e-05    2.983026206e-06    0.000000000e+00    0.000000000e+00    0.000000000e+00    0.000000000e+00
      330500000    3.498594761e-01    9.385538101e-01    1.206155866e-05   -2.449098974e-05    0.000000000e+00    0.000000000e+00    0.000000000e+00    0.000000000e+00
      337750000    4.618151486e-01    8.808926940e-01    8.787959814e-06   -9.343028069e-06    0.000000000e+00    0.000000000e+00    0.000000000e+00    0.000000000e+00
      345000000    5.658038855e-01    8.089870811e-01   -6.640329957e-06    1.994986087e-05    0.000000000e+00    0.000000000e+00    0.000000000e+00    0.000000000e+00
      352250000    6.589288116e-01    7.251675725e-01   -1.630559564e-05   -2.215802670e-05    0.000000000e+00    0.000000000e+00    0.000000000e+00    0.000000000e+00
      359500000    7.407956123e-01    6.309121847e-01    1.258961856e-05   -2.428982407e-05    0.000000000e+00    0.000000000e+00    0.000000000e+00    0.000000000e+00
      366750000    8.094696999e-01    5.282450914e-01   -1.006480306e-05    1.670513302e-05    0.000000000e+00    0.000000000e+00    0.000000000e+00    0.000000000e+00
      374000000    8.646420836e-01    4.196176231e-01    6.917864084e-06    1.431629062e-05    0.000000000e+00    0.000000000e+00    0.000000000e+00    0.000000000e+00
      381250000    9.060553312e-01    3.058236539e-01   -3.339722753e-06   -1.688953489e-05    0.000000000e+00    0.000000000e+00    0.000000000e+00    0.000000000e+00
      388500000    9.332931638e-01    1.898359060e-01   -1.200009137e-05   -1.191440970e-05    0.000000000e+00    0.000000000e+00    0.000000000e+00    0.000000000e+00
      395750000    9.472928643e-01    7.263716310e-02    2.345908433e-05   -2.190284431e-05    0.000000000e+00    0.000000000e+00    0.000000000e+00    0.000000000e+00
      403000000    9.478911757e-01   -4.320565611e-02    1.878105104e-05   -8.198432624e-06    0.000000000e+00    0.000000000e+00    0.000000000e+00    0.000000000e+00
      410250000    9.352810979e-01   -1.587157995e-01   -8.448027074e-06   -9.835697711e-06    0.000000000e+00    0.000000000e+00    0.000000000e+00    0.000000000e+00
      417500000    9.113847613e-01   -2.690543830e-01   -1.643784344e-06    1.668930054e-05    0.000000000e+00    0.000000000e+00    0.000000000e+00    0.000000000e+00
      424750000    8.744851351e-01   -3.764093518e-01   -5.664303899e-06   -3.892928362e-06    0.000000000e+00    0.000000000e+00    0.000000000e+00    0.000000000e+00
      432000000    8.277160525e-01   -4.776262641e-01   -3.451481462e-06    4.619359970e-07    0.000000000e+00    0.000000000e+00    0.000000000e+00    0.000000000e+00
      439250000    7.711189389e-01   -5.732877851e-01    1.406017691e-05    2.872943878e-05    0.000000000e+00    0.000000000e+00    0.000000000e+00    0.000000000e+00
      446500000    7.053491473e-01   -6.607583165e-01    2.156011760e-05    2.529751509e-05    0.000000000e+00    0.000000000e+00    0.000000000e+00    0.000000000e+00
      453750000    6.302021742e-01   -7.419329882e-01   -1.307390630e-05    5.980953574e-06    0.000000000e+00    0.000000000e+00    0.000000000e+00    0.000000000e+00
      461000000    5.483207703e-01   -8.130836487e-01    3.955978900e-05   -7.279217243e-06    0.000000000e+00    0.000000000e+00    0.000000000e+00    0.000000000e+00
      468250000    4.603005648e-01   -8.755170107e-01   -1.018866897e-06    1.376681030e-05    0.000000000e+00    0.000000000e+00    0.000000000e+00    0.000000000e+00
      475500000    3.640204966e-01   -9.292183518e-01    1.116842031e-05    2.617016435e-06    0.000000000e+00    0.000000000e+00    0.000000000e+00    0.000000000e+00
      482750000    2.640958726e-01   -9.721658230e-01    1.139566302e-05    6.344169378e-06    0.000000000e+00    0.000000000e+00    0.000000000e+00    0.000000000e+00
      490000000    1.603423655e-01   -1.004431367e+00   -2.770870924e-05   -1.771375537e-05    0.000000000e+00    0.000000000e+00    0.000000000e+00    0.000000000e+00
      497250000    5.286660418e-02   -1.026100636e+00    1.331511885e-05    2.060458064e-05    0.000000000e+00    0.000000000e+00    0.000000000e+00    0.000000000e+00
      504500000   -5.610455945e-02   -1.036045432e+00   -6.010755897e-06   -7.605180144e-06    0.000000000e+00    0.000000000e+00    0.000000000e+00    0.000000000e+00
      511750000   -1.676383913e-01   -1.033553839e+00    9.435229003e-06    6.970949471e-06    0.000000000e+00    0.000000000e+00    0.000000000e+00    0.000000000e+00
      519000000   -2.780535817e-01   -1.019369245e+00   -1.686066389e-05   -1.206435263e-05    0.000000000e+00    0.000000000e+00    0.000000000e+00    0.000000000e+00
      526250000   -3.868764639e-01   -9.937523007e-01    1.327134669e-06   -1.747161150e-06    0.000000000e+00    0.000000000e+00    0.000000000e+00    0.000000000e+00
      533500000   -4.930149913e-01   -9.553182721e-01    5.682930350e-06    2.375431359e-05    0.000000000e+00    0.000000000e+00    0.000000000e+00    0.000000000e+00
      540750000   -5.949710608e-01   -9.055371881e-01    2.403184772e-05   -1.613236964e-05    0.000000000e+00    0.000000000e+00    0.000000000e+00    0.000000000e+00
      548000000   -6.922304034e-01   -8.423889279e-01   -3.196299076e-06    1.444108784e-05    0.000000000e+00    0.000000000e+00    0.000000000e+00    0.000000000e+00
      555250000   -7.805838585e-01   -7.680046558e-01   -1.077074558e-05    1.157820225e-05    0.000000000e+00    0.000000000e+00    0.000000000e+00    0.000000000e+00
      562500000   -8.612540960e-01   -6.843250394e-01    2.641230822e-05    2.959556878e-05    0.000000000e+00    0.000000000e+00    0.000000000e+00    0.000000000e+00
      569750000   -9.315021634e-01   -5.908039808e-01   -1.656729728e-05   -5.257409066e-05    0.000000000e+00    0.000000000e+00    0.000000000e+00    0.000000000e+00
      577000000   -9.899995327e-01   -4.887217283e-01    6.638467312e-05   -2.878904343e-05    0.000000000e+00    0.000000000e+00    0.000000000e+00    0.000000000e+00
      584250000   -1.036888123e+00   -3.788964450e-01    4.658475518e-05   -5.140434951e-05    0.000000000e+00    0.000000000e+00    0.000000000e+00    0.000000000e+00
      591500000   -1.069836855e+00   -2.666549683e-01    2.328306437e-07   -3.023073077e-06    0.000000000e+00    0.000000000e+00    0.000000000e+00    0.000000000e+00
      598750000   -1.088650107e+00   -1.470773071e-01   -5.324371159e-06   -8.065253496e-07    0.000000000e+00    0.000000000e+00    0.000000000e+00    0.000000000e+00
      606000000   -1.092744708e+00   -2.845070139e-02    7.621943951e-06   -5.075801164e-05    0.000000000e+00    0.000000000e+00    0.000000000e+00    0.000000000e+00
      613250000   -1.082151055e+00    8.859290183e-02    5.984678864e-06   -7.690861821e-06    0.000000000e+00    0.000000000e+00    0.000000000e+00    0.000000000e+00
      620500000   -1.058154702e+00    2.049844265e-01    1.385621727e-05   -1.027900726e-05    0.000000000e+00    0.000000000e+00    0.000000000e+00    0.000000000e+00
      627750000   -1.020036578e+00    3.179757893e-01    6.902031600e-06   -4.811026156e-05    0.000000000e+00    0.000000000e+00    0.000000000e+00    0.000000000e+00
      635000000   -9.694091082e-01    4.216992855e-01   -2.492126077e-05   -8.478760719e-06    0.000000000e+00    0.000000000e+00    0.000000000e+00    0.000000000e+00
      642250000   -9.060817361e-01    5.193465352e-01   -1.685786992e-05    6.577000022e-06    0.000000000e+00    0.000000000e+00    0.000000000e+00    0.000000000e+00
      649500000   -8.325079679e-01    6.083531380e-01   -4.798173904e-05   -1.309253275e-05    0.000000000e+00    0.000000000e+00    0.000000000e+00    0.000000000e+00
      656750000   -7.493847013e-01    6.866322756e-01    1.273397356e-05    6.251037121e-06    0.000000000e+00    0.000000000e+00    0.000000000e+00    0.000000000e+00
      664000000   -6.589204669e-01    7.539826632e-01    9.052455425e-07    3.606081009e-06    0.000000000e+00    0.000000000e+00    0.000000000e+00    0.000000000e+00
      671250000   -5.633679628e-01    8.101898432e-01    3.208499402e-05   -2.611614764e-05    0.000000000e+00    0.000000000e+00    0.000000000e+00    0.000000000e+00
      678500000   -4.625613689e-01    8.542125225e-01    1.216493547e-05    1.558382064e-05    0.000000000e+00    0.000000000e+00    0.000000000e+00    0.000000000e+00
      685750000   -3.578687906e-01    8.866413832e-01    9.938143194e-06   -4.027225077e-05    0.000000000e+00    0.000000000e+00    0.000000000e+00    0.000000000e+00
      693000000   -2.528985441e-01    9.067667127e-01   -9.965151548e-06    3.105495125e-05    0.000000000e+00    0.000000000e+00    0.000000000e+00    0.000000000e+00
      700250000   -1.460456103e-01    9.155462980e-01   -1.340918243e-05    8.093193173e-06    0.000000000e+00    0.000000000e+00    0.000000000e+00    0.000000000e+00
      707500000   -4.027732834e-02    9.124767780e-01    7.623806596e-06   -1.984275877e-05    0.000000000e+00    0.000000000e+00    0.000000000e+00    0.000000000e+00
      714750000    6.268770993e-02    8.987267613e-01    1.359451562e-05   -2.331100404e-06    0.000000000e+00    0.000000000e+00    0.000000000e+00    0.000000000e+00
      722000000    1.615763307e-01    8.744604588e-01   -4.305224866e-05   -2.090819180e-06    0.000000000e+00    0.000000000e+00    0.000000000e+00    0.000000000e+00
      729250000    2.599427104e-01    8.394536972e-01    8.071772754e-06    4.212465137e-05    0.000000000e+00    0.000000000e+00    0.000000000e+00    0.000000000e+00
      736500000    3.495687842e-01    7.969098687e-01    1.087505370e-05   -1.965370029e-05    0.000000000e+00    0.000000000e+00    0.000000000e+00    0.000000000e+00
      743750000    4.354141057e-01    7.451125383e-01   -2.711080015e-06    6.048008800e-06    0.000000000e+00    0.000000000e+00    0.000000000e+00    0.000000000e+00
      751000000    5.160477757e-01    6.844641566e-01    1.729000360e-05    2.425350249e-05    0.000000000e+00    0.000000000e+00    0.000000000e+00    0.000000000e+00
      758250000    5.888901949e-01    6.172991991e-01   -9.041279554e-06    1.081544906e-05    0.000000000e+00    0.000000000e+00    0.000000000e+00    0.000000000e+00
      765500000    6.547991037e-01    5.435583591e-01   -5.331821740e-06    1.610629261e-05    0.000000000e+00    0.000000000e+00    0.000000000e+00    0.000000000e+00
      772750000    7.132930160e-01    4.633207023e-01    3.492273390e-05    1.853331923e-06    0.000000000e+00    0.000000000e+00    0.000000000e+00    0.000000000e+00
      780000000    7.628915906e-01    3.786242306e-01    1.028459519e-05    2.461858094e-05    0.000000000e+00    0.000000000e+00    0.000000000e+00    0.000000000e+00
      787250000    8.049625158e-01    2.871938348e-01    2.743955702e-05   -4.125013947e-05    0.000000000e+00    0.000000000e+00    0.000000000e+00    0.000000000e+00
      794500000    8.372956514e-01    1.930550933e-01    4.261732101e-06    3.148149699e-05    0.000000000e+00    0.000000000e+00    0.000000000e+00    0.000000000e+00
      801750000    8.611580133e-01    9.487287700e-02   -1.161079854e-05    3.387685865e-05    0.000000000e+00    0.000000000e+00    0.000000000e+00    0.000000000e+00
      809000000    8.741487265e-01   -6.470840424e-03    1.959409565e-05   -2.806540579e-05    0.000000000e+00    0.000000000e+00    0.000000000e+00    0.000000000e+00
      816250000    8.764070868e-01   -1.092434078e-01   -5.988404155e-06    6.162561476e-06    0.000000000e+00    0.000000000e+00    0.000000000e+00    0.000000000e+00
      823500000    8.685396910e-01   -2.133612335e-01    2.147350460e-05    1.763924956e-05    0.000000000e+00    0.000000000e+00    0.000000000e+00    0.000000000e+00
      830750000    8.478764296e-01   -3.160774112e-01    1.836288720e-05    5.689449608e-06    0.000000000e+00    0.000000000e+00    0.000000000e+00    0.000000000e+00
      838000000    8.172286749e-01   -4.184096456e-01    2.387072891e-05    3.436580300e-05    0.000000000e+00    0.000000000e+00    0.000000000e+00    0.000000000e+00
      845250000    7.749046087e-01   -5.167757273e-01    5.332008004e-05    2.080760896e-05    0.000000000e+00    0.000000000e+00    0.000000000e+00    0.000000000e+00
      852500000    7.198556066e-01   -6.131390333e-01    1.680664718e-05    4.404224455e-06    0.000000000e+00    0.000000000e+00    0.000000000e+00    0.000000000e+00
      859750000    6.547598243e-01   -7.013711929e-01   -5.447305739e-06   -1.728907228e-05    0.000000000e+00    0.000000000e+00    0.000000000e+00    0.000000000e+00
      867000000    5.760740638e-01   -7.854581475e-01    6.746500731e-06   -5.746260285e-06    0.000000000e+00    0.000000000e+00    0.000000000e+00    0.000000000e+00
      874250000    4.880740047e-01   -8.583170176e-01   -2.496223897e-05   -2.758949995e-05    0.000000000e+00    0.000000000e+00    0.000000000e+00    0.000000000e+00
      881500000    3.885681033e-01   -9.217127562e-01   -8.493661880e-06   -3.462657332e-05    0.000000000e+00    0.000000000e+00    0.000000000e+00    0.000000000e+00
      888750000    2.829103172e-01   -9.711811543e-01   -9.444542229e-06   -2.795271575e-05    0.000000000e+00    0.000000000e+00    0.000000000e+00    0.000000000e+00
      896000000    1.694978476e-01   -1.008045554e+00    2.796296030e-05    2.431869507e-05    0.000000000e+00    0.000000000e+00    0.000000000e+00    0.000000000e+00
      903250000    5.072075874e-02   -1.029227495e+00    3.621075302e-05   -2.507772297e-05    0.000000000e+00    0.000000000e+00    0.000000000e+00    0.000000000e+00
      910500000   -7.384186238e-02   -1.034457922e+00   -1.656822860e-05   -3.319419920e-05    0.000000000e+00    0.000000000e+00    0.000000000e+00    0.000000000e+00
      917750000   -1.932510436e-01   -1.023689151e+00    2.825446427e-05   -6.945803761e-06    0.000000000e+00    0.000000000e+00    0.000000000e+00    0.000000000e+00
      925000000   -3.128441274e-01   -9.956306815e-01   -1.721363515e-05    3.147404641e-05    0.000000000e+00    0.000000000e+00    0.000000000e+00    0.000000000e+00
      932250000   -4.268292487e-01   -9.519684911e-01   -3.784056753e-05    2.183113247e-05    0.000000000e+00    0.000000000e+00    0.000000000e+00    0.000000000e+00
      939500000   -5.328316092e-01   -8.941928744e-01   -1.174863428e-05    5.997717381e-07    0.000000000e+00    0.000000000e+00    0.000000000e+00    0.000000000e+00
      946750000   -6.300505996e-01   -8.216520548e-01    2.721697092e-05    2.058316022e-05    0.000000000e+00    0.000000000e+00    0.000000000e+00    0.000000000e+00
      954000000   -7.133350372e-01   -7.398184538e-01   -1.353584230e-05   -7.657334208e-06    0.000000000e+00    0.000000000e+00    0.000000000e+00    0.000000000e+00
      961250000   -7.858639956e-01   -6.463698149e-01    3.912486136e-06   -3.951042891e-05    0.000000000e+00    0.000000000e+00    0.000000000e+00    0.000000000e+00
      968500000   -8.437985778e-01   -5.468201041e-01   -3.274343908e-05    2.564117312e-05    0.000000000e+00    0.000000000e+00    0.000000000e+00    0.000000000e+00
      975750000   -8.872007132e-01   -4.427068532e-01   -2.240668982e-05   -3.105308861e-05    0.000000000e+00    0.000000000e+00    0.000000000e+00    0.000000000e+00
      983000000   -9.170007706e-01   -3.368606865e-01    2.274569124e-05   -3.883335739e-05    0.000000000e+00    0.000000000e+00    0.000000000e+00    0.000000000e+00
      990250000   -9.331452847e-01   -2.296270728e-01    3.384705633e-05   -2.720113844e-05    0.000000000e+00    0.000000000e+00    0.000000000e+00    0.000000000e+00
      997500000   -9.354335070e-01   -1.246341318e-01   -1.811422408e-05    1.958571374e-05    0.000000000e+00    0.000000000e+00    0.000000000e+00    0.000000000e+00
     1004750000   -9.255194068e-01   -2.141664922e-02    5.477108061e-06   -4.311092198e-06    0.000000000e+00    0.000000000e+00    0.000000000e+00    0.000000000e+00
     1012000000   -9.047951698e-01    7.562301308e-02    3.854744136e-06    9.506940842e-06    0.000000000e+00    0.000000000e+00    0.000000000e+00    0.000000000e+00
     1019250000   -8.739666343e-01    1.680402458e-01   -1.619849354e-05   -2.017617226e-05    0.000000000e+00    0.000000000e+00    0.000000000e+00    0.000000000e+00
     1026500000   -8.346490264e-01    2.547868192e-01    2.740509808e-05    1.534447074e-05    0.000000000e+00    0.000000000e+00    0.000000000e+00    0.000000000e+00
     1033750000   -7.874224186e-01    3.337120712e-01    4.703179002e-07    4.032440484e-05    0.000000000e+00    0.000000000e+00    0.000000000e+00    0.000000000e+00
     1041000000   -7.338876724e-01    4.051198363e-01    2.168025821e-05    2.855435014e-06    0.000000000e+00    0.000000000e+00    0.000000000e+00    0.000000000e+00
