! NanoVNA-App by OneOfEleven et al v1.1.209 (+OD15) 
! Date: 2024-07-30 15:21:18
! Start: 200MHz Stop: 6GHz Points: 801
! S-Parameter data: F S11 S21 S12 S22
# Hz S RI R 50
!     Frequency           S11_Real           S11_Imag           S21_Real           S21_Imag           S12_Real           S12_Imag           S22_Real           S22_Imag
      200000000   -3.605555743e-02    5.019053817e-03   -6.329799817e-06   -1.222964238e-05    0.000000000e+00    0.000000000e+00    0.000000000e+00    0.000000000e+00
      207250000   -3.699293733e-02    4.984980915e-03    5.741227142e-06   -3.804712492e-07    0.000000000e+00    0.000000000e+00    0.000000000e+00    0.000000000e+00
      214500000   -3.668279201e-02    3.470587078e-03   -1.577230069e-05    2.508594662e-05    0.000000000e+00    0.000000000e+00    0.000000000e+00    0.000000000e+00
      221750000   -3.623263910e-02    4.068939015e-03    1.959944484e-06   -1.641939775e-06    0.000000000e+00    0.000000000e+00    0.000000000e+00    0.000000000e+00
      229000000   -3.643359989e-02    4.605609458e-03   -9.399366718e-06   -1.688494376e-05    0.000000000e+00    0.000000000e+00    0.000000000e+00    0.000000000e+00
      236250000   -3.710362688e-02    5.080891307e-03    3.202482912e-05    9.533108823e-06    0.000000000e+00    0.000000000e+00    0.000000000e+00    0.000000000e+00
      243500000   -3.780958429e-02    6.817894056e-03   -1.713920210e-05    2.435720489e-06    0.000000000e+00    0.000000000e+00    0.000000000e+00    0.000000000e+00
      250750000   -3.632140160e-02    6.323743612e-03    5.416713066e-06   -9.927716746e-06    0.000000000e+00    0.000000000e+00    0.000000000e+00    0.000000000e+00
      258000000   -3.720442206e-02    6.447658408e-03    2.246823169e-05   -1.986631332e-06    0.000000000e+00    0.000000000e+00    0.000000000e+00    0.000000000e+00
      265250000   -3.660460189e-02    6.631804630e-03   -1.356659368e-06   -1.998818152e-05    0.000000000e+00    0.000000000e+00    0.000000000e+00    0.000000000e+00
      272500000   -3.677909821e-02    7.113002241e-03    2.397543426e-07   -1.822864942e-05    0.000000000e+00    0.000000000e+00    0.000000000e+00    0.000000000e+00
      279750000   -3.610732779e-02    6.770223845e-03   -3.199306207e-07   -4.195649672e-05    0.000000000e+00    0.000000000e+00    0.000000000e+00    0.000000000e+00
      287000000   -3.661046550e-02    6.066647824e-03   -4.278823690e-05   -1.534449802e-05    0.000000000e+00    0.000000000e+00    0.000000000e+00    0.000000000e+00
      294250000   -3.681663796e-02    6.597683299e-03   -3.845496394e-05   -6.809762453e-06    0.000000000e+00    0.000000000e+00    0.000000000e+00    0.000000000e+00
      301500000   -3.651340678e-02    5.780102219e-03   -1.949792568e-05   -5.190784123e-06    0.000000000e+00    0.000000000e+00    0.000000000e+00    0.000000000e+00
      308750000   -3.552927449e-02    6.193634588e-03   -9.781007975e-06   -9.532071999e-06    0.000000000e+00    0.000000000e+00    0.000000000e+00    0.000000000e+00
      316000000   -3.599625081e-02    6.423142273e-03    1.657549001e-05   -2.016545841e-05    0.000000000e+00    0.000000000e+00    0.000000000e+00    0.000000000e+00
      323250000   -3.603887185e-02    6.747582927e-03   -2.968429362e-05    3.599532420e-06    0.000000000e+00    0.000000000e+00    0.000000000e+00    0.000000000e+00
      330500000   -3.531499207e-02    6.995678879e-03   -4.378275844e-05   -2.566841613e-05    0.000000000e+00    0.000000000e+00    0.000000000e+00    0.000000000e+00
      337750000   -3.584782034e-02    6.264157128e-03    9.200450222e-06    4.043651813e-07    0.000000000e+00    0.000000000e+00    0.000000000e+00    0.000000000e+00
      345000000   -3.460424393e-02    6.570209283e-03   -3.180536805e-05    9.344995306e-06    0.000000000e+00    0.000000000e+00    0.000000000e+00    0.000000000e+00
      352250000   -3.583713621e-02    7.829695940e-03   -6.213621964e-05    2.599569234e-05    0.000000000e+00    0.000000000e+00    0.000000000e+00    0.000000000e+00
      359500000   -3.595136479e-02    7.097440772e-03    2.257526467e-05   -2.471719426e-06    0.000000000e+00    0.000000000e+00    0.000000000e+00    0.000000000e+00
      366750000   -3.618817031e-02    7.811134681e-03   -6.609473985e-06   -1.864403430e-06    0.000000000e+00    0.000000000e+00    0.000000000e+00    0.000000000e+00
      374000000   -3.522248194e-02    7.591994945e-03   -1.392906415e-05    4.334847745e-06    0.000000000e+00    0.000000000e+00    0.000000000e+00    0.000000000e+00
      381250000   -3.439924121e-02    7.968566380e-03   -2.694625982e-05   -7.065589671e-06    0.000000000e+00    0.000000000e+00    0.000000000e+00    0.000000000e+00
      388500000   -3.560161591e-02    7.893157192e-03    2.426363062e-05    4.662589959e-07    0.000000000e+00    0.000000000e+00    0.000000000e+00    0.000000000e+00
      395750000   -3.545068204e-02    7.901294157e-03    1.227319990e-05    2.305914859e-05    0.000000000e+00    0.000000000e+00    0.000000000e+00    0.000000000e+00
      403000000   -3.558709845e-02    8.177307434e-03   -2.476681402e-05   -1.473267912e-05    0.000000000e+00    0.000000000e+00    0.000000000e+00    0.000000000e+00
      410250000   -3.549098223e-02    8.274293505e-03    2.013897756e-05    7.415495020e-06    0.000000000e+00    0.000000000e+00    0.000000000e+00    0.000000000e+00
      417500000   -3.549204767e-02    9.011180140e-03    1.623771459e-05    1.116404110e-05    0.000000000e+00    0.000000000e+00    0.000000000e+00    0.000000000e+00
      424750000   -3.475986049e-02    8.619931526e-03    3.618952906e-05   -8.426049135e-06    0.000000000e+00    0.000000000e+00    0.000000000e+00    0.000000000e+00
      432000000   -3.570402041e-02    9.430725127e-03   -3.250622831e-05    2.715942856e-06    0.000000000e+00    0.000000000e+00    0.000000000e+00    0.000000000e+00
      439250000   -3.546257317e-02    9.409281425e-03   -1.002758927e-05    1.590830470e-05    0.000000000e+00    0.000000000e+00    0.000000000e+00    0.000000000e+00
      446500000   -3.514082730e-02    9.389621206e-03    3.790410483e-05   -1.078151490e-05    0.000000000e+00    0.000000000e+00    0.000000000e+00    0.000000000e+00
      453750000   -3.497343510e-02    9.382844903e-03    8.002208460e-07   -2.732813118e-05    0.000000000e+00    0.000000000e+00    0.000000000e+00    0.000000000e+00
      461000000   -3.611209616e-02    9.626069106e-03    1.738850733e-05    2.177525494e-05    0.000000000e+00    0.000000000e+00    0.000000000e+00    0.000000000e+00
      468250000   -3.533923253e-02    9.338399395e-03    4.350753807e-05    3.179899795e-05    0.000000000e+00    0.000000000e+00    0.000000000e+00    0.000000000e+00
      475500000   -3.486502171e-02    1.018192247e-02   -1.591100408e-05    4.162317782e-05    0.000000000e+00    0.000000000e+00    0.000000000e+00    0.000000000e+00
      482750000   -3.432910517e-02    1.036835648e-02   -3.708956001e-06   -3.796365854e-05    0.000000000e+00    0.000000000e+00    0.000000000e+00    0.000000000e+00
      490000000   -3.515766561e-02    9.846805595e-03    2.572012590e-06   -9.424213204e-06    0.000000000e+00    0.000000000e+00    0.000000000e+00    0.000000000e+00
      497250000   -3.458542377e-02    9.329969063e-03   -2.619129191e-05   -1.672078042e-06    0.000000000e+00    0.000000000e+00    0.000000000e+00    0.000000000e+00
      504500000   -3.481307253e-02    1.022463012e-02    4.913484008e-05   -4.594519396e-06    0.000000000e+00    0.000000000e+00    0.000000000e+00    0.000000000e+00
      511750000   -3.474393860e-02    1.035937574e-02    5.867906111e-06    1.005833838e-05    0.000000000e+00    0.000000000e+00    0.000000000e+00    0.000000000e+00
      519000000   -3.451064229e-02    1.099254750e-02   -2.023576963e-05    1.766424248e-05    0.000000000e+00    0.000000000e+00    0.000000000e+00    0.000000000e+00
      526250000   -3.459007666e-02    1.097343303e-02    1.213363066e-05    2.535306157e-05    0.000000000e+00    0.000000000e+00    0.000000000e+00    0.000000000e+00
      533500000   -3.401083872e-02    1.129829045e-02    3.811538045e-05    7.461967016e-06    0.000000000e+00    0.000000000e+00    0.000000000e+00    0.000000000e+00
      540750000   -3.452043608e-02    1.152012683e-02   -8.584323950e-06    1.343947952e-05    0.000000000e+00    0.000000000e+00    0.000000000e+00    0.000000000e+00
      548000000   -3.437168524e-02    1.151366904e-02   -1.450687932e-06    1.305175192e-05    0.000000000e+00    0.000000000e+00    0.000000000e+00    0.000000000e+00
      555250000   -3.394096345e-02    1.132374350e-02    1.954652816e-06   -3.139685759e-06    0.000000000e+00    0.000000000e+00    0.000000000e+00    0.000000000e+00
      562500000   -3.515563905e-02    1.128368545e-02   -2.057163329e-05   -6.501906228e-06    0.000000000e+00    0.000000000e+00    0.000000000e+00    0.000000000e+00
      569750000   -3.462219983e-02    1.164648402e-02    2.593904355e-06    6.129813301e-06    0.000000000e+00    0.000000000e+00    0.000000000e+00    0.000000000e+00
      577000000   -3.525116667e-02    1.189046726e-02   -8.196707313e-06    2.982348860e-06    0.000000000e+00    0.000000000e+00    0.000000000e+00    0.000000000e+00
      584250000   -3.322999179e-02    1.140433364e-02   -9.534763194e-06   -2.431656139e-05    0.000000000e+00    0.000000000e+00    0.000000000e+00    0.000000000e+00
      591500000   -3.384691477e-02    1.220678259e-02    1.819758108e-05    3.072794789e-05    0.000000000e+00    0.000000000e+00    0.000000000e+00    0.000000000e+00
      598750000   -3.428139165e-02    1.180365216e-02   -6.272491009e-05   -1.361376690e-05    0.000000000e+00    0.000000000e+00    0.000000000e+00    0.000000000e+00
      606000000   -3.445186466e-02    1.186573226e-02    3.685472257e-05    1.161942691e-06    0.000000000e+00    0.000000000e+00    0.000000000e+00    0.000000000e+00
      613250000   -3.429396451e-02    1.169588696e-02   -4.224698932e-05   -1.404410887e-05    0.000000000e+00    0.000000000e+00    0.000000000e+00    0.000000000e+00
      620500000   -3.395233303e-02    1.252268255e-02   -8.351754332e-06   -1.436638286e-05    0.000000000e+00    0.000000000e+00    0.000000000e+00    0.000000000e+00
      627750000   -3.286261111e-02    1.290591341e-02    4.930346040e-05    2.304145164e-05    0.000000000e+00    0.000000000e+00    0.000000000e+00    0.000000000e+00
      635000000   -3.385494649e-02    1.293770503e-02   -3.256930722e-05    3.459340587e-05    0.000000000e+00    0.000000000e+00    0.000000000e+00    0.000000000e+00
      642250000   -3.257945925e-02    1.244351361e-02   -2.395609226e-05    8.814145076e-06    0.000000000e+00    0.000000000e+00    0.000000000e+00    0.000000000e+00
      649500000   -3.382034600e-02    1.253947243e-02    1.299965425e-05    3.639572969e-05    0.000000000e+00    0.000000000e+00    0.000000000e+00    0.000000000e+00
      656750000   -3.373749554e-02    1.298978273e-02    1.048078047e-05    3.801558341e-05    0.000000000e+00    0.000000000e+00    0.000000000e+00    0.000000000e+00
      664000000   -3.318792582e-02    1.235227659e-02   -4.178903328e-05   -2.307253635e-05    0.000000000e+00    0.000000000e+00    0.000000000e+00    0.000000000e+00
      671250000   -3.258892149e-02    1.311554108e-02   -5.682523624e-05    1.089059060e-05    0.000000000e+00    0.000000000e+00    0.000000000e+00    0.000000000e+00
      678500000   -3.336297348e-02    1.252035424e-02    1.720638284e-05   -2.804249198e-05    0.000000000e+00    0.000000000e+00    0.000000000e+00    0.000000000e+00
      685750000   -3.269735351e-02    1.292476431e-02    7.607889074e-06   -2.204986913e-06    0.000000000e+00    0.000000000e+00    0.000000000e+00    0.000000000e+00
      693000000   -3.313138336e-02    1.256734133e-02    1.616120426e-05    1.704748138e-05    0.000000000e+00    0.000000000e+00    0.000000000e+00    0.000000000e+00
      700250000   -3.269135579e-02    1.326852478e-02   -9.012492228e-06    3.350920224e-06    0.000000000e+00    0.000000000e+00    0.000000000e+00    0.000000000e+00
      707500000   -3.275372088e-02    1.391589642e-02    2.751673310e-05    5.985300959e-06    0.000000000e+00    0.000000000e+00    0.000000000e+00    0.000000000e+00
      714750000   -3.358101100e-02    1.322952937e-02   -1.299398446e-05    1.524456820e-06    0.000000000e+00    0.000000000e+00    0.000000000e+00    0.000000000e+00
      722000000   -3.117783926e-02    1.357217971e-02    2.575901999e-05    1.877355317e-05    0.000000000e+00    0.000000000e+00    0.000000000e+00    0.000000000e+00
      729250000   -3.266293183e-02    1.374716777e-02    4.325001282e-05   -8.833386346e-06    0.000000000e+00    0.000000000e+00    0.000000000e+00    0.000000000e+00
      736500000   -3.238150850e-02    1.375772431e-02   -2.686239350e-05   -1.822195372e-05    0.000000000e+00    0.000000000e+00    0.000000000e+00    0.000000000e+00
      743750000   -3.212573379e-02    1.365069766e-02    2.050143848e-05    3.500117964e-05    0.000000000e+00    0.000000000e+00    0.000000000e+00    0.000000000e+00
      751000000   -3.196973726e-02    1.421577390e-02    2.561579458e-05   -2.035101033e-06    0.000000000e+00    0.000000000e+00    0.000000000e+00    0.000000000e+00
      758250000   -3.256372362e-02    1.392656099e-02    4.242481737e-05   -3.235345866e-05    0.000000000e+00    0.000000000e+00    0.000000000e+00    0.000000000e+00
      765500000   -3.119184449e-02    1.410505548e-02    4.960692240e-05    6.904773909e-05    0.000000000e+00    0.000000000e+00    0.000000000e+00    0.000000000e+00
      772750000   -3.226888180e-02    1.441174001e-02    3.823889347e-05   -3.082845797e-05    0.000000000e+00    0.000000000e+00    0.000000000e+00    0.000000000e+00
      780000000   -3.219307587e-02    1.487318892e-02    3.636243855e-05   -6.097783626e-06    0.000000000e+00    0.000000000e+00    0.000000000e+00    0.000000000e+00
      787250000   -3.161443397e-02    1.464352012e-02   -3.273292532e-05    1.096874985e-05    0.000000000e+00    0.000000000e+00    0.000000000e+00    0.000000000e+00
      794500000   -3.101280145e-02    1.412200648e-02   -8.445680578e-06    2.247816701e-05    0.000000000e+00    0.000000000e+00    0.000000000e+00    0.000000000e+00
      801750000   -3.228285909e-02    1.495626196e-02   -5.346925172e-05    2.754493835e-05    0.000000000e+00    0.000000000e+00    0.000000000e+00    0.000000000e+00
      809000000   -3.104391694e-02    1.475692354e-02    9.743183000e-06    1.314364545e-05    0.000000000e+00    0.000000000e+00    0.000000000e+00    0.000000000e+00
      816250000   -3.095426969e-02    1.512364484e-02   -5.833926025e-06   -4.783792065e-06    0.000000000e+00    0.000000000e+00    0.000000000e+00    0.000000000e+00
      823500000   -3.159607202e-02    1.525225211e-02   -1.851731031e-05   -1.558939402e-05    0.000000000e+00    0.000000000e+00    0.000000000e+00    0.000000000e+00
      830750000   -3.118572570e-02    1.500617899e-02   -1.434448131e-05    2.359653990e-05    0.000000000e+00    0.000000000e+00    0.000000000e+00    0.000000000e+00
      838000000   -3.100981005e-02    1.501274668e-02   -3.004591781e-05   -1.206016350e-05    0.000000000e+00    0.000000000e+00    0.000000000e+00    0.000000000e+00
      845250000   -3.106949106e-02    1.542373467e-02   -4.061083746e-05    9.830318049e-06    0.000000000e+00    0.000000000e+00    0.000000000e+00    0.000000000e+00
      852500000   -3.113927133e-02    1.553769875e-02   -8.310515113e-06    4.531662853e-06    0.000000000e+00    0.000000000e+00    0.000000000e+00    0.000000000e+00
      859750000   -3.103922307e-02    1.540879998e-02   -2.626514288e-06    2.939176375e-05    0.000000000e+00    0.000000000e+00    0.000000000e+00    0.000000000e+00
      867000000   -3.007210419e-02    1.576449350e-02   -1.930390135e-05   -2.326005779e-05    0.000000000e+00    0.000000000e+00    0.000000000e+00    0.000000000e+00
      874250000   -3.002147004e-02    1.593824849e-02    2.664469548e-06   -2.686224252e-05    0.000000000e+00    0.000000000e+00    0.000000000e+00    0.000000000e+00
      881500000   -3.089921921e-02    1.579504274e-02    3.173389996e-05    1.174516001e-05    0.000000000e+00    0.000000000e+00    0.000000000e+00    0.000000000e+00
      888750000   -3.014430217e-02    1.634020731e-02    6.088656846e-06   -4.717086085e-06    0.000000000e+00    0.000000000e+00    0.000000000e+00    0.000000000e+00
      896000000   -3.083719499e-02    1.631631143e-02   -4.040771091e-05    8.700706530e-05    0.000000000e+00    0.000000000e+00    0.000000000e+00    0.000000000e+00
      903250000   -3.006286174e-02    1.649170741e-02   -2.173408575e-05    6.841255981e-06    0.000000000e+00    0.000000000e+00    0.000000000e+00    0.000000000e+00
      910500000   -3.003074974e-02    1.639472134e-02   -7.380219358e-06    1.940235961e-06    0.000000000e+00    0.000000000e+00    0.000000000e+00    0.000000000e+00
      917750000   -2.995937690e-02    1.620899700e-02    1.978256478e-05   -3.458970468e-06    0.000000000e+00    0.000000000e+00    0.000000000e+00    0.000000000e+00
      925000000   -3.135706857e-02    1.615179516e-02   -3.089029633e-06   -3.306497820e-05    0.000000000e+00    0.000000000e+00    0.000000000e+00    0.000000000e+00
      932250000   -2.970340103e-02    1.645803265e-02    2.398345896e-05   -4.556242402e-06    0.000000000e+00    0.000000000e+00    0.000000000e+00    0.000000000e+00
      939500000   -3.035326116e-02    1.647600532e-02    1.170052201e-05    1.145922965e-06    0.000000000e+00    0.000000000e+00    0.000000000e+00    0.000000000e+00
      946750000   -3.101664595e-02    1.647044346e-02   -4.901292778e-05   -3.999369710e-06    0.000000000e+00    0.000000000e+00    0.000000000e+00    0.000000000e+00
      954000000   -2.951966785e-02    1.654586941e-02   -2.019667954e-05   -2.347334703e-05    0.000000000e+00    0.000000000e+00    0.000000000e+00    0.000000000e+00
      961250000   -3.034702130e-02    1.679679193e-02   -9.573603165e-06    3.491611278e-05    0.000000000e+00    0.000000000e+00    0.000000000e+00    0.000000000e+00
      968500000   -2.998974547e-02    1.714307070e-02   -1.615027395e-05    1.046065609e-05    0.000000000e+00    0.000000000e+00    0.000000000e+00    0.000000000e+00
      975750000   -3.056589328e-02    1.735847257e-02   -1.942995004e-05    1.650203012e-05    0.000000000e+00    0.000000000e+00    0.000000000e+00    0.000000000e+00
      983000000   -2.907437459e-02    1.736271940e-02   -1.354257256e-05   -1.043132579e-05    0.000000000e+00    0.000000000e+00    0.000000000e+00    0.000000000e+00
      990250000   -2.959780395e-02    1.730225421e-02   -2.490484803e-06    1.170204087e-06    0.000000000e+00    0.000000000e+00    0.000000000e+00    0.000000000e+00
      997500000   -2.973539941e-02    1.751360297e-02   -1.118141790e-05    4.662124047e-05    0.000000000e+00    0.000000000e+00    0.000000000e+00    0.000000000e+00
     1004750000   -2.906037308e-02    1.729688607e-02   -2.479015393e-06    1.562816215e-05    0.000000000e+00    0.000000000e+00    0.000000000e+00    0.000000000e+00
     1012000000   -2.989226393e-02    1.737499610e-02    1.256737232e-05   -1.191797128e-05    0.000000000e+00    0.000000000e+00    0.000000000e+00    0.000000000e+00
     1019250000   -2.966745570e-02    1.741255075e-02   -2.538893568e-05   -4.228476973e-05    0.000000000e+00    0.000000000e+00    0.000000000e+00    0.000000000e+00
     1026500000   -2.912163176e-02    1.780474931e-02   -1.667519609e-05    1.224762764e-05    0.000000000e+00    0.000000000e+00    0.000000000e+00    0.000000000e+00
     1033750000   -2.997362241e-02    1.771334745e-02   -7.195312719e-06   -4.350837480e-05    0.000000000e+00    0.000000000e+00    0.000000000e+00    0.000000000e+00
     1041000000   -2.928535081e-02    1.803375222e-02    3.969137470e-05    1.542971222e-05    0.000000000e+00    0.000000000e+00    0.000000000e+00    0.000000000e+00
