! NanoVNA-App by OneOfEleven et al v1.1.209 (+OD15) 
! Date: 2024-07-30 15:14:22
! Start: 200MHz Stop: 6GHz Points: 801
! S-Parameter data: F S11 S21 S12 S22
# Hz S RI R 50
!     Frequency           S11_Real           S11_Imag           S21_Real           S21_Imag           S12_Real           S12_Imag           S22_Real           S22_Imag
      200000000   -3.260226513e-04   -5.778713239e-05   -1.252074753e-06   -3.092296902e-05    0.000000000e+00    0.000000000e+00    0.000000000e+00    0.000000000e+00
      207250000   -9.191975696e-04   -3.843150334e-04    2.058259815e-05   -2.515175038e-05    0.000000000e+00    0.000000000e+00    0.000000000e+00    0.000000000e+00
      214500000   -9.608828113e-04    9.863575688e-04    4.853481641e-06   -4.542238457e-05    0.000000000e+00    0.000000000e+00    0.000000000e+00    0.000000000e+00
      221750000    5.693049752e-05    4.748250358e-04    1.401545160e-05    4.215232184e-05    0.000000000e+00    0.000000000e+00    0.000000000e+00    0.000000000e+00
      229000000   -2.962766739e-04   -5.678944290e-04    1.206757497e-05   -8.377353879e-06    0.000000000e+00    0.000000000e+00    0.000000000e+00    0.000000000e+00
      236250000   -1.770501840e-03    2.088573965e-04   -1.706893272e-05   -4.094056203e-05    0.000000000e+00    0.000000000e+00    0.000000000e+00    0.000000000e+00
      243500000   -9.273244068e-04    4.005399824e-04    2.541024151e-05    2.201696770e-05    0.000000000e+00    0.000000000e+00    0.000000000e+00    0.000000000e+00
      250750000   -1.150107943e-03    1.134001534e-03    3.577306131e-07   -2.474722169e-05    0.000000000e+00    0.000000000e+00    0.000000000e+00    0.000000000e+00
      258000000   -1.502828323e-03    1.630625571e-03   -3.742003173e-05    6.434735951e-06    0.000000000e+00    0.000000000e+00    0.000000000e+00    0.000000000e+00
      265250000   -1.002643607e-03    2.831726451e-04    4.176698951e-07   -3.962511255e-05    0.000000000e+00    0.000000000e+00    0.000000000e+00    0.000000000e+00
      272500000   -8.380670915e-04    1.577981864e-03    1.060730756e-05    4.735853054e-06    0.000000000e+00    0.000000000e+00    0.000000000e+00    0.000000000e+00
      279750000   -1.416560495e-03   -2.076439996e-04    8.480103133e-06   -1.107368644e-05    0.000000000e+00    0.000000000e+00    0.000000000e+00    0.000000000e+00
      287000000   -3.107130469e-04    4.129484005e-04   -3.221114457e-05   -1.603261626e-05    0.000000000e+00    0.000000000e+00    0.000000000e+00    0.000000000e+00
      294250000   -5.980186979e-04   -2.212165127e-04   -1.057494046e-05   -5.638285074e-06    0.000000000e+00    0.000000000e+00    0.000000000e+00    0.000000000e+00
      301500000   -3.108108067e-04    4.736735427e-04   -9.081799362e-06   -1.991233148e-05    0.000000000e+00    0.000000000e+00    0.000000000e+00    0.000000000e+00
      308750000   -1.226916094e-03   -3.764127032e-04    2.156919982e-05   -4.956546945e-06    0.000000000e+00    0.000000000e+00    0.000000000e+00    0.000000000e+00
      316000000   -9.880104335e-04    5.237736041e-04   -4.236977475e-05    2.726316961e-05    0.000000000e+00    0.000000000e+00    0.000000000e+00    0.000000000e+00
      323250000   -3.622519434e-04    4.203989811e-04   -3.653801468e-05    2.061575469e-05    0.000000000e+00    0.000000000e+00    0.000000000e+00    0.000000000e+00
      330500000   -6.092775729e-04   -3.366841120e-04    7.521809948e-06    2.241465154e-06    0.000000000e+00    0.000000000e+00    0.000000000e+00    0.000000000e+00
      337750000   -1.431848272e-03   -7.797516446e-05    5.151582809e-05   -2.918507926e-05    0.000000000e+00    0.000000000e+00    0.000000000e+00    0.000000000e+00
      345000000    6.253160245e-05   -9.041862795e-04   -3.933986591e-05   -2.202021096e-05    0.000000000e+00    0.000000000e+00    0.000000000e+00    0.000000000e+00
      352250000   -1.607655198e-03    5.285799270e-04   -6.650426712e-06    1.723720015e-05    0.000000000e+00    0.000000000e+00    0.000000000e+00    0.000000000e+00
      359500000   -1.987470750e-04   -8.057432133e-04   -3.895878035e-05   -1.973090184e-05    0.000000000e+00    0.000000000e+00    0.000000000e+00    0.000000000e+00
      366750000   -6.159768673e-04    1.377363660e-04   -1.662951763e-05   -2.937940735e-05    0.000000000e+00    0.000000000e+00    0.000000000e+00    0.000000000e+00
      374000000   -1.201198553e-03   -6.977961311e-05   -8.846820492e-06    1.412776874e-05    0.000000000e+00    0.000000000e+00    0.000000000e+00    0.000000000e+00
      381250000   -6.441103178e-04    3.955177090e-04    3.136579107e-05   -6.453920832e-06    0.000000000e+00    0.000000000e+00    0.000000000e+00    0.000000000e+00
      388500000   -4.606282164e-04    5.365415564e-05    1.486651945e-05   -1.587841143e-05    0.000000000e+00    0.000000000e+00    0.000000000e+00    0.000000000e+00
      395750000   -8.531188942e-04   -3.556759839e-05    1.570968743e-05    1.760338091e-05    0.000000000e+00    0.000000000e+00    0.000000000e+00    0.000000000e+00
      403000000   -1.016235678e-03   -1.170928881e-04   -2.914397328e-06   -5.597147720e-06    0.000000000e+00    0.000000000e+00    0.000000000e+00    0.000000000e+00
      410250000   -1.418219530e-03    6.830503698e-04    1.830901965e-05    1.402323960e-05    0.000000000e+00    0.000000000e+00    0.000000000e+00    0.000000000e+00
      417500000   -6.385840825e-04    2.780049272e-06    2.003350659e-07    7.301808182e-06    0.000000000e+00    0.000000000e+00    0.000000000e+00    0.000000000e+00
      424750000   -1.015315684e-05    2.643175831e-04    5.602837700e-05   -3.726559498e-06    0.000000000e+00    0.000000000e+00    0.000000000e+00    0.000000000e+00
      432000000   -1.327647915e-04    1.004864389e-04   -5.518575108e-06    3.210108480e-05    0.000000000e+00    0.000000000e+00    0.000000000e+00    0.000000000e+00
      439250000   -1.036179718e-03    1.192882992e-04    1.878111470e-05   -2.765966747e-05    0.000000000e+00    0.000000000e+00    0.000000000e+00    0.000000000e+00
      446500000   -4.095004115e-04    3.213918244e-04    3.174131416e-05    1.565654020e-05    0.000000000e+00    0.000000000e+00    0.000000000e+00    0.000000000e+00
      453750000   -2.824249677e-04   -8.618659340e-04   -2.588248753e-05   -2.049490831e-05    0.000000000e+00    0.000000000e+00    0.000000000e+00    0.000000000e+00
      461000000   -9.038252756e-04    2.044671564e-04    1.008335585e-05    2.220175702e-05    0.000000000e+00    0.000000000e+00    0.000000000e+00    0.000000000e+00
      468250000   -1.061474322e-03    4.727608527e-09    1.769035225e-05    1.151942706e-05    0.000000000e+00    0.000000000e+00    0.000000000e+00    0.000000000e+00
      475500000   -3.918594739e-04    3.285392886e-04    2.082815445e-05    1.820394687e-06    0.000000000e+00    0.000000000e+00    0.000000000e+00    0.000000000e+00
      482750000   -6.774104550e-04    8.052918129e-04    1.054814788e-06   -1.711498953e-05    0.000000000e+00    0.000000000e+00    0.000000000e+00    0.000000000e+00
      490000000   -6.110675167e-04    1.167969367e-05   -2.079111619e-05    6.639916592e-06    0.000000000e+00    0.000000000e+00    0.000000000e+00    0.000000000e+00
      497250000   -6.332948687e-04    9.556205623e-05    2.894009231e-05   -1.997809522e-05    0.000000000e+00    0.000000000e+00    0.000000000e+00    0.000000000e+00
      504500000   -2.367888956e-04   -6.461355952e-04   -1.017151862e-05    1.141486428e-05    0.000000000e+00    0.000000000e+00    0.000000000e+00    0.000000000e+00
      511750000   -7.330309018e-04   -1.292563102e-04    8.357333172e-06    1.691003854e-05    0.000000000e+00    0.000000000e+00    0.000000000e+00    0.000000000e+00
      519000000   -4.381878534e-04   -1.082399540e-04   -2.718158976e-05    2.792269152e-05    0.000000000e+00    0.000000000e+00    0.000000000e+00    0.000000000e+00
      526250000   -8.611994563e-04    1.631019986e-04   -4.444928436e-06    1.285028065e-05    0.000000000e+00    0.000000000e+00    0.000000000e+00    0.000000000e+00
      533500000    1.129426746e-04    8.063218411e-05   -1.075469299e-05   -3.263199324e-05    0.000000000e+00    0.000000000e+00    0.000000000e+00    0.000000000e+00
      540750000   -1.164672081e-03    4.237688845e-04   -1.034728666e-05    1.155077007e-05    0.000000000e+00    0.000000000e+00    0.000000000e+00    0.000000000e+00
      548000000   -6.671101437e-04    2.817668137e-04   -1.293121386e-05    5.727868484e-06    0.000000000e+00    0.000000000e+00    0.000000000e+00    0.000000000e+00
      555250000   -7.101927768e-04   -2.707517415e-04   -3.163400834e-05   -2.683108505e-05    0.000000000e+00    0.000000000e+00    0.000000000e+00    0.000000000e+00
      562500000   -9.830831004e-06    2.658403828e-04    6.917953215e-07    8.789604180e-06    0.000000000e+00    0.000000000e+00    0.000000000e+00    0.000000000e+00
      569750000   -1.099305809e-03    4.937660415e-04    5.816419161e-06   -1.950832666e-05    0.000000000e+00    0.000000000e+00    0.000000000e+00    0.000000000e+00
      577000000    2.273280261e-04   -8.607214841e-05   -2.080502054e-05   -1.711098048e-05    0.000000000e+00    0.000000000e+00    0.000000000e+00    0.000000000e+00
      584250000   -8.120374405e-04    6.224081881e-05   -1.993875685e-06   -3.328686580e-05    0.000000000e+00    0.000000000e+00    0.000000000e+00    0.000000000e+00
      591500000   -9.180119378e-04   -3.722882248e-04    1.777650505e-05    1.774077828e-05    0.000000000e+00    0.000000000e+00    0.000000000e+00    0.000000000e+00
      598750000   -1.695690677e-03    8.897838998e-04    4.049527706e-05   -2.482814489e-05    0.000000000e+00    0.000000000e+00    0.000000000e+00    0.000000000e+00
      606000000   -8.742606151e-04    2.710249682e-04   -1.469871495e-05   -4.332898607e-05    0.000000000e+00    0.000000000e+00    0.000000000e+00    0.000000000e+00
      613250000   -1.669520861e-03    2.824614348e-04    8.368519957e-06    4.279377663e-06    0.000000000e+00    0.000000000e+00    0.000000000e+00    0.000000000e+00
      620500000   -8.434584597e-04   -1.409350170e-05   -2.117421445e-06   -1.090362821e-05    0.000000000e+00    0.000000000e+00    0.000000000e+00    0.000000000e+00
      627750000   -1.657779561e-03    8.787186380e-05   -1.547606917e-05   -4.612808334e-05    0.000000000e+00    0.000000000e+00    0.000000000e+00    0.000000000e+00
      635000000   -4.491216096e-04   -1.528030552e-04   -1.305488149e-05   -8.986254215e-06    0.000000000e+00    0.000000000e+00    0.000000000e+00    0.000000000e+00
      642250000   -7.290574140e-04    5.174667458e-04    1.272245845e-05    1.934833563e-05    0.000000000e+00    0.000000000e+00    0.000000000e+00    0.000000000e+00
      649500000   -8.562989533e-04    4.038441984e-04    1.563497244e-05    1.545685700e-05    0.000000000e+00    0.000000000e+00    0.000000000e+00    0.000000000e+00
      656750000   -9.319825913e-04   -2.728293111e-05   -1.212483858e-05   -1.990673627e-05    0.000000000e+00    0.000000000e+00    0.000000000e+00    0.000000000e+00
      664000000   -1.285443432e-03    5.835544653e-05   -2.358576467e-06   -3.261876191e-05    0.000000000e+00    0.000000000e+00    0.000000000e+00    0.000000000e+00
      671250000   -5.182842142e-04   -3.795155862e-05    9.022228369e-06   -1.596218681e-05    0.000000000e+00    0.000000000e+00    0.000000000e+00    0.000000000e+00
      678500000   -4.241516290e-04   -2.460791729e-04    1.257618010e-06   -2.560065514e-05    0.000000000e+00    0.000000000e+00    0.000000000e+00    0.000000000e+00
      685750000   -8.792422013e-04    3.038118884e-04   -3.231183655e-05   -2.539754860e-05    0.000000000e+00    0.000000000e+00    0.000000000e+00    0.000000000e+00
      693000000   -9.728197474e-04   -2.206059144e-04   -1.459373470e-05   -3.093910709e-05    0.000000000e+00    0.000000000e+00    0.000000000e+00    0.000000000e+00
      700250000   -7.251380011e-04   -2.320014173e-04   -4.407264350e-05   -5.337004495e-06    0.000000000e+00    0.000000000e+00    0.000000000e+00    0.000000000e+00
      707500000   -7.836726145e-04    2.115361422e-04    2.055155346e-05   -1.230020644e-05    0.000000000e+00    0.000000000e+00    0.000000000e+00    0.000000000e+00
      714750000   -1.833069837e-03   -5.693917410e-05   -2.346946712e-05    1.084970791e-06    0.000000000e+00    0.000000000e+00    0.000000000e+00    0.000000000e+00
      722000000   -9.276103810e-05    1.341190000e-05   -3.637086365e-07    6.311365723e-06    0.000000000e+00    0.000000000e+00    0.000000000e+00    0.000000000e+00
      729250000   -1.788305002e-03   -6.783743447e-05   -8.164166502e-06   -1.617898488e-05    0.000000000e+00    0.000000000e+00    0.000000000e+00    0.000000000e+00
      736500000   -7.596420473e-04   -1.596395014e-04    1.462267960e-06   -8.020777386e-06    0.000000000e+00    0.000000000e+00    0.000000000e+00    0.000000000e+00
      743750000   -4.134646733e-04    5.020565004e-05    2.161597149e-05   -7.353115166e-07    0.000000000e+00    0.000000000e+00    0.000000000e+00    0.000000000e+00
      751000000   -7.411845727e-04   -1.472924941e-05    1.101711860e-05    3.676629058e-05    0.000000000e+00    0.000000000e+00    0.000000000e+00    0.000000000e+00
      758250000   -1.485883142e-03   -3.451639204e-04    2.101109021e-05   -3.245250991e-05    0.000000000e+00    0.000000000e+00    0.000000000e+00    0.000000000e+00
      765500000   -8.342771907e-04    3.331960443e-06   -6.663202385e-06    1.165526828e-05    0.000000000e+00    0.000000000e+00    0.000000000e+00    0.000000000e+00
      772750000   -8.528149338e-04    1.237732213e-04    1.944712949e-06   -4.408542009e-05    0.000000000e+00    0.000000000e+00    0.000000000e+00    0.000000000e+00
      780000000   -3.520589671e-04   -1.381627808e-04   -1.666331059e-06    1.796926335e-05    0.000000000e+00    0.000000000e+00    0.000000000e+00    0.000000000e+00
      787250000   -5.562783335e-04   -1.625447912e-04   -1.795585194e-05   -2.352233423e-05    0.000000000e+00    0.000000000e+00    0.000000000e+00    0.000000000e+00
      794500000   -3.916868009e-04   -6.585564115e-04   -2.675045107e-05   -1.224800235e-05    0.000000000e+00    0.000000000e+00    0.000000000e+00    0.000000000e+00
      801750000   -1.255466836e-03   -2.425473940e-04   -9.194875020e-06    6.130438851e-05    0.000000000e+00    0.000000000e+00    0.000000000e+00    0.000000000e+00
      809000000    1.251108770e-04    2.125964966e-04    1.731205157e-05    1.393238836e-05    0.000000000e+00    0.000000000e+00    0.000000000e+00    0.000000000e+00
      816250000   -6.174580631e-05    2.511778439e-04   -4.321500001e-06    4.918782906e-06    0.000000000e+00    0.000000000e+00    0.000000000e+00    0.000000000e+00
      823500000   -1.230049646e-03    4.797577567e-04   -1.029767463e-05    1.795355274e-05    0.000000000e+00    0.000000000e+00    0.000000000e+00    0.000000000e+00
      830750000   -1.874339359e-04    5.038455129e-04   -5.336027243e-06    4.996026473e-05    0.000000000e+00    0.000000000e+00    0.000000000e+00    0.000000000e+00
      838000000   -2.424387203e-04    3.597082832e-05    5.715918178e-06   -1.957606219e-05    0.000000000e+00    0.000000000e+00    0.000000000e+00    0.000000000e+00
      845250000    3.334077337e-05    2.573652309e-04    3.205476969e-05   -4.356677437e-06    0.000000000e+00    0.000000000e+00    0.000000000e+00    0.000000000e+00
      852500000   -8.654427947e-04    1.104342082e-04    4.390394679e-05   -3.430142533e-05    0.000000000e+00    0.000000000e+00    0.000000000e+00    0.000000000e+00
      859750000   -1.551540190e-04    6.702024257e-05   -1.349957438e-05    3.126020601e-05    0.000000000e+00    0.000000000e+00    0.000000000e+00    0.000000000e+00
      867000000   -7.822344778e-04   -8.956786769e-05    1.095958851e-06    7.387976893e-06    0.000000000e+00    0.000000000e+00    0.000000000e+00    0.000000000e+00
      874250000    1.669976882e-05    2.288820251e-04    4.329891112e-07   -1.703675480e-05    0.000000000e+00    0.000000000e+00    0.000000000e+00    0.000000000e+00
      881500000   -1.048184233e-03    2.446677827e-04    3.892574023e-05   -3.818425466e-05    0.000000000e+00    0.000000000e+00    0.000000000e+00    0.000000000e+00
      888750000    4.480015486e-04   -8.315263403e-05    1.316561702e-05    1.272938243e-05    0.000000000e+00    0.000000000e+00    0.000000000e+00    0.000000000e+00
      896000000   -1.346589415e-04    1.106982672e-04   -9.741978829e-06    4.525630720e-05    0.000000000e+00    0.000000000e+00    0.000000000e+00    0.000000000e+00
      903250000   -9.528719238e-04    1.709222561e-04   -7.235976227e-05   -1.172184056e-05    0.000000000e+00    0.000000000e+00    0.000000000e+00    0.000000000e+00
      910500000   -5.501889391e-04   -8.355635509e-05    1.243397674e-05    4.518771675e-05    0.000000000e+00    0.000000000e+00    0.000000000e+00    0.000000000e+00
      917750000   -5.762442597e-04    2.223501506e-04    3.331461812e-06    2.337594742e-05    0.000000000e+00    0.000000000e+00    0.000000000e+00    0.000000000e+00
      925000000   -3.709028824e-04   -1.457563631e-04   -2.674602547e-05    5.867347227e-06    0.000000000e+00    0.000000000e+00    0.000000000e+00    0.000000000e+00
      932250000   -6.275828928e-04   -1.662794239e-04    1.555514973e-05    1.437838910e-05    0.000000000e+00    0.000000000e+00    0.000000000e+00    0.000000000e+00
      939500000   -1.182256150e-03    2.532956714e-04   -7.571610240e-06    2.252319973e-05    0.000000000e+00    0.000000000e+00    0.000000000e+00    0.000000000e+00
      946750000   -5.127746263e-04   -2.568603668e-04   -3.776086669e-05    4.139077282e-05    0.000000000e+00    0.000000000e+00    0.000000000e+00    0.000000000e+00
      954000000   -9.456933476e-04   -5.015449715e-04   -1.643581527e-05   -3.299063610e-05    0.000000000e+00    0.000000000e+00    0.000000000e+00    0.000000000e+00
      961250000   -8.915723884e-04   -8.240844909e-05   -1.857689676e-05   -1.434359638e-05    0.000000000e+00    0.000000000e+00    0.000000000e+00    0.000000000e+00
      968500000   -1.326315105e-03    1.869586704e-04   -8.244212040e-06    3.611392094e-05    0.000000000e+00    0.000000000e+00    0.000000000e+00    0.000000000e+00
      975750000   -1.710265991e-03   -3.244024629e-05   -3.577563257e-05   -6.985652021e-07    0.000000000e+00    0.000000000e+00    0.000000000e+00    0.000000000e+00
      983000000   -1.078975620e-03    3.303405829e-04   -1.309458185e-06   -2.496484012e-05    0.000000000e+00    0.000000000e+00    0.000000000e+00    0.000000000e+00
      990250000   -6.076901918e-04    3.246082633e-04   -2.221237446e-05    5.117396358e-05    0.000000000e+00    0.000000000e+00    0.000000000e+00    0.000000000e+00
      997500000   -1.174662961e-03    2.485041332e-04   -1.671541577e-05    2.465402758e-05    0.000000000e+00    0.000000000e+00    0.000000000e+00    0.000000000e+00
     1004750000   -1.059277100e-03    1.919501083e-04    9.476886589e-06   -1.772693940e-05    0.000000000e+00    0.000000000e+00    0.000000000e+00    0.000000000e+00
     1012000000   -1.185800065e-03    1.617980015e-04    3.906646725e-06    1.516499651e-05    0.000000000e+00    0.000000000e+00    0.000000000e+00    0.000000000e+00
     1019250000   -1.748984098e-03    1.290914079e-04   -1.984383198e-05   -3.320801625e-05    0.000000000e+00    0.000000000e+00    0.000000000e+00    0.000000000e+00
     1026500000   -1.260178746e-03    1.647739118e-04    1.097291806e-05    8.612407328e-06    0.000000000e+00    0.000000000e+00    0.000000000e+00    0.000000000e+00
     1033750000   -1.660837908e-03   -2.448324813e-04   -1.212569532e-05    1.852611604e-05    0.000000000e+00    0.000000000e+00    0.000000000e+00    0.000000000e+00
     1041000000   -5.658821319e-04    2.431634202e-04   -2.244256211e-05    5.281365247e-06    0.000000000e+00    0.000000000e+00    0.000000000e+00    0.000000000e+00
